hour, t(sec), V1.re, V1.im, V2.re, V2.im, V3.re, V3.im, V4.re, V4.im, I1.re, I1.im, I2.re, I2.im, I3.re, I3.im, I4.re, I4.im
1, 0.00000, 192.397, -112.46, -193.729, -110.407, 1.2213, 223.093, 5.31056E-006, -1.7065E-005, -0.748272, 0.845828, 1.10606, 0.224715, -0.358101, -1.06973, -0.00499982, 0.0162474
2, 0.00000, 192.869, -112.492, -193.969, -110.797, 1.00967, 223.476, 4.33699E-006, -1.44009E-005, -0.633555, 0.714796, 0.935405, 0.190998, -0.302072, -0.905227, -0.00411488, 0.0138339
3, 0.00000, 193.091, -112.506, -194.082, -110.98, 0.909438, 223.657, 3.86848E-006, -1.31611E-005, -0.579887, 0.653662, 0.855699, 0.175135, -0.275995, -0.828325, -0.00368489, 0.0126893
4, 0.00000, 193.212, -112.503, -194.133, -111.085, 0.846191, 223.749, 3.53296E-006, -1.27675E-005, -0.561346, 0.6324, 0.828046, 0.169728, -0.266871, -0.801699, -0.00336218, 0.0123389
5, 0.00000, 193.133, -112.493, -194.09, -111.023, 0.877745, 223.683, 3.66221E-006, -1.33188E-005, -0.584659, 0.658844, 0.862578, 0.176677, -0.278106, -0.83506, -0.00347521, 0.0128576
6, 0.00000, 192.853, -112.451, -193.927, -110.802, 0.985296, 223.444, 4.06633E-006, -1.54685E-005, -0.674952, 0.761315, 0.996366, 0.203566, -0.321661, -0.964278, -0.00381902, 0.0148657
7, 0.00000, 192.24, -112.375, -193.584, -110.313, 1.23262, 222.928, 5.09018E-006, -1.98053E-005, -0.856725, 0.968473, 1.2664, 0.257226, -0.410062, -1.22472, -0.00469924, 0.0188236
8, 0.00000, 191.578, -112.391, -193.301, -109.737, 1.57907, 222.421, 7.29325E-006, -1.96624E-005, -0.827199, 1.00886, 1.2864, 0.211381, -0.459625, -1.219, -0.00686613, 0.0184222
9, 0.00000, 194.044, -111.897, -193.981, -112.062, -0.0322669, 224.079, -5.25198E-007, -9.20815E-007, 0.343544, 0.331282, 0.11499, -0.46313, -0.458451, 0.132001, 0.000441161, 0.000767125
10, 0.00000, 195.051, -111.663, -194.234, -113.027, -0.716491, 224.743, -3.73545E-006, 6.62005E-006, 0.846671, 0.0571988, -0.374028, -0.761833, -0.472555, 0.704886, 0.00364668, -0.00687169
11, 0.00000, 199.213, -110.744, -195.324, -117.004, -3.52044, 227.533, -1.62185E-005, 3.57559E-005, 2.88872, -1.07158, -2.37511, -1.96766, -0.51487, 3.04277, 0.0174738, -0.0392802
12, 0.00000, 199.435, -110.701, -195.387, -117.214, -3.66624, 227.685, -1.68361E-005, 3.71962E-005, 2.99291, -1.13172, -2.47951, -2.02799, -0.514787, 3.16351, 0.0182234, -0.0409949
13, 0.00000, 197.866, -111.056, -194.982, -115.709, -2.6002, 226.634, -1.22188E-005, 2.65156E-005, 2.21582, -0.707605, -1.72228, -1.56605, -0.494125, 2.27563, 0.0128067, -0.0284914
14, 0.00000, 194.058, -111.839, -193.937, -112.099, -0.0832207, 224.059, -7.95703E-007, -4.42776E-007, 0.396464, 0.328866, 0.0864247, -0.507747, -0.482793, 0.179047, 0.000699977, 0.000277765
15, 0.00000, 191.912, -112.205, -193.288, -110.103, 1.27049, 222.581, 5.73811E-006, -1.61011E-005, -0.563332, 0.91643, 1.07464, 0.0292659, -0.511569, -0.94477, -0.00548008, 0.015175
16, 0.00000, 190.339, -112.375, -192.73, -108.687, 2.18447, 221.454, 1.0362E-005, -2.73015E-005, -1.18258, 1.34859, 1.75753, 0.348805, -0.575732, -1.69508, -0.00958022, 0.0249911
17, 0.00000, 189.519, -112.313, -192.308, -108.015, 2.5446, 220.79, 1.2282E-005, -3.21058E-005, -1.37699, 1.57552, 2.05063, 0.403323, -0.674685, -1.97564, -0.0112357, 0.0289053
18, 0.00000, 188.851, -112.26, -191.961, -107.465, 2.83884, 220.243, 1.32434E-005, -3.6484E-005, -1.53529, 1.76139, 2.29018, 0.447104, -0.756196, -2.20451, -0.0119391, 0.0324961
19, 0.00000, 188.587, -112.238, -191.824, -107.25, 2.95498, 220.026, 1.33093E-005, -3.81181E-005, -1.59772, 1.83498, 2.38488, 0.464217, -0.788588, -2.29488, -0.0118748, 0.0338074
20, 0.00000, 188.435, -112.224, -191.745, -107.125, 3.0217, 219.9, 1.3368E-005, -3.90409E-005, -1.63385, 1.87762, 2.43972, 0.474087, -0.807387, -2.34721, -0.0118458, 0.0345357
21, 0.00000, 188.696, -112.227, -191.863, -107.348, 2.89121, 220.105, 1.30755E-005, -3.80048E-005, -1.59157, 1.82682, 2.37478, 0.462995, -0.784648, -2.28559, -0.0116433, 0.0337733
22, 0.00000, 189.19, -112.288, -192.138, -107.745, 2.68905, 220.522, 1.28989E-005, -3.41712E-005, -1.45471, 1.66666, 2.16815, 0.424881, -0.714604, -2.08796, -0.0117346, 0.0305836
23, 0.00000, 190.129, -112.36, -192.622, -108.514, 2.27696, 221.284, 1.08524E-005, -2.85389E-005, -1.23254, 1.40675, 1.83272, 0.362889, -0.601038, -1.76711, -0.0100002, 0.0260072
24, 0.00000, 191.232, -112.441, -193.189, -109.42, 1.78996, 222.179, 8.35992E-006, -2.21101E-005, -0.968483, 1.10045, 1.43615, 0.287801, -0.468205, -1.38672, -0.0078248, 0.0205841
25, 0.00000, 191.982, -112.536, -193.609, -110.017, 1.48942, 222.809, 7.04087E-006, -1.67829E-005, -0.748289, 0.847954, 1.1078, 0.223621, -0.359846, -1.07063, -0.00670985, 0.0158398
26, 0.00000, 192.486, -112.563, -193.86, -110.436, 1.25815, 223.215, 5.916E-006, -1.41237E-005, -0.633599, 0.716477, 0.93679, 0.190158, -0.303436, -0.905957, -0.00567182, 0.0134459
27, 0.00000, 192.735, -112.573, -193.98, -110.644, 1.14122, 223.414, 5.32652E-006, -1.29032E-005, -0.579898, 0.655064, 0.856844, 0.174411, -0.277148, -0.828918, -0.00512417, 0.0123464
28, 0.00000, 192.935, -112.555, -194.055, -110.824, 1.02653, 223.56, 4.66077E-006, -1.25656E-005, -0.561358, 0.633457, 0.828911, 0.169185, -0.267738, -0.802149, -0.0044754, 0.0120729
29, 0.00000, 192.989, -112.521, -194.049, -110.886, 0.971928, 223.584, 4.25145E-006, -1.32126E-005, -0.584668, 0.659427, 0.863061, 0.176382, -0.278584, -0.835315, -0.00406043, 0.0127189
30, 0.00000, 192.58, -112.503, -193.848, -110.544, 1.16333, 223.257, 5.17453E-006, -1.52774E-005, -0.674994, 0.762614, 0.997449, 0.202925, -0.322713, -0.964856, -0.0049174, 0.0145944
31, 0.00000, 191.771, -112.461, -193.448, -109.871, 1.53602, 222.607, 7.01561E-006, -1.95074E-005, -0.85676, 0.971245, 1.26868, 0.255811, -0.412331, -1.22591, -0.00660182, 0.01836
32, 0.00000, 191.562, -112.394, -193.296, -109.722, 1.58954, 222.41, 7.34304E-006, -1.96872E-005, -0.828915, 1.00995, 1.28821, 0.212321, -0.459714, -1.22104, -0.00692328, 0.0184526
33, 0.00000, 193.233, -112.056, -193.754, -111.298, 0.495626, 223.53, 1.92266E-006, -7.55982E-006, -0.0735728, 0.574278, 0.533889, -0.223499, -0.460334, -0.350466, -0.00190411, 0.00724638
34, 0.00000, 194.447, -111.786, -194.067, -112.455, -0.318691, 224.335, -1.88739E-006, 2.22891E-006, 0.559103, 0.222161, -0.0873063, -0.59524, -0.471694, 0.373241, 0.00178399, -0.0023908
35, 0.00000, 196.093, -111.437, -194.509, -114.018, -1.41145, 225.44, -6.77059E-006, 1.59039E-005, 1.45817, -0.285831, -0.977222, -1.12008, -0.480973, 1.40663, 0.00679634, -0.01662
36, 0.00000, 196.382, -111.384, -194.594, -114.289, -1.59778, 225.639, -7.60943E-006, 1.78895E-005, 1.59092, -0.364548, -1.11189, -1.19577, -0.479113, 1.56119, 0.00769733, -0.0187662
37, 0.00000, 195.285, -111.61, -194.294, -113.25, -0.872705, 224.898, -4.30926E-006, 1.00275E-005, 1.061, -0.063243, -0.585593, -0.887249, -0.475323, 0.950847, 0.00421961, -0.0103826
38, 0.00000, 193.328, -111.982, -193.732, -111.411, 0.392934, 223.564, 1.5977E-006, -4.53741E-006, 0.126915, 0.485927, 0.357158, -0.352881, -0.484018, -0.132791, -0.00165233, 0.00428252
39, 0.00000, 191.32, -112.313, -193.116, -109.551, 1.64859, 222.179, 7.65143E-006, -2.03952E-005, -0.822239, 1.07157, 1.33813, 0.175689, -0.516334, -1.24589, -0.00720982, 0.0190236
40, 0.00000, 191.13, -112.237, -192.963, -109.427, 1.679, 221.996, 7.0343E-006, -2.77361E-005, -1.18248, 1.34209, 1.75219, 0.352103, -0.570446, -1.69229, -0.00629867, 0.0258365
41, 0.00000, 189.54, -112.31, -192.314, -108.035, 2.53112, 220.804, 1.21795E-005, -3.21419E-005, -1.37702, 1.57535, 2.0505, 0.403432, -0.674536, -1.97559, -0.0111259, 0.0289472
42, 0.00000, 188.85, -112.26, -191.961, -107.465, 2.8389, 220.243, 1.32348E-005, -3.64827E-005, -1.5353, 1.76142, 2.29021, 0.447098, -0.756214, -2.20453, -0.0119318, 0.0325
43, 0.00000, 188.588, -112.238, -191.824, -107.25, 2.95476, 220.026, 1.33208E-005, -3.81175E-005, -1.5977, 1.83495, 2.38485, 0.464212, -0.78858, -2.29486, -0.0118919, 0.0338127
44, 0.00000, 188.435, -112.224, -191.745, -107.126, 3.02161, 219.9, 1.33686E-005, -3.90407E-005, -1.63384, 1.87761, 2.43971, 0.474084, -0.807382, -2.34719, -0.0118504, 0.0345399
45, 0.00000, 188.613, -112.24, -191.838, -107.271, 2.94374, 220.047, 1.32989E-005, -3.79585E-005, -1.59157, 1.82772, 2.37553, 0.462524, -0.785397, -2.28597, -0.0118619, 0.0336783
46, 0.00000, 189.19, -112.288, -192.138, -107.745, 2.68909, 220.522, 1.29002E-005, -3.4176E-005, -1.45471, 1.66667, 2.16815, 0.424881, -0.714605, -2.08796, -0.0117348, 0.0305872
47, 0.00000, 190.129, -112.36, -192.622, -108.514, 2.27683, 221.284, 1.08604E-005, -2.85231E-005, -1.23253, 1.40674, 1.83271, 0.362889, -0.601032, -1.7671, -0.0100115, 0.0259887
48, 0.00000, 191.232, -112.441, -193.189, -109.42, 1.78996, 222.179, 8.3599E-006, -2.211E-005, -0.968483, 1.10045, 1.43615, 0.287801, -0.468205, -1.38672, -0.00782476, 0.0205841
49, 0.00000, 192.142, -112.507, -193.655, -110.167, 1.38634, 222.918, 6.37198E-006, -1.68952E-005, -0.748271, 0.847123, 1.10712, 0.224039, -0.359173, -1.07028, -0.00605102, 0.0160078
50, 0.00000, 192.612, -112.54, -193.896, -110.554, 1.17694, 223.301, 5.38473E-006, -1.42195E-005, -0.633573, 0.715921, 0.936331, 0.190427, -0.302992, -0.905712, -0.00515172, 0.0135839
51, 0.00000, 192.577, -112.603, -193.935, -110.495, 1.24387, 223.306, 5.97252E-006, -1.27815E-005, -0.579896, 0.655692, 0.857356, 0.174083, -0.277667, -0.829183, -0.00576586, 0.0121903
52, 0.00000, 192.653, -112.608, -193.974, -110.558, 1.2102, 223.367, 5.8157E-006, -1.23614E-005, -0.561378, 0.634561, 0.829823, 0.168627, -0.268639, -0.80263, -0.00562189, 0.0118031
53, 0.00000, 192.558, -112.601, -193.925, -110.479, 1.2526, 223.29, 6.0047E-006, -1.29039E-005, -0.584689, 0.661162, 0.864488, 0.175495, -0.280006, -0.83606, -0.00579732, 0.0123069
54, 0.00000, 192.187, -112.575, -193.735, -110.174, 1.41764, 222.988, 6.78231E-006, -1.5008E-005, -0.675009, 0.764429, 0.998941, 0.201993, -0.324204, -0.965634, -0.00651038, 0.0142206
55, 0.00000, 192.132, -112.396, -193.553, -110.211, 1.30296, 222.854, 5.50911E-006, -1.97329E-005, -0.856753, 0.969135, 1.26695, 0.256905, -0.410592, -1.22501, -0.00510949, 0.0187052
56, 0.00000, 191.738, -112.363, -193.347, -109.889, 1.47441, 222.532, 6.34239E-006, -2.21138E-005, -0.956532, 1.08368, 1.41584, 0.285918, -0.459807, -1.3683, -0.0058483, 0.0208199
57, 0.00000, 192.058, -112.278, -193.418, -110.197, 1.25316, 222.734, 5.63903E-006, -1.61064E-005, -0.602113, 0.886869, 1.06846, 0.0776328, -0.466624, -0.963618, -0.00536485, 0.0152221
58, 0.00000, 192.448, -112.175, -193.504, -110.575, 0.979951, 222.982, 4.32999E-006, -1.25645E-005, -0.375897, 0.76834, 0.85289, -0.0588651, -0.477138, -0.70885, -0.00418514, 0.0119399
59, 0.00000, 192.975, -112.067, -193.648, -111.073, 0.634075, 223.335, 2.64815E-006, -8.5606E-006, -0.125212, 0.624318, 0.602987, -0.203823, -0.477809, -0.420108, -0.00261478, 0.00817263
60, 0.00000, 193.007, -112.07, -193.664, -111.099, 0.619983, 223.361, 2.57744E-006, -8.38983E-006, -0.117559, 0.615456, 0.591496, -0.206016, -0.473967, -0.409066, -0.00254819, 0.00801498
61, 0.00000, 192.711, -112.122, -193.576, -110.823, 0.807492, 223.158, 3.48021E-006, -1.05671E-005, -0.250989, 0.696433, 0.728258, -0.131015, -0.477354, -0.564928, -0.0033957, 0.0100762
62, 0.00000, 192.074, -112.22, -193.375, -110.235, 1.20121, 222.715, 5.40272E-006, -1.52069E-005, -0.527243, 0.871151, 1.01745, 0.0206912, -0.490442, -0.891011, -0.00517175, 0.0143763
63, 0.00000, 191.897, -112.207, -193.284, -110.089, 1.2801, 222.571, 5.78653E-006, -1.62148E-005, -0.570221, 0.920537, 1.08164, 0.0331725, -0.511678, -0.952773, -0.00552392, 0.0152779
64, 0.00000, 190.339, -112.375, -192.73, -108.687, 2.18447, 221.454, 1.03628E-005, -2.73016E-005, -1.18259, 1.34859, 1.75754, 0.348805, -0.575733, -1.69508, -0.00958074, 0.0249903
65, 0.00000, 189.519, -112.313, -192.308, -108.015, 2.54453, 220.79, 1.22756E-005, -3.21013E-005, -1.37698, 1.57548, 2.0506, 0.40333, -0.674669, -1.97562, -0.0112272, 0.0289131
66, 0.00000, 188.933, -112.247, -191.986, -107.542, 2.7867, 220.3, 1.29714E-005, -3.65089E-005, -1.53533, 1.76059, 2.28953, 0.447554, -0.755512, -2.2042, -0.0116609, 0.0325701
67, 0.00000, 188.587, -112.238, -191.824, -107.25, 2.95487, 220.026, 1.33162E-005, -3.81193E-005, -1.5977, 1.83496, 2.38485, 0.464211, -0.788582, -2.29486, -0.0118859, 0.0338111
68, 0.00000, 188.435, -112.224, -191.745, -107.125, 3.02168, 219.9, 1.33682E-005, -3.90409E-005, -1.63385, 1.87762, 2.43971, 0.474084, -0.807386, -2.3472, -0.0118479, 0.0345372
69, 0.00000, 188.613, -112.24, -191.838, -107.271, 2.94364, 220.047, 1.33023E-005, -3.79581E-005, -1.59156, 1.82771, 2.37552, 0.462524, -0.785393, -2.28596, -0.0118676, 0.033681
70, 0.00000, 189.19, -112.288, -192.138, -107.745, 2.68906, 220.522, 1.28983E-005, -3.41719E-005, -1.45471, 1.66667, 2.16815, 0.424882, -0.714604, -2.08796, -0.0117338, 0.0305844
71, 0.00000, 190.129, -112.36, -192.622, -108.514, 2.27682, 221.284, 1.08538E-005, -2.85291E-005, -1.23253, 1.40674, 1.83271, 0.36289, -0.601031, -1.7671, -0.0100062, 0.0259969
72, 0.00000, 191.232, -112.441, -193.189, -109.42, 1.78995, 222.179, 8.35364E-006, -2.21176E-005, -0.968482, 1.10045, 1.43615, 0.287802, -0.468205, -1.38672, -0.00782023, 0.0205934
73, 0.00000, 191.919, -112.491, -193.541, -109.984, 1.48553, 222.737, 6.85554E-006, -1.81645E-005, -0.802489, 0.909319, 1.18799, 0.239832, -0.385872, -1.14812, -0.00648521, 0.0171347
74, 0.00000, 192.434, -112.528, -193.805, -110.408, 1.25618, 223.156, 5.76652E-006, -1.52221E-005, -0.67698, 0.765518, 1.00092, 0.203177, -0.324203, -0.967964, -0.0054995, 0.014491
75, 0.00000, 192.712, -112.547, -193.947, -110.636, 1.13224, 223.382, 5.17965E-006, -1.36466E-005, -0.60904, 0.687924, 0.899853, 0.183202, -0.291029, -0.870539, -0.00496321, 0.0130594
76, 0.00000, 192.839, -112.556, -194.012, -110.741, 1.07538, 223.486, 4.91229E-006, -1.29269E-005, -0.577836, 0.652346, 0.853484, 0.173996, -0.275842, -0.825815, -0.00471765, 0.0124006
77, 0.00000, 192.84, -112.556, -194.012, -110.742, 1.07487, 223.487, 4.90759E-006, -1.2922E-005, -0.577564, 0.652035, 0.85308, 0.173915, -0.27571, -0.825426, -0.00471372, 0.0123974
78, 0.00000, 192.715, -112.547, -193.949, -110.64, 1.13056, 223.385, 5.16539E-006, -1.36289E-005, -0.608134, 0.68689, 0.898509, 0.182936, -0.290589, -0.869244, -0.00495123, 0.0130474
79, 0.00000, 192.427, -112.527, -193.801, -110.402, 1.25946, 223.15, 5.77004E-006, -1.52708E-005, -0.678812, 0.76761, 1.00365, 0.203717, -0.325102, -0.970599, -0.00550441, 0.0145432
80, 0.00000, 192.148, -112.438, -193.598, -110.203, 1.33021, 222.887, 6.08413E-006, -1.63454E-005, -0.688029, 0.846596, 1.07657, 0.172158, -0.388833, -1.0179, -0.00578841, 0.0154878
81, 0.00000, 192.931, -112.066, -193.626, -111.035, 0.654888, 223.3, 2.73833E-006, -8.82466E-006, -0.13714, 0.636697, 0.619662, -0.19969, -0.48256, -0.436605, -0.00270086, 0.00842266
82, 0.00000, 193.527, -111.741, -193.612, -111.688, 0.108379, 223.594, 3.21009E-008, -2.91308E-006, 0.317849, 0.478224, 0.255004, -0.514352, -0.572743, 0.0363928, -0.00014176, 0.00264857
83, 0.00000, 195.004, -111.334, -193.926, -113.132, -0.944713, 224.534, -4.99678E-006, 8.59346E-006, 1.11087, 0.0783437, -0.487981, -1.00121, -0.622739, 0.923301, 0.00485151, -0.00902871
84, 0.00000, 194.837, -111.326, -193.843, -112.992, -0.86683, 224.4, -4.66043E-006, 7.68433E-006, 1.06695, 0.12484, -0.425737, -0.986407, -0.641047, 0.861977, 0.00449675, -0.00809468
85, 0.00000, 193.946, -111.486, -193.58, -112.159, -0.297396, 223.787, -1.98203E-006, 1.37695E-006, 0.661442, 0.367599, -0.0126412, -0.756556, -0.648614, 0.389249, 0.00179572, -0.00166902
86, 0.00000, 191.901, -111.85, -192.974, -110.25, 1.00501, 222.387, 4.35959E-006, -1.35546E-005, -0.266597, 0.925699, 0.934334, -0.232223, -0.667843, -0.692615, -0.00425407, 0.0126934
87, 0.00000, 188.858, -112.355, -192.049, -107.424, 2.91407, 220.295, 1.46423E-005, -2.92265E-005, -1.18987, 1.50526, 1.89607, 0.276453, -0.707119, -1.77842, -0.0137285, 0.0259402
88, 0.00000, 188.204, -112.429, -191.822, -106.83, 3.30264, 219.823, 1.52198E-005, -3.47892E-005, -1.47032, 1.69429, 2.19933, 0.424306, -0.730343, -2.1144, -0.0138836, 0.0306018
89, 0.00000, 188.596, -112.291, -191.875, -107.232, 2.99255, 220.06, 1.38081E-005, -3.66894E-005, -1.54483, 1.77492, 2.3065, 0.448523, -0.763031, -2.21927, -0.0124432, 0.0325226
90, 0.00000, 189.163, -112.156, -192.01, -107.782, 2.59897, 220.433, 1.18318E-005, -3.77858E-005, -1.58616, 1.81562, 2.36267, 0.46406, -0.777854, -2.27577, -0.0104891, 0.0338742
91, 0.00000, 190.039, -112.017, -192.281, -108.597, 2.05029, 221.041, 8.44024E-006, -3.77775E-005, -1.57761, 1.7965, 2.34236, 0.466437, -0.766004, -2.25964, -0.00718553, 0.0344776
92, 0.00000, 188.696, -112.247, -191.881, -107.339, 2.90683, 220.116, 1.32951E-005, -3.74468E-005, -1.57182, 1.80444, 2.34559, 0.457123, -0.775144, -2.25739, -0.0119167, 0.0332764
93, 0.00000, 188.951, -112.268, -192.014, -107.547, 2.79488, 220.325, 1.31468E-005, -3.5841E-005, -1.51149, 1.7334, 2.25412, 0.440541, -0.743902, -2.17008, -0.0118718, 0.0319766
94, 0.00000, 189.448, -112.308, -192.271, -107.957, 2.57573, 220.732, 1.2458E-005, -3.25288E-005, -1.39373, 1.59514, 2.07593, 0.407977, -0.683267, -1.99982, -0.0113878, 0.0292382
95, 0.00000, 190.161, -112.362, -192.639, -108.541, 2.26252, 221.31, 1.07847E-005, -2.83319E-005, -1.2248, 1.39773, 1.82107, 0.360712, -0.597109, -1.75594, -0.00994536, 0.0258313
96, 0.00000, 191.023, -112.426, -193.081, -109.247, 1.88276, 222.009, 8.82596E-006, -2.33233E-005, -1.01895, 1.15877, 1.51177, 0.302268, -0.493412, -1.45934, -0.00823582, 0.0216268
97, 0.00000, 191.844, -112.486, -193.503, -109.923, 1.51861, 222.677, 7.00849E-006, -1.85969E-005, -0.82056, 0.930074, 1.21497, 0.245084, -0.394795, -1.17408, -0.00662444, 0.0175246
98, 0.00000, 192.383, -112.524, -193.778, -110.365, 1.27907, 223.114, 5.873E-006, -1.55105E-005, -0.689544, 0.779885, 1.01962, 0.206862, -0.330354, -0.98599, -0.00559589, 0.0147536
99, 0.00000, 192.692, -112.546, -193.937, -110.621, 1.14083, 223.366, 5.22047E-006, -1.37553E-005, -0.613752, 0.6933, 0.906858, 0.18459, -0.293325, -0.877293, -0.00500056, 0.0131585
100, 0.00000, 192.846, -112.556, -194.016, -110.747, 1.0721, 223.492, 4.89769E-006, -1.2885E-005, -0.576036, 0.650294, 0.850809, 0.173464, -0.274967, -0.823235, -0.00470407, 0.0123617
101, 0.00000, 192.893, -112.56, -194.04, -110.786, 1.05121, 223.53, 4.80328E-006, -1.26202E-005, -0.564517, 0.63717, 0.833698, 0.17006, -0.269367, -0.806726, -0.00461676, 0.0121155
102, 0.00000, 192.817, -112.554, -194.001, -110.723, 1.08507, 223.468, 4.94612E-006, -1.30544E-005, -0.583249, 0.658515, 0.861531, 0.175595, -0.278478, -0.833581, -0.00475037, 0.0125259
103, 0.00000, 192.567, -112.537, -193.873, -110.517, 1.19679, 223.264, 5.47489E-006, -1.44715E-005, -0.644461, 0.728355, 0.952529, 0.193629, -0.308308, -0.92133, -0.00523501, 0.0138172
104, 0.00000, 192.402, -112.456, -193.728, -110.412, 1.21733, 223.094, 5.54693E-006, -1.49023E-005, -0.626372, 0.775772, 0.984504, 0.154238, -0.35838, -0.929293, -0.00529882, 0.0141856
105, 0.00000, 193.229, -112.088, -193.78, -111.281, 0.522501, 223.543, 2.12698E-006, -7.17278E-006, -0.0653425, 0.553483, 0.51177, -0.220221, -0.446439, -0.33296, -0.00211555, 0.00687134
106, 0.00000, 193.76, -111.759, -193.734, -111.88, 0.00532458, 223.785, -4.34152E-007, -1.65005E-006, 0.373195, 0.413146, 0.171003, -0.529735, -0.544087, 0.11681, 0.000322593, 0.00142844
107, 0.00000, 197.034, -110.933, -194.499, -115.043, -2.26668, 225.912, -1.04592E-005, 3.02228E-005, 2.51561, -0.727453, -1.8895, -1.81546, -0.626346, 2.54497, 0.0106907, -0.0322872
108, 0.00000, 201.374, -109.861, -195.545, -119.246, -5.28684, 228.78, -2.37944E-005, 5.9253E-005, 4.73916, -1.8842, -4.00811, -3.16638, -0.734187, 5.0593, 0.0269291, -0.0679717
109, 0.00000, 201.024, -109.912, -195.429, -118.923, -5.07046, 228.529, -2.2934E-005, 5.70212E-005, 4.57767, -1.78296, -3.83921, -3.07677, -0.741273, 4.86781, 0.0257456, -0.0650983
