hour, t(sec), V1.re, V1.im, V2.re, V2.im, V3.re, V3.im, V4.re, V4.im, I1.re, I1.im, I2.re, I2.im, I3.re, I3.im, I4.re, I4.im
1, 0.00000, 189.2, -109.647, -190.057, -109.114, 0.416773, 219.423, -1.75262E-006, -5.32884E-006, -0.233207, 0.26163, 0.342493, 0.0707166, -0.109678, -0.331574, 0.00214463, 0.00455697
2, 0.00000, 190.251, -110.15, -190.931, -109.753, 0.321931, 220.453, -1.45488E-006, -4.37648E-006, -0.19665, 0.22044, 0.288759, 0.0597819, -0.0923922, -0.27972, 0.00173868, 0.00387463
3, 0.00000, 190.748, -110.388, -191.343, -110.056, 0.276002, 220.939, -1.3346E-006, -3.95342E-006, -0.179639, 0.201296, 0.26377, 0.0546775, -0.0843554, -0.255563, 0.00155928, 0.00354314
4, 0.00000, 191.076, -110.506, -191.584, -110.273, 0.21706, 221.243, -1.28491E-006, -3.7992E-006, -0.173708, 0.19454, 0.254993, 0.0529398, -0.0814926, -0.247113, 0.00149302, 0.00343215
5, 0.00000, 190.926, -110.418, -191.447, -110.188, 0.219127, 221.089, -1.33215E-006, -3.97635E-006, -0.18105, 0.202755, 0.265742, 0.0551686, -0.0849271, -0.257526, 0.00156737, 0.00357827
6, 0.00000, 190.426, -110.099, -190.967, -109.917, 0.205991, 220.563, -1.53086E-006, -4.65394E-006, -0.209475, 0.234534, 0.307358, 0.0638142, -0.0982001, -0.29783, 0.00184738, 0.00413577
7, 0.00000, 189.246, -109.415, -189.89, -109.25, 0.223927, 219.354, -1.94647E-006, -6.08388E-006, -0.26718, 0.299138, 0.391873, 0.0812842, -0.125194, -0.37959, 0.00244824, 0.00525194
8, 0.00000, 187.224, -108.667, -188.398, -107.929, 0.56513, 217.482, -2.2282E-006, -7.15116E-006, -0.300491, 0.337578, 0.441338, 0.090693, -0.141567, -0.426964, 0.00294814, 0.00584417
9, 0.00000, 194.255, -109.978, -192.573, -113.122, -1.63689, 223.441, -1.89518E-006, -6.26326E-006, -0.301973, 0.331995, 0.438358, 0.0950649, -0.136869, -0.426935, 0.00237955, 0.00613751
10, 0.00000, 197.146, -110.415, -194.224, -115.311, -2.62762, 225.867, -1.79641E-006, -6.06377E-006, -0.308516, 0.336058, 0.445537, 0.098795, -0.137441, -0.435157, 0.00221656, 0.00636762
11, 0.00000, 208.677, -112.137, -200.856, -124.094, -6.64059, 235.629, -1.3181E-006, -4.78349E-006, -0.301921, 0.317569, 0.427483, 0.102741, -0.125664, -0.422057, 0.00141946, 0.00653067
12, 0.00000, 209.269, -112.231, -201.203, -124.542, -6.84195, 236.136, -1.2972E-006, -4.68507E-006, -0.299112, 0.314095, 0.423123, 0.102068, -0.124083, -0.417955, 0.00136924, 0.00647699
13, 0.00000, 204.965, -111.637, -198.754, -121.235, -5.29946, 232.496, -1.4666E-006, -5.14076E-006, -0.303538, 0.322901, 0.432578, 0.101359, -0.129218, -0.425596, 0.00164478, 0.00647675
14, 0.00000, 194.423, -109.873, -192.563, -113.305, -1.79213, 223.522, -1.97465E-006, -6.56978E-006, -0.318071, 0.349148, 0.461301, 0.100394, -0.143744, -0.449447, 0.00248784, 0.00647456
15, 0.00000, 188.471, -108.615, -188.902, -108.971, -0.0381935, 218.404, -2.38185E-006, -7.81348E-006, -0.336993, 0.376238, 0.493199, 0.102894, -0.157001, -0.477946, 0.00317563, 0.00662663
16, 0.00000, 184.257, -107.446, -186.112, -106.04, 0.980065, 214.691, -2.8689E-006, -9.46875E-006, -0.375465, 0.423531, 0.552342, 0.112156, -0.178022, -0.533399, 0.00401491, 0.00718051
17, 0.00000, 182.411, -106.531, -184.572, -104.938, 1.11688, 212.894, -3.38343E-006, -1.15591E-005, -0.440474, 0.497526, 0.648025, 0.130964, -0.209158, -0.625271, 0.00499058, 0.00834064
18, 0.00000, 180.892, -105.771, -183.302, -104.033, 1.22475, 211.414, -3.80514E-006, -1.33703E-005, -0.494158, 0.558749, 0.72704, 0.146364, -0.234927, -0.70103, 0.00585054, 0.00928674
19, 0.00000, 180.289, -105.466, -182.797, -103.676, 1.26586, 210.825, -3.96534E-006, -1.41416E-005, -0.515581, 0.583203, 0.758529, 0.152472, -0.245207, -0.731194, 0.00622487, 0.00966054
20, 0.00000, 179.939, -105.288, -182.504, -103.47, 1.28889, 210.483, -4.05576E-006, -1.45948E-005, -0.528026, 0.597414, 0.776816, 0.156014, -0.25118, -0.748711, 0.00644599, 0.00987834
21, 0.00000, 180.653, -105.578, -183.041, -103.92, 1.19045, 211.145, -3.94045E-006, -1.39335E-005, -0.513005, 0.579808, 0.75452, 0.152008, -0.24368, -0.727516, 0.00610577, 0.00963369
22, 0.00000, 181.666, -106.159, -183.95, -104.494, 1.17014, 212.169, -3.58918E-006, -1.24519E-005, -0.466772, 0.527506, 0.686714, 0.138518, -0.221767, -0.662375, 0.00541515, 0.00880338
23, 0.00000, 183.784, -107.212, -185.717, -105.757, 1.01581, 214.23, -3.00532E-006, -9.99621E-006, -0.392116, 0.442466, 0.57685, 0.116989, -0.185987, -0.556935, 0.00425899, 0.00747616
24, 0.00000, 186.258, -108.432, -187.784, -107.242, 0.823631, 216.645, -2.31224E-006, -7.39287E-006, -0.305071, 0.343621, 0.448687, 0.0915768, -0.144379, -0.433698, 0.00307539, 0.00589271
25, 0.00000, 187.714, -109.282, -189.111, -108.059, 0.809195, 218.131, -1.78947E-006, -5.49609E-006, -0.234248, 0.263854, 0.344729, 0.0704443, -0.11094, -0.333352, 0.00224838, 0.00454938
26, 0.00000, 188.881, -109.821, -190.062, -108.778, 0.689241, 219.262, -1.49935E-006, -4.53946E-006, -0.197502, 0.222212, 0.290542, 0.0595858, -0.0933767, -0.281113, 0.00183648, 0.00385481
27, 0.00000, 189.474, -110.084, -190.535, -109.148, 0.61995, 219.831, -1.36655E-006, -4.08433E-006, -0.180352, 0.202784, 0.265268, 0.0545092, -0.0851888, -0.25674, 0.00163877, 0.00353074
28, 0.00000, 190.087, -110.271, -190.958, -109.567, 0.485398, 220.383, -1.30728E-006, -3.89759E-006, -0.174244, 0.195655, 0.256116, 0.0528151, -0.0821176, -0.247996, 0.00155299, 0.00342377
29, 0.00000, 190.41, -110.296, -191.121, -109.819, 0.359153, 220.64, -1.34526E-006, -4.01026E-006, -0.181316, 0.203339, 0.26634, 0.0550942, -0.0852662, -0.257999, 0.00158812, 0.00357603
30, 0.00000, 189.447, -109.867, -190.346, -109.219, 0.470464, 219.711, -1.57223E-006, -4.75334E-006, -0.21008, 0.235835, 0.308686, 0.0636569, -0.0989391, -0.298858, 0.00190582, 0.00411952
31, 0.00000, 187.565, -109.005, -188.819, -108.057, 0.66964, 217.892, -2.02674E-006, -6.31311E-006, -0.26854, 0.30202, 0.3948, 0.0809455, -0.126817, -0.381873, 0.0025847, 0.00522099
32, 0.00000, 187.17, -108.654, -188.362, -107.889, 0.580867, 217.435, -2.24104E-006, -7.13297E-006, -0.300486, 0.337618, 0.441404, 0.0906728, -0.141613, -0.426998, 0.00293559, 0.00584054
33, 0.00000, 192.026, -109.574, -191.253, -111.466, -0.926143, 221.549, -2.00862E-006, -6.57995E-006, -0.303766, 0.336242, 0.442599, 0.0943979, -0.139395, -0.430156, 0.00257143, 0.0060964
34, 0.00000, 195.454, -110.12, -193.225, -114.047, -2.07705, 224.428, -1.88246E-006, -6.28042E-006, -0.309872, 0.339258, 0.448772, 0.0983026, -0.139365, -0.437621, 0.00234766, 0.00634055
35, 0.00000, 199.909, -110.824, -195.801, -117.412, -3.58801, 228.191, -1.67539E-006, -5.76125E-006, -0.308596, 0.333225, 0.443469, 0.100381, -0.135219, -0.434297, 0.00202074, 0.00645278
36, 0.00000, 200.693, -110.97, -196.274, -117.996, -3.83765, 228.866, -1.63259E-006, -5.62053E-006, -0.305543, 0.329201, 0.438548, 0.0997844, -0.133319, -0.429774, 0.00194621, 0.00640875
37, 0.00000, 197.658, -110.462, -194.492, -115.713, -2.82849, 226.283, -1.77813E-006, -6.00833E-006, -0.309248, 0.336232, 0.446138, 0.0993616, -0.137288, -0.435985, 0.00217646, 0.00639951
38, 0.00000, 192.256, -109.448, -191.253, -111.712, -1.12773, 221.667, -2.08628E-006, -6.87441E-006, -0.319941, 0.353429, 0.465625, 0.099775, -0.14627, -0.452768, 0.00267201, 0.00643809
39, 0.00000, 186.767, -108.259, -187.865, -107.733, 0.46308, 216.951, -2.49157E-006, -8.11397E-006, -0.338616, 0.379967, 0.496915, 0.102343, -0.159162, -0.480777, 0.0033554, 0.00658073
40, 0.00000, 187.098, -108.169, -187.935, -108.039, 0.253591, 217.161, -2.68266E-006, -8.88895E-006, -0.372141, 0.416627, 0.545353, 0.112928, -0.174198, -0.527922, 0.00366952, 0.00725655
41, 0.00000, 182.487, -106.551, -184.62, -104.991, 1.09787, 212.96, -3.38006E-006, -1.15426E-005, -0.440441, 0.497387, 0.647913, 0.13101, -0.209072, -0.625198, 0.00498015, 0.00834327
42, 0.00000, 180.893, -105.77, -183.301, -104.033, 1.22508, 211.414, -3.80938E-006, -1.33708E-005, -0.49418, 0.55877, 0.727076, 0.146372, -0.234936, -0.701055, 0.00585007, 0.00928477
43, 0.00000, 180.292, -105.467, -182.797, -103.677, 1.26636, 210.826, -3.96937E-006, -1.41159E-005, -0.515526, 0.583136, 0.758479, 0.152466, -0.245192, -0.731147, 0.00620878, 0.00966129
44, 0.00000, 179.941, -105.289, -182.504, -103.471, 1.28925, 210.484, -4.05859E-006, -1.45786E-005, -0.527992, 0.597372, 0.776786, 0.15601, -0.251172, -0.748682, 0.00643577, 0.00987868
45, 0.00000, 180.346, -105.495, -182.847, -103.711, 1.26133, 210.882, -3.9408E-006, -1.40999E-005, -0.513534, 0.580867, 0.755471, 0.151877, -0.244206, -0.728268, 0.00621003, 0.00962433
46, 0.00000, 181.665, -106.159, -183.95, -104.494, 1.16982, 212.169, -3.58457E-006, -1.24634E-005, -0.466789, 0.527527, 0.68672, 0.138518, -0.221769, -0.662386, 0.00542282, 0.00880445
47, 0.00000, 183.784, -107.212, -185.719, -105.758, 1.01508, 214.231, -2.99343E-006, -1.00124E-005, -0.392097, 0.442447, 0.576789, 0.116977, -0.185969, -0.556891, 0.00427082, 0.00747958
48, 0.00000, 186.258, -108.432, -187.784, -107.242, 0.823631, 216.645, -2.31218E-006, -7.39285E-006, -0.305071, 0.343621, 0.448687, 0.0915768, -0.144379, -0.433698, 0.0030754, 0.00589275
49, 0.00000, 188.288, -109.423, -189.476, -108.465, 0.658525, 218.629, -1.7695E-006, -5.41153E-006, -0.233823, 0.262971, 0.343848, 0.0705449, -0.110453, -0.332663, 0.00219725, 0.00455865
50, 0.00000, 189.331, -109.93, -190.347, -109.097, 0.570031, 219.652, -1.48793E-006, -4.47231E-006, -0.197197, 0.221604, 0.289938, 0.0596436, -0.0930486, -0.280637, 0.00179572, 0.00386124
51, 0.00000, 188.907, -109.947, -190.176, -108.745, 0.771391, 219.338, -1.38133E-006, -4.13704E-006, -0.180652, 0.203439, 0.265921, 0.0544238, -0.0855578, -0.257251, 0.00167088, 0.0035255
52, 0.00000, 189.075, -110.028, -190.315, -108.846, 0.757662, 219.503, -1.34169E-006, -3.98395E-006, -0.174777, 0.196796, 0.257277, 0.0526773, -0.0827627, -0.2489, 0.00160408, 0.00341075
53, 0.00000, 188.865, -109.926, -190.138, -108.718, 0.775788, 219.296, -1.39947E-006, -4.16138E-006, -0.182157, 0.205138, 0.268159, 0.0548767, -0.0862805, -0.259406, 0.00167767, 0.00355291
54, 0.00000, 188.041, -109.525, -189.45, -108.22, 0.845367, 218.488, -1.62471E-006, -4.89796E-006, -0.210955, 0.237717, 0.310596, 0.0634267, -0.100008, -0.300346, 0.00199209, 0.00410013
55, 0.00000, 188.857, -109.326, -189.644, -108.974, 0.329909, 219.016, -1.99552E-006, -6.17895E-006, -0.267533, 0.299836, 0.392588, 0.0812208, -0.12556, -0.380098, 0.00250001, 0.00522037
56, 0.00000, 188.008, -108.893, -188.922, -108.466, 0.387859, 218.177, -2.20094E-006, -7E-006, -0.299656, 0.336018, 0.439751, 0.0908018, -0.140751, -0.425675, 0.00285668, 0.00585533
57, 0.00000, 188.675, -108.91, -189.233, -109.01, 0.0924197, 218.693, -2.18736E-006, -7.09418E-006, -0.306604, 0.342799, 0.449141, 0.0934187, -0.143231, -0.435151, 0.00288147, 0.00602671
58, 0.00000, 189.821, -109.06, -189.859, -109.884, -0.314392, 219.633, -2.17939E-006, -7.11519E-006, -0.314633, 0.350343, 0.459873, 0.0966233, -0.145913, -0.446083, 0.00285223, 0.00623211
59, 0.00000, 191.331, -109.337, -190.752, -111.001, -0.790658, 220.91, -2.10585E-006, -6.93596E-006, -0.315592, 0.349774, 0.460099, 0.0978016, -0.145135, -0.446951, 0.00273424, 0.00631093
60, 0.00000, 191.401, -109.371, -190.811, -111.043, -0.796109, 220.979, -2.09291E-006, -6.85876E-006, -0.313007, 0.346892, 0.456344, 0.0970196, -0.143943, -0.443313, 0.00269852, 0.00626019
61, 0.00000, 190.577, -109.199, -190.306, -110.441, -0.55093, 220.271, -2.14627E-006, -7.00745E-006, -0.315075, 0.350017, 0.459957, 0.0972068, -0.145517, -0.446488, 0.00278177, 0.00627168
62, 0.00000, 188.822, -108.798, -189.205, -109.178, -0.0582302, 218.753, -2.28312E-006, -7.42892E-006, -0.322946, 0.360501, 0.472659, 0.0986719, -0.150437, -0.458104, 0.00300646, 0.00635996
63, 0.00000, 188.428, -108.606, -188.876, -108.94, -0.0254588, 218.367, -2.38417E-006, -7.82234E-006, -0.337033, 0.376332, 0.493291, 0.10288, -0.157054, -0.478015, 0.00318102, 0.00662549
64, 0.00000, 184.257, -107.446, -186.112, -106.04, 0.980043, 214.691, -2.86854E-006, -9.47034E-006, -0.375467, 0.423534, 0.552342, 0.112156, -0.178022, -0.5334, 0.00401593, 0.00718048
65, 0.00000, 182.412, -106.532, -184.572, -104.938, 1.11702, 212.895, -3.38286E-006, -1.15397E-005, -0.440433, 0.497479, 0.647986, 0.130958, -0.209149, -0.62524, 0.00497904, 0.00834335
66, 0.00000, 181.193, -105.851, -183.494, -104.241, 1.15273, 211.674, -3.79159E-006, -1.32701E-005, -0.493773, 0.557872, 0.726224, 0.146504, -0.234448, -0.700403, 0.00578833, 0.00929597
67, 0.00000, 180.29, -105.466, -182.797, -103.677, 1.26609, 210.825, -3.9691E-006, -1.41221E-005, -0.515541, 0.583157, 0.758495, 0.152466, -0.245197, -0.731162, 0.00621257, 0.00966076
68, 0.00000, 179.94, -105.288, -182.504, -103.47, 1.28898, 210.483, -4.05694E-006, -1.45887E-005, -0.528014, 0.5974, 0.776805, 0.156012, -0.251177, -0.748701, 0.00644214, 0.00987841
69, 0.00000, 180.348, -105.495, -182.847, -103.711, 1.26159, 210.882, -3.94192E-006, -1.40895E-005, -0.513511, 0.580838, 0.755449, 0.151875, -0.2442, -0.728248, 0.0062036, 0.00962491
70, 0.00000, 181.666, -106.159, -183.95, -104.494, 1.17011, 212.169, -3.58829E-006, -1.24543E-005, -0.466776, 0.52751, 0.686715, 0.138518, -0.221768, -0.662377, 0.00541669, 0.00880358
71, 0.00000, 183.785, -107.213, -185.718, -105.758, 1.01547, 214.232, -2.99738E-006, -1.00039E-005, -0.392085, 0.44243, 0.576785, 0.116978, -0.185968, -0.556883, 0.004265, 0.00747851
72, 0.00000, 186.259, -108.432, -187.783, -107.242, 0.824029, 216.645, -2.31647E-006, -7.38484E-006, -0.30506, 0.343608, 0.448685, 0.0915768, -0.144378, -0.433691, 0.00306987, 0.0058914
73, 0.00000, 187.79, -109.181, -189.062, -108.165, 0.699233, 218.143, -1.89593E-006, -5.89385E-006, -0.251272, 0.282702, 0.369501, 0.0757108, -0.118745, -0.357408, 0.00241128, 0.00488935
74, 0.00000, 188.935, -109.739, -190.018, -108.858, 0.60329, 219.265, -1.59173E-006, -4.83463E-006, -0.211043, 0.237237, 0.3103, 0.0637666, -0.0996181, -0.300294, 0.00195226, 0.00412499
75, 0.00000, 189.553, -110.038, -190.532, -109.232, 0.55079, 219.87, -1.42754E-006, -4.27833E-006, -0.189406, 0.212813, 0.278469, 0.0573166, -0.0893501, -0.269563, 0.00171404, 0.00371222
76, 0.00000, 189.835, -110.175, -190.768, -109.403, 0.526539, 220.147, -1.35277E-006, -4.02764E-006, -0.179502, 0.201642, 0.263902, 0.0543579, -0.0846548, -0.255495, 0.00160744, 0.00352247
77, 0.00000, 189.838, -110.176, -190.77, -109.404, 0.526412, 220.149, -1.35259E-006, -4.02293E-006, -0.179412, 0.20154, 0.263773, 0.0543315, -0.084613, -0.25537, 0.00160492, 0.00352088
78, 0.00000, 189.562, -110.042, -190.539, -109.237, 0.550313, 219.878, -1.42696E-006, -4.26284E-006, -0.189105, 0.212473, 0.278038, 0.0572294, -0.0892114, -0.269147, 0.00170575, 0.00370691
79, 0.00000, 188.921, -109.731, -190.004, -108.848, 0.605122, 219.25, -1.59841E-006, -4.83532E-006, -0.211603, 0.237868, 0.311143, 0.0639386, -0.099891, -0.301108, 0.0019497, 0.00413676
80, 0.00000, 188.471, -109.294, -189.452, -108.673, 0.476984, 218.711, -1.88987E-006, -5.86719E-006, -0.254009, 0.285134, 0.373086, 0.0768851, -0.119567, -0.361117, 0.00237977, 0.0049655
81, 0.00000, 191.231, -109.292, -190.671, -110.938, -0.77848, 220.813, -2.13161E-006, -7.00857E-006, -0.31875, 0.353306, 0.464732, 0.0987577, -0.146615, -0.451427, 0.00276325, 0.00637126
82, 0.00000, 193.407, -109.193, -191.559, -112.77, -1.84578, 222.436, -2.30599E-006, -8.01127E-006, -0.378866, 0.415533, 0.548972, 0.119598, -0.170882, -0.53482, 0.00308184, 0.00770092
83, 0.00000, 197.798, -109.701, -193.94, -116.163, -3.46871, 226.049, -2.16996E-006, -7.93178E-006, -0.407008, 0.439653, 0.584703, 0.132039, -0.178404, -0.572238, 0.00287906, 0.00847753
84, 0.00000, 197.43, -109.536, -193.64, -115.932, -3.42569, 225.69, -2.23892E-006, -8.23697E-006, -0.419817, 0.45364, 0.603176, 0.136082, -0.184125, -0.590221, 0.0030053, 0.00873622
85, 0.00000, 194.989, -109.06, -192.159, -114.131, -2.66984, 223.593, -2.4176E-006, -8.80697E-006, -0.428403, 0.466109, 0.617819, 0.137113, -0.190322, -0.603226, 0.0033239, 0.00881088
86, 0.00000, 189.303, -107.908, -188.698, -109.966, -0.953255, 218.719, -2.86408E-006, -1.01766E-005, -0.443726, 0.490723, 0.645553, 0.137654, -0.203074, -0.627039, 0.00411126, 0.00883863
87, 0.00000, 179.949, -105.658, -182.807, -103.321, 1.55324, 210.661, -3.73067E-006, -1.27833E-005, -0.465282, 0.528024, 0.68597, 0.136821, -0.22258, -0.660711, 0.00562316, 0.00864902
88, 0.00000, 178.219, -105.186, -181.563, -102.057, 2.02824, 209.059, -5.2396E-006, -8.29109E-006, -0.472579, 0.538766, 0.705409, 0.138978, -0.230252, -0.678278, 0.00266158, 0.0088245
89, 0.00000, 180.013, -105.507, -182.713, -103.435, 1.41855, 210.639, -3.90265E-006, -1.37634E-005, -0.498782, 0.565156, 0.734527, 0.147032, -0.237913, -0.70773, 0.00607123, 0.00930513
90, 0.00000, 182.324, -106.044, -184.139, -105.077, 0.792478, 212.609, -3.76182E-006, -1.33851E-005, -0.508397, 0.572182, 0.746164, 0.152025, -0.239796, -0.720496, 0.00579022, 0.00967386
91, 0.00000, 185.427, -106.872, -186.154, -107.239, 0.0308718, 215.316, -3.47799E-006, -1.24183E-005, -0.500659, 0.559019, 0.731924, 0.152245, -0.233013, -0.708581, 0.00522615, 0.00973531
92, 0.00000, 180.54, -105.593, -183.006, -103.824, 1.24911, 211.069, -3.9044E-006, -1.38063E-005, -0.506677, 0.573036, 0.745462, 0.14994, -0.24094, -0.718674, 0.00605943, 0.00950452
93, 0.00000, 181.121, -105.885, -183.49, -104.167, 1.21002, 211.635, -3.76236E-006, -1.30699E-005, -0.486107, 0.549555, 0.715241, 0.144072, -0.231072, -0.689695, 0.00570067, 0.00913809
94, 0.00000, 182.249, -106.451, -184.438, -104.842, 1.12809, 212.738, -3.42464E-006, -1.17645E-005, -0.446145, 0.50399, 0.656347, 0.13259, -0.211868, -0.633255, 0.00509046, 0.00843987
95, 0.00000, 183.857, -107.249, -185.78, -105.802, 1.00965, 214.303, -2.97378E-006, -9.92953E-006, -0.389519, 0.439514, 0.572998, 0.116231, -0.184736, -0.553248, 0.00423201, 0.00743319
96, 0.00000, 185.789, -108.201, -187.392, -106.96, 0.860879, 216.187, -2.44078E-006, -7.86924E-006, -0.321562, 0.36232, 0.472962, 0.0964156, -0.152249, -0.457064, 0.00328946, 0.00619701
97, 0.00000, 187.626, -109.1, -188.923, -108.065, 0.713537, 217.981, -1.94861E-006, -6.03142E-006, -0.257071, 0.28926, 0.378067, 0.0774339, -0.121514, -0.36566, 0.00246694, 0.00499723
98, 0.00000, 188.821, -109.683, -189.923, -108.789, 0.612656, 219.153, -1.61756E-006, -4.94175E-006, -0.215054, 0.241767, 0.316193, 0.0649589, -0.101522, -0.305987, 0.00199961, 0.0042035
99, 0.00000, 189.51, -110.017, -190.497, -109.206, 0.554434, 219.828, -1.43875E-006, -4.31684E-006, -0.190904, 0.214503, 0.280672, 0.0577637, -0.0900604, -0.271691, 0.00173054, 0.00374088
100, 0.00000, 189.851, -110.182, -190.781, -109.413, 0.525111, 220.163, -1.3483E-006, -4.01412E-006, -0.178933, 0.201, 0.263064, 0.0541875, -0.0843845, -0.254685, 0.00160188, 0.0035115
101, 0.00000, 189.955, -110.233, -190.868, -109.475, 0.516198, 220.264, -1.32139E-006, -3.92558E-006, -0.175294, 0.196897, 0.257709, 0.0530985, -0.0826585, -0.249511, 0.00156481, 0.00344082
102, 0.00000, 189.788, -110.151, -190.727, -109.374, 0.53085, 220.1, -1.36582E-006, -4.05923E-006, -0.181189, 0.203544, 0.266396, 0.0548652, -0.0854599, -0.257907, 0.0016188, 0.00355662
103, 0.00000, 189.233, -109.882, -190.264, -109.037, 0.578558, 219.555, -1.51517E-006, -4.55429E-006, -0.200654, 0.225506, 0.295032, 0.0606762, -0.0946922, -0.285556, 0.00182943, 0.00392785
104, 0.00000, 189.035, -109.568, -189.923, -109.013, 0.430009, 219.263, -1.73964E-006, -5.34347E-006, -0.234067, 0.26264, 0.343772, 0.0709442, -0.110119, -0.332827, 0.00215337, 0.00458662
105, 0.00000, 191.884, -109.612, -191.22, -111.333, -0.832733, 221.457, -1.97005E-006, -6.38944E-006, -0.29458, 0.326379, 0.42947, 0.0913973, -0.135419, -0.417289, 0.00249837, 0.00590189
106, 0.00000, 193.912, -109.443, -191.987, -113.075, -1.88638, 222.936, -2.18964E-006, -7.51887E-006, -0.359352, 0.394023, 0.520689, 0.113548, -0.16202, -0.507368, 0.00287249, 0.00731559
