hour, t(sec), V1.re, V1.im, V2.re, V2.im, V3.re, V3.im, V4.re, V4.im, I1.re, I1.im, I2.re, I2.im, I3.re, I3.im, I4.re, I4.im
1, 0.00000, 191.706, -111.882, -193.004, -110.122, 1.06603, 222.359, 9.61301E-007, -1.33216E-005, -0.486169, 0.548798, 0.717627, 0.146173, -0.231841, -0.69413, -0.000577858, 0.0124809
2, 0.00000, 192.308, -112.012, -193.374, -110.57, 0.87561, 222.877, 7.35523E-007, -1.12256E-005, -0.411279, 0.463462, 0.606502, 0.124119, -0.195505, -0.587026, -0.000453936, 0.01067
3, 0.00000, 192.592, -112.074, -193.548, -110.781, 0.785305, 223.121, 6.06467E-007, -1.0257E-005, -0.376278, 0.42368, 0.554648, 0.113757, -0.178595, -0.536981, -0.000381711, 0.00980011
4, 0.00000, 192.764, -112.097, -193.642, -110.915, 0.72097, 223.263, 4.54976E-007, -9.96693E-006, -0.364159, 0.409791, 0.5366, 0.110229, -0.17265, -0.519609, -0.000246015, 0.00955529
5, 0.00000, 192.672, -112.072, -193.581, -110.849, 0.746344, 223.181, 4.6621E-007, -1.0405E-005, -0.379343, 0.426966, 0.559028, 0.114768, -0.17992, -0.541288, -0.000230998, 0.0099593
6, 0.00000, 192.353, -111.976, -193.363, -110.623, 0.82799, 222.893, 4.37936E-007, -1.21109E-005, -0.438118, 0.493466, 0.645879, 0.132333, -0.208075, -0.625218, -0.00012325, 0.0115297
7, 0.00000, 191.628, -111.778, -192.885, -110.101, 1.02764, 222.251, 5.08051E-007, -1.55313E-005, -0.556629, 0.628053, 0.821379, 0.167461, -0.265243, -0.79458, -1.47477E-005, 0.0145971
8, 0.00000, 190.589, -111.606, -192.296, -109.309, 1.39048, 221.389, 1.26817E-006, -1.74665E-005, -0.62263, 0.704932, 0.920498, 0.18595, -0.29856, -0.889476, -0.000576432, 0.0160597
9, 0.00000, 194.004, -111.46, -193.66, -112.24, -0.363393, 223.897, -6.0685E-006, -2.21165E-005, -0.635284, 0.707371, 0.92994, 0.19598, -0.295205, -0.903081, 0.00661736, 0.0218464
10, 0.00000, 195.392, -111.349, -194.179, -113.459, -1.11987, 224.902, -9.09233E-006, -2.44817E-005, -0.652867, 0.721849, 0.951634, 0.204065, -0.299284, -0.926072, 0.00960944, 0.0246401
11, 0.00000, 201.008, -110.894, -196.295, -118.41, -4.20849, 229.008, -1.9896E-005, -3.15445E-005, -0.653857, 0.70314, 0.937234, 0.214735, -0.283648, -0.919607, 0.0201663, 0.0332766
12, 0.00000, 201.301, -110.874, -196.409, -118.668, -4.36755, 229.226, -2.03876E-005, -3.17352E-005, -0.648537, 0.696449, 0.928843, 0.213502, -0.280545, -0.911739, 0.0206272, 0.0335231
13, 0.00000, 199.202, -111.068, -195.633, -116.803, -3.19023, 227.694, -1.65052E-005, -2.92102E-005, -0.65264, 0.708185, 0.940629, 0.211023, -0.28832, -0.920473, 0.0168367, 0.0304746
14, 0.00000, 194.045, -111.389, -193.62, -112.306, -0.436556, 223.894, -6.59425E-006, -2.34297E-005, -0.669149, 0.744533, 0.979075, 0.206686, -0.310514, -0.950964, 0.00718214, 0.0231744
15, 0.00000, 191.105, -111.439, -192.381, -109.814, 1.01726, 221.695, -8.94728E-007, -2.10442E-005, -0.699612, 0.789173, 1.03201, 0.210407, -0.33319, -0.998244, 0.00168636, 0.0197083
16, 0.00000, 188.963, -111.336, -191.373, -108.066, 1.96413, 220.043, 2.73383E-006, -2.13089E-005, -0.77143, 0.87814, 1.144, 0.227723, -0.373634, -1.10346, -0.0016734, 0.0189033
17, 0.00000, 187.906, -111.091, -190.72, -107.291, 2.28211, 219.139, 3.29604E-006, -2.51413E-005, -0.89966, 1.02719, 1.33633, 0.263766, -0.438124, -1.2876, -0.00184157, 0.0217884
18, 0.00000, 187.04, -110.885, -190.18, -106.656, 2.54105, 218.394, 3.39722E-006, -2.86825E-005, -1.00438, 1.14956, 1.49386, 0.292804, -0.491309, -1.43815, -0.00157045, 0.0244748
19, 0.00000, 186.698, -110.802, -189.967, -106.406, 2.64287, 218.098, 3.21023E-006, -3.00844E-005, -1.0458, 1.19811, 1.55625, 0.304189, -0.512463, -1.49771, -0.00119872, 0.0254982
20, 0.00000, 186.499, -110.753, -189.843, -106.262, 2.70125, 217.926, 3.11165E-006, -3.08785E-005, -1.06979, 1.22627, 1.5924, 0.31076, -0.524745, -1.53222, -0.000984071, 0.026068
21, 0.00000, 186.875, -110.821, -190.056, -106.545, 2.5744, 218.238, 3.09068E-006, -2.99362E-005, -1.04148, 1.19235, 1.54928, 0.303391, -0.509743, -1.49132, -0.00115203, 0.0255113
22, 0.00000, 187.481, -110.991, -190.456, -106.98, 2.40926, 218.775, 3.43364E-006, -2.68104E-005, -0.951058, 1.08718, 1.41358, 0.278057, -0.464164, -1.36146, -0.00179579, 0.0230305
23, 0.00000, 188.692, -111.273, -191.206, -107.867, 2.04597, 219.811, 2.87265E-006, -2.22925E-005, -0.80437, 0.916342, 1.19335, 0.237031, -0.390132, -1.15073, -0.00171941, 0.0196504
24, 0.00000, 190.109, -111.598, -192.083, -108.91, 1.6142, 221.026, 2.17878E-006, -1.72103E-005, -0.630728, 0.715637, 0.933662, 0.187552, -0.303655, -0.901599, -0.00145769, 0.0156197
25, 0.00000, 191.001, -111.845, -192.672, -109.549, 1.37338, 221.815, 2.05642E-006, -1.29697E-005, -0.486724, 0.551052, 0.719669, 0.145461, -0.233385, -0.695513, -0.0016161, 0.0119697
26, 0.00000, 191.658, -111.982, -193.07, -110.04, 1.16146, 222.375, 1.71969E-006, -1.09026E-005, -0.411758, 0.465264, 0.608144, 0.123582, -0.196712, -0.588121, -0.00139333, 0.0101772
27, 0.00000, 191.988, -112.047, -193.266, -110.288, 1.0523, 222.655, 1.52225E-006, -9.95134E-006, -0.376669, 0.425191, 0.556021, 0.113296, -0.179618, -0.537898, -0.00125647, 0.00936181
28, 0.00000, 192.296, -112.077, -193.424, -110.532, 0.928883, 222.901, 1.16471E-006, -9.72805E-006, -0.364456, 0.410927, 0.537633, 0.109885, -0.173419, -0.520301, -0.000922939, 0.009217
29, 0.00000, 192.428, -112.062, -193.467, -110.649, 0.854864, 222.992, 8.38774E-007, -1.02669E-005, -0.379485, 0.427568, 0.559583, 0.114575, -0.18034, -0.541664, -0.000597257, 0.00978745
30, 0.00000, 191.889, -111.956, -193.146, -110.244, 1.03323, 222.535, 1.12514E-006, -1.18739E-005, -0.438452, 0.494809, 0.647118, 0.131916, -0.208993, -0.626036, -0.000797574, 0.0111844
31, 0.00000, 190.831, -111.738, -192.509, -109.452, 1.37617, 221.634, 1.69759E-006, -1.5167E-005, -0.557358, 0.630984, 0.824062, 0.166547, -0.267241, -0.796359, -0.0011608, 0.0139951
32, 0.00000, 190.564, -111.605, -192.284, -109.287, 1.40261, 221.369, 1.29966E-006, -1.74405E-005, -0.622606, 0.704981, 0.920559, 0.185909, -0.298622, -0.889499, -0.000630412, 0.0160488
33, 0.00000, 192.912, -111.516, -193.23, -111.297, 0.207067, 223.096, -3.74833E-006, -2.0711E-005, -0.636015, 0.711987, 0.933992, 0.194208, -0.298578, -0.905569, 0.0043489, 0.0200844
34, 0.00000, 194.567, -111.395, -193.853, -112.743, -0.685315, 224.294, -7.44653E-006, -2.34837E-005, -0.65343, 0.72538, 0.954766, 0.202717, -0.301882, -0.928005, 0.00799306, 0.0233923
35, 0.00000, 196.745, -111.226, -194.674, -114.656, -1.87245, 225.879, -1.20393E-005, -2.65821E-005, -0.656718, 0.721109, 0.95326, 0.207873, -0.297013, -0.929548, 0.01251, 0.0271483
36, 0.00000, 197.134, -111.21, -194.833, -114.992, -2.07416, 226.169, -1.27323E-005, -2.68669E-005, -0.651287, 0.713843, 0.944345, 0.206842, -0.293501, -0.921356, 0.0131755, 0.0275376
37, 0.00000, 195.649, -111.303, -194.254, -113.697, -1.28151, 225.076, -9.85559E-006, -2.51423E-005, -0.655097, 0.72323, 0.954027, 0.205322, -0.299435, -0.928804, 0.0103598, 0.0253945
38, 0.00000, 192.995, -111.415, -193.183, -111.412, 0.0887813, 223.11, -4.62403E-006, -2.23736E-005, -0.669982, 0.749137, 0.983181, 0.205004, -0.313837, -0.95355, 0.00526267, 0.0217827
39, 0.00000, 190.274, -111.454, -192.034, -109.112, 1.42628, 221.079, 8.37349E-007, -2.01158E-005, -0.700312, 0.79308, 1.03546, 0.208971, -0.335979, -1.00039, -4.15972E-006, 0.0184546
40, 0.00000, 190.312, -111.417, -192.016, -109.155, 1.38772, 221.086, 7.03771E-007, -2.18243E-005, -0.769665, 0.871214, 1.13768, 0.229854, -0.368963, -1.09925, 0.000242425, 0.0200028
41, 0.00000, 187.942, -111.093, -190.737, -107.32, 2.26688, 219.167, 3.23248E-006, -2.51687E-005, -0.899667, 1.02705, 1.33623, 0.26385, -0.438009, -1.28756, -0.00178281, 0.0218335
42, 0.00000, 187.04, -110.885, -190.18, -106.656, 2.54123, 218.394, 3.38834E-006, -2.86829E-005, -1.0044, 1.14958, 1.4939, 0.292808, -0.491321, -1.43818, -0.00156679, 0.0244764
43, 0.00000, 186.699, -110.802, -189.967, -106.407, 2.64293, 218.098, 3.21856E-006, -3.00675E-005, -1.04575, 1.19805, 1.55621, 0.304184, -0.51245, -1.49767, -0.00122359, 0.0255038
44, 0.00000, 186.5, -110.753, -189.843, -106.263, 2.70133, 217.927, 3.11241E-006, -3.0869E-005, -1.06976, 1.22623, 1.59238, 0.310757, -0.524737, -1.53219, -0.000995635, 0.0260728
45, 0.00000, 186.73, -110.809, -189.988, -106.431, 2.63278, 218.127, 3.22591E-006, -2.99691E-005, -1.04176, 1.19338, 1.55013, 0.303069, -0.510386, -1.49187, -0.00120414, 0.0253941
46, 0.00000, 187.48, -110.991, -190.456, -106.98, 2.40916, 218.774, 3.43703E-006, -2.68213E-005, -0.951072, 1.0872, 1.41359, 0.278057, -0.464166, -1.36147, -0.00178914, 0.0230324
47, 0.00000, 188.692, -111.273, -191.207, -107.868, 2.04557, 219.811, 2.88452E-006, -2.22937E-005, -0.804355, 0.916326, 1.1933, 0.237021, -0.390116, -1.15069, -0.00171123, 0.0196387
48, 0.00000, 190.109, -111.598, -192.083, -108.91, 1.6142, 221.026, 2.1788E-006, -1.72103E-005, -0.630728, 0.715637, 0.933661, 0.187552, -0.303655, -0.901599, -0.00145766, 0.0156197
49, 0.00000, 191.273, -111.859, -192.8, -109.77, 1.25525, 222.025, 1.64013E-006, -1.30964E-005, -0.486489, 0.550159, 0.718864, 0.145731, -0.232789, -0.694976, -0.0012254, 0.0121828
50, 0.00000, 191.872, -111.993, -193.17, -110.214, 1.06832, 222.54, 1.38816E-006, -1.10057E-005, -0.411577, 0.464652, 0.60759, 0.123751, -0.196314, -0.587746, -0.00108711, 0.0103489
51, 0.00000, 191.72, -112.034, -193.14, -110.069, 1.17029, 222.447, 1.92812E-006, -9.80825E-006, -0.376829, 0.425859, 0.556622, 0.113081, -0.180073, -0.538297, -0.00164807, 0.00916576
52, 0.00000, 191.816, -112.056, -193.199, -110.141, 1.14045, 222.53, 1.88691E-006, -9.47339E-006, -0.364746, 0.412091, 0.538704, 0.109523, -0.174212, -0.521012, -0.00163211, 0.00887069
53, 0.00000, 191.695, -112.029, -193.124, -110.051, 1.17837, 222.425, 1.93119E-006, -9.89423E-006, -0.379941, 0.429405, 0.561261, 0.114002, -0.18159, -0.542767, -0.00166077, 0.00925384
54, 0.00000, 191.223, -111.923, -192.832, -109.701, 1.32565, 222.019, 2.12814E-006, -1.15393E-005, -0.438919, 0.496725, 0.648871, 0.131312, -0.210307, -0.627198, -0.00177349, 0.0107002
55, 0.00000, 191.444, -111.771, -192.798, -109.951, 1.1094, 222.108, 7.35797E-007, -1.54749E-005, -0.556838, 0.628772, 0.822048, 0.167264, -0.265701, -0.794984, -0.000244399, 0.0144227
56, 0.00000, 190.95, -111.655, -192.489, -109.587, 1.25867, 221.681, 9.73641E-007, -1.7317E-005, -0.622089, 0.703416, 0.919074, 0.186297, -0.297619, -0.888451, -0.000338745, 0.0160547
57, 0.00000, 191.278, -111.564, -192.56, -109.904, 1.02917, 221.886, -3.65414E-007, -1.8817E-005, -0.637242, 0.718961, 0.940142, 0.19163, -0.303587, -0.9094, 0.00105267, 0.0176271
58, 0.00000, 191.817, -111.507, -192.746, -110.382, 0.725996, 222.264, -1.80375E-006, -2.0219E-005, -0.655451, 0.737345, 0.965322, 0.198225, -0.310557, -0.934548, 0.0024895, 0.0191966
59, 0.00000, 192.549, -111.473, -193.036, -111.011, 0.348672, 222.8, -3.38608E-006, -2.12609E-005, -0.659577, 0.73933, 0.969318, 0.200867, -0.310403, -0.939422, 0.00404799, 0.0204857
60, 0.00000, 192.589, -111.482, -193.061, -111.041, 0.336261, 222.835, -3.40571E-006, -2.11079E-005, -0.654328, 0.733363, 0.96156, 0.19932, -0.307872, -0.931937, 0.00404622, 0.0203612
61, 0.00000, 192.183, -111.49, -192.891, -110.696, 0.538131, 222.532, -2.60296E-006, -2.07312E-005, -0.657473, 0.738295, 0.967285, 0.199537, -0.310473, -0.93695, 0.0032637, 0.0198503
62, 0.00000, 191.31, -111.49, -192.512, -109.964, 0.957352, 221.874, -9.50497E-007, -2.02007E-005, -0.671209, 0.756725, 0.989825, 0.202109, -0.319342, -0.957627, 0.00167569, 0.0189932
63, 0.00000, 191.084, -111.44, -192.372, -109.797, 1.02764, 221.68, -8.50273E-007, -2.10208E-005, -0.699629, 0.789271, 1.03209, 0.21037, -0.333259, -0.998296, 0.0016441, 0.0196754
64, 0.00000, 188.962, -111.336, -191.373, -108.066, 1.96413, 220.043, 2.73449E-006, -2.13097E-005, -0.771432, 0.878142, 1.14401, 0.227723, -0.373635, -1.10346, -0.00167291, 0.0189025
65, 0.00000, 187.906, -111.091, -190.72, -107.292, 2.2821, 219.139, 3.29204E-006, -2.51287E-005, -0.899623, 1.02714, 1.33629, 0.263762, -0.438112, -1.28758, -0.00184535, 0.0217981
66, 0.00000, 187.183, -110.896, -190.249, -106.769, 2.48251, 218.505, 3.22748E-006, -2.86847E-005, -1.00421, 1.14869, 1.49314, 0.293122, -0.490721, -1.43771, -0.0014382, 0.0245756
67, 0.00000, 186.698, -110.802, -189.967, -106.407, 2.64288, 218.098, 3.21519E-006, -3.00723E-005, -1.04576, 1.19807, 1.55622, 0.304184, -0.512454, -1.49768, -0.00121691, 0.0255023
68, 0.00000, 186.499, -110.753, -189.843, -106.262, 2.70127, 217.926, 3.11204E-006, -3.0875E-005, -1.06978, 1.22625, 1.59239, 0.310758, -0.524742, -1.53221, -0.000988594, 0.0260697
69, 0.00000, 186.731, -110.81, -189.988, -106.431, 2.63283, 218.127, 3.22866E-006, -2.99624E-005, -1.04174, 1.19335, 1.55011, 0.303068, -0.510381, -1.49186, -0.00121327, 0.0253971
70, 0.00000, 187.481, -110.991, -190.456, -106.98, 2.40926, 218.775, 3.43369E-006, -2.68126E-005, -0.951061, 1.08719, 1.41359, 0.278058, -0.464165, -1.36146, -0.00179388, 0.023031
71, 0.00000, 188.692, -111.274, -191.206, -107.868, 2.04572, 219.812, 2.87914E-006, -2.22929E-005, -0.804345, 0.916312, 1.19329, 0.237022, -0.390115, -1.15069, -0.00171417, 0.0196449
72, 0.00000, 190.11, -111.598, -192.082, -108.91, 1.61435, 221.026, 2.17363E-006, -1.72106E-005, -0.630719, 0.715625, 0.93366, 0.187552, -0.303654, -0.901594, -0.00146109, 0.0156264
73, 0.00000, 190.987, -111.796, -192.625, -109.559, 1.3434, 221.78, 1.77221E-006, -1.4104E-005, -0.521967, 0.59076, 0.771607, 0.156073, -0.250135, -0.745762, -0.00127726, 0.0130321
74, 0.00000, 191.645, -111.942, -193.03, -110.046, 1.13892, 222.345, 1.48872E-006, -1.17948E-005, -0.439927, 0.496979, 0.649662, 0.132085, -0.210086, -0.628303, -0.00113837, 0.0110343
75, 0.00000, 191.999, -112.021, -193.248, -110.308, 1.02831, 222.65, 1.33761E-006, -1.05598E-005, -0.395574, 0.446424, 0.583845, 0.119032, -0.188551, -0.564848, -0.00105699, 0.00995124
76, 0.00000, 192.161, -112.056, -193.348, -110.428, 0.977531, 222.789, 1.26934E-006, -9.99593E-006, -0.375218, 0.423257, 0.553664, 0.113021, -0.178696, -0.535734, -0.00101888, 0.00945206
77, 0.00000, 192.163, -112.057, -193.349, -110.43, 0.977115, 222.79, 1.26732E-006, -9.99082E-006, -0.375038, 0.423051, 0.553398, 0.112969, -0.178609, -0.535479, -0.00101892, 0.00945003
78, 0.00000, 192.004, -112.022, -193.251, -110.312, 1.02691, 222.654, 1.33149E-006, -1.05417E-005, -0.394974, 0.44574, 0.582964, 0.118857, -0.188264, -0.563999, -0.00105759, 0.00994329
79, 0.00000, 191.636, -111.94, -193.024, -110.039, 1.14204, 222.337, 1.48532E-006, -1.18259E-005, -0.441106, 0.498322, 0.651429, 0.132436, -0.210665, -0.630008, -0.00114267, 0.0110759
80, 0.00000, 191.312, -111.775, -192.747, -109.84, 1.17235, 222.013, 9.79711E-007, -1.47497E-005, -0.528425, 0.597079, 0.780402, 0.158525, -0.252456, -0.754626, -0.000500262, 0.0137719
81, 0.00000, 192.492, -111.462, -193.002, -110.968, 0.368029, 222.752, -3.35797E-006, -2.14328E-005, -0.666006, 0.746664, 0.978876, 0.202754, -0.313536, -0.948628, 0.00402384, 0.0206424
82, 0.00000, 193.4, -111.168, -193.156, -111.862, -0.293484, 223.298, -6.86914E-006, -2.73509E-005, -0.794185, 0.884682, 1.16268, 0.24462, -0.369363, -1.12876, 0.00773437, 0.0268115
83, 0.00000, 195.462, -110.923, -193.86, -113.707, -1.47804, 224.753, -1.17847E-005, -3.22561E-005, -0.86055, 0.948035, 1.25143, 0.270534, -0.391757, -1.21886, 0.0126658, 0.0325481
84, 0.00000, 195.252, -110.883, -193.735, -113.547, -1.4064, 224.573, -1.1692E-005, -3.29733E-005, -0.886724, 0.977482, 1.28995, 0.278415, -0.404173, -1.25613, 0.0126351, 0.0332017
85, 0.00000, 194.045, -110.923, -193.238, -112.513, -0.791154, 223.672, -9.4785E-006, -3.20714E-005, -0.900034, 0.997793, 1.31375, 0.279612, -0.414768, -1.27712, 0.0105288, 0.0317812
86, 0.00000, 191.245, -110.996, -192.076, -110.127, 0.613572, 221.587, -4.06982E-006, -2.96598E-005, -0.920481, 1.03403, 1.35419, 0.27879, -0.434996, -1.3112, 0.00535277, 0.0280317
87, 0.00000, 186.702, -110.882, -190.04, -106.38, 2.69139, 218.149, 3.90732E-006, -2.71074E-005, -0.944051, 1.08222, 1.40544, 0.274318, -0.463075, -1.35239, -0.00222194, 0.0229588
88, 0.00000, 185.821, -110.846, -189.6, -105.64, 3.1056, 217.444, 4.71538E-006, -2.73156E-005, -0.964003, 1.10942, 1.43854, 0.277813, -0.476396, -1.38253, -0.00286022, 0.0226112
89, 0.00000, 186.615, -110.841, -189.966, -106.322, 2.70954, 218.059, 3.66933E-006, -2.89074E-005, -1.01142, 1.15954, 1.50572, 0.293781, -0.496228, -1.4488, -0.00174466, 0.0243879
90, 0.00000, 187.672, -110.889, -190.449, -107.18, 2.24639, 218.863, 2.40313E-006, -2.97619E-005, -1.03649, 1.18281, 1.53898, 0.304027, -0.504328, -1.4829, -0.000563811, 0.0258215
91, 0.00000, 189.154, -110.996, -191.167, -108.368, 1.6271, 220.015, 4.01604E-007, -2.98398E-005, -1.02836, 1.16643, 1.52159, 0.305507, -0.49487, -1.4689, 0.00124022, 0.0268039
92, 0.00000, 186.84, -110.836, -190.055, -106.51, 2.60076, 218.221, 3.29523E-006, -2.94961E-005, -1.02861, 1.17795, 1.53037, 0.299472, -0.503682, -1.47301, -0.00137352, 0.0250814
93, 0.00000, 187.17, -110.916, -190.26, -106.751, 2.50291, 218.506, 3.3997E-006, -2.81298E-005, -0.988656, 1.13115, 1.47023, 0.288471, -0.483311, -1.41557, -0.00166499, 0.0240753
94, 0.00000, 187.814, -111.069, -190.663, -107.224, 2.30939, 219.061, 3.35324E-006, -2.54888E-005, -0.910742, 1.04012, 1.35296, 0.266849, -0.443722, -1.30351, -0.00185063, 0.0220299
95, 0.00000, 188.734, -111.283, -191.232, -107.898, 2.03295, 219.847, 2.86192E-006, -2.21405E-005, -0.799257, 0.910408, 1.18566, 0.235584, -0.38756, -1.14337, -0.0017048, 0.0195225
96, 0.00000, 189.84, -111.537, -191.917, -108.712, 1.6966, 220.795, 2.30705E-006, -1.81681E-005, -0.663849, 0.753793, 0.983103, 0.197064, -0.320051, -0.949088, -0.00150918, 0.0163987
97, 0.00000, 190.893, -111.774, -192.566, -109.489, 1.37312, 221.698, 1.80695E-006, -1.44308E-005, -0.533774, 0.604284, 0.789205, 0.159515, -0.25593, -0.762694, -0.00130792, 0.0133261
98, 0.00000, 191.579, -111.928, -192.99, -109.997, 1.15923, 222.289, 1.51756E-006, -1.20251E-005, -0.448134, 0.506345, 0.661842, 0.134493, -0.214078, -0.640047, -0.00114721, 0.0112347
99, 0.00000, 191.975, -112.015, -193.233, -110.29, 1.03598, 222.628, 1.34821E-006, -1.06452E-005, -0.398649, 0.449926, 0.588405, 0.119939, -0.190042, -0.569246, -0.00106261, 0.0100262
100, 0.00000, 192.171, -112.059, -193.354, -110.435, 0.974594, 222.797, 1.2659E-006, -9.96355E-006, -0.374045, 0.421922, 0.551924, 0.112675, -0.178128, -0.534056, -0.00101653, 0.00942246
101, 0.00000, 192.23, -112.072, -193.39, -110.48, 0.955927, 222.848, 1.24292E-006, -9.75679E-006, -0.36654, 0.413386, 0.540797, 0.110454, -0.174497, -0.523319, -0.00100337, 0.00923488
102, 0.00000, 192.134, -112.05, -193.331, -110.408, 0.986278, 222.765, 1.27421E-006, -1.00917E-005, -0.37873, 0.427252, 0.558881, 0.114062, -0.1804, -0.540771, -0.00102466, 0.00954955
103, 0.00000, 191.815, -111.98, -193.135, -110.172, 1.08608, 222.491, 1.40974E-006, -1.12E-005, -0.418678, 0.472745, 0.618135, 0.125843, -0.199764, -0.597914, -0.00110205, 0.0105266
104, 0.00000, 191.635, -111.847, -192.947, -110.079, 1.07174, 222.291, 8.43117E-007, -1.36038E-005, -0.487777, 0.550646, 0.720007, 0.146625, -0.232638, -0.696448, -0.000435512, 0.0127804
105, 0.00000, 192.87, -111.547, -193.236, -111.248, 0.250193, 223.078, -3.49543E-006, -2.00293E-005, -0.616727, 0.690692, 0.905922, 0.188178, -0.289758, -0.87825, 0.00405909, 0.0194095
106, 0.00000, 193.694, -111.234, -193.339, -112.079, -0.384877, 223.553, -6.9616E-006, -2.62056E-005, -0.754436, 0.839732, 1.104, 0.232773, -0.350337, -1.0721, 0.00773174, 0.0257964
107, 0.00000, 197.915, -110.673, -194.741, -115.894, -2.86972, 226.517, -1.7189E-005, -3.55931E-005, -0.83888, 0.912546, 1.21061, 0.269777, -0.372463, -1.18353, 0.0179177, 0.0368016
108, 0.00000, 203.736, -110.016, -196.8, -121.121, -6.22929, 230.717, -2.80441E-005, -4.37608E-005, -0.868373, 0.917107, 1.23097, 0.293609, -0.363008, -1.21395, 0.0284551, 0.0469942
