hour, t(sec), P1 (kW), Q1 (kvar), P2 (kW), Q2 (kvar), P3 (kW), Q3 (kvar), P4 (kW), Q4 (kvar)
1, 0.00000, -0.137521, -0.0452131, -5.72647E-013, 4.25264E-013, -7.5909E-014, -1.05101E-014, -5.99923E-007, 1.23423E-005
2, 0.00000, -0.116534, -0.0383116, 3.97165E-013, 5.19125E-013, -1.85947E-013, 3.28479E-013, -2.35437E-007, 8.76079E-006
3, 0.00000, -0.106703, -0.035079, -2.61479E-013, -4.38855E-013, 9.02623E-014, -1.89701E-013, -1.0098E-007, 7.28683E-006
4, 0.00000, -0.103306, -0.033962, -7.88526E-013, 2.7904E-013, 1.80953E-013, 4.43517E-013, 9.029E-008, 6.73865E-006
5, 0.00000, -0.10758, -0.0353669, 1.06709E-014, -2.19772E-013, -2.97716E-014, -1.16531E-013, 1.12792E-007, 7.30731E-006
6, 0.00000, -0.124115, -0.0408042, 3.48093E-013, 4.81666E-014, 4.0416E-013, 2.35523E-013, 2.92665E-007, 9.67327E-006
7, 0.00000, -0.157331, -0.0517277, -5.36853E-013, 4.91113E-013, -1.67769E-013, 2.12502E-013, 4.69781E-007, 1.55833E-005
8, 0.00000, -0.175533, -0.057716, 5.79053E-013, 2.17892E-014, -3.69473E-013, 1.7029E-013, -8.86261E-007, 2.05627E-005
9, 0.00000, -0.179786, -0.0591016, 1.05444E-012, 3.75938E-013, -7.17238E-013, -2.16166E-013, 1.96866E-005, 1.54284E-005
10, 0.00000, -0.184999, -0.0608107, 3.37743E-015, -2.92161E-013, -6.1278E-013, -3.10157E-013, 2.91152E-005, 1.39291E-005
11, 0.00000, -0.186333, -0.0612301, -2.34501E-013, -1.36512E-013, 1.6358E-013, -1.42545E-014, 6.10938E-005, 5.2705E-006
12, 0.00000, -0.184879, -0.0607512, -9.16371E-014, -1.70923E-013, 5.5365E-014, -6.04E-014, 6.2001E-005, 4.69916E-006
13, 0.00000, -0.185668, -0.0610172, -3.1677E-013, -6.54719E-013, -1.07244E-012, -2.49045E-013, 5.08787E-005, 7.92418E-006
14, 0.00000, -0.189297, -0.0622286, 2.26512E-013, -7.66137E-014, 8.76187E-014, 3.76933E-013, 2.24637E-005, 1.6936E-005
15, 0.00000, -0.197167, -0.0648275, -1.20488E-013, 1.99401E-013, -2.44519E-013, 1.30489E-013, 5.93897E-006, 2.39065E-005
16, 0.00000, -0.216633, -0.0712384, 8.97834E-015, 6.52804E-015, 3.96249E-013, 1.08717E-013, -5.57921E-006, 3.28945E-005
17, 0.00000, -0.251876, -0.0828353, 8.11896E-013, 5.32595E-013, 1.06524E-012, 7.5723E-014, -8.39064E-006, 4.50246E-005
18, 0.00000, -0.280494, -0.0922526, 3.78335E-013, 5.98829E-014, 6.60906E-013, -3.19082E-014, -9.33523E-006, 5.62244E-005
19, 0.00000, -0.291762, -0.0959606, 4.4352E-013, 1.85105E-013, 4.65122E-014, -1.90189E-013, -9.22888E-006, 6.026E-005
20, 0.00000, -0.298277, -0.0981046, 7.08035E-013, -2.2641E-013, -1.55636E-013, -2.74431E-013, -9.23687E-006, 6.26182E-005
21, 0.00000, -0.290654, -0.0955958, -9.14995E-014, -1.89322E-013, 7.55993E-013, -3.1246E-013, -8.58524E-006, 5.95962E-005
22, 0.00000, -0.265936, -0.0874624, 1.12266E-013, -4.205E-014, -1.09629E-012, -3.28598E-014, -9.24159E-006, 5.04282E-005
23, 0.00000, -0.2257, -0.0742221, -3.50905E-013, -1.28071E-013, 8.32461E-014, 2.488E-013, -6.22615E-006, 3.58314E-005
24, 0.00000, -0.177696, -0.0584288, -3.03512E-013, 1.33659E-013, 3.73809E-013, 2.50244E-013, -3.37806E-006, 2.18544E-005
25, 0.00000, -0.137516, -0.0452132, -6.59168E-014, 4.81433E-013, 6.68304E-013, 2.23514E-013, -2.57294E-006, 1.33124E-005
26, 0.00000, -0.116537, -0.0383127, 3.15763E-014, -6.77642E-014, 2.23509E-013, 2.9584E-013, -1.76255E-006, 9.49343E-006
27, 0.00000, -0.106702, -0.0350789, -6.19274E-014, -2.12276E-013, -1.23173E-013, 4.38323E-014, -1.38001E-006, 7.90893E-006
28, 0.00000, -0.103306, -0.033962, -3.17301E-013, -1.52395E-013, 1.10214E-013, 4.00311E-013, -8.66637E-007, 7.20327E-006
29, 0.00000, -0.107579, -0.0353671, 1.04323E-012, 3.96969E-013, -8.41418E-013, 1.7257E-013, -4.08871E-007, 7.56207E-006
30, 0.00000, -0.124117, -0.0408057, 4.1132E-015, -3.77383E-014, 1.11114E-012, 2.2212E-013, -8.50844E-007, 1.02282E-005
31, 0.00000, -0.157328, -0.0517288, 1.99973E-013, -1.98687E-013, -5.826E-013, -2.9274E-013, -2.05956E-006, 1.68319E-005
32, 0.00000, -0.175528, -0.0577142, 5.23821E-014, 1.83174E-013, 2.57062E-013, -1.47303E-015, -9.62904E-007, 2.06139E-005
33, 0.00000, -0.17978, -0.0591037, 4.8313E-013, -1.82535E-013, 1.35679E-012, -2.50588E-013, 1.31151E-005, 1.72769E-005
34, 0.00000, -0.184993, -0.0608117, -3.11424E-013, 6.98358E-014, -8.74627E-013, -1.29023E-013, 2.43405E-005, 1.53196E-005
35, 0.00000, -0.186315, -0.0612382, -2.3788E-013, -3.28173E-014, -2.21142E-014, -1.81665E-013, 3.81763E-005, 1.19133E-005
36, 0.00000, -0.18486, -0.0607587, 2.35756E-013, -6.44641E-013, 9.23521E-013, -2.59014E-013, 3.98515E-005, 1.10863E-005
37, 0.00000, -0.185649, -0.0610231, 7.1264E-013, 5.76129E-013, 1.02047E-012, 1.52356E-013, 3.16376E-005, 1.36108E-005
38, 0.00000, -0.189288, -0.0622291, 7.06522E-013, -6.99583E-014, 7.53555E-013, -5.50992E-013, 1.67661E-005, 1.88066E-005
39, 0.00000, -0.197161, -0.064829, -2.10786E-013, -3.28643E-013, 4.54292E-013, -6.40355E-013, 6.14761E-007, 2.55686E-005
40, 0.00000, -0.216642, -0.071236, -4.57876E-013, -4.78761E-013, -8.14346E-014, -1.99316E-013, 5.76625E-007, 2.98531E-005
41, 0.00000, -0.251883, -0.0828377, 3.39051E-014, -4.7769E-013, 2.30992E-013, -2.67502E-013, -8.14445E-006, 4.49412E-005
42, 0.00000, -0.280496, -0.0922538, -1.12996E-013, -1.08141E-014, 5.51771E-013, -1.95196E-013, -9.31383E-006, 5.62144E-005
43, 0.00000, -0.291758, -0.0959593, 6.63135E-013, 8.77272E-013, -3.88845E-013, 2.30309E-013, -9.24648E-006, 6.02884E-005
44, 0.00000, -0.298275, -0.0981038, 1.87457E-014, 6.35125E-013, 2.65649E-014, 4.92792E-013, -9.23339E-006, 6.26274E-005
45, 0.00000, -0.290653, -0.095596, -7.52572E-013, -2.95858E-013, -3.72729E-013, -2.80223E-013, -9.2238E-006, 5.98279E-005
46, 0.00000, -0.265937, -0.0874628, 6.52958E-015, -6.24511E-014, 3.39484E-013, 7.74322E-014, -9.23831E-006, 5.04369E-005
47, 0.00000, -0.225699, -0.0742215, 5.94567E-013, 6.21477E-013, 7.88546E-014, 5.55978E-013, -6.26222E-006, 3.58189E-005
48, 0.00000, -0.177696, -0.0584288, 1.64103E-013, 8.08403E-013, 6.87106E-013, 4.41817E-013, -3.37807E-006, 2.18543E-005
49, 0.00000, -0.137515, -0.0452124, -1.78195E-013, -4.82888E-013, -3.69837E-014, 4.11492E-014, -1.80228E-006, 1.29441E-005
50, 0.00000, -0.116534, -0.0383124, -4.78106E-014, 5.43538E-014, 7.96573E-013, 1.09049E-013, -1.24464E-006, 9.2527E-006
51, 0.00000, -0.106701, -0.0350796, 3.11926E-013, -4.63204E-013, -2.9647E-013, -1.79317E-014, -1.95107E-006, 8.18169E-006
52, 0.00000, -0.103306, -0.0339634, 5.81863E-013, 4.24419E-014, -6.86053E-014, -5.25228E-014, -1.84891E-006, 7.68375E-006
53, 0.00000, -0.107578, -0.035368, 4.97042E-013, 1.32735E-013, -3.38026E-013, -2.7936E-013, -1.96301E-006, 8.32034E-006
54, 0.00000, -0.124113, -0.0408058, -3.87608E-013, -4.7582E-013, 2.63913E-013, -6.62867E-014, -2.49944E-006, 1.10405E-005
55, 0.00000, -0.157338, -0.0517298, 7.38231E-013, 8.31412E-014, -1.18298E-012, -5.55837E-014, -9.43215E-008, 1.58419E-005
56, 0.00000, -0.175529, -0.0577137, -3.91637E-013, -1.25011E-013, 8.76583E-013, -3.70325E-013, -4.46185E-007, 1.99367E-005
57, 0.00000, -0.179773, -0.0591075, -2.75845E-014, 1.46478E-013, 3.53441E-014, -3.64811E-013, 3.67791E-006, 2.01409E-005
58, 0.00000, -0.184979, -0.0608172, -1.45463E-012, -5.12429E-013, -4.39433E-013, 2.13436E-013, 8.0312E-006, 2.01533E-005
59, 0.00000, -0.186291, -0.0612458, 1.65473E-013, 1.49263E-013, -2.93299E-013, -2.09467E-013, 1.27079E-005, 1.90709E-005
60, 0.00000, -0.184832, -0.0607659, -2.33997E-013, -3.76649E-013, 7.97187E-013, -3.46941E-013, 1.26414E-005, 1.87387E-005
61, 0.00000, -0.185628, -0.0610293, 6.14294E-013, 9.22854E-013, -8.05717E-013, 4.81519E-013, 1.03851E-005, 1.96111E-005
62, 0.00000, -0.18928, -0.0622333, 3.92323E-013, -8.9164E-014, -2.06624E-013, 2.242E-013, 5.76194E-006, 2.19198E-005
63, 0.00000, -0.197166, -0.0648275, 5.01148E-013, -2.98997E-013, -2.59955E-013, 1.08707E-013, 5.80187E-006, 2.3948E-005
64, 0.00000, -0.216633, -0.0712384, 4.25383E-013, 2.01527E-013, 3.39623E-013, 3.38985E-013, -5.58135E-006, 3.28949E-005
65, 0.00000, -0.251871, -0.082833, 5.74164E-014, 3.77232E-013, -9.71433E-013, 4.11585E-013, -8.36656E-006, 4.50102E-005
66, 0.00000, -0.280504, -0.0922562, 2.91482E-013, -7.79626E-014, -6.49374E-013, 2.18472E-013, -8.65185E-006, 5.58715E-005
67, 0.00000, -0.291759, -0.0959596, 3.21704E-014, -1.7973E-013, 7.47209E-013, 4.44981E-013, -9.23925E-006, 6.02809E-005
68, 0.00000, -0.298276, -0.0981043, 3.20092E-013, 7.90657E-013, -2.53057E-013, 2.3631E-013, -9.23599E-006, 6.26224E-005
69, 0.00000, -0.290651, -0.0955954, -1.07423E-013, 2.30877E-013, 2.38021E-013, 2.05097E-013, -9.22736E-006, 5.98375E-005
70, 0.00000, -0.265936, -0.0874625, 5.28887E-013, 6.64909E-013, 1.43769E-012, 3.4734E-013, -9.23921E-006, 5.04286E-005
71, 0.00000, -0.225698, -0.0742211, 8.45304E-013, 1.1042E-013, 1.33815E-013, 3.39396E-013, -6.24269E-006, 3.58229E-005
72, 0.00000, -0.177696, -0.0584286, 6.50671E-013, 2.27384E-013, -1.56891E-013, 2.90262E-013, -3.3622E-006, 2.18598E-005
73, 0.00000, -0.147421, -0.0484706, -5.07142E-013, -5.57898E-013, -4.91307E-013, 2.62725E-013, -2.13603E-006, 1.49098E-005
74, 0.00000, -0.124479, -0.0409253, -7.29284E-013, -8.05862E-014, 1.7348E-014, -2.49032E-013, -1.45596E-006, 1.05733E-005
75, 0.00000, -0.112042, -0.0368352, 3.48789E-014, -1.82582E-013, 5.29157E-013, 2.17744E-013, -1.14774E-006, 8.54415E-006
76, 0.00000, -0.106325, -0.0349554, -1.96411E-013, -4.15689E-013, -2.98091E-013, -2.29296E-013, -1.02151E-006, 7.68685E-006
77, 0.00000, -0.106275, -0.034939, 5.7714E-013, 8.22916E-014, -3.23772E-013, 1.22303E-013, -1.01736E-006, 7.67983E-006
78, 0.00000, -0.111875, -0.0367805, 2.25276E-013, 5.64283E-013, 4.54181E-013, 3.59699E-013, -1.13502E-006, 8.51902E-006
79, 0.00000, -0.124813, -0.0410353, -2.87202E-013, -1.88852E-013, -1.60445E-013, 5.09917E-013, -1.44584E-006, 1.06317E-005
80, 0.00000, -0.149293, -0.049085, 4.88378E-013, -5.36137E-013, 1.01898E-013, -1.02681E-013, -3.30688E-007, 1.47424E-005
81, 0.00000, -0.188082, -0.061835, -2.64384E-013, -3.56243E-013, 5.39708E-013, 2.7282E-014, 1.27778E-005, 1.9504E-005
82, 0.00000, -0.22414, -0.0736868, -1.5593E-013, -2.00315E-013, 1.65321E-013, 1.44392E-013, 2.83888E-005, 2.47247E-005
83, 0.00000, -0.243217, -0.0799491, 2.75921E-013, -6.27591E-013, -1.1112E-013, -1.38897E-014, 5.04293E-005, 2.41209E-005
84, 0.00000, -0.250477, -0.0823365, 9.95487E-014, 1.23911E-013, -7.69002E-013, 1.27145E-013, 5.17914E-005, 2.60841E-005
85, 0.00000, -0.253852, -0.0834522, -4.99497E-013, -1.28351E-013, -5.86589E-013, 2.50511E-013, 4.35585E-005, 2.96555E-005
86, 0.00000, -0.258709, -0.085064, -5.86183E-013, 1.35828E-013, -4.0318E-013, 2.54373E-014, 2.20234E-005, 3.78591E-005
87, 0.00000, -0.263518, -0.0866695, 2.26786E-013, 5.55229E-013, -2.10916E-013, -1.10279E-013, -1.00116E-005, 5.18452E-005
88, 0.00000, -0.268719, -0.0883831, 2.45419E-013, -1.70915E-013, -1.69724E-013, -3.60791E-013, -1.43403E-005, 5.47172E-005
89, 0.00000, -0.28221, -0.0928189, 2.86009E-013, 2.82731E-013, -3.3564E-013, -4.79015E-015, -1.0757E-005, 5.74799E-005
90, 0.00000, -0.289702, -0.0952796, -9.92901E-013, -3.56847E-013, 1.46636E-012, 1.61693E-013, -5.58602E-006, 5.73879E-005
91, 0.00000, -0.288197, -0.0947774, 2.11651E-013, 3.13002E-013, 1.59415E-013, -9.33404E-015, 2.70912E-006, 5.23618E-005
92, 0.00000, -0.287089, -0.0944232, 9.9827E-014, -1.54673E-013, 5.38693E-013, 2.04226E-013, -9.28472E-006, 5.86092E-005
93, 0.00000, -0.276196, -0.0908389, 3.58599E-013, 9.28138E-014, -1.67421E-013, -1.50127E-013, -9.24814E-006, 5.45487E-005
94, 0.00000, -0.254907, -0.083833, -1.99974E-014, 1.94828E-013, 7.1429E-014, 1.27245E-013, -8.68589E-006, 4.61813E-005
95, 0.00000, -0.224296, -0.0737597, -5.04414E-014, 7.09121E-013, 8.31442E-013, 2.77185E-013, -6.15924E-006, 3.53552E-005
96, 0.00000, -0.186885, -0.0614515, -6.30706E-013, -3.09805E-013, -9.57406E-013, 2.82321E-013, -3.83312E-006, 2.42427E-005
97, 0.00000, -0.15072, -0.0495555, -2.08421E-013, -2.45466E-013, 1.47281E-013, -1.51499E-013, -2.2349E-006, 1.56024E-005
98, 0.00000, -0.126778, -0.0416814, -1.99861E-013, 5.01482E-013, 3.13676E-013, -1.48161E-013, -1.51671E-006, 1.0968E-005
99, 0.00000, -0.112905, -0.037119, -5.6853E-013, 2.24991E-013, 2.61559E-013, -7.80133E-014, -1.16806E-006, 8.67765E-006
100, 0.00000, -0.105995, -0.034847, -6.86743E-014, 4.78611E-013, -8.12851E-014, -5.10418E-014, -1.01551E-006, 7.63874E-006
101, 0.00000, -0.103884, -0.0341526, -6.78744E-013, -4.20176E-014, -9.8273E-015, -5.04413E-013, -9.75672E-007, 7.33641E-006
102, 0.00000, -0.107317, -0.0352819, 6.01812E-013, 5.77283E-014, -2.80798E-013, -2.14266E-013, -1.02769E-006, 7.83038E-006
103, 0.00000, -0.118527, -0.0389679, -7.46492E-014, -4.26925E-013, -1.08487E-012, 3.22757E-014, -1.28811E-006, 9.57478E-006
104, 0.00000, -0.137934, -0.0453494, -7.65444E-013, 5.94797E-014, 1.66846E-013, 3.077E-013, -1.2335E-007, 1.25167E-005
105, 0.00000, -0.174353, -0.0573196, 4.10582E-013, 2.05032E-014, 3.13649E-013, -4.12521E-013, 1.20088E-005, 1.64307E-005
106, 0.00000, -0.213103, -0.0700565, -3.62359E-013, -2.88974E-013, 4.16834E-013, -2.90599E-013, 2.70592E-005, 2.19128E-005
107, 0.00000, -0.237596, -0.0780886, -9.32362E-015, -6.86683E-014, 1.35698E-013, 4.58993E-013, 7.07568E-005, 1.7952E-005
108, 0.00000, -0.247246, -0.0812353, -4.10902E-013, -5.91255E-014, 1.21318E-013, 3.23323E-013, 0.000117594, 8.13246E-006
109, 0.00000, -0.253373, -0.0832505, 3.36713E-013, 2.31618E-013, 4.25131E-013, 6.36967E-013, 0.000118452, 9.8143E-006
110, 0.00000, -0.25739, -0.0846201, -1.39426E-012, -7.02969E-013, 7.64861E-013, 3.96799E-013, 3.7698E-005, 3.26483E-005
111, 0.00000, -0.256043, -0.0841933, 8.85223E-013, 8.69845E-013, -3.42139E-013, 2.52544E-013, 1.07658E-005, 3.998E-005
112, 0.00000, -0.253828, -0.0834714, 1.71041E-013, -4.77422E-013, -6.531E-013, 1.03155E-013, -1.05004E-006, 4.20393E-005
113, 0.00000, -0.264405, -0.0869501, -2.58762E-013, -3.50498E-013, -2.64445E-013, -7.20511E-014, 9.07671E-008, 4.50455E-005
114, 0.00000, -0.278476, -0.091583, 7.55527E-013, 1.75746E-013, -2.17025E-013, 3.52559E-013, -2.95092E-006, 5.15502E-005
115, 0.00000, -0.285324, -0.0938423, 4.06565E-013, -2.04788E-013, 3.63323E-013, -4.28311E-013, -9.29268E-006, 5.79741E-005
116, 0.00000, -0.29391, -0.0966674, 6.92943E-014, -2.91738E-013, -4.60247E-013, -1.10475E-013, -9.22004E-006, 6.1004E-005
117, 0.00000, -0.287227, -0.0944688, 2.93274E-013, -2.23101E-014, 4.22015E-013, 2.9146E-013, -9.26498E-006, 5.8618E-005
118, 0.00000, -0.261017, -0.0858438, -2.41703E-013, -4.69816E-013, 5.85842E-013, -1.93848E-013, -9.05164E-006, 4.85201E-005
119, 0.00000, -0.219874, -0.0723049, -1.01537E-013, -2.83381E-013, 2.18474E-013, -6.47904E-013, -5.84292E-006, 3.39236E-005
120, 0.00000, -0.172096, -0.0565866, 4.45168E-013, 6.67775E-013, -2.3462E-013, -3.5961E-013, -3.11819E-006, 2.04638E-005
121, 0.00000, -0.137515, -0.0452124, -6.01129E-013, -3.66548E-013, 7.35243E-013, -4.06264E-014, -1.80234E-006, 1.29441E-005
122, 0.00000, -0.116534, -0.0383124, -4.73628E-013, -6.98447E-014, -9.8562E-014, 4.44742E-013, -1.24464E-006, 9.2527E-006
123, 0.00000, -0.1067, -0.0350788, -3.98375E-013, 3.45316E-013, 4.89868E-014, -1.21401E-013, -1.02681E-006, 7.74229E-006
124, 0.00000, -0.103306, -0.0339625, -1.25807E-012, 2.41443E-013, 1.30326E-013, 4.56195E-013, -9.60742E-007, 7.2545E-006
125, 0.00000, -0.107576, -0.035367, 9.60215E-014, 5.85936E-013, -4.22304E-013, 1.59577E-013, -1.03984E-006, 7.86902E-006
126, 0.00000, -0.124115, -0.0408057, 7.81E-014, 6.61168E-013, 7.82124E-013, 1.76471E-014, -1.42675E-006, 1.05111E-005
127, 0.00000, -0.157326, -0.0517284, 3.1872E-014, 4.6558E-013, -6.65035E-013, 7.96491E-014, -2.47597E-006, 1.70299E-005
128, 0.00000, -0.175528, -0.0577143, -9.38068E-013, -1.27253E-013, 6.89218E-013, -2.55162E-013, -1.00229E-006, 2.06261E-005
129, 0.00000, -0.17978, -0.0591046, -3.46045E-013, 1.21473E-013, 6.8112E-015, 5.96307E-014, 1.24166E-005, 1.75839E-005
130, 0.00000, -0.184994, -0.0608121, -1.25547E-012, -2.90711E-013, -3.41384E-013, 1.29004E-013, 2.39615E-005, 1.54304E-005
131, 0.00000, -0.186357, -0.0612275, 1.11437E-013, 3.70163E-013, 9.23587E-013, -2.87113E-013, 7.85444E-005, 6.47389E-007
132, 0.00000, -0.184904, -0.0607428, 5.56969E-013, 1.85561E-013, 1.47698E-012, -1.56599E-013, 9.0011E-005, -2.65408E-006
133, 0.00000, -0.185714, -0.0610048, -1.474E-013, -4.94665E-013, 2.94744E-013, -3.69478E-013, 9.75305E-005, -4.37075E-006
134, 0.00000, -0.189308, -0.0622257, 4.2206E-013, -5.72226E-013, -5.27412E-013, -1.33899E-013, 3.28189E-005, 1.3916E-005
135, 0.00000, -0.197179, -0.0648266, 7.96604E-013, 7.22124E-013, 5.69071E-014, 1.23376E-013, 1.31849E-005, 2.17031E-005
136, 0.00000, -0.216637, -0.0712389, 7.83239E-014, 5.57031E-013, 3.10512E-013, -1.74441E-013, -5.57436E-006, 3.28682E-005
137, 0.00000, -0.251876, -0.0828355, -3.7333E-013, -1.1635E-012, -1.5204E-013, -5.90022E-014, -8.34437E-006, 4.50262E-005
138, 0.00000, -0.280498, -0.0922545, -7.02766E-013, -9.64685E-013, 4.46419E-013, 4.32873E-013, -9.3185E-006, 5.6221E-005
139, 0.00000, -0.291768, -0.0959624, 6.76894E-013, -3.71057E-014, 4.81977E-013, 9.49846E-014, -8.57159E-006, 6.00042E-005
140, 0.00000, -0.298275, -0.0981037, -6.1676E-014, 1.17934E-013, -2.15066E-013, 1.09776E-014, -9.23389E-006, 6.26266E-005
141, 0.00000, -0.290652, -0.0955954, 3.2061E-013, -1.6134E-013, 8.16719E-013, 2.12659E-013, -9.22698E-006, 5.98371E-005
142, 0.00000, -0.265936, -0.0874625, 5.78661E-013, 2.4205E-013, 1.00394E-013, 4.18771E-013, -9.23882E-006, 5.04289E-005
143, 0.00000, -0.225698, -0.0742211, -1.12634E-012, -5.47057E-013, 4.88405E-013, 3.75222E-013, -6.24329E-006, 3.58231E-005
144, 0.00000, -0.177696, -0.0584286, -3.51854E-013, -2.31889E-013, 3.4415E-013, -2.7759E-013, -3.36271E-006, 2.18599E-005
145, 0.00000, -0.137516, -0.0452128, -7.86463E-013, -1.99133E-013, -9.44155E-013, 1.00124E-013, -1.81085E-006, 1.29459E-005
146, 0.00000, -0.116534, -0.0383122, 4.43902E-016, 2.30957E-013, -4.24273E-013, 1.10258E-013, -9.33648E-007, 9.09723E-006
147, 0.00000, -0.1067, -0.0350787, 9.54265E-013, 4.517E-013, 2.78326E-013, -2.15394E-013, -1.02624E-006, 7.74211E-006
148, 0.00000, -0.103306, -0.0339623, 5.04067E-013, -3.96766E-013, -2.51181E-013, -6.84285E-014, -6.97708E-007, 7.11476E-006
149, 0.00000, -0.107575, -0.0353689, 8.25204E-013, 3.35078E-013, 5.81701E-014, 9.55474E-015, -4.02468E-006, 9.32564E-006
150, 0.00000, -0.124111, -0.0408069, 7.53702E-014, 2.2118E-013, 1.10262E-012, -9.12245E-014, -4.97956E-006, 1.22473E-005
151, 0.00000, -0.157323, -0.0517312, 4.14496E-013, 5.42202E-013, 2.2733E-013, 1.73894E-013, -7.17298E-006, 1.93248E-005
152, 0.00000, -0.175529, -0.057717, -6.93941E-013, -5.11429E-014, -1.09594E-012, 7.42642E-014, -2.99323E-006, 2.20069E-005
153, 0.00000, -0.179783, -0.0591031, 8.02875E-013, 1.01552E-012, -9.54237E-013, -1.19867E-013, 1.70467E-005, 1.66054E-005
154, 0.00000, -0.184993, -0.0608133, -4.77679E-013, -1.4233E-013, -1.38569E-012, -2.34663E-013, 2.26354E-005, 1.60818E-005
155, 0.00000, -0.186314, -0.0612393, -6.66338E-013, 1.8534E-014, -1.02294E-012, 1.71186E-013, 3.78157E-005, 1.19616E-005
156, 0.00000, -0.184857, -0.0607575, 4.53839E-013, -4.40521E-014, -6.11798E-013, 1.33958E-013, 4.00859E-005, 1.08729E-005
157, 0.00000, -0.18565, -0.061022, -4.77602E-013, 1.97954E-013, 1.24471E-013, 2.1382E-013, 3.24136E-005, 1.31807E-005
158, 0.00000, -0.189293, -0.0622299, 4.87251E-016, 1.66512E-013, -6.56584E-013, 4.94563E-014, 1.76998E-005, 1.83168E-005
159, 0.00000, -0.197172, -0.0648305, 3.09505E-013, -5.8561E-013, -1.20206E-012, -2.96438E-013, 2.26383E-006, 2.47213E-005
160, 0.00000, -0.216636, -0.0712371, -5.8711E-013, -5.65066E-013, -3.5586E-013, 2.02383E-014, -2.97594E-006, 3.16099E-005
161, 0.00000, -0.251879, -0.082833, -2.28565E-013, -6.47157E-013, 4.60424E-013, -9.74409E-014, -4.97781E-006, 4.33391E-005
162, 0.00000, -0.280501, -0.0922519, 2.71436E-013, -2.90375E-013, 5.14722E-013, -3.25243E-013, -6.10058E-006, 5.40231E-005
163, 0.00000, -0.291773, -0.0959563, 3.88181E-013, 1.20462E-013, 1.39239E-012, -3.71576E-013, 1.4207E-006, 5.43593E-005
164, 0.00000, -0.298288, -0.0980997, 7.54771E-013, 3.05628E-013, 4.11951E-013, 3.61828E-013, 7.81762E-008, 5.75319E-005
