hour, t(sec), V1.re, V1.im, V2.re, V2.im, V3.re, V3.im, V4.re, V4.im, I1.re, I1.im, I2.re, I2.im, I3.re, I3.im, I4.re, I4.im
1, 0.00000, 192.296, -112.44, -193.845, -110.415, 1.17385, 223.143, 0.000106789, -0.000821871, -1.103, 1.24718, 1.62929, 0.330621, -0.527268, -1.57618, 0.000981359, -0.00162165
2, 0.00000, 192.77, -112.47, -194.058, -110.794, 0.971378, 223.507, 8.8585E-005, -0.000691178, -0.933923, 1.05397, 1.37809, 0.281089, -0.444868, -1.33391, 0.000703623, -0.00114774
3, 0.00000, 192.992, -112.483, -194.157, -110.973, 0.875559, 223.677, 8.04028E-005, -0.000630851, -0.854832, 0.963838, 1.26075, 0.257777, -0.406509, -1.22065, 0.000594886, -0.000966848
4, 0.00000, 193.094, -112.473, -194.19, -111.064, 0.81671, 223.749, 7.75528E-005, -0.000609785, -0.827552, 0.932573, 1.22013, 0.249828, -0.393127, -1.18151, 0.000553302, -0.000893809
5, 0.00000, 193.008, -112.461, -194.146, -110.999, 0.847536, 223.68, 8.10511E-005, -0.000635741, -0.86193, 0.9716, 1.27101, 0.26004, -0.409677, -1.23068, 0.000595313, -0.000960683
6, 0.00000, 192.688, -112.406, -193.977, -110.761, 0.95366, 223.422, 9.51056E-005, -0.000737236, -0.995165, 1.12294, 1.46824, 0.299555, -0.473866, -1.42123, 0.000785632, -0.00126939
7, 0.00000, 192.014, -112.312, -193.637, -110.25, 1.19498, 222.886, 0.000125249, -0.000945724, -1.26346, 1.42902, 1.86628, 0.378364, -0.60411, -1.80528, 0.00128587, -0.00209772
8, 0.00000, 191.503, -112.383, -193.469, -109.767, 1.52163, 222.52, 0.000127056, -0.0010288, -1.31315, 1.5425, 1.98902, 0.364447, -0.67731, -1.90449, 0.00143728, -0.00246045
9, 0.00000, 193.309, -111.618, -193.494, -111.552, 0.107002, 223.452, 8.97729E-006, -0.000735262, -0.45537, 1.04605, 1.13287, -0.129257, -0.677915, -0.916133, 0.000416895, -0.000663752
10, 0.00000, 194.026, -111.271, -193.465, -112.278, -0.487305, 223.801, -3.7257E-005, -0.000632294, -0.098712, 0.859423, 0.793346, -0.344718, -0.69488, -0.514382, 0.000246003, -0.000322378
11, 0.00000, 197.115, -109.957, -193.501, -115.334, -2.91622, 225.405, -0.000206343, -0.000164567, 1.43689, -0.00575062, -0.725921, -1.24332, -0.712083, 1.25014, 0.00111855, -0.00106864
12, 0.00000, 197.289, -109.897, -193.516, -115.501, -3.04279, 225.503, -0.000214177, -0.000135788, 1.52164, -0.0587242, -0.814486, -1.2904, -0.7084, 1.35033, 0.00124158, -0.00120635
13, 0.00000, 196.115, -110.392, -193.499, -114.342, -2.12291, 224.89, -0.000154983, -0.000310408, 0.930287, 0.27339, -0.229431, -0.943396, -0.701389, 0.670439, 0.00053262, -0.000433037
14, 0.00000, 193.262, -111.537, -193.404, -111.545, 0.0695968, 223.376, 6.51529E-006, -0.000766259, -0.453754, 1.08662, 1.16716, -0.15099, -0.713851, -0.934932, 0.000442012, -0.000698931
15, 0.00000, 191.622, -112.11, -193.272, -109.971, 1.26543, 222.467, 0.000106283, -0.00106087, -1.20304, 1.5703, 1.9584, 0.255248, -0.756694, -1.82326, 0.0013377, -0.00228508
16, 0.00000, 190.339, -112.406, -193.033, -108.799, 2.08854, 221.68, 0.00018086, -0.00133503, -1.74241, 1.98745, 2.58644, 0.512674, -0.846476, -2.49584, 0.00244716, -0.00428279
17, 0.00000, 189.519, -112.35, -192.662, -108.144, 2.43446, 221.052, 0.000217202, -0.00157361, -2.02877, 2.32191, 3.01706, 0.592522, -0.991601, -2.90852, 0.00331265, -0.0059118
18, 0.00000, 188.851, -112.302, -192.358, -107.609, 2.71728, 220.536, 0.000248563, -0.00177072, -2.26192, 2.59586, 3.36885, 0.656576, -1.11107, -3.24507, 0.00413853, -0.00736893
19, 0.00000, 188.588, -112.282, -192.238, -107.399, 2.82896, 220.331, 0.000261834, -0.00184899, -2.35386, 2.7043, 3.50786, 0.6816, -1.15852, -3.37793, 0.00451998, -0.00796756
20, 0.00000, 188.436, -112.27, -192.169, -107.279, 2.89313, 220.213, 0.000269893, -0.00189454, -2.40707, 2.76715, 3.58836, 0.696027, -1.18606, -3.45485, 0.00476269, -0.0083272
21, 0.00000, 188.661, -112.257, -192.249, -107.475, 2.77031, 220.377, 0.000261066, -0.00184023, -2.34507, 2.69275, 3.49356, 0.679812, -1.15298, -3.3647, 0.004494, -0.00786573
22, 0.00000, 189.19, -112.326, -192.513, -107.882, 2.57329, 220.799, 0.000232286, -0.00167022, -2.14324, 2.45624, 3.18965, 0.624072, -1.05012, -3.07369, 0.00369817, -0.006621
23, 0.00000, 190.129, -112.391, -192.938, -108.631, 2.17739, 221.519, 0.000189982, -0.00139581, -1.81599, 2.07317, 2.69693, 0.53331, -0.883598, -2.6018, 0.00265489, -0.00467667
24, 0.00000, 191.235, -112.466, -193.438, -109.514, 1.70995, 222.366, 0.00014299, -0.00107923, -1.427, 1.62173, 2.11401, 0.423227, -0.688655, -2.04212, 0.00164555, -0.00282928
25, 0.00000, 192.057, -112.582, -193.854, -110.137, 1.41609, 223.019, 0.000106019, -0.000823496, -1.1023, 1.24913, 1.63059, 0.329014, -0.529271, -1.57646, 0.000983322, -0.00168034
26, 0.00000, 192.55, -112.601, -194.066, -110.538, 1.19557, 223.393, 8.8078E-005, -0.000692582, -0.933403, 1.0555, 1.37912, 0.27985, -0.44643, -1.33415, 0.000709941, -0.00120052
27, 0.00000, 192.788, -112.606, -194.165, -110.734, 1.08455, 223.571, 7.98257E-005, -0.000631728, -0.85434, 0.965091, 1.26157, 0.256708, -0.407825, -1.2208, 0.000593062, -0.000995572
28, 0.00000, 192.935, -112.568, -194.197, -110.878, 0.979205, 223.666, 7.717E-005, -0.000610506, -0.827193, 0.933524, 1.22076, 0.249026, -0.394119, -1.18163, 0.000554626, -0.000918583
29, 0.00000, 192.925, -112.51, -194.15, -110.902, 0.932371, 223.637, 8.08753E-005, -0.000636207, -0.861752, 0.972142, 1.27138, 0.259607, -0.410228, -1.23077, 0.000597715, -0.000977543
30, 0.00000, 192.53, -112.5, -193.984, -110.577, 1.11415, 223.34, 9.48704E-005, -0.000738561, -0.994812, 1.12417, 1.4691, 0.298613, -0.475082, -1.42146, 0.000798439, -0.00132218
31, 0.00000, 191.744, -112.471, -193.646, -109.936, 1.46904, 222.745, 0.000124213, -0.000947837, -1.26256, 1.43156, 1.86799, 0.376282, -0.606716, -1.80566, 0.00128627, -0.00217352
32, 0.00000, 191.493, -112.388, -193.469, -109.756, 1.53101, 222.514, 0.000127166, -0.00102915, -1.3144, 1.54334, 1.99037, 0.365109, -0.677411, -1.90599, 0.00143727, -0.00245617
33, 0.00000, 192.693, -111.858, -193.471, -110.957, 0.569113, 223.127, 5.03147E-005, -0.000843834, -0.767679, 1.23126, 1.44871, 0.0483728, -0.681724, -1.27847, 0.000697702, -0.00115593
34, 0.00000, 193.576, -111.455, -193.453, -111.836, -0.139756, 223.565, -1.02874E-005, -0.000704551, -0.314562, 0.985789, 1.01048, -0.221027, -0.696258, -0.764246, 0.000340486, -0.000515812
35, 0.00000, 194.83, -110.951, -193.482, -113.051, -1.08913, 224.217, -9.21731E-005, -0.000489745, 0.355796, 0.602531, 0.343642, -0.609968, -0.699654, 0.0076114, 0.00021551, -0.000174807
36, 0.00000, 195.053, -110.873, -193.5, -113.265, -1.25225, 224.342, -0.00010396, -0.000451683, 0.461596, 0.535558, 0.232667, -0.66815, -0.694501, 0.132776, 0.000238252, -0.000184366
37, 0.00000, 194.231, -111.204, -193.474, -112.46, -0.620553, 223.907, -5.70728E-005, -0.000582782, 0.0596698, 0.77061, 0.637312, -0.437477, -0.697189, -0.332894, 0.000207263, -0.000238216
38, 0.00000, 192.747, -111.763, -193.394, -111.023, 0.489098, 223.105, 3.26709E-005, -0.000836856, -0.655517, 1.20703, 1.37188, -0.0366124, -0.716978, -1.1694, 0.000613775, -0.00101998
39, 0.00000, 191.188, -112.283, -193.255, -109.544, 1.59975, 222.236, 0.00013392, -0.0011337, -1.39599, 1.68828, 2.15617, 0.363045, -0.761841, -2.04845, 0.00166593, -0.00287094
40, 0.00000, 190.797, -112.141, -193.022, -109.328, 1.63037, 221.919, 0.000183902, -0.00132979, -1.74451, 1.98151, 2.58243, 0.517523, -0.840402, -2.49494, 0.0024821, -0.00409074
41, 0.00000, 189.531, -112.342, -192.662, -108.159, 2.42225, 221.058, 0.000217287, -0.00157334, -2.02886, 2.32175, 3.01697, 0.592678, -0.991428, -2.90853, 0.00331338, -0.00589898
42, 0.00000, 188.851, -112.302, -192.358, -107.609, 2.71734, 220.536, 0.000248582, -0.00177061, -2.26193, 2.59589, 3.36889, 0.65657, -1.11109, -3.2451, 0.00414002, -0.00736211
43, 0.00000, 188.588, -112.281, -192.238, -107.4, 2.82873, 220.331, 0.000261771, -0.00184897, -2.35385, 2.70428, 3.50784, 0.681597, -1.15851, -3.37791, 0.00451654, -0.0079669
44, 0.00000, 188.436, -112.27, -192.169, -107.279, 2.89302, 220.213, 0.000269843, -0.00189451, -2.40706, 2.76713, 3.58835, 0.696026, -1.18605, -3.45483, 0.00476, -0.00832579
45, 0.00000, 188.614, -112.284, -192.25, -107.42, 2.81818, 220.351, 0.000260862, -0.0018411, -2.34478, 2.69359, 3.49412, 0.679123, -1.15384, -3.36481, 0.00450127, -0.00790059
46, 0.00000, 189.19, -112.327, -192.513, -107.882, 2.57334, 220.799, 0.000232275, -0.00167022, -2.14324, 2.45625, 3.18966, 0.624071, -1.05012, -3.0737, 0.00369758, -0.00662078
47, 0.00000, 190.129, -112.391, -192.938, -108.631, 2.17725, 221.519, 0.000190039, -0.00139597, -1.81598, 2.07316, 2.69692, 0.53331, -0.88359, -2.60179, 0.00265777, -0.00468577
48, 0.00000, 191.235, -112.466, -193.438, -109.514, 1.70995, 222.366, 0.00014299, -0.00107923, -1.427, 1.62173, 2.11401, 0.423227, -0.688655, -2.04212, 0.00164557, -0.00282928
49, 0.00000, 192.149, -112.527, -193.85, -110.244, 1.3229, 223.067, 0.000106292, -0.000822757, -1.10256, 1.24837, 1.63008, 0.32963, -0.528498, -1.57635, 0.000981484, -0.00165179
50, 0.00000, 192.622, -112.558, -194.064, -110.622, 1.12223, 223.43, 8.81859E-005, -0.000692039, -0.933562, 1.055, 1.37878, 0.280248, -0.445923, -1.33407, 0.000705016, -0.00117874
51, 0.00000, 192.697, -112.66, -194.169, -110.628, 1.1772, 223.524, 7.95549E-005, -0.000632156, -0.854126, 0.965666, 1.26196, 0.256227, -0.408421, -1.22088, 0.000591594, -0.00101003
52, 0.00000, 192.773, -112.665, -194.203, -110.689, 1.14492, 223.582, 7.67792E-005, -0.000611354, -0.826844, 0.934535, 1.22144, 0.248204, -0.395153, -1.18179, 0.000556023, -0.000948981
53, 0.00000, 192.677, -112.659, -194.16, -110.612, 1.18555, 223.509, 8.02624E-005, -0.000637498, -0.861188, 0.973727, 1.27245, 0.258302, -0.411859, -1.23101, 0.000600314, -0.00102334
54, 0.00000, 192.305, -112.634, -193.992, -110.314, 1.34381, 223.223, 9.41855E-005, -0.000739853, -0.994214, 1.12583, 1.47021, 0.297243, -0.476793, -1.42171, 0.000798839, -0.00136688
55, 0.00000, 191.952, -112.349, -193.639, -110.178, 1.25844, 222.854, 0.000125078, -0.000946257, -1.26327, 1.42962, 1.8667, 0.377888, -0.604719, -1.80539, 0.00128957, -0.00211727
56, 0.00000, 191.548, -112.315, -193.452, -109.859, 1.42325, 222.542, 0.00014206, -0.00106266, -1.41043, 1.5987, 2.08594, 0.42047, -0.677113, -2.01651, 0.0016049, -0.00266212
57, 0.00000, 191.827, -112.206, -193.441, -110.106, 1.23651, 222.669, 0.000104674, -0.000986794, -1.16238, 1.46909, 1.85068, 0.270803, -0.68951, -1.73783, 0.00121106, -0.00205818
58, 0.00000, 192.093, -112.052, -193.405, -110.382, 1.00013, 222.782, 8.26423E-005, -0.000950252, -1.01432, 1.40256, 1.71957, 0.176011, -0.706262, -1.57685, 0.00101562, -0.00172301
59, 0.00000, 192.476, -111.885, -193.406, -110.762, 0.696726, 222.977, 5.73766E-005, -0.00088899, -0.832259, 1.29878, 1.53925, 0.0704359, -0.707779, -1.36788, 0.000791279, -0.00132899
60, 0.00000, 192.508, -111.887, -193.421, -110.788, 0.683227, 223.002, 5.61428E-005, -0.000879956, -0.820703, 1.28548, 1.52199, 0.0670985, -0.702061, -1.35128, 0.000772811, -0.00129664
61, 0.00000, 192.284, -111.969, -193.406, -110.572, 0.848758, 222.879, 6.99612E-005, -0.000919459, -0.923627, 1.35075, 1.62967, 0.123477, -0.706938, -1.47272, 0.000897945, -0.00151258
62, 0.00000, 191.79, -112.126, -193.353, -110.103, 1.19839, 222.598, 9.98086E-005, -0.00101238, -1.14452, 1.50019, 1.86871, 0.239753, -0.725404, -1.73787, 0.0012166, -0.00206929
63, 0.00000, 191.611, -112.114, -193.272, -109.96, 1.27391, 222.461, 0.000107015, -0.00106279, -1.20818, 1.57342, 1.96365, 0.258128, -0.756818, -1.82925, 0.00134597, -0.00230017
64, 0.00000, 190.339, -112.406, -193.033, -108.799, 2.08855, 221.68, 0.000180865, -0.00133504, -1.74242, 1.98745, 2.58644, 0.512674, -0.846477, -2.49584, 0.0024474, -0.00428381
65, 0.00000, 189.519, -112.35, -192.662, -108.145, 2.43438, 221.052, 0.000217209, -0.00157326, -2.02875, 2.32186, 3.01702, 0.592528, -0.991582, -2.9085, 0.00331337, -0.00589405
66, 0.00000, 188.898, -112.275, -192.357, -107.664, 2.66983, 220.561, 0.000249, -0.00176971, -2.26224, 2.59512, 3.36838, 0.657235, -1.11029, -3.24503, 0.00414535, -0.00732454
67, 0.00000, 188.588, -112.282, -192.238, -107.4, 2.82885, 220.331, 0.000261768, -0.00184901, -2.35384, 2.70428, 3.50784, 0.681594, -1.15851, -3.3779, 0.00451639, -0.00796919
68, 0.00000, 188.436, -112.27, -192.169, -107.279, 2.8931, 220.213, 0.000269856, -0.00189453, -2.40706, 2.76714, 3.58836, 0.696025, -1.18605, -3.45484, 0.00476073, -0.00832683
69, 0.00000, 188.614, -112.284, -192.25, -107.42, 2.81809, 220.351, 0.000260843, -0.00184108, -2.34478, 2.69358, 3.49412, 0.679124, -1.15384, -3.36481, 0.00450025, -0.00789955
70, 0.00000, 189.19, -112.326, -192.513, -107.882, 2.5733, 220.799, 0.000232286, -0.00167021, -2.14324, 2.45624, 3.18965, 0.624072, -1.05012, -3.07369, 0.00369817, -0.00662043
71, 0.00000, 190.129, -112.391, -192.938, -108.631, 2.17722, 221.519, 0.000190043, -0.00139594, -1.81599, 2.07316, 2.69692, 0.533312, -0.883589, -2.60179, 0.00265797, -0.004684
72, 0.00000, 191.235, -112.466, -193.438, -109.514, 1.70993, 222.366, 0.000142985, -0.00107921, -1.427, 1.62172, 2.11401, 0.423228, -0.688655, -2.04212, 0.00164532, -0.00282798
73, 0.00000, 191.925, -112.512, -193.749, -110.064, 1.41799, 222.895, 0.000115109, -0.000885312, -1.18244, 1.34003, 1.74904, 0.352822, -0.567728, -1.69094, 0.00112957, -0.0019135
74, 0.00000, 192.443, -112.547, -193.983, -110.479, 1.19817, 223.293, 9.49775E-005, -0.000741384, -0.997515, 1.12809, 1.47381, 0.298983, -0.477103, -1.42572, 0.000805105, -0.00135257
75, 0.00000, 192.723, -112.565, -194.109, -110.702, 1.07941, 223.508, 8.43916E-005, -0.000664286, -0.897413, 1.01374, 1.3251, 0.26963, -0.428336, -1.28228, 0.00065149, -0.00108728
76, 0.00000, 192.851, -112.574, -194.167, -110.805, 1.02493, 223.606, 7.96041E-005, -0.000629082, -0.851438, 0.961303, 1.25686, 0.256099, -0.406007, -1.21643, 0.000586171, -0.000975284
77, 0.00000, 192.852, -112.574, -194.167, -110.806, 1.02444, 223.607, 7.95565E-005, -0.000628758, -0.851037, 0.960846, 1.25626, 0.255981, -0.405813, -1.21585, 0.00058531, -0.000973359
78, 0.00000, 192.727, -112.565, -194.111, -110.705, 1.07779, 223.51, 8.42343E-005, -0.0006632, -0.896081, 1.01221, 1.32312, 0.269239, -0.42769, -1.28037, 0.000648658, -0.00108035
79, 0.00000, 192.436, -112.546, -193.98, -110.473, 1.2013, 223.287, 9.5235E-005, -0.000743351, -1.00022, 1.13118, 1.47784, 0.299777, -0.478425, -1.4296, 0.000807882, -0.00135311
80, 0.00000, 192.084, -112.43, -193.738, -110.228, 1.28219, 222.969, 0.000103687, -0.000863035, -1.10462, 1.30106, 1.67668, 0.30501, -0.57308, -1.60435, 0.0010207, -0.00172432
81, 0.00000, 192.432, -111.884, -193.388, -110.727, 0.716366, 222.945, 5.91267E-005, -0.000900714, -0.848351, 1.31627, 1.56238, 0.0756009, -0.714848, -1.3905, 0.00081513, -0.00136929
82, 0.00000, 192.66, -111.414, -193.058, -111.096, 0.263873, 222.87, 2.46294E-005, -0.000951989, -0.652329, 1.35683, 1.49988, -0.11447, -0.848275, -1.24117, 0.0007277, -0.00118666
83, 0.00000, 193.644, -110.815, -192.908, -112.14, -0.64183, 223.286, -4.61454E-005, -0.000836598, -0.133491, 1.13387, 1.0482, -0.452188, -0.915133, -0.681121, 0.000426014, -0.000562333
84, 0.00000, 193.477, -110.807, -192.836, -112.005, -0.568415, 223.159, -4.00311E-005, -0.000881628, -0.195722, 1.20207, 1.13829, -0.432462, -0.943048, -0.768967, 0.00047537, -0.000646022
85, 0.00000, 192.794, -111.047, -192.783, -111.349, -0.0687854, 222.781, -2.9976E-008, -0.00100303, -0.51406, 1.40472, 1.4724, -0.258261, -0.959047, -1.14535, 0.000707408, -0.00110672
86, 0.00000, 191.245, -111.611, -192.68, -109.853, 1.07757, 221.934, 9.65967E-005, -0.00128038, -1.22886, 1.85625, 2.21844, 0.134187, -0.991219, -1.98762, 0.00164485, -0.00282385
87, 0.00000, 189.113, -112.485, -192.568, -107.695, 2.78519, 220.772, 0.000196766, -0.00158267, -1.93381, 2.32372, 2.97157, 0.509401, -1.04088, -2.82731, 0.00312558, -0.00581027
88, 0.00000, 188.595, -112.622, -192.49, -107.213, 3.13505, 220.458, 0.00023332, -0.00169448, -2.16294, 2.49156, 3.22978, 0.623221, -1.0707, -3.10787, 0.0038648, -0.00690557
89, 0.00000, 188.687, -112.368, -192.342, -107.434, 2.85846, 220.437, 0.000250138, -0.00178381, -2.27517, 2.61447, 3.39142, 0.65865, -1.12048, -3.26562, 0.00422038, -0.00749227
90, 0.00000, 188.94, -112.113, -192.256, -107.791, 2.50343, 220.534, 0.000261271, -0.00183096, -2.33886, 2.67907, 3.47874, 0.681392, -1.14431, -3.35272, 0.00443199, -0.00774042
91, 0.00000, 189.462, -111.839, -192.265, -108.381, 2.00433, 220.82, 0.000263265, -0.0018132, -2.32944, 2.65602, 3.45434, 0.684912, -1.1293, -3.33353, 0.00440085, -0.00739791
92, 0.00000, 188.697, -112.29, -192.288, -107.486, 2.78266, 220.416, 0.000256321, -0.00181637, -2.31572, 2.6593, 3.45019, 0.671229, -1.13883, -3.32282, 0.00436127, -0.00771096
93, 0.00000, 188.951, -112.309, -192.404, -107.689, 2.67508, 220.613, 0.000243664, -0.00174049, -2.22684, 2.55457, 3.31588, 0.646979, -1.09305, -3.19443, 0.00400412, -0.00711887
94, 0.00000, 189.448, -112.345, -192.63, -108.088, 2.46439, 220.997, 0.000220367, -0.00159454, -2.05343, 2.35082, 3.05422, 0.599335, -1.00418, -2.94409, 0.00339038, -0.00607125
95, 0.00000, 190.162, -112.394, -192.953, -108.657, 2.1635, 221.544, 0.000188633, -0.00138654, -1.80459, 2.05988, 2.6798, 0.530121, -0.877835, -2.58538, 0.00262576, -0.0046241
96, 0.00000, 191.025, -112.452, -193.343, -109.346, 1.79897, 222.205, 0.000151727, -0.00113895, -1.50135, 1.70768, 2.22519, 0.444449, -0.725663, -2.14898, 0.00182092, -0.00314453
97, 0.00000, 191.85, -112.507, -193.716, -110.005, 1.44969, 222.838, 0.000118053, -0.00090611, -1.20907, 1.37062, 1.78873, 0.360533, -0.580837, -1.72916, 0.00117992, -0.00199697
98, 0.00000, 192.391, -112.543, -193.96, -110.437, 1.2201, 223.253, 9.69561E-005, -0.000755678, -1.01603, 1.14927, 1.50134, 0.304397, -0.486145, -1.45226, 0.000835049, -0.00140302
99, 0.00000, 192.703, -112.564, -194.1, -110.687, 1.08764, 223.493, 8.51202E-005, -0.000669616, -0.904356, 1.02166, 1.33541, 0.27167, -0.431712, -1.29222, 0.000661718, -0.00110489
100, 0.00000, 192.858, -112.574, -194.17, -110.811, 1.02179, 223.612, 7.93318E-005, -0.00062706, -0.848785, 0.958279, 1.25292, 0.255317, -0.404719, -1.21263, 0.000582629, -0.00096935
101, 0.00000, 192.905, -112.577, -194.191, -110.848, 1.00178, 223.648, 7.76074E-005, -0.000614154, -0.831808, 0.938932, 1.22773, 0.250312, -0.396484, -1.18831, 0.000560992, -0.000932989
102, 0.00000, 192.829, -112.572, -194.157, -110.787, 1.03421, 223.589, 8.03657E-005, -0.000635045, -0.859424, 0.970407, 1.26872, 0.258452, -0.409886, -1.22787, 0.000593846, -0.000986186
103, 0.00000, 192.577, -112.555, -194.043, -110.586, 1.14124, 223.396, 8.98582E-005, -0.000704311, -0.949607, 1.07333, 1.40262, 0.284955, -0.453739, -1.35706, 0.000728382, -0.00121645
104, 0.00000, 192.34, -112.447, -193.854, -110.432, 1.17399, 223.166, 9.37737E-005, -0.00079191, -1.01337, 1.19636, 1.54075, 0.278508, -0.528247, -1.47342, 0.000861836, -0.0014494
105, 0.00000, 192.736, -111.906, -193.527, -110.968, 0.589622, 223.179, 4.76924E-005, -0.000816133, -0.73975, 1.19126, 1.40019, 0.0442345, -0.661095, -1.23441, 0.000650963, -0.00108548
106, 0.00000, 192.899, -111.434, -193.169, -111.286, 0.165216, 223.056, 1.57691E-005, -0.000884804, -0.566548, 1.25748, 1.3712, -0.138948, -0.805262, -1.11755, 0.000608811, -0.000980037
107, 0.00000, 195.351, -110.278, -193.043, -113.693, -1.78332, 224.218, -0.000171046, -0.00047396, 0.947295, 0.489168, -0.0511794, -1.06631, -0.896689, 0.577614, 0.000573666, -0.000474469
108, 0.00000, 198.532, -108.804, -192.974, -116.885, -4.37271, 225.815, -0.000324232, -4.02199E-005, 2.59688, -0.374934, -1.63135, -2.06656, -0.968951, 2.44502, 0.00341984, -0.00352415
109, 0.00000, 198.23, -108.869, -192.916, -116.613, -4.18321, 225.626, -0.000313931, -9.81879E-005, 2.44939, -0.269339, -1.46523, -1.99122, -0.987211, 2.26364, 0.00305125, -0.00308974
110, 0.00000, 192.29, -111.214, -192.734, -110.868, 0.292587, 222.496, 2.90567E-005, -0.00109518, -0.739374, 1.55467, 1.71433, -0.138318, -0.975902, -1.4148, 0.000948623, -0.00155528
