hour, t(sec), P1 (kW), Q1 (kvar), P2 (kW), Q2 (kvar), P3 (kW), Q3 (kvar), P4 (kW), Q4 (kvar)
1, 0.00000, -0.222924, -0.0732663, -0.222925, -0.073271, -0.222893, -0.0732593, 1.74955E-009, -5.76021E-010
2, 0.00000, -0.188892, -0.0620853, -0.188891, -0.0620859, -0.188892, -0.0620858, 9.3807E-010, -3.66647E-010
3, 0.00000, -0.172944, -0.0568455, -0.17295, -0.0568482, -0.172946, -0.056846, 6.87546E-010, -2.60533E-010
4, 0.00000, -0.167442, -0.0550371, -0.167446, -0.055039, -0.167443, -0.0550371, 5.89912E-010, -2.32508E-010
5, 0.00000, -0.174382, -0.0573157, -0.174379, -0.0573157, -0.17438, -0.0573155, 6.73622E-010, -2.77509E-010
6, 0.00000, -0.201194, -0.0661286, -0.201186, -0.0661271, -0.201188, -0.0661272, 1.0256E-009, -4.30474E-010
7, 0.00000, -0.255021, -0.08382, -0.255021, -0.0838221, -0.255018, -0.0838201, 2.13284E-009, -8.53681E-010
8, 0.00000, -0.239931, -0.0935317, -0.239912, -0.0935257, -0.239914, -0.0935251, 2.99543E-009, -1.09841E-009
9, 0.00000, 0.16691, -0.0957749, 0.166907, -0.0957736, 0.166908, -0.0957737, 2.03234E-010, -4.40122E-010
10, 0.00000, 0.343628, -0.0985488, 0.34362, -0.0985481, 0.343622, -0.0985466, -7.75192E-010, -1.47323E-009
11, 0.00000, 1.06172, -0.09918, 1.0617, -0.0991898, 1.06173, -0.0991988, -3.74555E-008, -9.2789E-009
12, 0.00000, 1.09825, -0.0984618, 1.09825, -0.098475, 1.09826, -0.0984614, -4.08997E-008, -9.63951E-009
13, 0.00000, 0.823935, -0.0988793, 0.823965, -0.0988916, 0.823969, -0.0988836, -1.86937E-008, -6.14863E-009
14, 0.00000, 0.187784, -0.100837, 0.18779, -0.100841, 0.187789, -0.100839, 2.03259E-010, -5.50826E-010
15, 0.00000, -0.142975, -0.10504, -0.142976, -0.105041, -0.142976, -0.105041, 1.15056E-009, -5.50307E-010
16, 0.00000, -0.351151, -0.115415, -0.351152, -0.115419, -0.351151, -0.115417, 9.2914E-009, -2.84536E-009
17, 0.00000, -0.408283, -0.134193, -0.408283, -0.134198, -0.40828, -0.134195, 1.58764E-008, -4.63104E-009
18, 0.00000, -0.454648, -0.14943, -0.454658, -0.149438, -0.454657, -0.149437, 2.3273E-008, -6.58928E-009
19, 0.00000, -0.472928, -0.155439, -0.472932, -0.155448, -0.472927, -0.155442, 2.695E-008, -7.56496E-009
20, 0.00000, -0.483494, -0.158913, -0.483494, -0.15892, -0.48349, -0.158915, 2.9258E-008, -8.18381E-009
21, 0.00000, -0.471173, -0.154864, -0.471208, -0.154883, -0.471197, -0.154877, 2.54217E-008, -7.16506E-009
22, 0.00000, -0.431082, -0.141687, -0.431076, -0.141691, -0.431073, -0.141686, 1.9349E-008, -5.55071E-009
23, 0.00000, -0.365883, -0.120259, -0.365883, -0.120263, -0.365876, -0.120258, 1.07779E-008, -3.23417E-009
24, 0.00000, -0.288052, -0.0946769, -0.288038, -0.0946743, -0.288038, -0.0946733, 4.77649E-009, -1.55465E-009
25, 0.00000, -0.222913, -0.073267, -0.222906, -0.0732658, -0.222906, -0.0732657, 2.26962E-009, -7.41968E-010
26, 0.00000, -0.188932, -0.0620955, -0.188915, -0.0620897, -0.188911, -0.0620914, 1.35946E-009, -4.61939E-010
27, 0.00000, -0.172972, -0.0568512, -0.172964, -0.0568486, -0.172962, -0.0568495, 9.89E-010, -3.40427E-010
28, 0.00000, -0.167466, -0.0550412, -0.167458, -0.0550388, -0.167457, -0.05504, 8.01687E-010, -2.91023E-010
29, 0.00000, -0.174371, -0.0573133, -0.174375, -0.0573146, -0.174383, -0.0573171, 7.46809E-010, -2.94858E-010
30, 0.00000, -0.201185, -0.0661252, -0.201185, -0.0661267, -0.201183, -0.0661253, 1.2944E-009, -4.64288E-010
31, 0.00000, -0.255014, -0.083818, -0.255019, -0.0838214, -0.255017, -0.0838199, 2.9641E-009, -9.95539E-010
32, 0.00000, -0.240488, -0.0935144, -0.240489, -0.0935165, -0.240489, -0.0935155, 2.96434E-009, -1.06288E-009
33, 0.00000, 0.022024, -0.0957777, 0.0220232, -0.095774, 0.0220234, -0.0957747, 1.66163E-010, -1.30025E-010
34, 0.00000, 0.243317, -0.0985455, 0.243318, -0.0985467, 0.243318, -0.0985455, 1.26272E-011, -8.12458E-010
35, 0.00000, 0.557588, -0.0992445, 0.557574, -0.099246, 0.557576, -0.0992414, -4.70806E-009, -3.51974E-009
36, 0.00000, 0.603778, -0.0984694, 0.603768, -0.0984719, 0.603767, -0.0984664, -6.32389E-009, -3.96296E-009
37, 0.00000, 0.418409, -0.0988886, 0.418418, -0.0988923, 0.41842, -0.0988902, -1.48579E-009, -2.08291E-009
38, 0.00000, 0.0939419, -0.10083, 0.0939591, -0.100831, 0.0939623, -0.100839, 2.5838E-010, -2.51321E-010
39, 0.00000, -0.23236, -0.105038, -0.232357, -0.10504, -0.232356, -0.105042, 3.13124E-009, -1.19872E-009
40, 0.00000, -0.351166, -0.115416, -0.351159, -0.11542, -0.351143, -0.115412, 6.10122E-009, -2.29159E-009
41, 0.00000, -0.408347, -0.134216, -0.408346, -0.134221, -0.408342, -0.134216, 1.57501E-008, -4.60204E-009
42, 0.00000, -0.454656, -0.149435, -0.454671, -0.149446, -0.454666, -0.149441, 2.32334E-008, -6.54771E-009
43, 0.00000, -0.472881, -0.155424, -0.472903, -0.155438, -0.4729, -0.155434, 2.67219E-008, -7.48575E-009
44, 0.00000, -0.483465, -0.158903, -0.483477, -0.158915, -0.483474, -0.158909, 2.91083E-008, -8.13121E-009
45, 0.00000, -0.471178, -0.154866, -0.471157, -0.154867, -0.471152, -0.154859, 2.68305E-008, -7.55868E-009
46, 0.00000, -0.431096, -0.141692, -0.43108, -0.141693, -0.431079, -0.141688, 1.94275E-008, -5.59094E-009
47, 0.00000, -0.365868, -0.120254, -0.365851, -0.120252, -0.36585, -0.120248, 1.08561E-008, -3.29894E-009
48, 0.00000, -0.288052, -0.0946769, -0.288038, -0.0946743, -0.288038, -0.0946733, 4.77638E-009, -1.5548E-009
49, 0.00000, -0.222898, -0.0732625, -0.222902, -0.0732649, -0.222901, -0.0732641, 1.99672E-009, -6.74863E-010
50, 0.00000, -0.188898, -0.0620874, -0.188895, -0.0620874, -0.188894, -0.0620865, 1.18492E-009, -4.1159E-010
51, 0.00000, -0.172969, -0.0568522, -0.172956, -0.0568487, -0.172959, -0.0568486, 1.11945E-009, -3.75088E-010
52, 0.00000, -0.167473, -0.0550456, -0.167468, -0.0550446, -0.167466, -0.0550434, 1.01022E-009, -3.2832E-010
53, 0.00000, -0.174375, -0.0573139, -0.174376, -0.0573151, -0.174376, -0.0573146, 1.11835E-009, -3.61563E-010
54, 0.00000, -0.20117, -0.0661202, -0.201176, -0.0661232, -0.201176, -0.0661231, 1.71745E-009, -5.4626E-010
55, 0.00000, -0.25506, -0.0838241, -0.255056, -0.0838301, -0.255003, -0.0838111, 2.50052E-009, -8.25542E-010
56, 0.00000, -0.28452, -0.0935158, -0.28452, -0.093518, -0.284517, -0.0935159, 3.39189E-009, -1.25924E-009
57, 0.00000, -0.161041, -0.0957862, -0.161028, -0.0957795, -0.161031, -0.0957802, 1.24579E-009, -5.74223E-010
58, 0.00000, -0.0814086, -0.0985529, -0.0814052, -0.0985495, -0.0814053, -0.0985492, 4.76177E-010, -2.65608E-010
59, 0.00000, 0.00578613, -0.0992495, 0.00578796, -0.0992448, 0.00578789, -0.099246, 2.12075E-010, -1.46548E-010
60, 0.00000, 0.00805692, -0.0984697, 0.00805746, -0.0984685, 0.00805767, -0.0984682, 2.03889E-010, -1.38547E-010
61, 0.00000, -0.0379782, -0.0988908, -0.0379782, -0.0988915, -0.0379782, -0.0988915, 2.78777E-010, -1.72143E-010
62, 0.00000, -0.132607, -0.100837, -0.132608, -0.100838, -0.132608, -0.100839, 9.47493E-010, -4.63981E-010
63, 0.00000, -0.145356, -0.10504, -0.145356, -0.105041, -0.145356, -0.105041, 1.18622E-009, -5.6407E-010
64, 0.00000, -0.351152, -0.115416, -0.351152, -0.11542, -0.351151, -0.115418, 9.30052E-009, -2.84863E-009
65, 0.00000, -0.408261, -0.134182, -0.408269, -0.134189, -0.408269, -0.13419, 1.57985E-008, -4.62739E-009
66, 0.00000, -0.454728, -0.149459, -0.454753, -0.149474, -0.454743, -0.149468, 2.23935E-008, -6.36902E-009
67, 0.00000, -0.472893, -0.155429, -0.472911, -0.155442, -0.472908, -0.155437, 2.67808E-008, -7.50231E-009
68, 0.00000, -0.483482, -0.158909, -0.483488, -0.158919, -0.483484, -0.158913, 2.91973E-008, -8.16022E-009
69, 0.00000, -0.471159, -0.154859, -0.471145, -0.154862, -0.471142, -0.154856, 2.67414E-008, -7.53228E-009
70, 0.00000, -0.431085, -0.141688, -0.431077, -0.141691, -0.431074, -0.141687, 1.93642E-008, -5.55817E-009
71, 0.00000, -0.365858, -0.12025, -0.365849, -0.120251, -0.365846, -0.120247, 1.08098E-008, -3.27062E-009
72, 0.00000, -0.288043, -0.0946739, -0.288036, -0.0946738, -0.288034, -0.0946723, 4.74637E-009, -1.53217E-009
73, 0.00000, -0.238974, -0.0785465, -0.238961, -0.0785437, -0.238963, -0.0785431, 2.56066E-009, -8.73295E-010
74, 0.00000, -0.201791, -0.0663252, -0.20178, -0.0663229, -0.201779, -0.0663214, 1.48716E-009, -5.1542E-010
75, 0.00000, -0.181621, -0.0596956, -0.181616, -0.0596947, -0.181615, -0.0596939, 1.05145E-009, -3.68964E-010
76, 0.00000, -0.17235, -0.0566484, -0.172348, -0.0566483, -0.172347, -0.0566477, 8.8383E-010, -3.11311E-010
77, 0.00000, -0.172266, -0.0566206, -0.172265, -0.0566212, -0.172265, -0.0566206, 8.77195E-010, -3.08205E-010
78, 0.00000, -0.181341, -0.0596035, -0.181342, -0.0596047, -0.181342, -0.0596041, 1.02856E-009, -3.58364E-010
79, 0.00000, -0.202313, -0.0664964, -0.202313, -0.0664977, -0.202313, -0.066497, 1.4635E-009, -5.03284E-010
80, 0.00000, -0.198906, -0.0795376, -0.198907, -0.0795389, -0.198906, -0.0795382, 1.62684E-009, -6.10243E-010
81, 0.00000, 0.00212331, -0.1002, 0.00212481, -0.100198, 0.00212502, -0.100198, 2.18857E-010, -1.485E-010
82, 0.00000, 0.169483, -0.119401, 0.169483, -0.119401, 0.169484, -0.1194, 4.24109E-010, -6.44173E-010
83, 0.00000, 0.450646, -0.129553, 0.450647, -0.129553, 0.450649, -0.129551, -1.77134E-009, -3.27872E-009
84, 0.00000, 0.437139, -0.133403, 0.437141, -0.133412, 0.437144, -0.133408, -1.39879E-009, -3.2035E-009
85, 0.00000, 0.296633, -0.135218, 0.296635, -0.135222, 0.296636, -0.135219, 3.07851E-010, -1.74378E-009
86, 0.00000, -0.0240865, -0.137819, -0.0240868, -0.137821, -0.0240865, -0.13782, 6.73927E-010, -4.1639E-010
87, 0.00000, -0.340993, -0.1404, -0.341036, -0.140422, -0.341023, -0.140417, 1.56656E-008, -4.3447E-009
88, 0.00000, -0.435274, -0.143066, -0.435567, -0.143167, -0.435581, -0.143165, 2.5099E-008, -5.73758E-009
89, 0.00000, -0.45747, -0.15036, -0.457469, -0.150368, -0.457457, -0.150359, 2.61875E-008, -7.12486E-009
90, 0.00000, -0.46958, -0.154342, -0.469584, -0.154349, -0.469588, -0.154346, 2.09199E-008, -6.5027E-009
91, 0.00000, -0.467154, -0.153544, -0.467148, -0.153548, -0.467141, -0.153542, 1.38014E-008, -5.35168E-009
92, 0.00000, -0.465339, -0.152946, -0.465358, -0.152959, -0.465353, -0.152954, 2.52531E-008, -7.08709E-009
93, 0.00000, -0.447728, -0.147158, -0.447764, -0.147176, -0.447751, -0.14717, 2.18552E-008, -6.11817E-009
94, 0.00000, -0.413212, -0.135814, -0.4132, -0.135816, -0.413197, -0.135811, 1.66797E-008, -4.85383E-009
95, 0.00000, -0.363591, -0.119505, -0.363576, -0.119504, -0.363575, -0.119501, 1.06123E-008, -3.22913E-009
96, 0.00000, -0.302947, -0.0995723, -0.302933, -0.0995701, -0.302932, -0.099569, 5.66065E-009, -1.81735E-009
97, 0.00000, -0.244301, -0.080297, -0.244306, -0.0803002, -0.244306, -0.0802993, 2.69435E-009, -8.95884E-010
98, 0.00000, -0.205517, -0.06755, -0.2055, -0.0675457, -0.205503, -0.0675452, 1.58276E-009, -5.58043E-010
99, 0.00000, -0.183021, -0.0601558, -0.183015, -0.0601546, -0.183014, -0.0601539, 1.0793E-009, -3.78679E-010
100, 0.00000, -0.171816, -0.0564729, -0.171813, -0.0564727, -0.171813, -0.0564721, 8.76488E-010, -3.09053E-010
101, 0.00000, -0.168402, -0.0553506, -0.168399, -0.0553501, -0.168397, -0.0553492, 8.26827E-010, -2.90552E-010
102, 0.00000, -0.173933, -0.057169, -0.173938, -0.0571714, -0.17394, -0.0571714, 8.85922E-010, -3.12325E-010
103, 0.00000, -0.192122, -0.0631471, -0.192124, -0.0631486, -0.192123, -0.0631479, 1.23715E-009, -4.27755E-010
104, 0.00000, -0.180643, -0.0734866, -0.180644, -0.0734876, -0.180643, -0.0734869, 1.2098E-009, -4.63701E-010
105, 0.00000, 0.0234089, -0.0928856, 0.0234102, -0.092884, 0.0234104, -0.0928844, 1.64196E-010, -1.19786E-010
106, 0.00000, 0.185865, -0.113521, 0.185865, -0.113521, 0.185866, -0.11352, 3.44632E-010, -6.68001E-010
107, 0.00000, 0.940224, -0.126541, 0.940236, -0.126554, 0.940236, -0.126541, -1.91222E-008, -1.21251E-008
108, 0.00000, 1.7306, -0.13165, 1.73064, -0.131681, 1.73065, -0.131649, -1.15274E-007, -3.11455E-008
109, 0.00000, 1.67446, -0.134916, 1.67449, -0.134946, 1.67451, -0.134917, -1.06149E-007, -3.08315E-008
110, 0.00000, 0.199695, -0.13711, 0.199698, -0.13711, 0.199701, -0.13711, 6.56773E-010, -1.02037E-009
111, 0.00000, -0.19861, -0.136408, -0.198603, -0.136408, -0.19859, -0.136398, 2.73025E-009, -1.27616E-009
112, 0.00000, -0.411439, -0.135224, -0.411436, -0.135232, -0.411431, -0.135226, 1.10948E-008, -3.92132E-009
113, 0.00000, -0.428584, -0.140848, -0.428582, -0.140858, -0.428573, -0.140852, 1.18461E-008, -4.31634E-009
114, 0.00000, -0.451394, -0.148357, -0.451391, -0.148365, -0.451387, -0.148359, 1.61823E-008, -5.39946E-009
115, 0.00000, -0.462461, -0.152, -0.462494, -0.152017, -0.462486, -0.152012, 2.45718E-008, -6.86633E-009
116, 0.00000, -0.476381, -0.156575, -0.476398, -0.156588, -0.476394, -0.156582, 2.75209E-008, -7.70343E-009
117, 0.00000, -0.465619, -0.153039, -0.465601, -0.153041, -0.465597, -0.153034, 2.56654E-008, -7.24425E-009
118, 0.00000, -0.423121, -0.139071, -0.423105, -0.139071, -0.423103, -0.139067, 1.81753E-008, -5.25803E-009
119, 0.00000, -0.356425, -0.11715, -0.356408, -0.117148, -0.356407, -0.117145, 9.9044E-009, -3.03441E-009
120, 0.00000, -0.278973, -0.0916927, -0.278959, -0.0916903, -0.278959, -0.0916894, 4.28598E-009, -1.40562E-009
121, 0.00000, -0.222898, -0.0732625, -0.222902, -0.0732649, -0.222901, -0.0732641, 1.99689E-009, -6.74919E-010
122, 0.00000, -0.188898, -0.0620874, -0.188895, -0.0620874, -0.188894, -0.0620865, 1.18492E-009, -4.1159E-010
123, 0.00000, -0.172956, -0.0568476, -0.172955, -0.0568479, -0.172954, -0.0568472, 8.91075E-010, -3.12905E-010
124, 0.00000, -0.167463, -0.0550421, -0.16746, -0.0550417, -0.167459, -0.0550409, 8.11527E-010, -2.85257E-010
125, 0.00000, -0.17436, -0.0573091, -0.174363, -0.0573111, -0.174365, -0.0573109, 8.97816E-010, -3.15829E-010
126, 0.00000, -0.201179, -0.066124, -0.201181, -0.0661256, -0.201181, -0.0661249, 1.43403E-009, -4.9347E-010
127, 0.00000, -0.255006, -0.0838156, -0.255012, -0.0838189, -0.255012, -0.0838184, 3.10508E-009, -1.0268E-009
128, 0.00000, -0.241221, -0.0935155, -0.241221, -0.0935172, -0.24122, -0.093516, 2.9918E-009, -1.07054E-009
129, 0.00000, 0.0171025, -0.09578, 0.0171059, -0.0957758, 0.0171065, -0.0957771, 1.8226E-010, -1.34126E-010
130, 0.00000, 0.235544, -0.0985487, 0.235545, -0.0985466, 0.235545, -0.0985474, 4.28692E-011, -7.76465E-010
131, 0.00000, 1.50133, -0.0992477, 1.50134, -0.0992726, 1.50124, -0.0992405, -8.83046E-008, -1.38381E-008
132, 0.00000, 1.83223, -0.0984467, 1.83237, -0.0984822, 1.83234, -0.0984508, -1.39195E-007, -1.59524E-008
133, 0.00000, 2.03003, -0.0988761, 2.03013, -0.0989129, 2.03012, -0.098878, -1.72318E-007, -1.77323E-008
134, 0.00000, 0.399963, -0.100849, 0.399963, -0.100839, 0.399981, -0.100846, -1.64552E-009, -2.00707E-009
135, 0.00000, -0.013583, -0.104945, -0.0135831, -0.105005, -0.013617, -0.104991, 1.73399E-010, -9.09134E-011
136, 0.00000, -0.351154, -0.11527, -0.35115, -0.115348, -0.351163, -0.115335, 8.85205E-009, -3.01777E-009
137, 0.00000, -0.408282, -0.134193, -0.408305, -0.134206, -0.408299, -0.134202, 1.57143E-008, -4.54551E-009
138, 0.00000, -0.454675, -0.149441, -0.454677, -0.149448, -0.454673, -0.149443, 2.33529E-008, -6.6015E-009
139, 0.00000, -0.472968, -0.155454, -0.473012, -0.155475, -0.472999, -0.155469, 2.57139E-008, -7.2228E-009
140, 0.00000, -0.483465, -0.158904, -0.483478, -0.158916, -0.483475, -0.15891, 2.91082E-008, -8.1271E-009
141, 0.00000, -0.47116, -0.154859, -0.471146, -0.154863, -0.471142, -0.154856, 2.67443E-008, -7.53288E-009
142, 0.00000, -0.431085, -0.141688, -0.431077, -0.141692, -0.431074, -0.141687, 1.93662E-008, -5.55893E-009
143, 0.00000, -0.365858, -0.12025, -0.365849, -0.120251, -0.365846, -0.120247, 1.08124E-008, -3.27158E-009
144, 0.00000, -0.288043, -0.094674, -0.288036, -0.0946738, -0.288034, -0.0946723, 4.74807E-009, -1.5329E-009
145, 0.00000, -0.222909, -0.073266, -0.222906, -0.0732657, -0.222904, -0.0732653, 2.02567E-009, -6.88266E-010
146, 0.00000, -0.188898, -0.0620874, -0.188892, -0.0620863, -0.188894, -0.0620863, 1.10967E-009, -4.04409E-010
147, 0.00000, -0.172955, -0.0568471, -0.172954, -0.0568476, -0.172953, -0.056847, 8.89012E-010, -3.12067E-010
148, 0.00000, -0.167463, -0.0550425, -0.167451, -0.055039, -0.167454, -0.0550392, 7.65246E-010, -2.89712E-010
149, 0.00000, -0.174372, -0.0573126, -0.174377, -0.0573154, -0.174375, -0.0573143, 1.64725E-009, -4.74963E-010
150, 0.00000, -0.201166, -0.0661187, -0.201174, -0.0661224, -0.201174, -0.0661224, 2.48109E-009, -7.10325E-010
151, 0.00000, -0.255015, -0.0838178, -0.255019, -0.0838212, -0.255017, -0.0838201, 5.04964E-009, -1.40695E-009
152, 0.00000, -0.197625, -0.0935251, -0.197614, -0.0935221, -0.197615, -0.0935205, 2.92544E-009, -9.87788E-010
153, 0.00000, 0.1533, -0.0957729, 0.153301, -0.0957709, 0.153301, -0.0957761, 4.10327E-010, -3.8033E-010
154, 0.00000, 0.235384, -0.0985428, 0.235383, -0.0985401, 0.235383, -0.0985461, 2.73861E-010, -7.78154E-010
155, 0.00000, 0.547917, -0.0992016, 0.547903, -0.099199, 0.547909, -0.0992261, -4.60463E-009, -3.28972E-009
156, 0.00000, 0.595485, -0.0984539, 0.595484, -0.0984577, 0.595488, -0.0984596, -6.53319E-009, -3.74606E-009
157, 0.00000, 0.412929, -0.0989048, 0.412937, -0.0989119, 0.412938, -0.0988955, -1.7587E-009, -2.0212E-009
158, 0.00000, 0.0908099, -0.10084, 0.0908091, -0.100842, 0.0908102, -0.100838, 2.36113E-010, -2.35488E-010
159, 0.00000, -0.233094, -0.105049, -0.233079, -0.105051, -0.233036, -0.105029, 2.89451E-009, -1.06764E-009
160, 0.00000, -0.351156, -0.115414, -0.351154, -0.115419, -0.351149, -0.115415, 7.84156E-009, -2.59876E-009
161, 0.00000, -0.408283, -0.13419, -0.408282, -0.134196, -0.408278, -0.134192, 1.34115E-008, -4.236E-009
162, 0.00000, -0.454679, -0.14944, -0.454677, -0.149447, -0.454673, -0.149441, 1.93163E-008, -5.9469E-009
163, 0.00000, -0.472937, -0.155458, -0.472937, -0.155456, -0.47294, -0.155454, 1.52414E-008, -5.69419E-009
164, 0.00000, -0.483503, -0.158914, -0.483499, -0.158921, -0.483495, -0.158915, 1.7455E-008, -6.25748E-009
165, 0.00000, -0.471078, -0.154832, -0.471117, -0.154851, -0.471107, -0.154845, 2.53611E-008, -7.14771E-009
166, 0.00000, -0.431082, -0.141687, -0.431076, -0.141691, -0.431073, -0.141686, 1.93489E-008, -5.55062E-009
167, 0.00000, -0.365856, -0.120249, -0.365848, -0.120251, -0.365845, -0.120247, 1.08003E-008, -3.26709E-009
168, 0.00000, -0.288041, -0.0946735, -0.288036, -0.0946737, -0.288034, -0.0946721, 4.74019E-009, -1.52951E-009
169, 0.00000, -0.221537, -0.0728151, -0.222909, -0.073267, -0.222917, -0.07327, 2.78368E-009, 1.69431E-009
170, 0.00000, -0.188892, -0.0620851, -0.188909, -0.062092, -0.188893, -0.0620861, 5.75712E-009, -1.51289E-009
171, 0.00000, -0.172962, -0.0568493, -0.172955, -0.0568482, -0.172956, -0.0568478, 4.11467E-009, -1.15811E-009
172, 0.00000, -0.167471, -0.0550443, -0.167461, -0.0550418, -0.167459, -0.0550412, 3.57987E-009, -1.01673E-009
173, 0.00000, -0.174366, -0.0573109, -0.174375, -0.0573151, -0.174373, -0.0573137, 4.8341E-009, -1.34108E-009
174, 0.00000, -0.201191, -0.0661276, -0.201185, -0.0661272, -0.201185, -0.0661263, 5.43316E-009, -1.45748E-009
175, 0.00000, -0.255009, -0.0838199, -0.255005, -0.0838182, -0.255031, -0.0838257, 1.44693E-009, -7.97907E-010
176, 0.00000, -0.241324, -0.0935275, -0.241324, -0.0935293, -0.241319, -0.0935263, 5.33674E-009, -1.54078E-009
177, 0.00000, 0.106043, -0.0957742, 0.106047, -0.0957682, 0.106045, -0.0957786, 2.05208E-010, -2.48234E-010
178, 0.00000, 0.366846, -0.0985501, 0.366824, -0.0985465, 0.366783, -0.0985328, -3.90144E-009, -8.8128E-010
179, 0.00000, 1.0291, -0.0992236, 1.02907, -0.0992575, 1.02915, -0.0992422, -4.28263E-008, -5.02775E-009
180, 0.00000, 0.592338, -0.0984588, 0.592291, -0.0984687, 0.592367, -0.0984748, -1.21666E-008, -2.3078E-009
181, 0.00000, 0.411233, -0.098892, 0.411225, -0.0988928, 0.411244, -0.0988948, -5.51074E-009, -1.02978E-009
182, 0.00000, 0.0904531, -0.10085, 0.0904495, -0.100835, 0.0904676, -0.10085, -3.78814E-010, -1.0405E-010
183, 0.00000, -0.14552, -0.105057, -0.145517, -0.10503, -0.145509, -0.105059, 3.48174E-010, -4.20014E-010
184, 0.00000, -0.351163, -0.115258, -0.351157, -0.115383, -0.351153, -0.115344, 4.28345E-009, -2.26933E-009
