hour, t(sec), P1 (kW), Q1 (kvar), P2 (kW), Q2 (kvar), P3 (kW), Q3 (kvar), P4 (kW), Q4 (kvar)
1, 0.00000, -0.137519, -0.0451999, -0.137519, -0.0452005, -0.137518, -0.0452, 4.29414E-010, -2.48878E-010
2, 0.00000, -0.116534, -0.0383028, -0.116534, -0.0383032, -0.116534, -0.0383028, 2.54627E-010, -1.50246E-010
3, 0.00000, -0.106706, -0.0350726, -0.106705, -0.0350726, -0.106705, -0.0350722, 1.95342E-010, -1.15818E-010
4, 0.00000, -0.103308, -0.0339555, -0.103307, -0.0339557, -0.103307, -0.0339554, 1.74157E-010, -1.03803E-010
5, 0.00000, -0.107578, -0.035359, -0.107579, -0.0353596, -0.107578, -0.0353593, 1.95248E-010, -1.16399E-010
6, 0.00000, -0.12411, -0.0407926, -0.124111, -0.0407937, -0.124111, -0.0407934, 2.99579E-010, -1.77192E-010
7, 0.00000, -0.157331, -0.0517117, -0.157331, -0.0517126, -0.15733, -0.0517119, 6.38261E-010, -3.68565E-010
8, 0.00000, -0.175532, -0.0576941, -0.175531, -0.057695, -0.17553, -0.057694, 8.93592E-010, -5.14004E-010
9, 0.00000, -0.179766, -0.0590857, -0.179765, -0.0590867, -0.179765, -0.0590858, 3.83885E-010, -3.86925E-010
10, 0.00000, -0.18497, -0.0607961, -0.184969, -0.0607971, -0.184968, -0.0607961, 1.82075E-010, -3.57005E-010
11, 0.00000, -0.186273, -0.0612244, -0.186271, -0.0612252, -0.186272, -0.0612245, -7.31288E-010, -1.38687E-010
12, 0.00000, -0.184818, -0.060746, -0.184817, -0.0607471, -0.184816, -0.0607461, -7.67191E-010, -1.20578E-010
13, 0.00000, -0.185619, -0.0610093, -0.185618, -0.0610104, -0.185618, -0.0610095, -4.41131E-010, -1.99782E-010
14, 0.00000, -0.189276, -0.0622113, -0.189276, -0.0622126, -0.189275, -0.0622116, 4.3088E-010, -4.46129E-010
15, 0.00000, -0.197161, -0.0648031, -0.197161, -0.0648044, -0.19716, -0.0648034, 1.06241E-009, -6.66775E-010
16, 0.00000, -0.216639, -0.0712049, -0.216639, -0.0712066, -0.216638, -0.0712054, 1.87526E-009, -1.01131E-009
17, 0.00000, -0.251885, -0.0827894, -0.251885, -0.0827917, -0.251883, -0.08279, 3.06648E-009, -1.60443E-009
18, 0.00000, -0.280506, -0.0921956, -0.280505, -0.0921982, -0.280503, -0.092196, 4.32505E-009, -2.24379E-009
19, 0.00000, -0.291773, -0.0958993, -0.291773, -0.0959026, -0.29177, -0.0958996, 4.89879E-009, -2.55177E-009
20, 0.00000, -0.298289, -0.0980408, -0.298288, -0.0980441, -0.298285, -0.0980414, 5.25525E-009, -2.74945E-009
21, 0.00000, -0.290662, -0.0955347, -0.290661, -0.0955375, -0.29066, -0.0955356, 4.81004E-009, -2.51946E-009
22, 0.00000, -0.265946, -0.0874109, -0.265945, -0.0874135, -0.265944, -0.0874114, 3.6545E-009, -1.89698E-009
23, 0.00000, -0.225705, -0.0741848, -0.225704, -0.0741866, -0.225703, -0.0741851, 2.14378E-009, -1.14569E-009
24, 0.00000, -0.177699, -0.0584062, -0.177699, -0.0584072, -0.177698, -0.0584063, 9.95641E-010, -5.53359E-010
25, 0.00000, -0.137518, -0.0451995, -0.137518, -0.0452001, -0.137517, -0.0451996, 4.50086E-010, -2.5683E-010
26, 0.00000, -0.116537, -0.0383025, -0.116536, -0.0383027, -0.116535, -0.0383024, 2.69549E-010, -1.56462E-010
27, 0.00000, -0.106702, -0.0350706, -0.106702, -0.0350709, -0.106701, -0.0350706, 2.03515E-010, -1.19247E-010
28, 0.00000, -0.103306, -0.0339544, -0.103306, -0.0339547, -0.103305, -0.0339544, 1.80722E-010, -1.06703E-010
29, 0.00000, -0.10758, -0.0353596, -0.10758, -0.03536, -0.10758, -0.0353597, 1.99741E-010, -1.1832E-010
30, 0.00000, -0.124118, -0.0407952, -0.124118, -0.0407957, -0.124117, -0.0407953, 3.14857E-010, -1.83703E-010
31, 0.00000, -0.157331, -0.0517117, -0.157331, -0.0517126, -0.15733, -0.051712, 6.68924E-010, -3.79588E-010
32, 0.00000, -0.17553, -0.0576932, -0.175529, -0.0576943, -0.175529, -0.0576935, 8.91734E-010, -5.13742E-010
33, 0.00000, -0.179766, -0.0590857, -0.179766, -0.0590867, -0.179765, -0.0590858, 5.7462E-010, -4.40296E-010
34, 0.00000, -0.18497, -0.0607961, -0.184969, -0.0607972, -0.184969, -0.0607962, 3.19586E-010, -3.93968E-010
35, 0.00000, -0.186277, -0.0612257, -0.186276, -0.0612267, -0.186275, -0.0612257, -8.51892E-011, -2.92193E-010
36, 0.00000, -0.184822, -0.0607475, -0.18482, -0.0607482, -0.184819, -0.0607471, -1.45295E-010, -2.70916E-010
37, 0.00000, -0.185618, -0.0610091, -0.185618, -0.0610103, -0.185617, -0.0610094, 9.52762E-011, -3.36174E-010
38, 0.00000, -0.189273, -0.0622102, -0.189273, -0.0622117, -0.189273, -0.0622109, 5.80534E-010, -4.88804E-010
39, 0.00000, -0.197161, -0.064803, -0.197161, -0.0648044, -0.19716, -0.0648034, 1.22571E-009, -7.13416E-010
40, 0.00000, -0.216641, -0.0712053, -0.216638, -0.0712061, -0.216638, -0.0712053, 1.76668E-009, -9.87309E-010
41, 0.00000, -0.251889, -0.0827908, -0.251888, -0.0827931, -0.251887, -0.0827914, 3.05939E-009, -1.60363E-009
42, 0.00000, -0.280509, -0.0921971, -0.280507, -0.0921999, -0.280506, -0.0921976, 4.32247E-009, -2.24479E-009
43, 0.00000, -0.291771, -0.0958987, -0.291771, -0.0959021, -0.291768, -0.0958992, 4.89734E-009, -2.54969E-009
44, 0.00000, -0.298287, -0.0980404, -0.298287, -0.0980439, -0.298284, -0.0980411, 5.25383E-009, -2.74791E-009
45, 0.00000, -0.290662, -0.0955344, -0.29066, -0.0955372, -0.290659, -0.0955349, 4.83757E-009, -2.53042E-009
46, 0.00000, -0.265946, -0.087411, -0.265946, -0.0874136, -0.265944, -0.0874115, 3.65441E-009, -1.89676E-009
47, 0.00000, -0.225705, -0.0741846, -0.225704, -0.0741863, -0.225702, -0.0741847, 2.14789E-009, -1.1469E-009
48, 0.00000, -0.177699, -0.0584062, -0.177699, -0.0584072, -0.177698, -0.0584063, 9.95642E-010, -5.53365E-010
49, 0.00000, -0.137517, -0.0451993, -0.137517, -0.0452, -0.137517, -0.0451996, 4.4062E-010, -2.53437E-010
50, 0.00000, -0.116535, -0.0383029, -0.116535, -0.0383033, -0.116534, -0.0383029, 2.63619E-010, -1.53741E-010
51, 0.00000, -0.106702, -0.0350709, -0.106701, -0.0350712, -0.106701, -0.0350709, 2.07503E-010, -1.20622E-010
52, 0.00000, -0.103308, -0.0339554, -0.103307, -0.0339556, -0.103306, -0.0339552, 1.88576E-010, -1.09861E-010
53, 0.00000, -0.10758, -0.0353596, -0.10758, -0.03536, -0.10758, -0.0353597, 2.12086E-010, -1.23404E-010
54, 0.00000, -0.124117, -0.0407949, -0.124117, -0.0407954, -0.124117, -0.0407951, 3.29253E-010, -1.89446E-010
55, 0.00000, -0.157333, -0.0517122, -0.157332, -0.051713, -0.157332, -0.0517124, 6.45633E-010, -3.71942E-010
56, 0.00000, -0.17553, -0.0576933, -0.17553, -0.0576944, -0.175529, -0.0576936, 9.15244E-010, -5.19117E-010
57, 0.00000, -0.179767, -0.0590861, -0.179766, -0.059087, -0.179765, -0.0590861, 8.36636E-010, -5.15664E-010
58, 0.00000, -0.18497, -0.0607962, -0.184969, -0.0607972, -0.184969, -0.0607962, 7.90588E-010, -5.26789E-010
59, 0.00000, -0.186277, -0.0612258, -0.186276, -0.0612268, -0.186275, -0.0612258, 6.75651E-010, -5.00418E-010
60, 0.00000, -0.184819, -0.0607467, -0.184819, -0.0607477, -0.184818, -0.0607467, 6.55459E-010, -4.875E-010
61, 0.00000, -0.185619, -0.0610092, -0.185618, -0.0610104, -0.185618, -0.0610095, 7.30421E-010, -5.12674E-010
62, 0.00000, -0.189275, -0.0622109, -0.189275, -0.0622122, -0.189274, -0.0622113, 9.2456E-010, -5.86198E-010
63, 0.00000, -0.197161, -0.064803, -0.197161, -0.0648044, -0.19716, -0.0648033, 1.06686E-009, -6.67979E-010
64, 0.00000, -0.216639, -0.071205, -0.216639, -0.0712066, -0.216638, -0.0712054, 1.87568E-009, -1.0114E-009
65, 0.00000, -0.251881, -0.0827874, -0.251881, -0.08279, -0.251881, -0.0827887, 3.05595E-009, -1.6033E-009
66, 0.00000, -0.280512, -0.0921986, -0.280511, -0.0922013, -0.280511, -0.0921996, 4.29611E-009, -2.24094E-009
67, 0.00000, -0.291771, -0.0958987, -0.291771, -0.0959021, -0.291768, -0.0958991, 4.89884E-009, -2.54985E-009
68, 0.00000, -0.298288, -0.0980406, -0.298287, -0.098044, -0.298285, -0.0980412, 5.25466E-009, -2.74844E-009
69, 0.00000, -0.290661, -0.0955342, -0.29066, -0.095537, -0.290658, -0.0955347, 4.83675E-009, -2.52976E-009
70, 0.00000, -0.265946, -0.0874109, -0.265945, -0.0874135, -0.265944, -0.0874114, 3.65421E-009, -1.89699E-009
71, 0.00000, -0.225705, -0.0741844, -0.225704, -0.0741861, -0.225702, -0.0741846, 2.14715E-009, -1.14695E-009
72, 0.00000, -0.177699, -0.0584062, -0.177699, -0.0584072, -0.177698, -0.0584063, 9.95226E-010, -5.53278E-010
73, 0.00000, -0.147422, -0.048455, -0.147422, -0.0484557, -0.147422, -0.0484551, 5.49925E-010, -3.13238E-010
74, 0.00000, -0.124479, -0.0409142, -0.124479, -0.0409146, -0.124478, -0.0409141, 3.24402E-010, -1.87824E-010
75, 0.00000, -0.112042, -0.0368263, -0.112042, -0.0368267, -0.112042, -0.0368263, 2.33252E-010, -1.36503E-010
76, 0.00000, -0.106326, -0.0349475, -0.106326, -0.0349479, -0.106326, -0.0349476, 1.97986E-010, -1.16437E-010
77, 0.00000, -0.106276, -0.0349312, -0.106276, -0.0349315, -0.106276, -0.0349312, 1.975E-010, -1.16203E-010
78, 0.00000, -0.111877, -0.0367719, -0.111877, -0.0367723, -0.111876, -0.036772, 2.31417E-010, -1.35679E-010
79, 0.00000, -0.124815, -0.0410245, -0.124815, -0.041025, -0.124815, -0.0410246, 3.25477E-010, -1.88919E-010
80, 0.00000, -0.149294, -0.0490699, -0.149293, -0.0490707, -0.149293, -0.0490702, 5.29228E-010, -3.12391E-010
81, 0.00000, -0.188069, -0.061815, -0.188069, -0.0618161, -0.188068, -0.061815, 7.00504E-010, -5.16109E-010
82, 0.00000, -0.224112, -0.0736614, -0.224112, -0.073663, -0.224111, -0.0736616, 8.45945E-010, -7.77841E-010
83, 0.00000, -0.243168, -0.0799243, -0.243166, -0.0799261, -0.243165, -0.0799244, 4.28364E-010, -8.14876E-010
84, 0.00000, -0.250424, -0.0823089, -0.250424, -0.0823112, -0.250423, -0.0823098, 5.30366E-010, -9.05192E-010
85, 0.00000, -0.253809, -0.0834217, -0.253809, -0.0834239, -0.253807, -0.0834222, 9.5501E-010, -1.05441E-009
86, 0.00000, -0.258688, -0.0850252, -0.258687, -0.0850276, -0.258686, -0.0850257, 2.00289E-009, -1.38717E-009
87, 0.00000, -0.26353, -0.0866169, -0.263529, -0.0866194, -0.263529, -0.0866179, 3.41043E-009, -1.82146E-009
88, 0.00000, -0.268734, -0.0883272, -0.268733, -0.0883297, -0.268731, -0.0883274, 3.92031E-009, -2.07087E-009
89, 0.00000, -0.282221, -0.09276, -0.28222, -0.0927629, -0.282218, -0.0927606, 4.44651E-009, -2.31947E-009
90, 0.00000, -0.289709, -0.0952211, -0.289708, -0.095224, -0.289707, -0.0952218, 4.67938E-009, -2.43752E-009
91, 0.00000, -0.288197, -0.0947243, -0.288195, -0.0947271, -0.288192, -0.0947243, 4.39051E-009, -2.3323E-009
92, 0.00000, -0.287102, -0.094364, -0.287101, -0.094367, -0.287098, -0.0943645, 4.65208E-009, -2.42181E-009
93, 0.00000, -0.276205, -0.0907829, -0.276205, -0.0907859, -0.276204, -0.090784, 4.10576E-009, -2.13666E-009
94, 0.00000, -0.254916, -0.0837856, -0.254915, -0.083788, -0.254913, -0.083786, 3.19229E-009, -1.66342E-009
95, 0.00000, -0.224301, -0.0737233, -0.2243, -0.073725, -0.224299, -0.0737234, 2.10491E-009, -1.12564E-009
96, 0.00000, -0.186889, -0.0614265, -0.186888, -0.0614276, -0.186887, -0.0614266, 1.16942E-009, -6.45204E-010
97, 0.00000, -0.150723, -0.0495397, -0.150723, -0.0495405, -0.150722, -0.04954, 5.87829E-010, -3.34743E-010
98, 0.00000, -0.126778, -0.0416697, -0.126778, -0.0416702, -0.126777, -0.0416697, 3.43084E-010, -1.98412E-010
99, 0.00000, -0.112905, -0.03711, -0.112905, -0.0371103, -0.112905, -0.0371099, 2.38959E-010, -1.39735E-010
100, 0.00000, -0.105996, -0.0348391, -0.105996, -0.0348394, -0.105996, -0.0348391, 1.96138E-010, -1.15371E-010
101, 0.00000, -0.103885, -0.034145, -0.103885, -0.0341453, -0.103884, -0.034145, 1.84878E-010, -1.08879E-010
102, 0.00000, -0.107319, -0.035274, -0.10732, -0.0352746, -0.107319, -0.0352743, 2.02082E-010, -1.18985E-010
103, 0.00000, -0.118529, -0.0389582, -0.118528, -0.0389587, -0.118528, -0.0389583, 2.76992E-010, -1.61586E-010
104, 0.00000, -0.137935, -0.0453366, -0.137935, -0.0453373, -0.137934, -0.0453368, 4.1044E-010, -2.4493E-010
105, 0.00000, -0.174341, -0.0573027, -0.17434, -0.0573036, -0.17434, -0.0573027, 5.24902E-010, -4.02083E-010
106, 0.00000, -0.213076, -0.070034, -0.213075, -0.0700354, -0.213074, -0.0700341, 6.74118E-010, -6.53901E-010
107, 0.00000, -0.237526, -0.07807, -0.237526, -0.078072, -0.237524, -0.0780703, -5.96586E-010, -4.88769E-010
108, 0.00000, -0.24713, -0.0812267, -0.247129, -0.0812286, -0.247128, -0.081227, -2.23028E-009, -1.55176E-010
109, 0.00000, -0.253256, -0.0832402, -0.253256, -0.0832422, -0.253254, -0.0832405, -2.19669E-009, -2.12278E-010
110, 0.00000, -0.257353, -0.0845866, -0.257352, -0.0845889, -0.257351, -0.0845871, 1.29242E-009, -1.18137E-009
111, 0.00000, -0.256032, -0.0841524, -0.256027, -0.0841533, -0.256027, -0.0841519, 2.45829E-009, -1.49642E-009
112, 0.00000, -0.253828, -0.0834278, -0.253828, -0.0834305, -0.253827, -0.0834288, 2.96648E-009, -1.59677E-009
113, 0.00000, -0.264395, -0.0869008, -0.264398, -0.0869046, -0.264397, -0.0869029, 3.34017E-009, -1.79135E-009
114, 0.00000, -0.278479, -0.09153, -0.278479, -0.0915329, -0.278477, -0.0915309, 4.05342E-009, -2.13486E-009
115, 0.00000, -0.285338, -0.0937843, -0.285337, -0.0937873, -0.285335, -0.0937848, 4.56147E-009, -2.3731E-009
116, 0.00000, -0.293923, -0.0966058, -0.293922, -0.0966093, -0.293919, -0.0966064, 5.0132E-009, -2.61535E-009
117, 0.00000, -0.287236, -0.0944085, -0.287235, -0.0944113, -0.287233, -0.094409, 4.65806E-009, -2.43166E-009
118, 0.00000, -0.261026, -0.0857939, -0.261025, -0.0857964, -0.261024, -0.0857944, 3.44383E-009, -1.78958E-009
119, 0.00000, -0.219879, -0.0722699, -0.219878, -0.0722715, -0.219877, -0.07227, 1.97342E-009, -1.05896E-009
120, 0.00000, -0.172099, -0.0565654, -0.172098, -0.0565663, -0.172097, -0.0565655, 8.98992E-010, -5.01954E-010
121, 0.00000, -0.137517, -0.0451993, -0.137517, -0.0452, -0.137517, -0.0451996, 4.40633E-010, -2.53439E-010
122, 0.00000, -0.116535, -0.0383029, -0.116535, -0.0383033, -0.116534, -0.0383029, 2.63619E-010, -1.53741E-010
123, 0.00000, -0.106702, -0.0350709, -0.106701, -0.0350712, -0.106701, -0.0350709, 2.00169E-010, -1.17687E-010
124, 0.00000, -0.103308, -0.0339552, -0.103307, -0.0339554, -0.103307, -0.0339551, 1.82024E-010, -1.07252E-010
125, 0.00000, -0.107577, -0.0353589, -0.107578, -0.0353595, -0.107578, -0.0353592, 2.0351E-010, -1.19751E-010
126, 0.00000, -0.124117, -0.040795, -0.124117, -0.0407956, -0.124117, -0.0407952, 3.1959E-010, -1.8564E-010
127, 0.00000, -0.15733, -0.0517112, -0.15733, -0.0517122, -0.15733, -0.0517116, 6.72474E-010, -3.8107E-010
128, 0.00000, -0.17553, -0.0576933, -0.17553, -0.0576943, -0.175529, -0.0576935, 8.93273E-010, -5.14144E-010
129, 0.00000, -0.179768, -0.0590865, -0.179767, -0.0590873, -0.179766, -0.0590863, 5.89448E-010, -4.44708E-010
130, 0.00000, -0.18497, -0.0607963, -0.184969, -0.0607973, -0.184969, -0.0607963, 3.30689E-010, -3.97393E-010
131, 0.00000, -0.186277, -0.0612256, -0.186276, -0.0612267, -0.186275, -0.0612256, -1.23629E-009, -3.05861E-011
132, 0.00000, -0.184817, -0.0607458, -0.184816, -0.0607469, -0.184816, -0.060746, -1.57769E-009, 3.12269E-011
133, 0.00000, -0.185618, -0.0610093, -0.185618, -0.0610104, -0.185618, -0.0610095, -1.79358E-009, 5.98067E-011
134, 0.00000, -0.189276, -0.0622114, -0.189276, -0.0622126, -0.189275, -0.0622116, 1.24894E-010, -3.62661E-010
135, 0.00000, -0.197165, -0.064804, -0.197163, -0.0648052, -0.197162, -0.064804, 8.41802E-010, -6.04911E-010
136, 0.00000, -0.216642, -0.0712052, -0.21664, -0.0712067, -0.21664, -0.0712057, 1.87751E-009, -1.01451E-009
137, 0.00000, -0.251887, -0.08279, -0.251886, -0.0827923, -0.251886, -0.0827909, 3.05998E-009, -1.60696E-009
138, 0.00000, -0.280509, -0.0921973, -0.280508, -0.0922, -0.280506, -0.0921977, 4.32325E-009, -2.24443E-009
139, 0.00000, -0.291777, -0.095901, -0.291776, -0.095904, -0.291775, -0.095902, 4.86826E-009, -2.54913E-009
140, 0.00000, -0.298287, -0.0980403, -0.298286, -0.0980438, -0.298284, -0.0980409, 5.25471E-009, -2.74713E-009
141, 0.00000, -0.290662, -0.0955342, -0.29066, -0.095537, -0.290658, -0.0955347, 4.83678E-009, -2.52983E-009
142, 0.00000, -0.265946, -0.0874109, -0.265945, -0.0874135, -0.265944, -0.0874114, 3.6542E-009, -1.89697E-009
143, 0.00000, -0.225705, -0.0741844, -0.225704, -0.0741861, -0.225702, -0.0741846, 2.14728E-009, -1.147E-009
144, 0.00000, -0.177699, -0.0584062, -0.177699, -0.0584072, -0.177698, -0.0584063, 9.95315E-010, -5.53329E-010
145, 0.00000, -0.137518, -0.0451995, -0.137518, -0.0452001, -0.137517, -0.0451996, 4.42236E-010, -2.53978E-010
146, 0.00000, -0.116534, -0.0383027, -0.116534, -0.0383032, -0.116534, -0.0383028, 2.60378E-010, -1.52523E-010
147, 0.00000, -0.106701, -0.0350708, -0.106701, -0.0350712, -0.106701, -0.0350709, 2.0005E-010, -1.1764E-010
148, 0.00000, -0.103306, -0.0339547, -0.103305, -0.033955, -0.103305, -0.0339547, 1.79334E-010, -1.06025E-010
149, 0.00000, -0.10758, -0.0353596, -0.10758, -0.03536, -0.10758, -0.0353598, 2.28226E-010, -1.29742E-010
150, 0.00000, -0.124117, -0.0407948, -0.124117, -0.0407954, -0.124117, -0.0407951, 3.52234E-010, -1.97955E-010
151, 0.00000, -0.157331, -0.0517117, -0.157331, -0.0517126, -0.15733, -0.0517119, 7.32326E-010, -4.00448E-010
152, 0.00000, -0.175531, -0.057694, -0.17553, -0.0576949, -0.175529, -0.057694, 8.92633E-010, -5.14189E-010
153, 0.00000, -0.179766, -0.0590858, -0.179765, -0.0590867, -0.179765, -0.0590858, 4.27366E-010, -3.99539E-010
154, 0.00000, -0.184969, -0.0607963, -0.184969, -0.0607973, -0.184968, -0.0607963, 3.47114E-010, -4.01955E-010
155, 0.00000, -0.186275, -0.0612259, -0.186274, -0.0612267, -0.186273, -0.0612257, -7.41907E-011, -2.96314E-010
156, 0.00000, -0.184817, -0.060746, -0.184817, -0.0607471, -0.184816, -0.0607461, -1.46237E-010, -2.69319E-010
157, 0.00000, -0.185619, -0.061009, -0.185619, -0.0610103, -0.185618, -0.0610094, 9.07812E-011, -3.34551E-010
158, 0.00000, -0.189276, -0.0622113, -0.189276, -0.0622126, -0.189275, -0.0622116, 5.74738E-010, -4.86551E-010
159, 0.00000, -0.197162, -0.0648029, -0.197161, -0.0648041, -0.197161, -0.0648035, 1.19814E-009, -7.08245E-010
160, 0.00000, -0.216638, -0.0712045, -0.216638, -0.0712063, -0.216637, -0.0712051, 1.82487E-009, -9.96865E-010
161, 0.00000, -0.251883, -0.0827885, -0.251883, -0.082791, -0.251882, -0.0827895, 2.98351E-009, -1.58432E-009
162, 0.00000, -0.280507, -0.0921965, -0.280507, -0.0921993, -0.280505, -0.0921972, 4.23562E-009, -2.20627E-009
163, 0.00000, -0.291775, -0.0959006, -0.291774, -0.0959037, -0.291772, -0.0959009, 4.59852E-009, -2.43085E-009
164, 0.00000, -0.298289, -0.0980408, -0.298288, -0.0980441, -0.298286, -0.0980416, 4.98018E-009, -2.61358E-009
165, 0.00000, -0.290658, -0.0955329, -0.290657, -0.095536, -0.290655, -0.0955335, 4.81889E-009, -2.51077E-009
166, 0.00000, -0.265946, -0.0874109, -0.265945, -0.0874135, -0.265944, -0.0874114, 3.65451E-009, -1.89698E-009
167, 0.00000, -0.225704, -0.0741844, -0.225703, -0.0741861, -0.225702, -0.0741846, 2.14669E-009, -1.14679E-009
168, 0.00000, -0.177699, -0.0584062, -0.177698, -0.0584072, -0.177698, -0.0584063, 9.94902E-010, -5.53098E-010
169, 0.00000, -0.137518, -0.0451995, -0.137517, -0.0452002, -0.137517, -0.0451998, 5.94128E-010, -3.1354E-010
170, 0.00000, -0.116535, -0.0383028, -0.116535, -0.0383033, -0.116534, -0.0383029, 3.71884E-010, -1.90414E-010
171, 0.00000, -0.106702, -0.0350708, -0.106701, -0.0350712, -0.106701, -0.0350709, 2.79577E-010, -1.46758E-010
172, 0.00000, -0.103306, -0.0339547, -0.103306, -0.033955, -0.103305, -0.0339547, 2.50582E-010, -1.32708E-010
173, 0.00000, -0.10758, -0.0353596, -0.10758, -0.03536, -0.10758, -0.0353598, 2.97956E-010, -1.53876E-010
174, 0.00000, -0.124118, -0.0407952, -0.124118, -0.0407958, -0.124117, -0.0407953, 4.21328E-010, -2.2026E-010
175, 0.00000, -0.15733, -0.0517117, -0.15733, -0.0517125, -0.15733, -0.0517118, 6.13846E-010, -3.59389E-010
176, 0.00000, -0.175532, -0.057694, -0.175531, -0.0576951, -0.17553, -0.0576942, 9.85806E-010, -5.41346E-010
177, 0.00000, -0.179766, -0.0590858, -0.179765, -0.0590867, -0.179765, -0.0590858, 4.68788E-010, -4.11269E-010
178, 0.00000, -0.184969, -0.0607959, -0.184969, -0.060797, -0.184968, -0.060796, 2.29391E-011, -3.07626E-010
179, 0.00000, -0.186276, -0.0612255, -0.186275, -0.0612264, -0.186275, -0.0612255, -7.76593E-010, -1.31184E-010
180, 0.00000, -0.184817, -0.060746, -0.184817, -0.060747, -0.184816, -0.0607461, -2.57267E-010, -2.38695E-010
181, 0.00000, -0.185619, -0.0610094, -0.185618, -0.0610105, -0.185618, -0.0610095, -4.27027E-011, -2.93478E-010
