hour, t(sec), P1 (kW), Q1 (kvar), P2 (kW), Q2 (kvar), P3 (kW), Q3 (kvar), P4 (kW), Q4 (kvar)
1, 0.00000, -0.110555, -0.0363374, -0.110555, -0.0363376, -0.110554, -0.0363373, 1.85499E-010, -6.01858E-011
2, 0.00000, -0.0936844, -0.0307925, -0.0936843, -0.0307926, -0.0936842, -0.0307925, 1.0771E-010, -3.63739E-011
3, 0.00000, -0.0857826, -0.0281956, -0.0857826, -0.0281957, -0.0857819, -0.0281954, 8.13888E-011, -2.74419E-011
4, 0.00000, -0.083051, -0.0272977, -0.083051, -0.0272978, -0.0830506, -0.0272976, 7.12511E-011, -2.47615E-011
5, 0.00000, -0.0864849, -0.0284261, -0.0864848, -0.0284262, -0.0864849, -0.0284261, 8.00773E-011, -2.83026E-011
6, 0.00000, -0.099776, -0.0327946, -0.099776, -0.0327949, -0.0997766, -0.0327949, 1.2172E-010, -4.35336E-011
7, 0.00000, -0.126482, -0.0415724, -0.126482, -0.0415727, -0.126481, -0.0415724, 2.55567E-010, -8.83506E-011
8, 0.00000, -0.141116, -0.0463827, -0.141113, -0.0463821, -0.141114, -0.0463818, 4.05403E-010, -1.28007E-010
9, 0.00000, -0.144518, -0.0475005, -0.144517, -0.0475007, -0.144517, -0.0475004, 8.72965E-011, -1.1487E-010
10, 0.00000, -0.148702, -0.0488757, -0.148701, -0.0488758, -0.148701, -0.0488755, -2.35929E-011, -1.27005E-010
11, 0.00000, -0.149749, -0.04922, -0.149747, -0.0492199, -0.149748, -0.0492198, -3.5937E-010, -1.89775E-010
12, 0.00000, -0.148579, -0.0488354, -0.148579, -0.0488356, -0.148578, -0.0488353, -3.65464E-010, -1.90253E-010
13, 0.00000, -0.149221, -0.0490465, -0.149222, -0.049047, -0.149222, -0.0490467, -2.74281E-010, -1.58697E-010
14, 0.00000, -0.152162, -0.0500132, -0.152163, -0.0500137, -0.152162, -0.0500133, 9.1449E-011, -1.33299E-010
15, 0.00000, -0.158502, -0.0520968, -0.158502, -0.0520973, -0.158502, -0.0520969, 4.35515E-010, -1.65981E-010
16, 0.00000, -0.17416, -0.0572434, -0.17416, -0.0572441, -0.17416, -0.0572436, 8.8363E-010, -2.46182E-010
17, 0.00000, -0.202495, -0.0665566, -0.202495, -0.0665575, -0.202495, -0.0665568, 1.45835E-009, -3.8969E-010
18, 0.00000, -0.225501, -0.0741177, -0.225501, -0.0741187, -0.225501, -0.0741181, 2.07452E-009, -5.46684E-010
19, 0.00000, -0.234561, -0.0770957, -0.234561, -0.0770971, -0.23456, -0.0770958, 2.36297E-009, -6.25205E-010
20, 0.00000, -0.239799, -0.0788175, -0.239799, -0.0788188, -0.239798, -0.0788177, 2.5424E-009, -6.76613E-010
21, 0.00000, -0.233678, -0.0768057, -0.233673, -0.0768055, -0.233672, -0.0768045, 2.30708E-009, -6.2214E-010
22, 0.00000, -0.2138, -0.070272, -0.213799, -0.070273, -0.213799, -0.0702721, 1.74658E-009, -4.61211E-010
23, 0.00000, -0.181451, -0.0596399, -0.181449, -0.05964, -0.181449, -0.0596394, 1.01613E-009, -2.81235E-010
24, 0.00000, -0.142857, -0.0469545, -0.142856, -0.0469546, -0.142855, -0.0469542, 4.66068E-010, -1.35697E-010
25, 0.00000, -0.110554, -0.0363371, -0.110553, -0.0363372, -0.110553, -0.036337, 2.18542E-010, -6.3541E-011
26, 0.00000, -0.0936888, -0.0307929, -0.0936872, -0.0307925, -0.0936865, -0.0307926, 1.31131E-010, -3.92693E-011
27, 0.00000, -0.0857814, -0.0281944, -0.0857806, -0.0281942, -0.0857802, -0.0281942, 9.78995E-011, -2.97098E-011
28, 0.00000, -0.0830508, -0.0272969, -0.0830501, -0.0272968, -0.0830499, -0.0272968, 8.31913E-011, -2.64573E-011
29, 0.00000, -0.0864855, -0.0284264, -0.0864857, -0.0284266, -0.0864857, -0.0284265, 8.64955E-011, -2.87574E-011
30, 0.00000, -0.0997809, -0.0327963, -0.0997808, -0.0327965, -0.0997806, -0.0327963, 1.39698E-010, -4.47202E-011
31, 0.00000, -0.126481, -0.0415722, -0.126482, -0.0415727, -0.126481, -0.0415724, 3.05205E-010, -9.23272E-011
32, 0.00000, -0.141111, -0.0463809, -0.141111, -0.0463813, -0.141111, -0.046381, 4.03106E-010, -1.25581E-010
33, 0.00000, -0.144518, -0.0475006, -0.144517, -0.0475008, -0.144517, -0.0475005, 1.86995E-010, -1.17504E-010
34, 0.00000, -0.148701, -0.0488754, -0.148701, -0.0488758, -0.1487, -0.0488754, 4.30544E-011, -1.24731E-010
35, 0.00000, -0.149752, -0.049221, -0.149751, -0.0492211, -0.149751, -0.0492207, -1.29753E-010, -1.38901E-010
36, 0.00000, -0.148581, -0.0488361, -0.14858, -0.0488362, -0.14858, -0.0488357, -1.52753E-010, -1.3862E-010
37, 0.00000, -0.149222, -0.0490467, -0.149222, -0.0490472, -0.149222, -0.0490469, -5.09655E-011, -1.3034E-010
38, 0.00000, -0.152159, -0.0500119, -0.15216, -0.0500127, -0.15216, -0.0500126, 1.85188E-010, -1.35565E-010
39, 0.00000, -0.158502, -0.0520967, -0.158502, -0.0520973, -0.158502, -0.0520969, 5.44246E-010, -1.74789E-010
40, 0.00000, -0.174159, -0.0572429, -0.174159, -0.0572436, -0.174159, -0.0572433, 7.02824E-010, -2.33419E-010
41, 0.00000, -0.202504, -0.0665598, -0.202501, -0.0665598, -0.202501, -0.066559, 1.45752E-009, -3.92968E-010
42, 0.00000, -0.225505, -0.0741193, -0.225505, -0.0741206, -0.225505, -0.0741197, 2.07466E-009, -5.46602E-010
43, 0.00000, -0.234557, -0.0770942, -0.234558, -0.0770961, -0.234557, -0.0770949, 2.3577E-009, -6.22934E-010
44, 0.00000, -0.239797, -0.0788165, -0.239797, -0.0788182, -0.239797, -0.0788171, 2.53888E-009, -6.75103E-010
45, 0.00000, -0.233672, -0.0768037, -0.233669, -0.0768043, -0.233669, -0.0768033, 2.33837E-009, -6.22815E-010
46, 0.00000, -0.2138, -0.0702723, -0.2138, -0.0702732, -0.213799, -0.0702723, 1.74749E-009, -4.6177E-010
47, 0.00000, -0.181449, -0.0596393, -0.181448, -0.0596396, -0.181447, -0.0596389, 1.01595E-009, -2.79774E-010
48, 0.00000, -0.142857, -0.0469545, -0.142856, -0.0469546, -0.142855, -0.0469542, 4.66069E-010, -1.357E-010
49, 0.00000, -0.110553, -0.0363367, -0.110553, -0.0363371, -0.110553, -0.0363369, 2.04305E-010, -6.19385E-011
50, 0.00000, -0.0936853, -0.0307928, -0.093685, -0.0307928, -0.0936847, -0.0307927, 1.22235E-010, -3.77241E-011
51, 0.00000, -0.08578, -0.0281945, -0.0857794, -0.0281944, -0.0857794, -0.0281943, 1.04669E-010, -3.01966E-011
52, 0.00000, -0.0830531, -0.0272982, -0.0830524, -0.0272981, -0.0830519, -0.0272979, 9.55337E-011, -2.73722E-011
53, 0.00000, -0.0864857, -0.0284264, -0.0864857, -0.0284266, -0.0864857, -0.0284264, 1.06676E-010, -3.05892E-011
54, 0.00000, -0.0997794, -0.0327956, -0.0997798, -0.032796, -0.0997799, -0.032796, 1.6404E-010, -4.67124E-011
55, 0.00000, -0.126484, -0.0415728, -0.126483, -0.0415731, -0.126483, -0.0415727, 2.68053E-010, -8.94151E-011
56, 0.00000, -0.141112, -0.0463811, -0.141112, -0.0463815, -0.141112, -0.0463812, 3.82384E-010, -1.24892E-010
57, 0.00000, -0.14452, -0.0475015, -0.144518, -0.0475012, -0.144518, -0.0475008, 3.5036E-010, -1.2926E-010
58, 0.00000, -0.148703, -0.048876, -0.148701, -0.0488761, -0.148701, -0.0488757, 3.07998E-010, -1.34027E-010
59, 0.00000, -0.149753, -0.0492215, -0.149752, -0.0492215, -0.149752, -0.049221, 2.35392E-010, -1.32488E-010
60, 0.00000, -0.148581, -0.0488362, -0.148581, -0.0488364, -0.14858, -0.0488359, 2.26855E-010, -1.2862E-010
61, 0.00000, -0.149222, -0.0490468, -0.149222, -0.0490473, -0.149222, -0.0490469, 2.68963E-010, -1.32223E-010
62, 0.00000, -0.152161, -0.0500127, -0.152161, -0.0500133, -0.152162, -0.050013, 3.76905E-010, -1.46224E-010
63, 0.00000, -0.158502, -0.0520968, -0.158502, -0.0520973, -0.158502, -0.0520969, 4.38381E-010, -1.66232E-010
64, 0.00000, -0.17416, -0.0572434, -0.17416, -0.0572441, -0.17416, -0.0572436, 8.83932E-010, -2.46252E-010
65, 0.00000, -0.20249, -0.0665543, -0.202491, -0.0665556, -0.202492, -0.0665555, 1.45179E-009, -3.89398E-010
66, 0.00000, -0.225517, -0.0741235, -0.225513, -0.0741235, -0.225513, -0.0741226, 2.05051E-009, -5.50456E-010
67, 0.00000, -0.234557, -0.0770946, -0.234559, -0.0770963, -0.234557, -0.077095, 2.35974E-009, -6.2357E-010
68, 0.00000, -0.239798, -0.0788171, -0.239798, -0.0788186, -0.239797, -0.0788174, 2.54104E-009, -6.75985E-010
69, 0.00000, -0.23367, -0.0768031, -0.233668, -0.0768039, -0.233668, -0.0768029, 2.33614E-009, -6.21858E-010
70, 0.00000, -0.2138, -0.0702721, -0.213799, -0.070273, -0.213799, -0.0702722, 1.74667E-009, -4.61331E-010
71, 0.00000, -0.181449, -0.059639, -0.181448, -0.0596395, -0.181447, -0.0596388, 1.01515E-009, -2.79342E-010
72, 0.00000, -0.142857, -0.0469543, -0.142856, -0.0469545, -0.142855, -0.0469542, 4.65555E-010, -1.35285E-010
73, 0.00000, -0.118516, -0.0389543, -0.118516, -0.0389544, -0.118516, -0.0389542, 2.55724E-010, -7.68932E-011
74, 0.00000, -0.100073, -0.0328923, -0.100072, -0.0328922, -0.100072, -0.032892, 1.50953E-010, -4.63354E-011
75, 0.00000, -0.0900739, -0.0296058, -0.0900734, -0.0296058, -0.0900732, -0.0296056, 1.08269E-010, -3.36225E-011
76, 0.00000, -0.0854782, -0.0280952, -0.0854779, -0.0280953, -0.0854778, -0.0280952, 9.17605E-011, -2.86256E-011
77, 0.00000, -0.0854379, -0.028082, -0.0854378, -0.0280821, -0.0854377, -0.028082, 9.1428E-011, -2.85033E-011
78, 0.00000, -0.08994, -0.0295618, -0.08994, -0.029562, -0.08994, -0.0295618, 1.07091E-010, -3.32357E-011
79, 0.00000, -0.100341, -0.0329805, -0.100341, -0.0329807, -0.100341, -0.0329806, 1.5076E-010, -4.62539E-011
80, 0.00000, -0.12002, -0.0394485, -0.12002, -0.0394488, -0.12002, -0.0394486, 2.373E-010, -7.65463E-011
81, 0.00000, -0.151193, -0.0496947, -0.151193, -0.049695, -0.151192, -0.0496945, 2.4442E-010, -1.3581E-010
82, 0.00000, -0.180169, -0.0592184, -0.180168, -0.0592188, -0.180168, -0.0592182, 2.1444E-010, -2.23786E-010
83, 0.00000, -0.195487, -0.0642532, -0.195487, -0.0642538, -0.195486, -0.0642531, -5.43005E-011, -2.87667E-010
84, 0.00000, -0.201321, -0.0661708, -0.201321, -0.0661713, -0.201321, -0.0661711, -3.02747E-011, -3.12636E-010
85, 0.00000, -0.204042, -0.067065, -0.204042, -0.0670657, -0.204042, -0.0670651, 1.61346E-010, -3.23865E-010
86, 0.00000, -0.207964, -0.0683541, -0.207964, -0.0683549, -0.207963, -0.0683542, 7.13972E-010, -3.59371E-010
87, 0.00000, -0.211864, -0.0696358, -0.211859, -0.0696356, -0.21186, -0.069635, 1.82756E-009, -4.60228E-010
88, 0.00000, -0.21604, -0.0710083, -0.21604, -0.0710094, -0.216039, -0.0710083, 2.16373E-009, -5.24871E-010
89, 0.00000, -0.226884, -0.0745725, -0.226883, -0.0745735, -0.226882, -0.0745725, 2.21229E-009, -5.73043E-010
90, 0.00000, -0.232902, -0.0765504, -0.232901, -0.0765516, -0.232902, -0.076551, 2.06967E-009, -5.85136E-010
91, 0.00000, -0.231689, -0.0761521, -0.231688, -0.0761529, -0.231686, -0.0761514, 1.67537E-009, -5.47293E-010
92, 0.00000, -0.230805, -0.0758614, -0.230806, -0.0758628, -0.230805, -0.0758618, 2.23874E-009, -5.91564E-010
93, 0.00000, -0.222052, -0.0729845, -0.222048, -0.0729845, -0.222049, -0.072984, 1.97901E-009, -5.27026E-010
94, 0.00000, -0.204933, -0.0673577, -0.204932, -0.0673585, -0.204931, -0.0673576, 1.52073E-009, -4.0434E-010
95, 0.00000, -0.180321, -0.0592684, -0.18032, -0.0592687, -0.180319, -0.0592681, 9.95216E-010, -2.74624E-010
96, 0.00000, -0.150244, -0.0493826, -0.150243, -0.0493827, -0.150243, -0.0493823, 5.48393E-010, -1.58052E-010
97, 0.00000, -0.121169, -0.039826, -0.121169, -0.0398264, -0.121169, -0.0398263, 2.73027E-010, -8.17162E-011
98, 0.00000, -0.10192, -0.0334995, -0.101919, -0.0334995, -0.101919, -0.0334993, 1.59375E-010, -4.90102E-011
99, 0.00000, -0.0907677, -0.0298338, -0.0907672, -0.0298338, -0.090767, -0.0298336, 1.10959E-010, -3.4437E-011
100, 0.00000, -0.085213, -0.0280081, -0.0852127, -0.0280081, -0.0852126, -0.028008, 9.0931E-011, -2.83807E-011
101, 0.00000, -0.0835168, -0.0274505, -0.0835162, -0.0274504, -0.0835159, -0.0274502, 8.58511E-011, -2.6764E-011
102, 0.00000, -0.0862738, -0.0283569, -0.0862745, -0.0283573, -0.0862748, -0.0283573, 9.30772E-011, -2.90966E-011
103, 0.00000, -0.0952875, -0.0313194, -0.0952875, -0.0313196, -0.0952875, -0.0313195, 1.28229E-010, -3.95603E-011
104, 0.00000, -0.110889, -0.0364472, -0.110889, -0.0364474, -0.110888, -0.0364472, 1.83354E-010, -6.00898E-011
105, 0.00000, -0.140157, -0.0460672, -0.140156, -0.0460674, -0.140156, -0.046067, 1.77144E-010, -1.07255E-010
106, 0.00000, -0.171296, -0.0563022, -0.171296, -0.0563026, -0.171296, -0.0563021, 1.58073E-010, -1.91691E-010
107, 0.00000, -0.190951, -0.0627624, -0.190951, -0.0627629, -0.190951, -0.0627624, -3.61157E-010, -3.08088E-010
108, 0.00000, -0.198672, -0.0653002, -0.198672, -0.0653007, -0.198672, -0.0653002, -8.19481E-010, -4.86037E-010
109, 0.00000, -0.203597, -0.0669188, -0.203597, -0.0669193, -0.203597, -0.0669189, -8.41066E-010, -4.97271E-010
110, 0.00000, -0.206891, -0.0680015, -0.206891, -0.0680022, -0.206891, -0.0680016, 3.23539E-010, -3.40101E-010
111, 0.00000, -0.205828, -0.0676517, -0.205827, -0.0676523, -0.205826, -0.0676515, 9.61441E-010, -3.65587E-010
112, 0.00000, -0.204057, -0.0670698, -0.204057, -0.0670708, -0.204057, -0.0670703, 1.22335E-009, -3.81223E-010
113, 0.00000, -0.212557, -0.0698631, -0.212557, -0.0698643, -0.212557, -0.0698637, 1.34728E-009, -4.27401E-010
114, 0.00000, -0.223875, -0.0735833, -0.223874, -0.0735844, -0.223874, -0.0735838, 1.71127E-009, -5.09017E-010
115, 0.00000, -0.229387, -0.0753951, -0.229388, -0.0753967, -0.229387, -0.0753956, 2.19263E-009, -5.78231E-010
116, 0.00000, -0.236287, -0.077663, -0.236288, -0.0776648, -0.236287, -0.0776636, 2.41715E-009, -6.40508E-010
117, 0.00000, -0.230917, -0.0758984, -0.230915, -0.0758991, -0.230915, -0.0758981, 2.24794E-009, -5.97145E-010
118, 0.00000, -0.209845, -0.0689723, -0.209844, -0.0689731, -0.209844, -0.0689722, 1.64403E-009, -4.35362E-010
119, 0.00000, -0.176766, -0.0581, -0.176765, -0.0581003, -0.176764, -0.0580996, 9.32083E-010, -2.58458E-010
120, 0.00000, -0.138354, -0.0454746, -0.138353, -0.0454747, -0.138353, -0.0454743, 4.20343E-010, -1.23136E-010
121, 0.00000, -0.110553, -0.0363367, -0.110553, -0.0363371, -0.110553, -0.0363369, 2.04314E-010, -6.19399E-011
122, 0.00000, -0.0936853, -0.0307928, -0.093685, -0.0307928, -0.0936847, -0.0307927, 1.22235E-010, -3.77241E-011
123, 0.00000, -0.0857797, -0.0281944, -0.0857796, -0.0281944, -0.0857794, -0.0281943, 9.27149E-011, -2.88817E-011
124, 0.00000, -0.0830523, -0.0272978, -0.0830517, -0.0272977, -0.0830513, -0.0272975, 8.44284E-011, -2.63097E-011
125, 0.00000, -0.0864821, -0.0284253, -0.0864826, -0.0284257, -0.086483, -0.0284257, 9.39701E-011, -2.93694E-011
126, 0.00000, -0.09978, -0.032796, -0.0997801, -0.0327963, -0.0997802, -0.0327961, 1.47961E-010, -4.54336E-011
127, 0.00000, -0.12648, -0.0415716, -0.12648, -0.0415721, -0.12648, -0.041572, 3.1256E-010, -9.30271E-011
128, 0.00000, -0.141112, -0.046381, -0.141112, -0.0463814, -0.141112, -0.0463811, 4.04151E-010, -1.25707E-010
129, 0.00000, -0.14452, -0.0475014, -0.144519, -0.0475015, -0.144518, -0.0475009, 2.01608E-010, -1.18138E-010
130, 0.00000, -0.148702, -0.0488758, -0.148701, -0.048876, -0.148701, -0.0488755, 4.91352E-011, -1.25067E-010
131, 0.00000, -0.149754, -0.0492216, -0.149752, -0.0492212, -0.149752, -0.0492211, -4.60444E-010, -2.58771E-010
132, 0.00000, -0.148576, -0.0488347, -0.148577, -0.0488352, -0.148577, -0.048835, -4.91491E-010, -3.17696E-010
133, 0.00000, -0.149221, -0.0490466, -0.149222, -0.0490471, -0.149222, -0.0490468, -5.04334E-010, -3.6283E-010
134, 0.00000, -0.152162, -0.0500132, -0.152162, -0.0500136, -0.152163, -0.0500134, -5.88439E-011, -1.37119E-010
135, 0.00000, -0.158507, -0.052098, -0.158506, -0.0520985, -0.158504, -0.0520974, 3.01791E-010, -1.56458E-010
136, 0.00000, -0.174164, -0.0572436, -0.174163, -0.0572444, -0.174162, -0.0572436, 8.87638E-010, -2.467E-010
137, 0.00000, -0.202499, -0.0665579, -0.202498, -0.0665585, -0.202498, -0.0665578, 1.45982E-009, -3.91412E-010
138, 0.00000, -0.225506, -0.0741198, -0.225506, -0.0741208, -0.225505, -0.0741199, 2.07656E-009, -5.47324E-010
139, 0.00000, -0.234572, -0.0770998, -0.234567, -0.0770993, -0.234568, -0.0770987, 2.3348E-009, -6.33043E-010
140, 0.00000, -0.239796, -0.0788165, -0.239797, -0.0788182, -0.239796, -0.078817, 2.53944E-009, -6.74896E-010
141, 0.00000, -0.23367, -0.0768031, -0.233668, -0.0768039, -0.233668, -0.0768029, 2.33623E-009, -6.21894E-010
142, 0.00000, -0.2138, -0.0702721, -0.213799, -0.070273, -0.213799, -0.0702722, 1.7467E-009, -4.61335E-010
143, 0.00000, -0.181449, -0.059639, -0.181448, -0.0596395, -0.181447, -0.0596388, 1.01525E-009, -2.7937E-010
144, 0.00000, -0.142857, -0.0469543, -0.142856, -0.0469545, -0.142855, -0.0469542, 4.65626E-010, -1.35313E-010
145, 0.00000, -0.110554, -0.0363371, -0.110553, -0.0363372, -0.110553, -0.036337, 2.05492E-010, -6.22928E-011
146, 0.00000, -0.0936844, -0.0307925, -0.0936842, -0.0307926, -0.0936842, -0.0307925, 1.17424E-010, -3.7321E-011
147, 0.00000, -0.0857795, -0.0281943, -0.0857794, -0.0281944, -0.0857793, -0.0281943, 9.26195E-011, -2.88541E-011
148, 0.00000, -0.0830499, -0.0272971, -0.0830493, -0.0272971, -0.0830493, -0.027297, 8.07891E-011, -2.61603E-011
149, 0.00000, -0.0864857, -0.0284264, -0.0864858, -0.0284266, -0.0864857, -0.0284265, 1.33785E-010, -3.2905E-011
150, 0.00000, -0.0997791, -0.0327955, -0.0997796, -0.0327959, -0.0997797, -0.0327959, 2.0242E-010, -4.99116E-011
151, 0.00000, -0.126481, -0.0415722, -0.126482, -0.0415726, -0.126481, -0.0415724, 4.09695E-010, -1.00554E-010
152, 0.00000, -0.141114, -0.046382, -0.141113, -0.0463821, -0.141113, -0.0463816, 4.59983E-010, -1.28763E-010
153, 0.00000, -0.144518, -0.0475007, -0.144517, -0.0475008, -0.144517, -0.0475005, 1.35984E-010, -1.16585E-010
154, 0.00000, -0.148701, -0.0488761, -0.1487, -0.0488762, -0.1487, -0.0488757, 7.47222E-011, -1.26113E-010
155, 0.00000, -0.149751, -0.049222, -0.149749, -0.0492217, -0.14975, -0.0492211, -1.2603E-010, -1.39149E-010
156, 0.00000, -0.148578, -0.0488355, -0.148578, -0.0488357, -0.148578, -0.0488353, -1.59665E-010, -1.38266E-010
157, 0.00000, -0.149222, -0.0490461, -0.149223, -0.0490468, -0.149223, -0.0490466, -6.60139E-011, -1.294E-010
158, 0.00000, -0.152163, -0.0500131, -0.152163, -0.0500137, -0.152163, -0.0500133, 1.67146E-010, -1.34772E-010
159, 0.00000, -0.158502, -0.0520965, -0.158502, -0.0520969, -0.158502, -0.0520968, 5.02925E-010, -1.72893E-010
160, 0.00000, -0.17416, -0.0572431, -0.17416, -0.0572438, -0.17416, -0.0572434, 8.06188E-010, -2.40948E-010
161, 0.00000, -0.202494, -0.0665558, -0.202494, -0.0665568, -0.202494, -0.0665563, 1.33362E-009, -3.82043E-010
162, 0.00000, -0.225505, -0.0741192, -0.225505, -0.0741202, -0.225504, -0.0741194, 1.89236E-009, -5.30612E-010
163, 0.00000, -0.234564, -0.0770974, -0.234563, -0.0770985, -0.234563, -0.0770973, 1.79267E-009, -5.71894E-010
164, 0.00000, -0.2398, -0.0788177, -0.2398, -0.0788189, -0.239799, -0.0788179, 1.98301E-009, -6.16418E-010
165, 0.00000, -0.233664, -0.0768009, -0.233665, -0.0768025, -0.233664, -0.0768014, 2.2914E-009, -6.11061E-010
166, 0.00000, -0.2138, -0.070272, -0.213799, -0.070273, -0.213799, -0.0702721, 1.74658E-009, -4.61205E-010
167, 0.00000, -0.181449, -0.0596389, -0.181448, -0.0596395, -0.181447, -0.0596388, 1.01478E-009, -2.79245E-010
168, 0.00000, -0.142856, -0.0469543, -0.142856, -0.0469546, -0.142855, -0.0469542, 4.65296E-010, -1.35187E-010
169, 0.00000, -0.110554, -0.0363371, -0.110553, -0.0363373, -0.110554, -0.0363372, 4.88312E-010, -8.6865E-011
170, 0.00000, -0.0936849, -0.0307926, -0.0936848, -0.0307928, -0.0936846, -0.0307926, 3.04368E-010, -5.18102E-011
171, 0.00000, -0.0857798, -0.0281944, -0.0857795, -0.0281944, -0.0857793, -0.0281943, 2.25496E-010, -3.98812E-011
172, 0.00000, -0.0830509, -0.0272973, -0.0830502, -0.0272973, -0.08305, -0.0272971, 1.99992E-010, -3.61207E-011
173, 0.00000, -0.0864854, -0.0284263, -0.0864856, -0.0284266, -0.0864856, -0.0284265, 2.50825E-010, -4.20103E-011
174, 0.00000, -0.099781, -0.0327963, -0.0997808, -0.0327965, -0.0997806, -0.0327963, 3.17149E-010, -5.87455E-011
175, 0.00000, -0.126481, -0.0415722, -0.126481, -0.0415725, -0.126481, -0.0415723, 2.15018E-010, -8.48266E-011
176, 0.00000, -0.141117, -0.0463828, -0.141114, -0.0463824, -0.141114, -0.046382, 5.57519E-010, -1.38595E-010
177, 0.00000, -0.144518, -0.0475008, -0.144517, -0.0475007, -0.144517, -0.0475005, 1.35828E-010, -1.16562E-010
178, 0.00000, -0.148701, -0.0488754, -0.1487, -0.0488757, -0.1487, -0.0488753, -2.19454E-010, -1.22213E-010
179, 0.00000, -0.149751, -0.0492208, -0.149751, -0.0492208, -0.149751, -0.0492207, -4.53564E-010, -1.92756E-010
180, 0.00000, -0.148579, -0.0488354, -0.148578, -0.0488354, -0.148578, -0.0488353, -3.15085E-010, -1.39004E-010
