hour, t(sec), P1 (kW), Q1 (kvar), P2 (kW), Q2 (kvar), P3 (kW), Q3 (kvar), P4 (kW), Q4 (kvar)
1, 0.00000, -0.455672, -0.171961, -0.455669, -0.172127, -0.455706, -0.172086, -8.83426E-010, -8.2957E-011
2, 0.00000, -0.374066, -0.145963, -0.374066, -0.145955, -0.374063, -0.145955, -5.86313E-010, -3.82539E-011
3, 0.00000, -0.334941, -0.133542, -0.334929, -0.133558, -0.334936, -0.133574, -4.59053E-010, -2.49165E-011
4, 0.00000, -0.303663, -0.129309, -0.303655, -0.129324, -0.30366, -0.129333, -3.63706E-010, -5.59128E-012
5, 0.00000, -0.313271, -0.134757, -0.313274, -0.134754, -0.313273, -0.134748, -3.8768E-010, -2.17467E-012
6, 0.00000, -0.341284, -0.155516, -0.341293, -0.155507, -0.341288, -0.155489, -4.55676E-010, 1.06193E-011
7, 0.00000, -0.416201, -0.197031, -0.416198, -0.197039, -0.4162, -0.197039, -6.89843E-010, 1.36788E-011
8, 0.00000, -0.622305, -0.219844, -0.622195, -0.219829, -0.622216, -0.219861, -1.90843E-009, -3.54848E-010
9, 0.00000, 0.0533145, -0.225141, 0.0533299, -0.225136, 0.0533246, -0.225148, -2.64825E-010, 1.37134E-010
10, 0.00000, 0.345187, -0.231661, 0.3452, -0.231648, 0.345199, -0.231666, -9.75665E-010, 1.53536E-010
11, 0.00000, 1.5527, -0.233078, 1.5527, -0.233069, 1.55271, -0.233148, -9.73847E-009, 7.98215E-010
12, 0.00000, 1.61574, -0.231492, 1.61574, -0.23149, 1.61575, -0.23149, -1.04012E-008, 8.48412E-010
13, 0.00000, 1.15317, -0.232484, 1.15319, -0.232486, 1.15319, -0.232481, -6.01261E-009, 3.78243E-010
14, 0.00000, 0.0782197, -0.237052, 0.0782015, -0.237061, 0.0782082, -0.237043, -3.26008E-010, 1.52568E-010
15, 0.00000, -0.487266, -0.246927, -0.487269, -0.246929, -0.487269, -0.246929, -1.17083E-009, -1.16321E-010
16, 0.00000, -0.858876, -0.271324, -0.858881, -0.271326, -0.858881, -0.271327, -3.87258E-009, -9.20222E-010
17, 0.00000, -0.993206, -0.315471, -0.993207, -0.315473, -0.993206, -0.315473, -5.41758E-009, -1.48945E-009
18, 0.00000, -1.10221, -0.351291, -1.10224, -0.351298, -1.10224, -0.351306, -6.92024E-009, -2.11208E-009
19, 0.00000, -1.1452, -0.365421, -1.14521, -0.365426, -1.1452, -0.365425, -7.58794E-009, -2.42017E-009
20, 0.00000, -1.17004, -0.373587, -1.17005, -0.37359, -1.17004, -0.373589, -7.99261E-009, -2.61311E-009
21, 0.00000, -1.10948, -0.364068, -1.10965, -0.364107, -1.10961, -0.364061, -6.96496E-009, -2.0659E-009
22, 0.00000, -1.04681, -0.33309, -1.0468, -0.333087, -1.0468, -0.333085, -6.1318E-009, -1.78355E-009
23, 0.00000, -0.893607, -0.282705, -0.893617, -0.282704, -0.893592, -0.282695, -4.24204E-009, -1.04666E-009
24, 0.00000, -0.710576, -0.22256, -0.710506, -0.222546, -0.710513, -0.222567, -2.53953E-009, -5.24958E-010
25, 0.00000, -0.620743, -0.17223, -0.620706, -0.172223, -0.620709, -0.172236, -1.93835E-009, -3.72064E-010
26, 0.00000, -0.527622, -0.145949, -0.527531, -0.145924, -0.527518, -0.14596, -1.37267E-009, -2.47573E-010
27, 0.00000, -0.478367, -0.133631, -0.478322, -0.133619, -0.478317, -0.133638, -1.10401E-009, -1.79007E-010
28, 0.00000, -0.415414, -0.129375, -0.415372, -0.129365, -0.41537, -0.129384, -7.92164E-010, -1.08757E-010
29, 0.00000, -0.371626, -0.134788, -0.371615, -0.134721, -0.371598, -0.134763, -6.00356E-010, -5.80434E-011
30, 0.00000, -0.451296, -0.155428, -0.451294, -0.155439, -0.451297, -0.155439, -9.10788E-010, -1.0939E-010
31, 0.00000, -0.602828, -0.197046, -0.602858, -0.197051, -0.602851, -0.19704, -1.73301E-009, -2.81961E-010
32, 0.00000, -0.628071, -0.219834, -0.628075, -0.219836, -0.628075, -0.219836, -1.93664E-009, -3.40114E-010
33, 0.00000, -0.159005, -0.225144, -0.158966, -0.225132, -0.158976, -0.225155, -2.37428E-010, 1.06572E-010
34, 0.00000, 0.176337, -0.23166, 0.176338, -0.23166, 0.176338, -0.231659, -4.87406E-010, 1.50373E-010
35, 0.00000, 0.612332, -0.233322, 0.612339, -0.233294, 0.61234, -0.233316, -2.1146E-009, 1.44543E-010
36, 0.00000, 0.69164, -0.231485, 0.691646, -0.231463, 0.691648, -0.231476, -2.55231E-009, 1.54838E-010
37, 0.00000, 0.38379, -0.232467, 0.383788, -0.232477, 0.383788, -0.232468, -1.07438E-009, 1.26982E-010
38, 0.00000, -0.143019, -0.237019, -0.143047, -0.23704, -0.14305, -0.23703, -2.58502E-010, 9.3161E-011
39, 0.00000, -0.647759, -0.246926, -0.64777, -0.24693, -0.647769, -0.246929, -2.09659E-009, -3.71722E-010
40, 0.00000, -0.550556, -0.271185, -0.550552, -0.271257, -0.550555, -0.271227, -1.25777E-009, 1.6705E-011
41, 0.00000, -0.985158, -0.31551, -0.985168, -0.315514, -0.985157, -0.315503, -5.30473E-009, -1.43752E-009
42, 0.00000, -1.10219, -0.351308, -1.10226, -0.351327, -1.10225, -0.351309, -6.90764E-009, -2.08699E-009
43, 0.00000, -1.14497, -0.365391, -1.14507, -0.36542, -1.14507, -0.365401, -7.55966E-009, -2.37181E-009
44, 0.00000, -1.16991, -0.373568, -1.16997, -0.373585, -1.16996, -0.373573, -7.97461E-009, -2.58181E-009
45, 0.00000, -1.14117, -0.36407, -1.14109, -0.36405, -1.14109, -0.364059, -7.54615E-009, -2.4319E-009
46, 0.00000, -1.04689, -0.333097, -1.04682, -0.333083, -1.04683, -0.333094, -6.14387E-009, -1.80602E-009
47, 0.00000, -0.893534, -0.282692, -0.893458, -0.282676, -0.893463, -0.282693, -4.25537E-009, -1.07642E-009
48, 0.00000, -0.710576, -0.22256, -0.710506, -0.222546, -0.710513, -0.222567, -2.53952E-009, -5.24967E-010
49, 0.00000, -0.557345, -0.172225, -0.557354, -0.172228, -0.557354, -0.172228, -1.48467E-009, -2.40809E-010
50, 0.00000, -0.477414, -0.145954, -0.477407, -0.145952, -0.477405, -0.145951, -1.06675E-009, -1.55777E-010
51, 0.00000, -0.541713, -0.133625, -0.541619, -0.133616, -0.541642, -0.133649, -1.49134E-009, -2.78833E-010
52, 0.00000, -0.52884, -0.129378, -0.528802, -0.129369, -0.528791, -0.12938, -1.41428E-009, -2.50904E-010
53, 0.00000, -0.544919, -0.134735, -0.544929, -0.134737, -0.544929, -0.134733, -1.49663E-009, -2.59604E-010
54, 0.00000, -0.607857, -0.155448, -0.607903, -0.155456, -0.607905, -0.155441, -1.8756E-009, -3.4172E-010
55, 0.00000, -0.459504, -0.196625, -0.459504, -0.196874, -0.45955, -0.196796, -8.4932E-010, -3.22406E-011
56, 0.00000, -0.522222, -0.219829, -0.522219, -0.219835, -0.522219, -0.219834, -1.17706E-009, -8.80704E-011
57, 0.00000, -0.480684, -0.225146, -0.480587, -0.225131, -0.480612, -0.225166, -1.11387E-009, -1.33298E-010
58, 0.00000, -0.370495, -0.231663, -0.37045, -0.23165, -0.370452, -0.231669, -6.95695E-010, -1.91244E-011
59, 0.00000, -0.225103, -0.233297, -0.225052, -0.23328, -0.225054, -0.233306, -3.4316E-010, 7.46537E-011
60, 0.00000, -0.219664, -0.231476, -0.219651, -0.23147, -0.219647, -0.231474, -3.30238E-010, 7.89981E-011
61, 0.00000, -0.297986, -0.23247, -0.297987, -0.232471, -0.297987, -0.232472, -4.86627E-010, 4.04966E-011
62, 0.00000, -0.461275, -0.237045, -0.46128, -0.237048, -0.461281, -0.23705, -1.04273E-009, -9.34902E-011
63, 0.00000, -0.491276, -0.246928, -0.491276, -0.246928, -0.491276, -0.246928, -1.18985E-009, -1.21562E-010
64, 0.00000, -0.858881, -0.271326, -0.858882, -0.271327, -0.858882, -0.271328, -3.87314E-009, -9.21066E-010
65, 0.00000, -0.993139, -0.315443, -0.993164, -0.31545, -0.99317, -0.31546, -5.41328E-009, -1.48319E-009
66, 0.00000, -1.07083, -0.351358, -1.07095, -0.351387, -1.07092, -0.351349, -6.40658E-009, -1.83886E-009
67, 0.00000, -1.14511, -0.365395, -1.14516, -0.36541, -1.14515, -0.36541, -7.57855E-009, -2.40495E-009
68, 0.00000, -1.17002, -0.373579, -1.17003, -0.373585, -1.17003, -0.373584, -7.98933E-009, -2.6077E-009
69, 0.00000, -1.14105, -0.364059, -1.14102, -0.364051, -1.14102, -0.364048, -7.5307E-009, -2.40527E-009
70, 0.00000, -1.04682, -0.333092, -1.0468, -0.333088, -1.0468, -0.333086, -6.13278E-009, -1.78514E-009
71, 0.00000, -0.89346, -0.28269, -0.893438, -0.282684, -0.893435, -0.282683, -4.24324E-009, -1.0541E-009
72, 0.00000, -0.710507, -0.222562, -0.71049, -0.222557, -0.710487, -0.222557, -2.53007E-009, -5.08096E-010
73, 0.00000, -0.595194, -0.184634, -0.59512, -0.184626, -0.59514, -0.184649, -1.72147E-009, -3.11081E-010
74, 0.00000, -0.507816, -0.155896, -0.507751, -0.155882, -0.507747, -0.155905, -1.22516E-009, -1.99223E-010
75, 0.00000, -0.460352, -0.14032, -0.460319, -0.140312, -0.460317, -0.140325, -9.91016E-010, -1.46488E-010
76, 0.00000, -0.43853, -0.133162, -0.438515, -0.133159, -0.438514, -0.133165, -8.92265E-010, -1.24915E-010
77, 0.00000, -0.438312, -0.133101, -0.43831, -0.133101, -0.43831, -0.133101, -8.89677E-010, -1.22123E-010
78, 0.00000, -0.459645, -0.140114, -0.459648, -0.140115, -0.459648, -0.140115, -9.83344E-010, -1.38765E-010
79, 0.00000, -0.508949, -0.156319, -0.508951, -0.156319, -0.508951, -0.156319, -1.22183E-009, -1.85634E-010
80, 0.00000, -0.529683, -0.186976, -0.529685, -0.186977, -0.529685, -0.186977, -1.33731E-009, -2.02295E-010
81, 0.00000, -0.233119, -0.235547, -0.233113, -0.235544, -0.233113, -0.235544, -3.57851E-010, 7.84639E-011
82, 0.00000, 0.00969449, -0.280687, 0.00969702, -0.280684, 0.00969725, -0.280684, -3.59868E-010, 2.07312E-010
83, 0.00000, 0.462481, -0.304556, 0.462484, -0.304551, 0.462484, -0.304552, -1.74591E-009, 2.5007E-010
84, 0.00000, 0.431901, -0.313615, 0.431901, -0.313625, 0.431903, -0.313624, -1.64455E-009, 2.65198E-010
85, 0.00000, 0.191674, -0.317872, 0.191674, -0.317876, 0.191674, -0.317875, -8.00184E-010, 2.77473E-010
86, 0.00000, -0.353603, -0.323985, -0.353604, -0.323986, -0.353604, -0.323986, -8.01561E-010, 1.10906E-010
87, 0.00000, -1.25585, -0.330065, -1.2561, -0.330114, -1.25604, -0.330068, -9.98649E-009, -3.49501E-009
88, 0.00000, -1.39277, -0.332537, -1.40895, -0.336553, -1.40904, -0.336577, -8.00397E-009, 2.04758E-009
89, 0.00000, -1.19056, -0.353484, -1.19056, -0.353481, -1.19052, -0.353472, -8.43179E-009, -2.83822E-009
90, 0.00000, -0.935698, -0.362861, -0.935696, -0.362846, -0.935697, -0.362859, -4.54321E-009, -1.01989E-009
91, 0.00000, -0.606584, -0.360982, -0.606577, -0.360973, -0.606574, -0.360967, -1.54655E-009, 2.72046E-010
92, 0.00000, -1.12735, -0.359559, -1.1274, -0.359575, -1.1274, -0.359574, -7.29918E-009, -2.27633E-009
93, 0.00000, -1.086, -0.345955, -1.08617, -0.345991, -1.08612, -0.345946, -6.65032E-009, -1.94164E-009
94, 0.00000, -1.00483, -0.319279, -1.00478, -0.319267, -1.00478, -0.319276, -5.57834E-009, -1.57004E-009
95, 0.00000, -0.888172, -0.280933, -0.888107, -0.280919, -0.888109, -0.280934, -4.1952E-009, -1.05191E-009
96, 0.00000, -0.74559, -0.23407, -0.745526, -0.234057, -0.74553, -0.234076, -2.82528E-009, -6.06168E-010
97, 0.00000, -0.607662, -0.188762, -0.607676, -0.188767, -0.607676, -0.188767, -1.79053E-009, -3.10769E-010
98, 0.00000, -0.516569, -0.158773, -0.516468, -0.158759, -0.516487, -0.158796, -1.27302E-009, -2.15427E-010
99, 0.00000, -0.46365, -0.1414, -0.463613, -0.141392, -0.463611, -0.141407, -1.00663E-009, -1.50237E-010
100, 0.00000, -0.43728, -0.132748, -0.437261, -0.132744, -0.43726, -0.132752, -8.87295E-010, -1.24555E-010
101, 0.00000, -0.429303, -0.130103, -0.429281, -0.130096, -0.429273, -0.130103, -8.54452E-010, -1.19294E-010
102, 0.00000, -0.442108, -0.134412, -0.44214, -0.134422, -0.442153, -0.134412, -9.01011E-010, -1.18243E-010
103, 0.00000, -0.484992, -0.148445, -0.484996, -0.148446, -0.484996, -0.148446, -1.10213E-009, -1.61449E-010
104, 0.00000, -0.48665, -0.172751, -0.48665, -0.172751, -0.48665, -0.172751, -1.11508E-009, -1.57148E-010
105, 0.00000, -0.182433, -0.218353, -0.182428, -0.218349, -0.182427, -0.21835, -2.58023E-010, 8.11657E-011
106, 0.00000, 0.0492116, -0.266864, 0.0492137, -0.266861, 0.0492139, -0.266862, -3.63565E-010, 1.91521E-010
107, 0.00000, 0.897746, -0.297527, 0.897754, -0.297517, 0.897756, -0.297512, -3.87701E-009, 1.62044E-010
108, 0.00000, 2.21447, -0.309566, 2.2145, -0.309562, 2.21451, -0.309554, -1.70437E-008, 1.64384E-009
109, 0.00000, 2.12501, -0.317239, 2.12504, -0.317241, 2.12505, -0.317235, -1.60779E-008, 1.46171E-009
110, 0.00000, 0.0179653, -0.322312, 0.0179657, -0.322314, 0.0179655, -0.322315, -4.91227E-010, 2.72092E-010
111, 0.00000, -0.544577, -0.320484, -0.544577, -0.320585, -0.544587, -0.320533, -1.47064E-009, -4.31498E-011
112, 0.00000, -0.69396, -0.317863, -0.693955, -0.317886, -0.693954, -0.317876, -2.18353E-009, -1.7763E-010
113, 0.00000, -0.664269, -0.331047, -0.664263, -0.331077, -0.664263, -0.331072, -1.9406E-009, -3.35979E-011
114, 0.00000, -0.801243, -0.348748, -0.801236, -0.348765, -0.801234, -0.348759, -3.08294E-009, -4.3418E-010
115, 0.00000, -1.1205, -0.357342, -1.12064, -0.357377, -1.12062, -0.357344, -7.169E-009, -2.1773E-009
116, 0.00000, -1.15323, -0.368095, -1.15331, -0.368117, -1.1533, -0.368102, -7.69826E-009, -2.44486E-009
117, 0.00000, -1.12809, -0.359775, -1.12802, -0.359758, -1.12802, -0.359765, -7.33744E-009, -2.33098E-009
118, 0.00000, -1.02814, -0.326935, -1.02807, -0.32692, -1.02808, -0.326932, -5.88875E-009, -1.70045E-009
119, 0.00000, -0.871329, -0.275394, -0.871255, -0.275379, -0.87126, -0.275396, -4.01706E-009, -9.92269E-010
120, 0.00000, -0.689226, -0.215544, -0.689161, -0.215531, -0.689168, -0.215552, -2.37321E-009, -4.77685E-010
121, 0.00000, -0.557345, -0.172225, -0.557354, -0.172228, -0.557354, -0.172228, -1.48468E-009, -2.40826E-010
122, 0.00000, -0.477414, -0.145954, -0.477407, -0.145952, -0.477405, -0.145951, -1.06675E-009, -1.55777E-010
123, 0.00000, -0.439934, -0.133635, -0.439931, -0.133635, -0.43993, -0.133634, -8.96747E-010, -1.23489E-010
124, 0.00000, -0.427024, -0.129392, -0.427016, -0.12939, -0.427013, -0.129389, -8.42576E-010, -1.14324E-010
125, 0.00000, -0.443228, -0.134719, -0.443237, -0.134722, -0.44324, -0.134723, -9.09925E-010, -1.24571E-010
126, 0.00000, -0.506284, -0.155443, -0.506288, -0.155444, -0.506289, -0.155445, -1.20797E-009, -1.82543E-010
127, 0.00000, -0.63283, -0.197034, -0.632843, -0.197038, -0.632846, -0.19704, -1.95659E-009, -3.51343E-010
128, 0.00000, -0.629309, -0.219837, -0.62931, -0.219838, -0.62931, -0.219837, -1.94514E-009, -3.42845E-010
129, 0.00000, -0.198927, -0.225158, -0.198915, -0.225149, -0.198913, -0.22515, -2.90032E-010, 8.15676E-011
130, 0.00000, 0.163245, -0.231667, 0.163249, -0.231661, 0.163249, -0.231663, -4.59362E-010, 1.5005E-010
131, 0.00000, 2.29255, -0.233352, 2.29256, -0.233324, 2.29245, -0.233333, -1.81939E-008, 2.11828E-009
132, 0.00000, 2.85131, -0.231547, 2.85145, -0.231537, 2.85141, -0.231513, -2.53942E-008, 3.72258E-009
133, 0.00000, 3.18332, -0.232563, 3.18344, -0.232554, 3.18341, -0.232533, -2.99808E-008, 4.85937E-009
134, 0.00000, 0.435422, -0.237057, 0.435424, -0.237054, 0.435434, -0.237059, -1.35076E-009, 1.60189E-010
135, 0.00000, -0.269434, -0.24687, -0.269433, -0.246908, -0.269441, -0.246889, -4.42259E-010, 7.49176E-011
136, 0.00000, -0.858897, -0.27119, -0.85889, -0.271258, -0.858885, -0.271241, -3.87335E-009, -9.18179E-010
137, 0.00000, -0.993204, -0.315471, -0.993265, -0.315491, -0.993255, -0.31549, -5.4073E-009, -1.4717E-009
138, 0.00000, -1.10228, -0.351319, -1.10229, -0.351323, -1.10229, -0.351321, -6.92501E-009, -2.11909E-009
139, 0.00000, -1.11368, -0.365458, -1.11388, -0.365505, -1.11383, -0.365452, -7.02149E-009, -2.07928E-009
140, 0.00000, -1.16997, -0.373564, -1.17001, -0.373577, -1.17, -0.373576, -7.98429E-009, -2.59947E-009
141, 0.00000, -1.14105, -0.36406, -1.14102, -0.364052, -1.14102, -0.364048, -7.53084E-009, -2.40549E-009
142, 0.00000, -1.04682, -0.333092, -1.0468, -0.333088, -1.0468, -0.333086, -6.1329E-009, -1.78533E-009
143, 0.00000, -0.893461, -0.282691, -0.893438, -0.282684, -0.893435, -0.282683, -4.2434E-009, -1.05434E-009
144, 0.00000, -0.710508, -0.222563, -0.71049, -0.222557, -0.710488, -0.222557, -2.53018E-009, -5.08266E-010
145, 0.00000, -0.557374, -0.172234, -0.557364, -0.17223, -0.557363, -0.172231, -1.4869E-009, -2.43913E-010
146, 0.00000, -0.445769, -0.145943, -0.445732, -0.145943, -0.445749, -0.145957, -9.04205E-010, -1.21169E-010
147, 0.00000, -0.43993, -0.133634, -0.439928, -0.133634, -0.439928, -0.133634, -8.96582E-010, -1.23276E-010
148, 0.00000, -0.395424, -0.129365, -0.395336, -0.129359, -0.395361, -0.129396, -7.05136E-010, -9.48758E-011
149, 0.00000, -0.766555, -0.134736, -0.766601, -0.134739, -0.766587, -0.134728, -3.35948E-009, -7.13386E-010
150, 0.00000, -0.834485, -0.155444, -0.834547, -0.155453, -0.83455, -0.155439, -4.01036E-009, -9.14874E-010
151, 0.00000, -0.961156, -0.197044, -0.96119, -0.197048, -0.961182, -0.197042, -5.43269E-009, -1.43527E-009
152, 0.00000, -0.824356, -0.219847, -0.824278, -0.219835, -0.824284, -0.219851, -3.86064E-009, -9.8947E-010
153, 0.00000, -0.111288, -0.225131, -0.111244, -0.225127, -0.111265, -0.225155, -2.25841E-010, 5.61511E-011
154, 0.00000, 0.0695743, -0.231634, 0.0696161, -0.231625, 0.0696067, -0.231657, -2.83644E-010, 1.15198E-010
155, 0.00000, 0.604326, -0.233151, 0.604391, -0.233135, 0.604367, -0.233242, -2.05705E-009, 1.72191E-010
156, 0.00000, 0.726072, -0.231441, 0.726087, -0.231437, 0.726083, -0.23146, -2.80324E-009, 1.81275E-010
157, 0.00000, 0.451272, -0.232541, 0.451234, -0.232552, 0.451248, -0.232498, -1.40638E-009, 1.40104E-010
158, 0.00000, -0.0750599, -0.23706, -0.0750882, -0.237063, -0.075074, -0.237044, -2.23141E-010, 1.37362E-010
159, 0.00000, -0.553926, -0.246445, -0.553929, -0.246729, -0.553961, -0.246615, -1.39382E-009, -1.35496E-010
160, 0.00000, -0.730557, -0.271284, -0.730553, -0.271307, -0.730552, -0.2713, -2.57747E-009, -4.51542E-010
161, 0.00000, -0.854883, -0.315442, -0.854878, -0.315455, -0.854876, -0.315454, -3.70583E-009, -7.87632E-010
162, 0.00000, -0.932305, -0.351305, -0.932298, -0.35131, -0.932296, -0.35131, -4.52235E-009, -1.04249E-009
163, 0.00000, -0.66023, -0.365508, -0.660227, -0.365468, -0.660222, -0.365479, -1.90276E-009, 1.39348E-010
164, 0.00000, -0.718401, -0.373579, -0.718393, -0.373586, -0.718391, -0.373583, -2.32478E-009, -3.66954E-012
165, 0.00000, -1.10908, -0.364001, -1.10925, -0.364041, -1.10922, -0.364003, -6.95897E-009, -2.06499E-009
166, 0.00000, -1.04681, -0.33309, -1.0468, -0.333087, -1.0468, -0.333085, -6.1318E-009, -1.78354E-009
167, 0.00000, -0.893455, -0.282689, -0.893436, -0.282684, -0.893434, -0.282682, -4.24267E-009, -1.05321E-009
168, 0.00000, -0.710503, -0.222561, -0.710488, -0.222557, -0.710486, -0.222557, -2.52964E-009, -5.07477E-010
169, 0.00000, -1.72799, -0.169631, -1.75009, -0.171977, -1.75249, -0.172242, -1.28423E-008, 5.4963E-009
170, 0.00000, -1.58907, -0.145951, -1.58922, -0.145962, -1.58908, -0.145948, -1.8965E-008, -6.53722E-009
171, 0.00000, -1.44501, -0.133638, -1.44495, -0.133634, -1.44496, -0.133638, -1.5179E-008, -4.82774E-009
172, 0.00000, -1.37719, -0.129392, -1.3771, -0.129384, -1.3771, -0.12939, -1.35611E-008, -4.149E-009
173, 0.00000, -1.58149, -0.134726, -1.58158, -0.134735, -1.58157, -0.13473, -1.88308E-008, -6.35408E-009
174, 0.00000, -1.42302, -0.155451, -1.42298, -0.155448, -1.42298, -0.15545, -1.44745E-008, -4.71914E-009
175, 0.00000, -0.259549, -0.197194, -0.25955, -0.197095, -0.259516, -0.197128, -2.35949E-010, 1.63504E-010
176, 0.00000, -1.02963, -0.219858, -1.02964, -0.219856, -1.02961, -0.219851, -6.44248E-009, -1.85284E-009
177, 0.00000, -0.0625561, -0.225125, -0.0624774, -0.225112, -0.0625088, -0.225167, -1.96991E-010, 1.15626E-010
178, 0.00000, 1.22604, -0.231648, 1.22594, -0.231694, 1.22576, -0.231596, -8.10239E-009, 6.03923E-010
179, 0.00000, 2.33948, -0.23332, 2.33937, -0.23331, 2.33961, -0.233331, -2.10874E-008, 2.51899E-009
180, 0.00000, 1.59588, -0.231528, 1.59571, -0.231464, 1.59598, -0.231511, -1.1918E-008, 9.96531E-010
181, 0.00000, 1.3767, -0.232491, 1.37667, -0.23247, 1.37674, -0.232486, -9.70206E-009, 8.05785E-010
182, 0.00000, 0.849315, -0.237092, 0.849298, -0.237034, 0.849405, -0.237082, -4.8198E-009, 4.70212E-010
183, 0.00000, 0.0334019, -0.247, 0.0334446, -0.24689, 0.0335105, -0.246993, -3.5573E-010, 3.61214E-010
184, 0.00000, -0.410509, -0.27078, -0.41047, -0.271171, -0.410636, -0.271065, -5.54427E-010, 2.72646E-010
185, 0.00000, -0.636534, -0.315154, -0.636506, -0.315377, -0.636577, -0.315334, -1.72248E-009, -1.09645E-011
186, 0.00000, -1.08532, -0.351278, -1.08553, -0.35133, -1.08551, -0.351282, -6.60851E-009, -1.90024E-009
187, 0.00000, -1.14518, -0.365427, -1.14522, -0.365436, -1.1452, -0.365426, -7.58154E-009, -2.40644E-009
