hour, t(sec), P1 (kW), Q1 (kvar), P2 (kW), Q2 (kvar), P3 (kW), Q3 (kvar), P4 (kW), Q4 (kvar)
1, 0.00000, -0.068309, -0.0224515, -0.0683094, -0.022452, -0.068308, -0.0224515, 3.6134E-010, -1.00174E-010
2, 0.00000, -0.0578865, -0.0190263, -0.0578864, -0.0190264, -0.0578863, -0.0190263, 2.05732E-010, -6.03063E-011
3, 0.00000, -0.0530065, -0.0174229, -0.0530063, -0.0174228, -0.053005, -0.0174223, 1.54558E-010, -4.49402E-011
4, 0.00000, -0.051317, -0.0168674, -0.0513171, -0.0168675, -0.0513163, -0.0168671, 1.34528E-010, -4.06476E-011
5, 0.00000, -0.0534369, -0.0175637, -0.0534369, -0.0175638, -0.0534372, -0.0175638, 1.51258E-010, -4.69039E-011
6, 0.00000, -0.061645, -0.0202617, -0.0616456, -0.020262, -0.0616473, -0.0202625, 2.32679E-010, -7.3231E-011
7, 0.00000, -0.0781506, -0.0256867, -0.0781508, -0.025687, -0.0781507, -0.0256868, 5.0873E-010, -1.5234E-010
8, 0.00000, -0.0872001, -0.0286613, -0.0871974, -0.0286608, -0.0871969, -0.0286602, 8.33417E-010, -2.23368E-010
9, 0.00000, -0.0892972, -0.0293504, -0.0892952, -0.0293501, -0.0892954, -0.0293499, 2.55505E-010, -2.21011E-010
10, 0.00000, -0.0918849, -0.030201, -0.091882, -0.0302004, -0.0918817, -0.0302, 7.6809E-011, -2.33274E-010
11, 0.00000, -0.0925301, -0.030413, -0.0925262, -0.030412, -0.0925271, -0.0304121, -4.64534E-010, -2.07658E-010
12, 0.00000, -0.0918055, -0.0301749, -0.091805, -0.030175, -0.0918049, -0.0301748, -4.79049E-010, -1.97216E-010
13, 0.00000, -0.0921999, -0.0303045, -0.092201, -0.0303051, -0.0922007, -0.0303048, -3.33302E-010, -2.09721E-010
14, 0.00000, -0.0940165, -0.0309016, -0.0940191, -0.0309027, -0.0940185, -0.0309024, 2.76057E-010, -2.52665E-010
15, 0.00000, -0.0979344, -0.0321893, -0.0979356, -0.0321901, -0.0979356, -0.0321899, 9.32684E-010, -3.10877E-010
16, 0.00000, -0.107609, -0.035369, -0.107611, -0.0353701, -0.107611, -0.0353699, 1.90449E-009, -4.39065E-010
17, 0.00000, -0.125117, -0.0411236, -0.125118, -0.0411248, -0.125118, -0.0411244, 3.30091E-009, -7.22946E-010
18, 0.00000, -0.137976, -0.0453503, -0.139315, -0.0457923, -0.139321, -0.0457909, -1.8763E-010, 1.42288E-009
19, 0.00000, -0.142466, -0.0468249, -0.144504, -0.0474973, -0.14492, -0.0476331, -2.25289E-009, 2.11549E-009
20, 0.00000, -0.145032, -0.047669, -0.147096, -0.0483484, -0.148165, -0.0486999, -3.18163E-009, 1.14308E-009
21, 0.00000, -0.142329, -0.0467815, -0.144369, -0.0474515, -0.144401, -0.0474632, -1.39614E-009, 2.7224E-009
22, 0.00000, -0.132102, -0.0434195, -0.132108, -0.0434221, -0.132105, -0.0434208, 3.95683E-009, -8.22033E-010
23, 0.00000, -0.112119, -0.0368516, -0.112123, -0.0368536, -0.112121, -0.0368524, 2.20921E-009, -4.96029E-010
24, 0.00000, -0.088275, -0.0290144, -0.0882698, -0.029013, -0.0882698, -0.0290129, 9.67045E-010, -2.38343E-010
25, 0.00000, -0.0683128, -0.0224531, -0.0683101, -0.0224523, -0.06831, -0.0224525, 4.32164E-010, -1.06598E-010
26, 0.00000, -0.0578997, -0.01903, -0.057894, -0.0190278, -0.0578926, -0.0190284, 2.57066E-010, -6.5714E-011
27, 0.00000, -0.053008, -0.0174224, -0.0530053, -0.0174214, -0.0530047, -0.0174218, 1.87492E-010, -4.86078E-011
28, 0.00000, -0.0513192, -0.0168674, -0.0513173, -0.0168667, -0.0513169, -0.016867, 1.58014E-010, -4.33293E-011
29, 0.00000, -0.0534379, -0.0175642, -0.0534382, -0.0175644, -0.0534385, -0.0175644, 1.63203E-010, -4.71292E-011
30, 0.00000, -0.0616532, -0.0202643, -0.0616531, -0.0202645, -0.0616529, -0.0202643, 2.6883E-010, -7.38378E-011
31, 0.00000, -0.0781491, -0.0256862, -0.0781509, -0.0256871, -0.0781505, -0.0256868, 6.08699E-010, -1.55151E-010
32, 0.00000, -0.0871882, -0.0286572, -0.0871894, -0.0286579, -0.0871896, -0.0286578, 8.26972E-010, -2.20494E-010
33, 0.00000, -0.0892981, -0.0293508, -0.0892957, -0.0293503, -0.0892958, -0.02935, 4.31954E-010, -2.27145E-010
34, 0.00000, -0.0918816, -0.0301998, -0.091881, -0.0302, -0.0918802, -0.0301995, 1.8814E-010, -2.35273E-010
35, 0.00000, -0.0925337, -0.0304142, -0.092531, -0.0304137, -0.0925305, -0.0304132, -9.63004E-011, -2.30606E-010
36, 0.00000, -0.0918179, -0.0301789, -0.0918145, -0.0301781, -0.0918129, -0.0301774, -1.35064E-010, -2.22816E-010
37, 0.00000, -0.0921993, -0.0303043, -0.0922009, -0.0303051, -0.0922012, -0.030305, 2.72865E-011, -2.30772E-010
38, 0.00000, -0.0940056, -0.0308981, -0.0940116, -0.0309002, -0.0940129, -0.0309007, 4.38492E-010, -2.58237E-010
39, 0.00000, -0.0979339, -0.0321891, -0.0979355, -0.0321901, -0.0979355, -0.0321898, 1.14943E-009, -3.17254E-010
40, 0.00000, -0.107606, -0.0353677, -0.107607, -0.0353688, -0.107608, -0.0353686, 1.49019E-009, -4.2168E-010
41, 0.00000, -0.125121, -0.0411252, -0.125138, -0.0411312, -0.125135, -0.0411305, 3.22972E-009, -6.9455E-010
42, 0.00000, -0.137977, -0.0453507, -0.139328, -0.0457955, -0.139332, -0.0457958, -2.07057E-010, 1.44332E-009
43, 0.00000, -0.142463, -0.0468244, -0.144509, -0.0474989, -0.144907, -0.0476278, -2.22183E-009, 2.1653E-009
44, 0.00000, -0.14503, -0.0476686, -0.147098, -0.0483495, -0.148158, -0.0486969, -3.17555E-009, 1.16725E-009
45, 0.00000, -0.142027, -0.046682, -0.144055, -0.0473485, -0.144394, -0.0474606, -2.08669E-009, 2.21808E-009
46, 0.00000, -0.132102, -0.0434191, -0.132112, -0.0434236, -0.132107, -0.0434217, 3.94182E-009, -8.09584E-010
47, 0.00000, -0.112121, -0.0368523, -0.112117, -0.0368516, -0.112116, -0.0368504, 2.23483E-009, -5.08724E-010
48, 0.00000, -0.088275, -0.0290144, -0.0882698, -0.029013, -0.0882698, -0.0290129, 9.67045E-010, -2.38379E-010
49, 0.00000, -0.068307, -0.0224513, -0.0683084, -0.022452, -0.0683085, -0.0224519, 3.97957E-010, -1.01963E-010
50, 0.00000, -0.0578891, -0.0190272, -0.0578878, -0.0190269, -0.0578875, -0.0190267, 2.34708E-010, -6.19169E-011
51, 0.00000, -0.0530043, -0.0174217, -0.0530023, -0.0174211, -0.0530026, -0.0174211, 1.9914E-010, -4.87887E-011
52, 0.00000, -0.0513234, -0.0168692, -0.0513216, -0.0168687, -0.0513209, -0.0168684, 1.81104E-010, -4.35483E-011
53, 0.00000, -0.0534375, -0.017564, -0.0534379, -0.0175642, -0.0534379, -0.0175642, 2.01463E-010, -4.83768E-011
54, 0.00000, -0.0616484, -0.0202626, -0.0616506, -0.0202635, -0.0616507, -0.0202636, 3.14657E-010, -7.46188E-011
55, 0.00000, -0.0781473, -0.0256847, -0.0781487, -0.0256858, -0.0781476, -0.0256853, 5.30586E-010, -1.51617E-010
56, 0.00000, -0.0871903, -0.0286579, -0.0871906, -0.0286583, -0.0871906, -0.0286581, 7.77184E-010, -2.17438E-010
57, 0.00000, -0.0893032, -0.0293525, -0.0893, -0.0293518, -0.0892998, -0.0293514, 7.35202E-010, -2.37027E-010
58, 0.00000, -0.0918867, -0.0302016, -0.0918831, -0.0302008, -0.0918828, -0.0302003, 6.69073E-010, -2.55586E-010
59, 0.00000, -0.0925375, -0.0304155, -0.092533, -0.0304145, -0.0925327, -0.0304139, 5.37675E-010, -2.57244E-010
60, 0.00000, -0.0918111, -0.0301767, -0.0918095, -0.0301766, -0.0918088, -0.0301761, 5.15004E-010, -2.47747E-010
61, 0.00000, -0.0922012, -0.0303049, -0.092202, -0.0303055, -0.0922021, -0.0303053, 5.90542E-010, -2.51863E-010
62, 0.00000, -0.0940139, -0.0309008, -0.094016, -0.0309018, -0.0940166, -0.0309018, 7.99982E-010, -2.72345E-010
63, 0.00000, -0.0979345, -0.0321894, -0.0979351, -0.0321899, -0.0979352, -0.0321897, 9.39588E-010, -3.11862E-010
64, 0.00000, -0.107609, -0.0353692, -0.107611, -0.0353702, -0.107611, -0.0353699, 1.9064E-009, -4.39753E-010
65, 0.00000, -0.125099, -0.0411178, -0.125107, -0.0411207, -0.125109, -0.0411218, 3.26312E-009, -7.16144E-010
66, 0.00000, -0.138282, -0.045451, -0.139352, -0.0458025, -0.13936, -0.0458064, 4.61394E-010, 9.13261E-010
67, 0.00000, -0.142464, -0.0468249, -0.144506, -0.0474981, -0.144909, -0.0476287, -2.22782E-009, 2.14896E-009
68, 0.00000, -0.145031, -0.0476689, -0.147097, -0.0483489, -0.148162, -0.0486984, -3.17893E-009, 1.15381E-009
69, 0.00000, -0.142026, -0.0466815, -0.144057, -0.0473492, -0.14439, -0.047459, -2.07697E-009, 2.23382E-009
70, 0.00000, -0.132102, -0.0434194, -0.132109, -0.0434225, -0.132106, -0.043421, 3.95007E-009, -8.18935E-010
71, 0.00000, -0.112119, -0.0368515, -0.112116, -0.0368512, -0.112115, -0.0368503, 2.23034E-009, -5.06786E-010
72, 0.00000, -0.088273, -0.0290138, -0.0882696, -0.0290128, -0.088269, -0.0290128, 9.64098E-010, -2.36044E-010
73, 0.00000, -0.0732298, -0.0240694, -0.073229, -0.0240694, -0.0732292, -0.0240693, 5.06348E-010, -1.29095E-010
74, 0.00000, -0.0618396, -0.0203257, -0.0618361, -0.0203248, -0.0618356, -0.0203244, 2.94395E-010, -7.7419E-011
75, 0.00000, -0.0556583, -0.0182939, -0.0556566, -0.0182935, -0.0556563, -0.0182933, 2.07118E-010, -5.51625E-011
76, 0.00000, -0.052817, -0.0173601, -0.0528163, -0.0173599, -0.0528161, -0.0173598, 1.73732E-010, -4.64482E-011
77, 0.00000, -0.052791, -0.0173515, -0.0527909, -0.0173516, -0.0527909, -0.0173515, 1.7252E-010, -4.60085E-011
78, 0.00000, -0.0555721, -0.0182656, -0.0555725, -0.0182659, -0.0555725, -0.0182658, 2.02874E-010, -5.36488E-011
79, 0.00000, -0.0619984, -0.0203778, -0.0619989, -0.0203781, -0.061999, -0.0203781, 2.89951E-010, -7.56277E-011
80, 0.00000, -0.0741571, -0.0243742, -0.0741578, -0.0243746, -0.0741579, -0.0243745, 4.73059E-010, -1.31875E-010
81, 0.00000, -0.0934226, -0.0307063, -0.093421, -0.0307063, -0.0934206, -0.0307057, 5.53908E-010, -2.6209E-010
82, 0.00000, -0.111325, -0.0365905, -0.111324, -0.0365907, -0.111324, -0.0365901, 5.91544E-010, -4.36793E-010
83, 0.00000, -0.120792, -0.0397014, -0.12079, -0.0397018, -0.120789, -0.0397008, 1.75012E-010, -5.31196E-010
84, 0.00000, -0.124383, -0.0408852, -0.124386, -0.0408855, -0.124387, -0.040886, 2.36004E-010, -5.79514E-010
85, 0.00000, -0.126072, -0.041438, -0.126073, -0.0414386, -0.126073, -0.0414386, 5.94836E-010, -6.25089E-010
86, 0.00000, -0.128497, -0.0422347, -0.128498, -0.0422355, -0.128497, -0.0422351, 1.68956E-009, -7.16441E-010
87, 0.00000, -0.129675, -0.0426219, -0.130914, -0.0430291, -0.13092, -0.0430321, -1.18869E-010, 1.26235E-009
88, 0.00000, -0.130111, -0.0427652, -0.131983, -0.0433809, -0.133331, -0.0438235, -2.66424E-009, 5.07223E-010
89, 0.00000, -0.137906, -0.0453274, -0.139887, -0.0459787, -0.140191, -0.0460787, -1.91109E-009, 2.18109E-009
90, 0.00000, -0.143607, -0.0472013, -0.143895, -0.0472969, -0.143902, -0.0472979, 3.36704E-009, -5.76804E-010
91, 0.00000, -0.143167, -0.0470562, -0.143169, -0.0470578, -0.143163, -0.0470554, 3.83211E-009, -1.04557E-009
92, 0.00000, -0.14061, -0.0462158, -0.142608, -0.0468735, -0.142604, -0.0468715, -1.24278E-009, 2.69237E-009
93, 0.00000, -0.136254, -0.0447844, -0.137211, -0.0450992, -0.137214, -0.0451008, 7.36071E-010, 7.31012E-010
94, 0.00000, -0.126626, -0.0416196, -0.12663, -0.0416219, -0.126625, -0.0416197, 3.46022E-009, -7.4152E-010
95, 0.00000, -0.111424, -0.0366232, -0.111419, -0.036622, -0.111418, -0.0366214, 2.18711E-009, -5.02037E-010
96, 0.00000, -0.0928396, -0.0305147, -0.0928345, -0.0305133, -0.0928344, -0.0305132, 1.15026E-009, -2.79481E-010
97, 0.00000, -0.0748655, -0.024607, -0.0748676, -0.0246079, -0.0748678, -0.0246079, 5.39684E-010, -1.35928E-010
98, 0.00000, -0.0629782, -0.0206999, -0.0629752, -0.0206991, -0.0629755, -0.020699, 3.10392E-010, -8.21105E-011
99, 0.00000, -0.0560874, -0.018435, -0.0560855, -0.0184345, -0.0560852, -0.0184343, 2.12672E-010, -5.66177E-011
100, 0.00000, -0.0526535, -0.0173063, -0.0526525, -0.0173061, -0.0526524, -0.017306, 1.7224E-010, -4.60977E-011
101, 0.00000, -0.051608, -0.0169626, -0.0516068, -0.0169623, -0.0516062, -0.0169621, 1.62365E-010, -4.32804E-011
102, 0.00000, -0.0533006, -0.0175191, -0.0533024, -0.0175198, -0.0533032, -0.0175199, 1.74422E-010, -4.67201E-011
103, 0.00000, -0.058876, -0.0193515, -0.0588766, -0.0193519, -0.0588766, -0.0193518, 2.44762E-010, -6.42228E-011
104, 0.00000, -0.0685156, -0.0225199, -0.068516, -0.0225202, -0.068516, -0.0225201, 3.61393E-010, -1.02864E-010
105, 0.00000, -0.0866032, -0.0284649, -0.0866016, -0.0284648, -0.0866013, -0.0284643, 4.04215E-010, -2.06135E-010
106, 0.00000, -0.105843, -0.0347885, -0.105842, -0.0347888, -0.105841, -0.0347882, 4.5628E-010, -3.71372E-010
107, 0.00000, -0.117986, -0.0387798, -0.117986, -0.0387804, -0.117985, -0.0387798, -3.60192E-010, -4.63793E-010
108, 0.00000, -0.122756, -0.0403477, -0.122756, -0.0403483, -0.122756, -0.0403479, -1.08668E-009, -4.43929E-010
109, 0.00000, -0.125798, -0.0413477, -0.125799, -0.0413483, -0.125799, -0.041348, -1.1006E-009, -4.84992E-010
110, 0.00000, -0.127833, -0.0420165, -0.127834, -0.0420174, -0.127835, -0.0420172, 9.10469E-010, -6.69153E-010
111, 0.00000, -0.127179, -0.0418007, -0.127177, -0.0418013, -0.127176, -0.0418005, 2.18798E-009, -7.15528E-010
112, 0.00000, -0.126076, -0.0414386, -0.126079, -0.0414405, -0.126081, -0.0414405, 2.70423E-009, -7.09208E-010
113, 0.00000, -0.131319, -0.0431617, -0.131323, -0.0431639, -0.131324, -0.0431639, 3.00309E-009, -8.03333E-010
114, 0.00000, -0.138322, -0.0454636, -0.138324, -0.0454654, -0.138326, -0.0454653, 3.91595E-009, -9.70129E-010
115, 0.00000, -0.139907, -0.0459846, -0.141728, -0.0465845, -0.141727, -0.0465831, -1.0254E-009, 2.34071E-009
116, 0.00000, -0.143315, -0.0471044, -0.145366, -0.0477804, -0.145981, -0.0479809, -2.61807E-009, 1.83144E-009
117, 0.00000, -0.140666, -0.0462346, -0.142685, -0.0468982, -0.142693, -0.0469013, -1.29778E-009, 2.71559E-009
118, 0.00000, -0.129658, -0.0426161, -0.129668, -0.0426203, -0.129662, -0.0426181, 3.72408E-009, -7.78112E-010
119, 0.00000, -0.109228, -0.0359013, -0.109222, -0.0359002, -0.109222, -0.0358993, 2.03621E-009, -4.69456E-010
120, 0.00000, -0.0854925, -0.0280998, -0.0854877, -0.0280985, -0.0854877, -0.0280985, 8.65865E-010, -2.15097E-010
121, 0.00000, -0.068307, -0.0224513, -0.0683084, -0.022452, -0.0683085, -0.0224519, 3.9801E-010, -1.01978E-010
122, 0.00000, -0.0578891, -0.0190272, -0.0578878, -0.0190269, -0.0578875, -0.0190267, 2.34708E-010, -6.19169E-011
123, 0.00000, -0.0530031, -0.0174212, -0.0530025, -0.0174211, -0.0530023, -0.017421, 1.75498E-010, -4.67972E-011
124, 0.00000, -0.0513212, -0.0168684, -0.0513199, -0.016868, -0.0513192, -0.0168678, 1.59725E-010, -4.25655E-011
125, 0.00000, -0.0534305, -0.0175617, -0.0534321, -0.0175624, -0.0534328, -0.0175625, 1.76234E-010, -4.71371E-011
126, 0.00000, -0.0616508, -0.0202636, -0.0616517, -0.020264, -0.0616519, -0.020264, 2.83814E-010, -7.40633E-011
127, 0.00000, -0.0781443, -0.0256847, -0.0781473, -0.0256858, -0.0781478, -0.025686, 6.21883E-010, -1.55642E-010
128, 0.00000, -0.0871895, -0.0286577, -0.0871902, -0.0286582, -0.0871902, -0.028658, 8.30091E-010, -2.20939E-010
129, 0.00000, -0.0893041, -0.0293525, -0.0892997, -0.0293517, -0.0892988, -0.0293507, 4.62864E-010, -2.29076E-010
130, 0.00000, -0.0918841, -0.0302005, -0.0918818, -0.0302003, -0.0918813, -0.0301997, 1.99925E-010, -2.37519E-010
131, 0.00000, -0.0925379, -0.0304154, -0.0925317, -0.0304138, -0.0925345, -0.0304146, -6.35007E-010, -1.93065E-010
132, 0.00000, -0.0917995, -0.0301731, -0.0918033, -0.0301744, -0.0918016, -0.0301737, -7.09388E-010, -1.63871E-010
133, 0.00000, -0.0921989, -0.0303044, -0.0922016, -0.0303054, -0.0922005, -0.0303048, -7.4792E-010, -1.60275E-010
134, 0.00000, -0.0940184, -0.0309023, -0.0940191, -0.0309028, -0.0940198, -0.0309028, 2.06638E-011, -2.44642E-010
135, 0.00000, -0.0979398, -0.0321897, -0.0979389, -0.0321906, -0.0979352, -0.032189, 6.80444E-010, -3.01051E-010
136, 0.00000, -0.107608, -0.0353654, -0.107609, -0.0353681, -0.107607, -0.0353671, 1.90854E-009, -4.38598E-010
137, 0.00000, -0.125112, -0.0411219, -0.125128, -0.0411278, -0.125127, -0.0411275, 3.24309E-009, -6.98485E-010
138, 0.00000, -0.137978, -0.0453507, -0.139334, -0.0457974, -0.139334, -0.0457967, -2.08288E-010, 1.45831E-009
139, 0.00000, -0.14277, -0.0469264, -0.144814, -0.0475978, -0.144951, -0.047644, -1.66581E-009, 2.56312E-009
140, 0.00000, -0.145031, -0.0476688, -0.147097, -0.0483491, -0.148158, -0.0486971, -3.17598E-009, 1.16182E-009
141, 0.00000, -0.142026, -0.0466815, -0.144057, -0.0473492, -0.144391, -0.0474591, -2.07762E-009, 2.2333E-009
142, 0.00000, -0.132102, -0.0434194, -0.132109, -0.0434226, -0.132106, -0.043421, 3.94925E-009, -8.18345E-010
143, 0.00000, -0.112119, -0.0368516, -0.112116, -0.0368512, -0.112115, -0.0368503, 2.23099E-009, -5.06891E-010
144, 0.00000, -0.0882733, -0.0290139, -0.0882697, -0.0290128, -0.088269, -0.0290128, 9.64604E-010, -2.36218E-010
145, 0.00000, -0.068312, -0.022453, -0.06831, -0.0224523, -0.0683096, -0.0224525, 4.05283E-010, -1.04701E-010
146, 0.00000, -0.0578856, -0.019026, -0.0578859, -0.0190262, -0.057886, -0.0190262, 2.23439E-010, -6.08863E-011
147, 0.00000, -0.0530025, -0.017421, -0.0530022, -0.017421, -0.053002, -0.0174209, 1.75063E-010, -4.66611E-011
148, 0.00000, -0.0513174, -0.0168672, -0.0513153, -0.0168666, -0.0513157, -0.0168666, 1.53149E-010, -4.32783E-011
149, 0.00000, -0.0534373, -0.0175639, -0.0534383, -0.0175644, -0.053438, -0.0175642, 2.54869E-010, -4.99126E-011
150, 0.00000, -0.0616475, -0.0202623, -0.0616501, -0.0202633, -0.0616502, -0.0202634, 3.92697E-010, -7.73862E-011
151, 0.00000, -0.0781495, -0.0256863, -0.0781509, -0.025687, -0.0781506, -0.0256869, 8.35402E-010, -1.64717E-010
152, 0.00000, -0.087195, -0.0286598, -0.0871928, -0.0286595, -0.0871928, -0.0286589, 9.63112E-010, -2.30225E-010
153, 0.00000, -0.0892975, -0.0293508, -0.089295, -0.0293503, -0.0892957, -0.0293498, 3.46009E-010, -2.26454E-010
154, 0.00000, -0.0918841, -0.0302012, -0.0918813, -0.0302007, -0.0918816, -0.0302, 2.46652E-010, -2.41134E-010
155, 0.00000, -0.0925361, -0.0304166, -0.0925298, -0.0304151, -0.0925314, -0.0304139, -8.89676E-011, -2.33829E-010
156, 0.00000, -0.0918059, -0.0301753, -0.0918045, -0.0301752, -0.0918047, -0.0301748, -1.50387E-010, -2.20622E-010
157, 0.00000, -0.0921979, -0.0303031, -0.0922013, -0.0303043, -0.0922004, -0.0303047, 6.47213E-013, -2.26984E-010
158, 0.00000, -0.0940177, -0.0309018, -0.0940194, -0.0309027, -0.0940185, -0.0309025, 4.11734E-010, -2.58819E-010
159, 0.00000, -0.0979232, -0.0321842, -0.097927, -0.0321864, -0.0979279, -0.0321865, 1.04856E-009, -3.11659E-010
160, 0.00000, -0.107606, -0.0353678, -0.107608, -0.035369, -0.107608, -0.035369, 1.72065E-009, -4.31768E-010
161, 0.00000, -0.12511, -0.0411213, -0.125113, -0.041123, -0.125115, -0.0411231, 2.9766E-009, -7.0798E-010
162, 0.00000, -0.139337, -0.0457975, -0.139328, -0.0457958, -0.139331, -0.0457951, 4.37044E-009, -1.00386E-009
163, 0.00000, -0.144936, -0.0476393, -0.144936, -0.0476396, -0.144936, -0.0476385, 4.13232E-009, -1.10494E-009
164, 0.00000, -0.148166, -0.0486993, -0.148167, -0.0487006, -0.148167, -0.0486999, 4.61753E-009, -1.19978E-009
165, 0.00000, -0.142323, -0.0467787, -0.144371, -0.0474531, -0.14437, -0.0474517, -1.31703E-009, 2.79514E-009
166, 0.00000, -0.132102, -0.0434195, -0.132108, -0.0434221, -0.132105, -0.0434208, 3.95699E-009, -8.22046E-010
167, 0.00000, -0.112118, -0.0368513, -0.112116, -0.0368511, -0.112115, -0.0368502, 2.22795E-009, -5.06401E-010
168, 0.00000, -0.0882723, -0.0290135, -0.0882694, -0.0290128, -0.0882689, -0.0290126, 9.62254E-010, -2.35407E-010
169, 0.00000, -0.0683087, -0.0224518, -0.0683114, -0.022453, -0.0683096, -0.0224523, 1.06017E-009, -1.25552E-010
170, 0.00000, -0.0578887, -0.019027, -0.0578871, -0.0190267, -0.0578871, -0.0190265, 6.33693E-010, -7.65887E-011
171, 0.00000, -0.0530035, -0.0174213, -0.0530022, -0.017421, -0.0530022, -0.017421, 4.56625E-010, -5.7393E-011
172, 0.00000, -0.0513194, -0.0168678, -0.0513174, -0.0168672, -0.0513171, -0.0168671, 4.01641E-010, -5.18615E-011
173, 0.00000, -0.0534366, -0.0175637, -0.053438, -0.0175643, -0.0534378, -0.0175641, 5.13117E-010, -5.84977E-011
174, 0.00000, -0.0616537, -0.0202645, -0.0616532, -0.0202645, -0.0616532, -0.0202644, 6.51607E-010, -8.81935E-011
175, 0.00000, -0.0781522, -0.0256876, -0.0781517, -0.0256875, -0.0781522, -0.0256875, 4.30268E-010, -1.4988E-010
176, 0.00000, -0.0871974, -0.0286603, -0.0871995, -0.0286614, -0.0871976, -0.0286606, 1.16419E-009, -2.31428E-010
177, 0.00000, -0.0893004, -0.0293516, -0.0892951, -0.0293502, -0.0892964, -0.0293502, 3.4467E-010, -2.28309E-010
178, 0.00000, -0.0918808, -0.0301996, -0.0918797, -0.0301996, -0.091879, -0.0301991, -2.44346E-010, -2.05189E-010
