hour, t(sec), V1.re, V1.im, V2.re, V2.im, V3.re, V3.im, V4.re, V4.im, I1.re, I1.im, I2.re, I2.im, I3.re, I3.im, I4.re, I4.im
1, 0.00000, 192.312, -112.456, -193.867, -110.42, 1.17941, 223.165, 1.99032E-005, -0.000444204, -0.199753, 0.225876, 0.295074, 0.0598701, -0.0954982, -0.285453, 0.000177157, -0.000292786
2, 0.00000, 192.783, -112.484, -194.076, -110.799, 0.976066, 223.525, 1.66629E-005, -0.000374655, -0.169136, 0.190885, 0.249583, 0.0509023, -0.0805742, -0.241581, 0.000127032, -0.000207216
3, 0.00000, 193.004, -112.496, -194.173, -110.977, 0.879841, 223.693, 1.51932E-005, -0.000342361, -0.154814, 0.174562, 0.228333, 0.0466815, -0.0736268, -0.221069, 0.000107398, -0.000174539
4, 0.00000, 193.106, -112.485, -194.206, -111.068, 0.82085, 223.765, 1.47022E-005, -0.000331136, -0.149874, 0.1689, 0.220977, 0.0452422, -0.0712031, -0.213981, 9.98964E-005, -0.000161364
5, 0.00000, 193.02, -112.473, -194.163, -111.003, 0.851851, 223.697, 1.53456E-005, -0.000345088, -0.156099, 0.175968, 0.230192, 0.0470913, -0.0742006, -0.222886, 0.000107485, -0.000173453
6, 0.00000, 192.702, -112.421, -193.997, -110.766, 0.958653, 223.441, 1.79396E-005, -0.000399407, -0.180226, 0.203376, 0.26591, 0.0542456, -0.0858262, -0.257393, 0.000141847, -0.000229205
7, 0.00000, 192.032, -112.33, -193.662, -110.257, 1.20135, 222.91, 2.34278E-005, -0.000510014, -0.228806, 0.258804, 0.33799, 0.0685133, -0.109415, -0.326939, 0.000232111, -0.000378694
8, 0.00000, 191.521, -112.402, -193.495, -109.774, 1.52893, 222.545, 3.20168E-005, -0.000571617, -0.255323, 0.289639, 0.377854, 0.0759969, -0.122813, -0.365173, 0.000281081, -0.000462754
9, 0.00000, 193.311, -111.63, -193.506, -111.549, 0.11563, 223.46, 9.16444E-005, -0.00057937, -0.262196, 0.293247, 0.384883, 0.0801735, -0.122895, -0.373248, 0.000207656, -0.000172032
10, 0.00000, 194.022, -111.28, -193.471, -112.27, -0.477881, 223.802, 0.000118633, -0.000593858, -0.27014, 0.300347, 0.3952, 0.0835076, -0.125241, -0.383798, 0.000180341, -5.63917E-005
11, 0.00000, 197.083, -109.953, -193.482, -115.309, -2.90408, 225.376, 0.00021832, -0.000588596, -0.273153, 0.296552, 0.394245, 0.088114, -0.1211, -0.385097, 7.19078E-006, 0.00043086
12, 0.00000, 197.255, -109.892, -193.495, -115.475, -3.03056, 225.472, 0.000222619, -0.000583578, -0.271052, 0.293912, 0.390947, 0.0876244, -0.119889, -0.381989, -5.86634E-006, 0.000452302
13, 0.00000, 196.092, -110.392, -193.487, -114.322, -2.11175, 224.871, 0.000185489, -0.000589407, -0.271836, 0.297411, 0.394065, 0.0865096, -0.122294, -0.384197, 6.43491E-005, 0.000276228
14, 0.00000, 193.265, -111.55, -193.416, -111.541, 0.0787228, 223.384, 9.84977E-005, -0.00061037, -0.276231, 0.308814, 0.40538, 0.0845161, -0.129375, -0.393149, 0.000226919, -0.000181114
15, 0.00000, 191.639, -112.129, -193.297, -109.975, 1.27398, 222.49, 5.45995E-005, -0.000642522, -0.287264, 0.325002, 0.42445, 0.0859113, -0.137512, -0.410435, 0.000326651, -0.000477933
16, 0.00000, 190.365, -112.431, -193.068, -108.808, 2.0975, 221.714, 3.2237E-005, -0.000713178, -0.315524, 0.359928, 0.468394, 0.0928243, -0.153311, -0.451979, 0.000441541, -0.000773115
17, 0.00000, 189.548, -112.379, -192.702, -108.155, 2.44497, 221.091, 3.81295E-005, -0.000836249, -0.367366, 0.420489, 0.546362, 0.107275, -0.179594, -0.526697, 0.000597624, -0.00106715
18, 0.00000, 188.884, -112.335, -192.403, -107.621, 2.72906, 220.58, 4.31695E-005, -0.000937387, -0.409571, 0.470093, 0.610056, 0.118865, -0.201231, -0.587628, 0.000746602, -0.00133001
19, 0.00000, 188.622, -112.316, -192.285, -107.411, 2.84126, 220.377, 4.53415E-005, -0.00097747, -0.426215, 0.489726, 0.635224, 0.123394, -0.209824, -0.611682, 0.000815335, -0.00143819
20, 0.00000, 188.471, -112.305, -192.217, -107.291, 2.90571, 220.26, 4.66825E-005, -0.00100075, -0.435846, 0.501106, 0.649798, 0.126004, -0.214811, -0.625607, 0.000859103, -0.00150301
21, 0.00000, 188.696, -112.291, -192.296, -107.487, 2.78254, 220.423, 4.53974E-005, -0.000973193, -0.424625, 0.487636, 0.632635, 0.12307, -0.208821, -0.609286, 0.000810679, -0.00141971
22, 0.00000, 189.221, -112.358, -192.556, -107.893, 2.58442, 220.841, 4.05436E-005, -0.000885842, -0.388087, 0.444813, 0.577612, 0.112984, -0.190191, -0.556602, 0.000667174, -0.00119516
23, 0.00000, 190.156, -112.418, -192.974, -108.64, 2.18674, 221.554, 3.37268E-005, -0.000744641, -0.328844, 0.375449, 0.488399, 0.0965592, -0.160034, -0.471164, 0.000479058, -0.000844252
24, 0.00000, 191.256, -112.487, -193.466, -109.521, 1.71723, 222.394, 2.59153E-005, -0.000579734, -0.258418, 0.293701, 0.382849, 0.0766342, -0.124728, -0.369825, 0.000297002, -0.000510791
25, 0.00000, 192.073, -112.598, -193.875, -110.142, 1.42167, 223.041, 1.94112E-005, -0.000444756, -0.199626, 0.226228, 0.295309, 0.059579, -0.0958608, -0.285503, 0.000177511, -0.000303393
26, 0.00000, 192.564, -112.615, -194.085, -110.542, 1.20027, 223.411, 1.62999E-005, -0.000375127, -0.169042, 0.191163, 0.24977, 0.0506778, -0.080857, -0.241624, 0.000128173, -0.000216763
27, 0.00000, 192.8, -112.618, -194.182, -110.738, 1.08885, 223.588, 1.4852E-005, -0.00034267, -0.154725, 0.174789, 0.228483, 0.0464877, -0.0738652, -0.221097, 0.000107076, -0.000179761
28, 0.00000, 192.947, -112.58, -194.213, -110.882, 0.983358, 223.683, 1.44572E-005, -0.000331387, -0.149809, 0.169072, 0.221091, 0.045097, -0.0713827, -0.214004, 0.000100139, -0.000165857
29, 0.00000, 192.938, -112.523, -194.167, -110.906, 0.936693, 223.654, 1.52188E-005, -0.000345248, -0.156067, 0.176066, 0.230259, 0.0470127, -0.0743003, -0.222902, 0.000107915, -0.000176493
30, 0.00000, 192.545, -112.515, -194.003, -110.583, 1.11916, 223.359, 1.76952E-005, -0.000399845, -0.180162, 0.203599, 0.266064, 0.0540751, -0.0860465, -0.257435, 0.000144146, -0.000238717
31, 0.00000, 191.762, -112.49, -193.671, -109.942, 1.47545, 222.77, 2.27819E-005, -0.000510734, -0.228644, 0.259264, 0.338299, 0.0681361, -0.109887, -0.327008, 0.000232178, -0.000392409
32, 0.00000, 191.512, -112.408, -193.495, -109.763, 1.5383, 222.54, 3.1903E-005, -0.000571592, -0.255314, 0.289653, 0.377863, 0.0759819, -0.12283, -0.365173, 0.000280754, -0.000461689
33, 0.00000, 192.702, -111.872, -193.488, -110.957, 0.577308, 223.141, 7.1251E-005, -0.000581432, -0.261996, 0.294388, 0.3856, 0.0794142, -0.123843, -0.373525, 0.000239086, -0.000276797
34, 0.00000, 193.576, -111.466, -193.463, -111.831, -0.130654, 223.57, 0.000104549, -0.000595349, -0.26998, 0.301205, 0.395743, 0.0829276, -0.125967, -0.384003, 0.000203404, -0.000129439
35, 0.00000, 194.817, -110.956, -193.48, -113.038, -1.07892, 224.209, 0.000148733, -0.000595445, -0.272316, 0.300933, 0.397045, 0.0851187, -0.124862, -0.38614, 0.000133569, 8.83286E-005
36, 0.00000, 195.039, -110.877, -193.496, -113.251, -1.24194, 224.332, 0.000154543, -0.000590134, -0.270239, 0.298162, 0.39366, 0.0847164, -0.12354, -0.382999, 0.000120167, 0.00012056
37, 0.00000, 194.224, -111.212, -193.477, -112.45, -0.610851, 223.905, 0.000129074, -0.000595222, -0.27113, 0.301015, 0.39636, 0.0840355, -0.125394, -0.385042, 0.000164672, -7.82828E-006
38, 0.00000, 192.753, -111.777, -193.41, -111.021, 0.497949, 223.117, 8.49883E-005, -0.000612145, -0.276006, 0.309827, 0.406025, 0.0838004, -0.130268, -0.393371, 0.000249033, -0.000256591
39, 0.00000, 191.208, -112.305, -193.283, -109.55, 1.60808, 222.263, 4.16573E-005, -0.00064435, -0.287089, 0.325895, 0.425014, 0.0853034, -0.138271, -0.410641, 0.000346551, -0.000556733
40, 0.00000, 190.822, -112.167, -193.057, -109.337, 1.63925, 221.953, 3.39015E-005, -0.000711432, -0.315903, 0.358852, 0.467666, 0.0937027, -0.152211, -0.451816, 0.000447876, -0.000738376
41, 0.00000, 189.561, -112.372, -192.702, -108.169, 2.43275, 221.098, 3.81818E-005, -0.000836173, -0.367381, 0.420461, 0.546346, 0.107303, -0.179563, -0.526699, 0.000597794, -0.00106486
42, 0.00000, 188.884, -112.335, -192.403, -107.621, 2.72912, 220.58, 4.31762E-005, -0.000937367, -0.409575, 0.470098, 0.610062, 0.118865, -0.201235, -0.587634, 0.000746848, -0.00132887
43, 0.00000, 188.623, -112.316, -192.285, -107.412, 2.84103, 220.377, 4.5327E-005, -0.000977459, -0.426212, 0.489723, 0.63522, 0.123393, -0.209823, -0.611678, 0.000814757, -0.001438
44, 0.00000, 188.471, -112.305, -192.217, -107.291, 2.90561, 220.26, 4.66717E-005, -0.00100074, -0.435845, 0.501104, 0.649796, 0.126004, -0.21481, -0.625605, 0.000858669, -0.00150274
45, 0.00000, 188.648, -112.318, -192.297, -107.432, 2.83043, 220.397, 4.52185E-005, -0.000973476, -0.424571, 0.487788, 0.632736, 0.122946, -0.208977, -0.609307, 0.000812002, -0.00142601
46, 0.00000, 189.221, -112.358, -192.556, -107.892, 2.58447, 220.841, 4.05406E-005, -0.000885842, -0.388088, 0.444813, 0.577612, 0.112984, -0.190192, -0.556602, 0.000667066, -0.00119512
47, 0.00000, 190.156, -112.418, -192.974, -108.64, 2.1866, 221.554, 3.37386E-005, -0.000744682, -0.328844, 0.375448, 0.488397, 0.0965593, -0.160032, -0.471161, 0.000479579, -0.000845893
48, 0.00000, 191.256, -112.487, -193.466, -109.521, 1.71723, 222.394, 2.59154E-005, -0.000579734, -0.258418, 0.293701, 0.382849, 0.0766342, -0.124728, -0.369825, 0.000297006, -0.000510791
49, 0.00000, 192.165, -112.543, -193.872, -110.249, 1.32847, 223.088, 1.95967E-005, -0.000444511, -0.199673, 0.22609, 0.295217, 0.0596905, -0.0957209, -0.285482, 0.00017718, -0.00029823
50, 0.00000, 192.636, -112.572, -194.082, -110.626, 1.12693, 223.448, 1.64044E-005, -0.000374949, -0.16907, 0.191072, 0.249708, 0.0507499, -0.0807653, -0.241609, 0.000127283, -0.000212826
51, 0.00000, 192.709, -112.673, -194.186, -110.632, 1.18151, 223.541, 1.46947E-005, -0.000342818, -0.154686, 0.174893, 0.228552, 0.0464007, -0.0739731, -0.221112, 0.000106812, -0.000182383
52, 0.00000, 192.785, -112.677, -194.22, -110.693, 1.14909, 223.599, 1.42031E-005, -0.000331677, -0.149745, 0.169256, 0.221215, 0.0449481, -0.0715699, -0.214032, 0.000100389, -0.000171357
53, 0.00000, 192.69, -112.671, -194.177, -110.617, 1.1899, 223.526, 1.48197E-005, -0.000345691, -0.155965, 0.176353, 0.230452, 0.0467765, -0.0745957, -0.222945, 0.000108385, -0.000184786
54, 0.00000, 192.319, -112.649, -194.012, -110.319, 1.34884, 223.242, 1.7269E-005, -0.000400292, -0.180053, 0.203899, 0.266265, 0.0538269, -0.0863563, -0.257479, 0.000144217, -0.000246809
55, 0.00000, 191.97, -112.367, -193.664, -110.184, 1.26482, 222.878, 2.32952E-005, -0.000510197, -0.228772, 0.258914, 0.338065, 0.068427, -0.109526, -0.326959, 0.000232773, -0.000382251
56, 0.00000, 191.569, -112.336, -193.48, -109.867, 1.43039, 222.569, 2.62704E-005, -0.000571527, -0.255418, 0.289532, 0.377766, 0.0761354, -0.122637, -0.365187, 0.000289672, -0.00048058
57, 0.00000, 191.843, -112.225, -193.465, -110.11, 1.2442, 222.691, 4.50862E-005, -0.000584449, -0.261684, 0.296004, 0.38662, 0.0783163, -0.125215, -0.373902, 0.000277826, -0.000418291
58, 0.00000, 192.106, -112.069, -193.426, -110.384, 1.00828, 222.801, 5.85088E-005, -0.000600581, -0.269444, 0.304045, 0.397535, 0.0810061, -0.128368, -0.384673, 0.00027632, -0.000377848
59, 0.00000, 192.486, -111.901, -193.425, -110.763, 0.705178, 222.993, 7.14829E-005, -0.00060347, -0.271513, 0.305449, 0.399888, 0.0821011, -0.128636, -0.387235, 0.00026112, -0.000314283
60, 0.00000, 192.518, -111.903, -193.439, -110.788, 0.691619, 223.018, 7.121E-005, -0.000598578, -0.269372, 0.303001, 0.396708, 0.081476, -0.127592, -0.38417, 0.000256405, -0.000307171
61, 0.00000, 192.296, -111.985, -193.425, -110.573, 0.857057, 222.897, 6.4966E-005, -0.000601973, -0.270471, 0.30474, 0.398703, 0.0815505, -0.128501, -0.385946, 0.00026837, -0.000344649
62, 0.00000, 191.805, -112.145, -193.376, -110.107, 1.2066, 222.62, 5.28966E-005, -0.000615832, -0.275684, 0.3117, 0.407199, 0.0825628, -0.131814, -0.393829, 0.000299601, -0.000434462
63, 0.00000, 191.627, -112.134, -193.297, -109.964, 1.28246, 222.484, 5.4257E-005, -0.000642571, -0.28726, 0.325024, 0.424464, 0.0858958, -0.137531, -0.41044, 0.000327196, -0.000480107
64, 0.00000, 190.365, -112.431, -193.068, -108.808, 2.0975, 221.714, 3.22376E-005, -0.000713183, -0.315524, 0.359928, 0.468394, 0.0928243, -0.153311, -0.451979, 0.000441577, -0.000773285
65, 0.00000, 189.549, -112.379, -192.703, -108.155, 2.44489, 221.091, 3.81305E-005, -0.000836147, -0.36736, 0.420481, 0.546354, 0.107275, -0.179591, -0.526692, 0.000597393, -0.00106362
66, 0.00000, 188.931, -112.308, -192.402, -107.676, 2.6816, 220.605, 4.34066E-005, -0.000937087, -0.40963, 0.469958, 0.609971, 0.118985, -0.201089, -0.587621, 0.000747797, -0.00132207
67, 0.00000, 188.623, -112.316, -192.285, -107.412, 2.84114, 220.377, 4.53251E-005, -0.00097747, -0.426212, 0.489723, 0.63522, 0.123393, -0.209823, -0.611677, 0.00081473, -0.00143841
68, 0.00000, 188.471, -112.305, -192.217, -107.291, 2.90569, 220.26, 4.66745E-005, -0.00100074, -0.435845, 0.501105, 0.649797, 0.126004, -0.214811, -0.625605, 0.000858801, -0.00150293
69, 0.00000, 188.648, -112.318, -192.297, -107.432, 2.83033, 220.397, 4.52144E-005, -0.00097347, -0.424571, 0.487787, 0.632735, 0.122946, -0.208976, -0.609307, 0.000811817, -0.00142582
70, 0.00000, 189.221, -112.358, -192.556, -107.893, 2.58443, 220.841, 4.05438E-005, -0.00088584, -0.388088, 0.444813, 0.577612, 0.112984, -0.190191, -0.556602, 0.000667173, -0.00119506
71, 0.00000, 190.156, -112.418, -192.974, -108.64, 2.18658, 221.554, 3.37404E-005, -0.000744674, -0.328844, 0.375447, 0.488396, 0.0965596, -0.160032, -0.471161, 0.000479614, -0.000845572
72, 0.00000, 191.256, -112.487, -193.466, -109.521, 1.7172, 222.394, 2.59147E-005, -0.000579727, -0.258418, 0.293701, 0.382849, 0.0766344, -0.124727, -0.369825, 0.000296961, -0.000510553
73, 0.00000, 191.942, -112.53, -193.773, -110.071, 1.42398, 222.918, 2.11322E-005, -0.000477621, -0.214137, 0.24269, 0.316759, 0.063889, -0.102826, -0.306233, 0.000203905, -0.000345476
74, 0.00000, 192.458, -112.561, -194.003, -110.484, 1.2032, 223.312, 1.76073E-005, -0.000401231, -0.180651, 0.204308, 0.266918, 0.054142, -0.0864124, -0.258206, 0.000145348, -0.000244209
75, 0.00000, 192.736, -112.578, -194.127, -110.707, 1.08393, 223.525, 1.57288E-005, -0.000360134, -0.162525, 0.183599, 0.239987, 0.0488275, -0.07758, -0.23223, 0.000117622, -0.000196315
76, 0.00000, 192.863, -112.586, -194.183, -110.809, 1.02921, 223.622, 1.48728E-005, -0.000341322, -0.154199, 0.174103, 0.227629, 0.0463775, -0.0735358, -0.220305, 0.000105832, -0.000176096
77, 0.00000, 192.865, -112.586, -194.184, -110.81, 1.02872, 223.623, 1.48642E-005, -0.000341154, -0.154127, 0.174021, 0.227522, 0.0463561, -0.0735006, -0.220201, 0.000105677, -0.000175748
78, 0.00000, 192.74, -112.578, -194.128, -110.71, 1.0823, 223.528, 1.57007E-005, -0.000359572, -0.162283, 0.183323, 0.239629, 0.0487567, -0.0774629, -0.231885, 0.000117111, -0.000195065
79, 0.00000, 192.45, -112.561, -193.999, -110.478, 1.20634, 223.306, 1.76532E-005, -0.000402312, -0.181141, 0.204868, 0.267647, 0.0542857, -0.0866518, -0.258909, 0.00014585, -0.00024431
80, 0.00000, 192.1, -112.446, -193.76, -110.233, 1.28837, 222.99, 2.75721E-005, -0.000483364, -0.216931, 0.245519, 0.320638, 0.0648919, -0.103909, -0.310085, 0.000201799, -0.000326094
81, 0.00000, 192.442, -111.9, -193.406, -110.727, 0.72489, 222.961, 7.16839E-005, -0.000609479, -0.274143, 0.308466, 0.403805, 0.082864, -0.129928, -0.391007, 0.000266709, -0.000322819
82, 0.00000, 192.665, -111.43, -193.074, -111.093, 0.274539, 222.882, 0.000110519, -0.000726283, -0.327601, 0.366892, 0.481208, 0.0998342, -0.153942, -0.46642, 0.000334742, -0.00030618
83, 0.00000, 193.639, -110.827, -192.916, -112.13, -0.629417, 223.288, 0.000158579, -0.000783181, -0.356381, 0.395508, 0.520748, 0.110419, -0.164678, -0.505827, 0.000312256, -9.97212E-005
84, 0.00000, 193.473, -110.82, -192.844, -111.995, -0.555716, 223.162, 0.000159828, -0.000807463, -0.367122, 0.407707, 0.536644, 0.113588, -0.169861, -0.521165, 0.000338402, -0.000129781
85, 0.00000, 192.796, -111.063, -192.797, -111.342, -0.0563733, 222.79, 0.000141414, -0.000822345, -0.371842, 0.415, 0.545073, 0.113989, -0.173628, -0.528703, 0.000396726, -0.000285119
86, 0.00000, 191.259, -111.634, -192.707, -109.855, 1.0893, 221.957, 9.74416E-005, -0.000847761, -0.378347, 0.42713, 0.558246, 0.113482, -0.180416, -0.539956, 0.000516953, -0.000656204
87, 0.00000, 189.141, -112.515, -192.607, -107.704, 2.7965, 220.809, 5.06991E-005, -0.000876772, -0.38419, 0.441057, 0.572582, 0.111488, -0.18902, -0.551438, 0.000627651, -0.00110693
88, 0.00000, 188.627, -112.654, -192.533, -107.224, 3.14643, 220.5, 3.9292E-005, -0.000897614, -0.391654, 0.451207, 0.584877, 0.112829, -0.19392, -0.56279, 0.000697329, -0.00124657
89, 0.00000, 188.72, -112.402, -192.387, -107.446, 2.87035, 220.481, 4.30892E-005, -0.000943943, -0.41197, 0.473461, 0.614143, 0.119241, -0.202934, -0.59135, 0.000761337, -0.00135237
90, 0.00000, 188.974, -112.148, -192.303, -107.803, 2.51555, 220.58, 4.61928E-005, -0.000968802, -0.423501, 0.485158, 0.629952, 0.123357, -0.20725, -0.607118, 0.00079949, -0.00139709
91, 0.00000, 189.496, -111.873, -192.311, -108.393, 2.01627, 220.865, 4.81117E-005, -0.000960974, -0.421795, 0.480985, 0.625534, 0.123995, -0.204533, -0.603645, 0.000793909, -0.00133514
92, 0.00000, 188.731, -112.324, -192.334, -107.498, 2.79474, 220.461, 4.44443E-005, -0.000960802, -0.419312, 0.481579, 0.624782, 0.121517, -0.206258, -0.601705, 0.000786749, -0.00139181
93, 0.00000, 188.983, -112.342, -192.448, -107.701, 2.68667, 220.657, 4.23842E-005, -0.000922014, -0.403221, 0.462617, 0.600466, 0.117129, -0.197967, -0.578461, 0.000722336, -0.00128498
94, 0.00000, 189.478, -112.375, -192.671, -108.098, 2.47503, 221.037, 3.86286E-005, -0.000846959, -0.37183, 0.425725, 0.553091, 0.108508, -0.181873, -0.533137, 0.000611679, -0.00109596
95, 0.00000, 190.188, -112.42, -192.989, -108.666, 2.1728, 221.579, 3.35109E-005, -0.000739806, -0.326782, 0.373043, 0.485298, 0.0959821, -0.15899, -0.46819, 0.000473807, -0.000834762
96, 0.00000, 191.047, -112.474, -193.373, -109.354, 1.80664, 222.234, 2.73916E-005, -0.000611011, -0.271879, 0.309267, 0.40298, 0.0804757, -0.13143, -0.389175, 0.00032864, -0.000567697
97, 0.00000, 191.868, -112.525, -193.739, -110.011, 1.45582, 222.861, 2.16433E-005, -0.000488648, -0.218959, 0.24823, 0.323946, 0.0652851, -0.1052, -0.313154, 0.000212988, -0.000360544
98, 0.00000, 192.406, -112.558, -193.98, -110.443, 1.22523, 223.273, 1.7957E-005, -0.000408845, -0.184004, 0.208143, 0.271903, 0.0551222, -0.08805, -0.263012, 0.000150754, -0.00025332
99, 0.00000, 192.717, -112.577, -194.118, -110.691, 1.09219, 223.51, 1.58587E-005, -0.000362979, -0.163782, 0.185033, 0.241854, 0.0491969, -0.0781914, -0.234031, 0.000119468, -0.000199494
100, 0.00000, 192.871, -112.586, -194.187, -110.815, 1.02606, 223.628, 1.48241E-005, -0.00034024, -0.153719, 0.173556, 0.226916, 0.046236, -0.0733026, -0.219617, 0.000105193, -0.000175024
101, 0.00000, 192.918, -112.589, -194.208, -110.853, 1.00595, 223.664, 1.45159E-005, -0.00033332, -0.150644, 0.170052, 0.222354, 0.0453297, -0.071811, -0.215213, 0.000101286, -0.000168457
102, 0.00000, 192.841, -112.584, -194.174, -110.792, 1.03853, 223.606, 1.50071E-005, -0.00034455, -0.155645, 0.175752, 0.229777, 0.0468037, -0.0742384, -0.222378, 0.000107219, -0.000178069
103, 0.00000, 192.591, -112.569, -194.062, -110.591, 1.14603, 223.414, 1.67014E-005, -0.000381513, -0.171976, 0.19439, 0.254025, 0.0516021, -0.0821809, -0.245773, 0.000131501, -0.000219637
104, 0.00000, 192.354, -112.462, -193.874, -110.437, 1.1797, 223.185, 2.57674E-005, -0.000445495, -0.200338, 0.226504, 0.295945, 0.0600612, -0.0957787, -0.286291, 0.000171632, -0.000275104
105, 0.00000, 192.744, -111.921, -193.543, -110.968, 0.597576, 223.193, 6.91357E-005, -0.000563566, -0.253993, 0.285449, 0.373879, 0.0769694, -0.120111, -0.362158, 0.000224425, -0.000260556
106, 0.00000, 192.903, -111.448, -193.184, -111.282, 0.175425, 223.067, 0.00010818, -0.0006892, -0.311328, 0.348343, 0.457075, 0.0950616, -0.146043, -0.443151, 0.00029569, -0.000254109
