hour, t(sec), V1.re, V1.im, V2.re, V2.im, V3.re, V3.im, V4.re, V4.im, I1.re, I1.im, I2.re, I2.im, I3.re, I3.im, I4.re, I4.im
1, 0.00000, 192.514, -112.615, -194.05, -110.498, 1.22937, 223.362, 0.00275618, -0.00790135, -0.809242, 0.915318, 1.1959, 0.242473, -0.387257, -1.15675, 0.000597591, -0.00103843
2, 0.00000, 192.953, -112.617, -194.23, -110.864, 1.01829, 223.691, 0.00233684, -0.00667573, -0.685343, 0.773649, 1.01167, 0.206205, -0.326756, -0.979119, 0.00042889, -0.000734566
3, 0.00000, 193.159, -112.618, -194.314, -111.037, 0.918485, 223.845, 0.00214028, -0.00610448, -0.627365, 0.707544, 0.925591, 0.189127, -0.298588, -0.896052, 0.000362734, -0.000619097
4, 0.00000, 193.254, -112.602, -194.341, -111.125, 0.858443, 223.91, 0.00207275, -0.00590635, -0.607371, 0.684617, 0.895797, 0.183304, -0.288764, -0.867348, 0.000337601, -0.00057243
5, 0.00000, 193.175, -112.595, -194.304, -111.062, 0.891069, 223.848, 0.00215843, -0.00615367, -0.632577, 0.713247, 0.933133, 0.190786, -0.300919, -0.903418, 0.00036329, -0.000615086
6, 0.00000, 192.879, -112.561, -194.158, -110.833, 1.00428, 223.614, 0.00249036, -0.00711375, -0.730242, 0.824252, 1.07782, 0.21973, -0.348059, -1.04317, 0.000479201, -0.000812718
7, 0.00000, 192.256, -112.509, -193.866, -110.341, 1.25982, 223.129, 0.00315685, -0.00905782, -0.926797, 1.04864, 1.36971, 0.277414, -0.443694, -1.32471, 0.000782513, -0.00134371
8, 0.00000, 191.78, -112.605, -193.73, -109.872, 1.59344, 222.798, 0.00405509, -0.00990491, -0.90119, 1.0954, 1.39726, 0.231793, -0.496876, -1.32569, 0.000801568, -0.00150505
9, 0.00000, 193.502, -111.805, -193.687, -111.599, 0.192936, 223.651, 0.00915378, -0.00790695, 0.300642, 0.401101, 0.1967, -0.460879, -0.497228, 0.0600084, -0.000113472, -0.00023099
10, 0.00000, 194.186, -111.446, -193.633, -112.301, -0.393378, 223.971, 0.0114808, -0.00720368, 0.818582, 0.119576, -0.306298, -0.7686, -0.512117, 0.649237, -0.000167108, -0.000212629
11, 0.00000, 197.12, -110.065, -193.546, -115.251, -2.79689, 225.431, 0.0199988, -0.00336111, 2.94034, -1.05721, -2.39252, -2.01986, -0.549698, 3.08006, 0.00188456, -0.00299041
12, 0.00000, 197.284, -110, -193.553, -115.412, -2.92274, 225.519, 0.0203637, -0.00309248, 3.04955, -1.12081, -2.50277, -2.08287, -0.548879, 3.20694, 0.00210402, -0.0032498
13, 0.00000, 196.171, -110.521, -193.583, -114.294, -2.01243, 224.963, 0.0171937, -0.00462297, 2.23889, -0.67597, -1.70866, -1.60187, -0.531045, 2.27943, 0.000813464, -0.00158735
14, 0.00000, 193.462, -111.732, -193.605, -111.593, 0.160529, 223.584, 0.00978794, -0.00826471, 0.35242, 0.401808, 0.171389, -0.506058, -0.523673, 0.104494, -0.000135597, -0.000243089
15, 0.00000, 191.906, -112.348, -193.543, -110.071, 1.35011, 222.753, 0.00610031, -0.0104658, -0.637209, 1.00868, 1.19062, 0.0467908, -0.553952, -1.05425, 0.000543409, -0.00121876
16, 0.00000, 190.695, -112.688, -193.367, -108.936, 2.17668, 222.035, 0.00432516, -0.0125995, -1.27723, 1.45758, 1.89729, 0.37558, -0.621535, -1.83042, 0.00147766, -0.00273914
17, 0.00000, 189.933, -112.68, -193.051, -108.304, 2.53806, 221.466, 0.00502236, -0.0147266, -1.48656, 1.70235, 2.21259, 0.43386, -0.72802, -2.13243, 0.00199367, -0.003782
18, 0.00000, 189.313, -112.671, -192.792, -107.787, 2.83366, 220.998, 0.00558732, -0.0164689, -1.65688, 1.90273, 2.47005, 0.480567, -0.815661, -2.37859, 0.0024878, -0.00470794
19, 0.00000, 189.069, -112.667, -192.69, -107.584, 2.95044, 220.812, 0.00581005, -0.0171582, -1.724, 1.98202, 2.57175, 0.498798, -0.850468, -2.47573, 0.0027195, -0.00508412
20, 0.00000, 188.928, -112.664, -192.631, -107.467, 3.01756, 220.705, 0.0059392, -0.0175579, -1.76284, 2.02796, 2.63064, 0.509308, -0.870664, -2.53196, 0.0028686, -0.00531107
21, 0.00000, 189.138, -112.639, -192.697, -107.658, 2.8915, 220.854, 0.00579146, -0.017086, -1.7176, 1.9736, 2.56132, 0.497498, -0.846417, -2.46608, 0.00270463, -0.00501915
22, 0.00000, 189.628, -112.676, -192.924, -108.05, 2.68314, 221.237, 0.00529987, -0.015581, -1.57019, 1.80062, 2.33892, 0.456869, -0.770948, -2.25326, 0.00222299, -0.00423366
23, 0.00000, 190.5, -112.686, -193.286, -108.774, 2.26947, 221.889, 0.00450461, -0.0131445, -1.33103, 1.52032, 1.9782, 0.390648, -0.648775, -1.90798, 0.00160118, -0.00299124
24, 0.00000, 191.527, -112.697, -193.711, -109.627, 1.78136, 222.658, 0.00355224, -0.0102764, -1.04647, 1.18975, 1.55118, 0.310219, -0.505709, -1.49816, 0.000996921, -0.00180961
25, 0.00000, 192.287, -112.761, -194.068, -110.228, 1.47003, 223.249, 0.00274975, -0.00791047, -0.808688, 0.916681, 1.19679, 0.241294, -0.388697, -1.1569, 0.000597102, -0.0010738
26, 0.00000, 192.745, -112.753, -194.247, -110.615, 1.24096, 223.587, 0.00233211, -0.00668322, -0.684931, 0.774724, 1.01238, 0.205294, -0.327879, -0.979251, 0.000431974, -0.00076748
27, 0.00000, 192.966, -112.744, -194.331, -110.804, 1.12603, 223.749, 0.00213617, -0.00611018, -0.626981, 0.708425, 0.926156, 0.188342, -0.299536, -0.896131, 0.000361143, -0.000636251
28, 0.00000, 193.104, -112.7, -194.354, -110.944, 1.0198, 223.835, 0.00206972, -0.00591078, -0.607089, 0.685286, 0.896229, 0.182715, -0.289478, -0.867413, 0.000338088, -0.000587384
29, 0.00000, 193.096, -112.647, -194.31, -110.968, 0.975315, 223.809, 0.00215678, -0.0061563, -0.632435, 0.713627, 0.933385, 0.190468, -0.301315, -0.903469, 0.000364263, -0.000625187
30, 0.00000, 192.73, -112.658, -194.171, -110.655, 1.16369, 223.54, 0.0024868, -0.00712011, -0.729957, 0.825113, 1.0784, 0.219038, -0.348933, -1.04331, 0.000486092, -0.000845734
31, 0.00000, 192, -112.674, -193.886, -110.035, 1.53214, 223.001, 0.00314835, -0.00906969, -0.926088, 1.05043, 1.37088, 0.275886, -0.445569, -1.32492, 0.000780738, -0.00138983
32, 0.00000, 191.771, -112.611, -193.73, -109.862, 1.60275, 222.793, 0.00404751, -0.00990816, -0.902937, 1.09649, 1.39909, 0.232754, -0.496953, -1.32775, 0.000802526, -0.00150275
33, 0.00000, 192.916, -112.058, -193.689, -111.024, 0.650885, 223.354, 0.00740806, -0.00869137, -0.128913, 0.651426, 0.628023, -0.214256, -0.499196, -0.436683, 8.57787E-005, -0.000486675
34, 0.00000, 193.759, -111.639, -193.639, -111.874, -0.0490416, 223.755, 0.0102806, -0.00774922, 0.521514, 0.290185, -0.00983217, -0.596646, -0.511516, 0.306656, -0.000165188, -0.000195165
35, 0.00000, 194.951, -111.109, -193.619, -113.047, -0.98855, 224.351, 0.0140795, -0.00611388, 1.45075, -0.235632, -0.930971, -1.13868, -0.519829, 1.37488, 4.86235E-005, -0.000559309
36, 0.00000, 195.163, -111.025, -193.627, -113.254, -1.15076, 224.464, 0.0145671, -0.00579182, 1.58884, -0.317929, -1.0716, -1.21722, -0.517382, 1.53584, 0.000144589, -0.000691462
37, 0.00000, 194.382, -111.375, -193.634, -112.476, -0.524811, 224.068, 0.012399, -0.00683752, 1.03965, -0.00484525, -0.524838, -0.897872, -0.51468, 0.903002, -0.000129917, -0.000284913
38, 0.00000, 192.973, -111.969, -193.616, -111.087, 0.576515, 223.336, 0.00865649, -0.0087818, 0.0745678, 0.56359, 0.450322, -0.346447, -0.524862, -0.216759, -2.74154E-005, -0.000383811
39, 0.00000, 191.493, -112.531, -193.543, -109.657, 1.68181, 222.542, 0.00500796, -0.0109564, -0.902575, 1.16739, 1.46009, 0.196903, -0.558375, -1.3626, 0.000861897, -0.00169321
40, 0.00000, 191.13, -112.414, -193.338, -109.452, 1.7211, 222.254, 0.00434636, -0.0125719, -1.27888, 1.45341, 1.89455, 0.379138, -0.617168, -1.82993, 0.00150624, -0.00262087
41, 0.00000, 189.945, -112.672, -193.05, -108.318, 2.52591, 221.472, 0.00502308, -0.0147257, -1.48663, 1.70224, 2.21253, 0.433974, -0.727895, -2.13244, 0.00199381, -0.00377304
42, 0.00000, 189.313, -112.671, -192.792, -107.787, 2.83372, 220.998, 0.00558739, -0.0164689, -1.65688, 1.90275, 2.47007, 0.480559, -0.815679, -2.37861, 0.00248852, -0.00470196
43, 0.00000, 189.069, -112.666, -192.69, -107.584, 2.95021, 220.812, 0.00580999, -0.0171581, -1.72399, 1.982, 2.57174, 0.498795, -0.850463, -2.47571, 0.00271744, -0.00508435
44, 0.00000, 188.928, -112.664, -192.631, -107.467, 3.01745, 220.705, 0.00593914, -0.0175578, -1.76284, 2.02796, 2.63063, 0.509306, -0.870661, -2.53195, 0.00286684, -0.00531035
45, 0.00000, 189.093, -112.667, -192.7, -107.604, 2.93916, 220.83, 0.00578854, -0.01709, -1.71737, 1.97419, 2.5617, 0.496993, -0.847036, -2.46614, 0.00270956, -0.00504096
46, 0.00000, 189.628, -112.676, -192.924, -108.05, 2.68319, 221.237, 0.00529985, -0.015581, -1.57019, 1.80062, 2.33892, 0.456869, -0.770949, -2.25326, 0.00222251, -0.00423346
47, 0.00000, 190.5, -112.686, -193.286, -108.774, 2.26933, 221.889, 0.00450463, -0.0131447, -1.33103, 1.52032, 1.9782, 0.390648, -0.648769, -1.90797, 0.00160318, -0.00299773
48, 0.00000, 191.527, -112.697, -193.711, -109.627, 1.78136, 222.658, 0.00355224, -0.0102764, -1.04647, 1.18975, 1.55118, 0.310219, -0.505709, -1.49816, 0.000996936, -0.00180961
49, 0.00000, 192.375, -112.705, -194.061, -110.332, 1.37744, 223.292, 0.0027522, -0.00790674, -0.808894, 0.916148, 1.19644, 0.241746, -0.388141, -1.15684, 0.000596455, -0.00105577
50, 0.00000, 192.813, -112.708, -194.242, -110.696, 1.16812, 223.621, 0.00233356, -0.00668062, -0.685058, 0.774371, 1.01214, 0.205587, -0.327515, -0.979204, 0.000429106, -0.000753578
51, 0.00000, 192.879, -112.8, -194.338, -110.701, 1.21805, 223.706, 0.00213428, -0.00611282, -0.626813, 0.708829, 0.926418, 0.187989, -0.299965, -0.896173, 0.00035986, -0.000644952
52, 0.00000, 192.95, -112.801, -194.367, -110.76, 1.18438, 223.759, 0.00206658, -0.00591563, -0.606813, 0.685996, 0.896696, 0.182112, -0.290222, -0.867501, 0.000338124, -0.000605887
53, 0.00000, 192.861, -112.8, -194.33, -110.686, 1.22676, 223.692, 0.00215179, -0.00616382, -0.63199, 0.71474, 0.934114, 0.18951, -0.302489, -0.903597, 0.000365055, -0.000653192
54, 0.00000, 192.516, -112.797, -194.188, -110.399, 1.39182, 223.433, 0.0024814, -0.00712782, -0.729486, 0.826277, 1.07916, 0.218032, -0.350164, -1.04344, 0.000485228, -0.000872602
55, 0.00000, 192.197, -112.547, -193.871, -110.27, 1.32287, 223.1, 0.00315503, -0.00906078, -0.926648, 1.04907, 1.37, 0.277065, -0.444133, -1.32478, 0.000785311, -0.00135673
56, 0.00000, 191.823, -112.537, -193.712, -109.963, 1.49537, 222.817, 0.00351849, -0.0101346, -1.0344, 1.17297, 1.5307, 0.308209, -0.497278, -1.47947, 0.000974821, -0.0017044
57, 0.00000, 192.092, -112.425, -193.692, -110.2, 1.3127, 222.935, 0.00518658, -0.00968796, -0.671816, 0.972187, 1.17639, 0.0950262, -0.505125, -1.06607, 0.000547445, -0.00114343
58, 0.00000, 192.348, -112.269, -193.649, -110.468, 1.08091, 223.039, 0.00636213, -0.00951697, -0.441178, 0.852479, 0.95781, -0.0446285, -0.51696, -0.806996, 0.000328544, -0.000854595
59, 0.00000, 192.713, -112.095, -193.636, -110.836, 0.780706, 223.219, 0.00747181, -0.00910731, -0.183953, 0.705051, 0.701881, -0.193456, -0.518052, -0.511021, 0.00012475, -0.000574636
60, 0.00000, 192.743, -112.096, -193.649, -110.861, 0.766602, 223.241, 0.00744081, -0.00902212, -0.17565, 0.695433, 0.689419, -0.195829, -0.513887, -0.499046, 0.000117968, -0.000558447
61, 0.00000, 192.53, -112.182, -193.643, -110.651, 0.931124, 223.129, 0.00691516, -0.00931272, -0.313059, 0.778911, 0.830237, -0.118682, -0.517399, -0.659527, 0.000220641, -0.000701862
62, 0.00000, 192.062, -112.354, -193.611, -110.198, 1.27968, 222.872, 0.00591147, -0.0100121, -0.597821, 0.959436, 1.12843, 0.0373715, -0.531099, -0.99571, 0.000487068, -0.00109732
63, 0.00000, 191.896, -112.352, -193.543, -110.06, 1.35852, 222.748, 0.00607129, -0.0104788, -0.644275, 1.01288, 1.19778, 0.0507985, -0.554055, -1.06245, 0.000551245, -0.00123052
64, 0.00000, 190.695, -112.688, -193.367, -108.936, 2.17668, 222.035, 0.00432516, -0.0125996, -1.27723, 1.45758, 1.89729, 0.37558, -0.621535, -1.83042, 0.00147783, -0.0027399
65, 0.00000, 189.933, -112.68, -193.051, -108.304, 2.53797, 221.466, 0.00502249, -0.014726, -1.48655, 1.70232, 2.21256, 0.433868, -0.728004, -2.13242, 0.00199593, -0.00377087
66, 0.00000, 189.358, -112.643, -192.789, -107.84, 2.78644, 221.021, 0.00559051, -0.0164651, -1.65712, 1.90221, 2.46973, 0.481046, -0.815099, -2.37858, 0.00249208, -0.00467752
67, 0.00000, 189.069, -112.666, -192.69, -107.584, 2.95032, 220.812, 0.00580995, -0.0171581, -1.72399, 1.982, 2.57174, 0.498793, -0.850464, -2.47571, 0.00271723, -0.00508594
68, 0.00000, 188.928, -112.664, -192.631, -107.467, 3.01753, 220.705, 0.00593915, -0.0175579, -1.76284, 2.02796, 2.63063, 0.509305, -0.870664, -2.53195, 0.00286726, -0.00531101
69, 0.00000, 189.093, -112.667, -192.7, -107.604, 2.93906, 220.83, 0.00578853, -0.01709, -1.71737, 1.97418, 2.56169, 0.496994, -0.847033, -2.46614, 0.00270891, -0.00504031
70, 0.00000, 189.628, -112.676, -192.924, -108.05, 2.68315, 221.237, 0.00529987, -0.015581, -1.57019, 1.80062, 2.33892, 0.456869, -0.770948, -2.25326, 0.00222297, -0.00423324
71, 0.00000, 190.5, -112.686, -193.286, -108.774, 2.26931, 221.889, 0.00450464, -0.0131446, -1.33103, 1.52032, 1.9782, 0.390649, -0.648769, -1.90797, 0.0016033, -0.00299642
72, 0.00000, 191.527, -112.697, -193.711, -109.627, 1.78134, 222.658, 0.00355223, -0.0102763, -1.04647, 1.18975, 1.55118, 0.310219, -0.505708, -1.49816, 0.000996728, -0.00180864
73, 0.00000, 192.167, -112.703, -193.975, -110.159, 1.47666, 223.137, 0.00294962, -0.00848835, -0.867406, 0.983337, 1.28366, 0.258719, -0.416942, -1.24083, 0.000686005, -0.00122351
74, 0.00000, 192.647, -112.707, -194.174, -110.559, 1.24732, 223.497, 0.00249212, -0.0071441, -0.731926, 0.827965, 1.08184, 0.219308, -0.350408, -1.04641, 0.000489717, -0.000864927
75, 0.00000, 192.907, -112.709, -194.28, -110.774, 1.12346, 223.691, 0.00224386, -0.00641902, -0.658562, 0.744111, 0.972767, 0.197809, -0.314602, -0.941225, 0.000396675, -0.000695113
76, 0.00000, 193.025, -112.71, -194.329, -110.873, 1.06664, 223.78, 0.00212969, -0.00608662, -0.624861, 0.705657, 0.922709, 0.187897, -0.298206, -0.89293, 0.000357058, -0.000623417
77, 0.00000, 193.027, -112.71, -194.33, -110.874, 1.06613, 223.781, 0.0021287, -0.0060837, -0.624567, 0.705322, 0.922274, 0.18781, -0.298063, -0.89251, 0.000356531, -0.000622126
78, 0.00000, 192.91, -112.709, -194.282, -110.777, 1.12177, 223.694, 0.00224056, -0.0064093, -0.657586, 0.742996, 0.971318, 0.197523, -0.314127, -0.939829, 0.000394955, -0.000690466
79, 0.00000, 192.64, -112.707, -194.171, -110.553, 1.25059, 223.492, 0.00249884, -0.00716355, -0.73391, 0.830233, 1.0848, 0.219889, -0.351378, -1.04926, 0.000491444, -0.000864885
80, 0.00000, 192.319, -112.618, -193.959, -110.317, 1.34291, 223.205, 0.00351152, -0.00836662, -0.750706, 0.919865, 1.1706, 0.189519, -0.42046, -1.10834, 0.000563512, -0.00104757
81, 0.00000, 192.673, -112.096, -193.621, -110.802, 0.801065, 223.189, 0.00749934, -0.00921678, -0.196752, 0.718403, 0.719817, -0.189061, -0.523201, -0.528746, 0.000134846, -0.00059556
82, 0.00000, 192.909, -111.65, -193.306, -111.16, 0.370246, 223.127, 0.0109736, -0.0100996, 0.261138, 0.567679, 0.360488, -0.509988, -0.621493, -0.0572725, -0.000132776, -0.000418193
83, 0.00000, 193.856, -111.045, -193.13, -112.17, -0.518091, 223.51, 0.0151245, -0.00949073, 1.07514, 0.160277, -0.39974, -1.01106, -0.675111, 0.851153, -0.000288854, -0.000365564
84, 0.00000, 193.7, -111.046, -193.068, -112.04, -0.44179, 223.395, 0.0152593, -0.00992576, 1.02757, 0.210861, -0.332112, -0.995142, -0.69514, 0.784644, -0.00031544, -0.00036343
85, 0.00000, 193.053, -111.305, -193.045, -111.406, 0.0551045, 223.05, 0.0137107, -0.0108781, 0.607121, 0.46344, 0.0971005, -0.757359, -0.70393, 0.29431, -0.000291656, -0.000391261
86, 0.00000, 191.582, -111.908, -193.006, -109.96, 1.1945, 222.276, 0.0100217, -0.0129179, -0.350863, 1.04039, 1.07492, -0.216901, -0.724386, -0.822224, 0.000328473, -0.00126364
87, 0.00000, 189.554, -112.833, -192.98, -107.866, 2.89335, 221.212, 0.00629253, -0.0149889, -1.29678, 1.63202, 2.05735, 0.304897, -0.762241, -1.93342, 0.00166884, -0.00349126
88, 0.00000, 189.064, -112.986, -192.925, -107.399, 3.24362, 220.924, 0.00532615, -0.0157881, -1.58441, 1.82619, 2.368, 0.456218, -0.785921, -2.27801, 0.00232713, -0.00439347
89, 0.00000, 189.158, -112.743, -192.783, -107.616, 2.97503, 220.908, 0.00561431, -0.0165827, -1.6665, 1.91627, 2.48649, 0.482067, -0.822531, -2.39356, 0.0025385, -0.00477966
90, 0.00000, 189.403, -112.489, -192.693, -107.965, 2.6254, 220.998, 0.00578792, -0.0170083, -1.71317, 1.96373, 2.55062, 0.498667, -0.840124, -2.45745, 0.00266821, -0.00495167
91, 0.00000, 189.898, -112.202, -192.681, -108.54, 2.12803, 221.259, 0.00578807, -0.0168765, -1.70646, 1.94713, 2.53304, 0.501265, -0.829243, -2.44366, 0.00265828, -0.00474148
92, 0.00000, 189.17, -112.668, -192.732, -107.668, 2.90202, 220.889, 0.00571777, -0.016872, -1.69616, 1.94912, 2.52956, 0.491241, -0.836023, -2.43544, 0.00262297, -0.00492212
93, 0.00000, 189.406, -112.673, -192.831, -107.864, 2.78953, 221.068, 0.00550248, -0.0162057, -1.63125, 1.87254, 2.43129, 0.473569, -0.802442, -2.34156, 0.00240629, -0.00454646
94, 0.00000, 189.867, -112.679, -193.023, -108.249, 2.56932, 221.417, 0.00508208, -0.0149107, -1.50458, 1.72351, 2.23979, 0.438829, -0.73725, -2.15845, 0.00203925, -0.00388427
95, 0.00000, 190.53, -112.686, -193.298, -108.799, 2.25497, 221.912, 0.00447688, -0.0130602, -1.3227, 1.5106, 1.96566, 0.388319, -0.644546, -1.89596, 0.0015842, -0.00295826
96, 0.00000, 191.332, -112.695, -193.63, -109.465, 1.8743, 222.511, 0.00373486, -0.0108222, -1.10088, 1.25271, 1.63265, 0.325733, -0.532872, -1.57643, 0.00110231, -0.0020113
97, 0.00000, 192.097, -112.702, -193.946, -110.101, 1.50974, 223.085, 0.00301538, -0.0086823, -0.88691, 1.00576, 1.31276, 0.264362, -0.426565, -1.26884, 0.000716312, -0.00127645
98, 0.00000, 192.599, -112.707, -194.154, -110.519, 1.27021, 223.461, 0.00253801, -0.00727837, -0.745494, 0.843494, 1.10203, 0.223272, -0.357046, -1.06587, 0.000507983, -0.000897182
99, 0.00000, 192.889, -112.709, -194.273, -110.759, 1.13204, 223.678, 0.0022611, -0.00646925, -0.663651, 0.749921, 0.980328, 0.199304, -0.31708, -0.948519, 0.000402878, -0.000706395
100, 0.00000, 193.032, -112.71, -194.332, -110.879, 1.06337, 223.785, 0.0021231, -0.00606746, -0.622916, 0.703439, 0.919821, 0.187324, -0.29726, -0.890143, 0.000354911, -0.000619637
101, 0.00000, 193.076, -112.711, -194.35, -110.915, 1.04249, 223.818, 0.00208093, -0.0059449, -0.61047, 0.689249, 0.901341, 0.183657, -0.291213, -0.872309, 0.00034172, -0.000596426
102, 0.00000, 193.005, -112.71, -194.321, -110.856, 1.07633, 223.765, 0.00214952, -0.00614414, -0.630717, 0.712336, 0.93141, 0.189621, -0.301055, -0.901327, 0.000361809, -0.000630136
103, 0.00000, 192.772, -112.708, -194.225, -110.662, 1.18795, 223.59, 0.00237337, -0.00679672, -0.696817, 0.787811, 1.02963, 0.209034, -0.333254, -0.996067, 0.000443277, -0.000777481
104, 0.00000, 192.556, -112.621, -194.057, -110.514, 1.23, 223.383, 0.00328237, -0.00770147, -0.684098, 0.843292, 1.07121, 0.170231, -0.387583, -1.01265, 0.00047229, -0.000876818
105, 0.00000, 192.954, -112.101, -193.739, -111.034, 0.66863, 223.401, 0.00720644, -0.00841623, -0.118836, 0.628075, 0.602801, -0.211295, -0.484042, -0.416325, 7.62959E-005, -0.000454877
106, 0.00000, 193.13, -111.656, -193.4, -111.343, 0.267001, 223.295, 0.0107251, -0.00945854, 0.321457, 0.49679, 0.269014, -0.526749, -0.590322, 0.0302997, -0.00014832, -0.00034069
107, 0.00000, 195.475, -110.464, -193.192, -113.667, -1.65032, 224.36, 0.0206978, -0.00655609, 2.53218, -0.679144, -1.85906, -1.85421, -0.673866, 2.53521, 0.000744884, -0.00185519
108, 0.00000, 198.496, -108.928, -192.999, -116.745, -4.20714, 225.81, 0.0302675, -0.00264282, 4.85707, -1.89534, -4.08878, -3.26495, -0.774098, 5.1686, 0.00581316, -0.00831355
109, 0.00000, 198.213, -109.005, -192.957, -116.483, -4.01701, 225.639, 0.0298799, -0.00324298, 4.68589, -1.78663, -3.90765, -3.17042, -0.783458, 4.96468, 0.0052174, -0.0076248
110, 0.00000, 192.576, -111.485, -193.018, -110.941, 0.415186, 222.79, 0.0126852, -0.0115983, 0.315599, 0.644164, 0.399317, -0.595385, -0.71473, -0.0482337, -0.000185559, -0.000545355
111, 0.00000, 190.975, -112.167, -193.016, -109.377, 1.65494, 221.979, 0.00778413, -0.0137506, -0.867603, 1.33903, 1.59069, 0.0806048, -0.724077, -1.41746, 0.00098725, -0.00217255
