hour, t(sec), P1 (kW), Q1 (kvar), P2 (kW), Q2 (kvar), P3 (kW), Q3 (kvar), P4 (kW), Q4 (kvar)
1, 0.00000, -0.00984838, -0.0256756, -0.00984984, -0.0256847, -0.00985469, -0.0256873, 1.25932E-011, -4.24037E-012
2, 0.00000, 0.00373498, -0.0217817, 0.00373494, -0.0217812, 0.00373523, -0.021781, 1.26766E-011, -1.92701E-012
3, 0.00000, 0.0110152, -0.0199188, 0.0110166, -0.0199215, 0.0110123, -0.0199246, 7.38609E-012, 1.77563E-012
4, 0.00000, 0.0312699, -0.019291, 0.031271, -0.0192931, 0.0312684, -0.0192951, 1.87808E-011, 2.97805E-012
5, 0.00000, 0.0354867, -0.0201132, 0.0354863, -0.0201126, 0.0354876, -0.0201116, 2.691E-011, -1.33225E-012
6, 0.00000, 0.0610601, -0.0232175, 0.0610594, -0.0232156, 0.0610645, -0.0232125, 7.20474E-011, -1.13239E-011
7, 0.00000, 0.09387, -0.0294029, 0.0938703, -0.0294036, 0.0938704, -0.0294037, 2.01174E-010, -1.5237E-011
8, 0.00000, -0.113641, -0.0327907, -0.113623, -0.0327903, -0.113625, -0.0327993, 3.70494E-010, -1.8798E-010
9, 0.00000, 0.0136562, -0.0335963, 0.0136581, -0.0335963, 0.0136578, -0.0335975, 7.58555E-012, -1.25321E-011
10, 0.00000, 0.0709728, -0.0345657, 0.0709764, -0.0345645, 0.0709767, -0.0345673, -1.48932E-011, -4.95011E-011
11, 0.00000, 0.304741, -0.0347794, 0.304747, -0.03478, 0.304744, -0.0347877, -2.29638E-009, -5.58269E-010
12, 0.00000, 0.316674, -0.0345396, 0.316676, -0.0345418, 0.316677, -0.0345403, -2.54516E-009, -6.31837E-010
13, 0.00000, 0.227361, -0.0346976, 0.227359, -0.034697, 0.22736, -0.0346956, -9.41965E-010, -3.79895E-010
14, 0.00000, 0.0200714, -0.0353776, 0.0200688, -0.0353778, 0.0200691, -0.035376, 1.44789E-011, -1.42263E-011
15, 0.00000, -0.0879451, -0.036849, -0.0879451, -0.0368492, -0.087945, -0.0368491, 1.9646E-010, -1.07661E-010
16, 0.00000, -0.15652, -0.040489, -0.15652, -0.0404898, -0.15652, -0.0404893, 9.42981E-010, -3.45063E-010
17, 0.00000, -0.176562, -0.0470764, -0.176562, -0.0470774, -0.176561, -0.0470767, 1.47192E-009, -5.25128E-010
18, 0.00000, -0.192835, -0.0524243, -0.192835, -0.0524251, -0.192834, -0.0524246, 2.01983E-009, -7.16856E-010
19, 0.00000, -0.199243, -0.0545308, -0.199243, -0.0545322, -0.199242, -0.054531, 2.26925E-009, -8.10563E-010
20, 0.00000, -0.202948, -0.0557487, -0.202948, -0.0557501, -0.202947, -0.055749, 2.42413E-009, -8.71017E-010
21, 0.00000, -0.166986, -0.0543155, -0.166968, -0.0543091, -0.16697, -0.0543147, 1.67762E-009, -6.70561E-010
22, 0.00000, -0.184558, -0.0497045, -0.184557, -0.0497055, -0.184557, -0.0497047, 1.7299E-009, -6.13097E-010
23, 0.00000, -0.161693, -0.0421735, -0.161684, -0.0421724, -0.161685, -0.0421763, 1.08352E-009, -4.13885E-010
24, 0.00000, -0.134386, -0.0332061, -0.13438, -0.0332067, -0.134379, -0.0332094, 5.50031E-010, -2.16368E-010
25, 0.00000, -0.174868, -0.0256984, -0.174864, -0.0256992, -0.174864, -0.0257005, 6.88435E-010, -2.24732E-010
26, 0.00000, -0.149627, -0.0217622, -0.149615, -0.021761, -0.149612, -0.0217679, 4.44422E-010, -1.59377E-010
27, 0.00000, -0.132353, -0.0199333, -0.132348, -0.0199329, -0.132346, -0.0199362, 3.02244E-010, -1.07295E-010
28, 0.00000, -0.0804181, -0.0192996, -0.0804139, -0.0192994, -0.080413, -0.0193023, 1.06565E-010, -4.76371E-011
29, 0.00000, -0.0228435, -0.0201094, -0.0228418, -0.0201069, -0.0228406, -0.0201074, 1.86102E-011, -9.84104E-012
30, 0.00000, -0.048909, -0.0231952, -0.0489088, -0.0231959, -0.0489093, -0.0231962, 5.3288E-011, -2.7027E-011
31, 0.00000, -0.0927925, -0.0294075, -0.0927949, -0.0294075, -0.0927949, -0.0294059, 2.25139E-010, -8.98952E-011
32, 0.00000, -0.118809, -0.0328059, -0.11881, -0.0328063, -0.118809, -0.0328061, 3.80585E-010, -1.56815E-010
33, 0.00000, -0.00185061, -0.0335946, -0.00184751, -0.0335947, -0.00184761, -0.0335967, 1.51336E-011, -1.42394E-011
34, 0.00000, 0.0383233, -0.0345705, 0.0383234, -0.0345706, 0.0383233, -0.0345705, 9.48082E-012, -2.20423E-011
35, 0.00000, 0.0489118, -0.0348128, 0.048915, -0.0348101, 0.0489156, -0.0348125, -3.83496E-011, -3.09243E-011
36, 0.00000, 0.0639923, -0.0345324, 0.063997, -0.0345272, 0.0639997, -0.0345307, -6.72532E-011, -4.63598E-011
37, 0.00000, 0.00864523, -0.0346927, 0.00864339, -0.0346941, 0.00864276, -0.0346928, -5.15593E-012, -8.93352E-012
38, 0.00000, -0.0737861, -0.0353796, -0.0737927, -0.0353825, -0.0737964, -0.0353787, 5.13635E-011, -5.05197E-011
39, 0.00000, -0.127043, -0.0368499, -0.127044, -0.0368505, -0.127044, -0.0368495, 4.64381E-010, -1.98072E-010
40, 0.00000, 0.151807, -0.040476, 0.151807, -0.0404786, 0.15181, -0.0404806, 7.22399E-010, -6.50113E-011
41, 0.00000, -0.168267, -0.0470633, -0.168255, -0.0470596, -0.168256, -0.0470642, 1.378E-009, -5.22E-010
42, 0.00000, -0.19283, -0.0524293, -0.192833, -0.0524321, -0.192832, -0.052429, 2.00568E-009, -7.06743E-010
43, 0.00000, -0.199216, -0.0545398, -0.199225, -0.0545441, -0.199222, -0.0545408, 2.24167E-009, -7.8444E-010
44, 0.00000, -0.202932, -0.0557537, -0.202937, -0.0557565, -0.202936, -0.0557537, 2.40506E-009, -8.52764E-010
45, 0.00000, -0.198629, -0.0543179, -0.198622, -0.0543173, -0.198622, -0.0543179, 2.26398E-009, -8.2382E-010
46, 0.00000, -0.184563, -0.0497019, -0.184561, -0.0497016, -0.184561, -0.0497021, 1.73741E-009, -6.19007E-010
47, 0.00000, -0.161684, -0.0421785, -0.161679, -0.042179, -0.161677, -0.0421813, 1.07987E-009, -4.03223E-010
48, 0.00000, -0.134386, -0.0332061, -0.13438, -0.0332067, -0.134379, -0.0332094, 5.50018E-010, -2.1639E-010
49, 0.00000, -0.111529, -0.0257015, -0.111529, -0.0257019, -0.111529, -0.0257017, 2.70036E-010, -1.02373E-010
50, 0.00000, -0.0995988, -0.0217803, -0.0995984, -0.0217805, -0.0995981, -0.0217802, 1.78035E-010, -6.73507E-011
51, 0.00000, -0.195681, -0.0199354, -0.195675, -0.0199372, -0.195675, -0.0199395, 6.81644E-010, -2.10125E-010
52, 0.00000, -0.193785, -0.0192889, -0.193777, -0.019288, -0.193773, -0.0192912, 6.71383E-010, -1.95038E-010
53, 0.00000, -0.19617, -0.0201083, -0.196171, -0.0201093, -0.196171, -0.0201077, 6.71582E-010, -1.87623E-010
54, 0.00000, -0.205563, -0.0232052, -0.205568, -0.0232067, -0.205569, -0.0232024, 8.39081E-010, -2.30808E-010
55, 0.00000, 0.0505536, -0.0293638, 0.0505513, -0.0293768, 0.0505468, -0.0293807, 7.9715E-011, 1.8533E-011
56, 0.00000, 0.0468544, -0.0328048, 0.0468547, -0.0328052, 0.046855, -0.0328053, 9.5019E-011, 2.59972E-012
57, 0.00000, -0.0747938, -0.0335851, -0.074781, -0.0335849, -0.0747822, -0.0335921, 1.47639E-010, -1.00247E-010
58, 0.00000, -0.0674112, -0.0345626, -0.0674055, -0.0345622, -0.0674047, -0.0345657, 1.03176E-010, -7.38991E-011
59, 0.00000, -0.0390789, -0.0348044, -0.0390721, -0.0348037, -0.0390711, -0.0348084, 3.74757E-011, -4.11394E-011
60, 0.00000, -0.0382827, -0.0345355, -0.0382799, -0.0345344, -0.0382782, -0.034536, 3.72859E-011, -3.42344E-011
61, 0.00000, -0.0532878, -0.0346917, -0.0532878, -0.0346918, -0.0532878, -0.0346918, 6.16989E-011, -4.53227E-011
62, 0.00000, -0.0842472, -0.0353748, -0.0842473, -0.0353751, -0.0842473, -0.0353751, 1.69417E-010, -9.43104E-011
63, 0.00000, -0.0887201, -0.0368489, -0.08872, -0.0368492, -0.0887199, -0.036849, 2.00725E-010, -1.09307E-010
64, 0.00000, -0.15652, -0.0404891, -0.15652, -0.0404898, -0.15652, -0.0404893, 9.43327E-010, -3.45138E-010
65, 0.00000, -0.176559, -0.0470742, -0.176559, -0.0470754, -0.17656, -0.0470753, 1.46752E-009, -5.25598E-010
66, 0.00000, -0.161213, -0.0524172, -0.161197, -0.0524112, -0.1612, -0.0524161, 1.48956E-009, -5.92282E-010
67, 0.00000, -0.19924, -0.05453, -0.199241, -0.0545316, -0.199239, -0.0545304, 2.26661E-009, -8.08607E-010
68, 0.00000, -0.202947, -0.0557485, -0.202947, -0.0557499, -0.202946, -0.0557488, 2.42288E-009, -8.70146E-010
69, 0.00000, -0.198612, -0.054324, -0.198611, -0.054325, -0.198611, -0.054324, 2.2456E-009, -8.0539E-010
70, 0.00000, -0.184558, -0.0497045, -0.184557, -0.0497056, -0.184557, -0.0497047, 1.72995E-009, -6.13213E-010
71, 0.00000, -0.161675, -0.0421836, -0.161675, -0.0421842, -0.161674, -0.0421835, 1.06578E-009, -3.86819E-010
72, 0.00000, -0.134378, -0.0332116, -0.134378, -0.0332119, -0.134377, -0.0332115, 5.40005E-010, -2.01624E-010
73, 0.00000, -0.117164, -0.0275494, -0.117161, -0.0275506, -0.117162, -0.0275517, 3.26276E-010, -1.3007E-010
74, 0.00000, -0.104135, -0.023252, -0.104127, -0.0232514, -0.104124, -0.0232565, 2.2491E-010, -9.60104E-011
75, 0.00000, -0.0970532, -0.0209336, -0.0970491, -0.0209334, -0.0970479, -0.0209361, 1.68142E-010, -6.8947E-011
76, 0.00000, -0.0937976, -0.019869, -0.0937957, -0.019869, -0.0937951, -0.0198701, 1.4464E-010, -5.70004E-011
77, 0.00000, -0.0937657, -0.0198625, -0.0937654, -0.0198627, -0.0937652, -0.0198626, 1.41684E-010, -5.37192E-011
78, 0.00000, -0.0969495, -0.0209095, -0.0969495, -0.0209097, -0.0969493, -0.0209096, 1.60219E-010, -6.07032E-011
79, 0.00000, -0.104306, -0.0233276, -0.104306, -0.0233279, -0.104306, -0.0233277, 2.10708E-010, -7.99327E-011
80, 0.00000, -0.104198, -0.0279025, -0.104198, -0.0279028, -0.104198, -0.0279026, 2.36713E-010, -9.95786E-011
81, 0.00000, -0.0403312, -0.0351499, -0.040331, -0.0351499, -0.0403309, -0.0351498, 3.95641E-011, -3.30842E-011
82, 0.00000, 0.0126838, -0.0418862, 0.0126839, -0.0418862, 0.0126839, -0.0418862, 2.17753E-011, -2.22383E-011
83, 0.00000, 0.103446, -0.0454475, 0.103446, -0.0454476, 0.103447, -0.0454473, -2.04005E-011, -1.33054E-010
84, 0.00000, 0.0987528, -0.0468034, 0.098753, -0.0468042, 0.0987533, -0.046804, -5.68998E-012, -1.27454E-010
85, 0.00000, 0.0528678, -0.0474364, 0.0528679, -0.0474366, 0.052868, -0.0474365, 3.46316E-011, -5.65398E-011
86, 0.00000, -0.0517527, -0.0483482, -0.0517527, -0.0483483, -0.0517526, -0.0483482, 1.09757E-010, -8.39205E-011
87, 0.00000, -0.518507, -0.0492466, -0.518483, -0.0492483, -0.518485, -0.0492464, 1.35633E-008, -3.4231E-009
88, 0.00000, -0.537807, -0.050224, -0.537805, -0.0502328, -0.537798, -0.0502251, 1.64485E-008, -3.85432E-009
89, 0.00000, -0.275483, -0.0527441, -0.27548, -0.0527458, -0.27548, -0.0527443, 4.13031E-009, -1.28559E-009
90, 0.00000, 0.00358572, -0.0541459, 0.00358665, -0.054143, 0.00358997, -0.0541448, 2.26086E-010, -4.11682E-011
91, 0.00000, 0.327813, -0.0538673, 0.327812, -0.0538709, 0.327809, -0.0538658, 4.24839E-009, -6.4543E-010
92, 0.00000, -0.196586, -0.0536578, -0.196586, -0.0536592, -0.196585, -0.0536582, 2.16151E-009, -7.70246E-010
93, 0.00000, -0.190416, -0.0516141, -0.190402, -0.0516111, -0.190408, -0.0516149, 1.95483E-009, -7.28336E-010
94, 0.00000, -0.17829, -0.0476404, -0.178288, -0.0476404, -0.178287, -0.0476413, 1.53718E-009, -5.49615E-010
95, 0.00000, -0.160885, -0.0419168, -0.16088, -0.0419175, -0.160878, -0.0419194, 1.05875E-009, -3.95318E-010
96, 0.00000, -0.139611, -0.0349241, -0.139606, -0.0349246, -0.139604, -0.034927, 6.31142E-010, -2.44737E-010
97, 0.00000, -0.119038, -0.0281695, -0.119038, -0.02817, -0.119038, -0.0281697, 3.43496E-010, -1.29882E-010
98, 0.00000, -0.105431, -0.0236863, -0.105424, -0.0236876, -0.105425, -0.0236913, 2.26412E-010, -9.86593E-011
99, 0.00000, -0.0975452, -0.021094, -0.0975405, -0.0210938, -0.0975392, -0.0210968, 1.72218E-010, -7.11857E-011
100, 0.00000, -0.0936109, -0.0198067, -0.0936086, -0.0198067, -0.0936079, -0.019808, 1.44242E-010, -5.73342E-011
101, 0.00000, -0.0924298, -0.0194031, -0.0924253, -0.0194021, -0.0924226, -0.0194045, 1.44238E-010, -5.72709E-011
102, 0.00000, -0.0943177, -0.0200782, -0.0943247, -0.0200806, -0.0943288, -0.0200762, 1.27684E-010, -4.38699E-011
103, 0.00000, -0.100732, -0.0221527, -0.100732, -0.0221529, -0.100732, -0.0221528, 1.84952E-010, -7.01388E-011
104, 0.00000, -0.0977875, -0.0257797, -0.0977875, -0.0257799, -0.0977874, -0.0257797, 1.88124E-010, -7.98656E-011
105, 0.00000, -0.0328398, -0.0325841, -0.0328396, -0.0325841, -0.0328395, -0.032584, 2.51096E-011, -2.27451E-011
106, 0.00000, 0.0184688, -0.0398235, 0.0184688, -0.0398235, 0.0184689, -0.0398235, 1.80548E-011, -2.03131E-011
107, 0.00000, -0.131923, -0.0443977, -0.131924, -0.044397, -0.131923, -0.0443961, -2.29905E-010, -1.48893E-010
108, 0.00000, 0.121702, -0.0461895, 0.121701, -0.0461892, 0.121701, -0.0461883, -6.4552E-010, -4.77824E-011
109, 0.00000, 0.114839, -0.0473351, 0.114838, -0.0473354, 0.114837, -0.047335, -5.68537E-010, -5.22738E-011
110, 0.00000, 0.014498, -0.0480986, 0.0144977, -0.0480991, 0.0144969, -0.0480989, 3.25804E-011, -3.24311E-011
111, 0.00000, -0.00845342, -0.0478399, -0.00845579, -0.0478428, -0.00845627, -0.0478444, 9.39933E-011, -3.59676E-011
112, 0.00000, 0.12899, -0.0474336, 0.128992, -0.0474351, 0.128995, -0.0474358, 7.25969E-010, -2.80532E-011
113, 0.00000, 0.192965, -0.0493997, 0.192968, -0.0494025, 0.19297, -0.0494033, 1.48351E-009, -1.31912E-010
114, 0.00000, 0.101641, -0.0520426, 0.101642, -0.0520434, 0.101645, -0.0520441, 6.1572E-010, 6.45446E-012
115, 0.00000, -0.195573, -0.0533338, -0.195578, -0.0533362, -0.195577, -0.0533328, 2.10721E-009, -7.3586E-010
116, 0.00000, -0.200445, -0.0549398, -0.200452, -0.0549431, -0.200449, -0.0549406, 2.29961E-009, -8.09734E-010
117, 0.00000, -0.196679, -0.0536782, -0.196673, -0.0536777, -0.196674, -0.053678, 2.1815E-009, -7.89734E-010
118, 0.00000, -0.181765, -0.0487822, -0.181763, -0.0487818, -0.181763, -0.0487826, 1.64695E-009, -5.87217E-010
119, 0.00000, -0.158371, -0.0410897, -0.158366, -0.0410903, -0.158364, -0.0410926, 1.00102E-009, -3.76493E-010
120, 0.00000, -0.131201, -0.0321596, -0.131196, -0.0321602, -0.131194, -0.0321628, 5.03379E-010, -1.98742E-010
121, 0.00000, -0.111529, -0.0257015, -0.111529, -0.0257019, -0.111529, -0.0257017, 2.70046E-010, -1.02374E-010
122, 0.00000, -0.0995988, -0.0217803, -0.0995984, -0.0217805, -0.0995981, -0.0217802, 1.78035E-010, -6.73508E-011
123, 0.00000, -0.0940069, -0.0199423, -0.0940067, -0.0199425, -0.0940065, -0.0199423, 1.43017E-010, -5.4047E-011
124, 0.00000, -0.0920781, -0.0193083, -0.0920777, -0.0193084, -0.0920772, -0.0193081, 1.32914E-010, -5.00334E-011
125, 0.00000, -0.0945031, -0.0201055, -0.0945035, -0.0201058, -0.0945037, -0.0201057, 1.44518E-010, -5.49026E-011
126, 0.00000, -0.103909, -0.0231971, -0.103909, -0.0231974, -0.103909, -0.0231972, 2.07537E-010, -7.87609E-011
127, 0.00000, -0.122794, -0.0294041, -0.122795, -0.0294046, -0.122795, -0.0294045, 3.84747E-010, -1.45327E-010
128, 0.00000, -0.119048, -0.032806, -0.119048, -0.0328064, -0.119047, -0.0328061, 3.82921E-010, -1.57443E-010
129, 0.00000, -0.0351142, -0.0335984, -0.0351138, -0.0335982, -0.0351135, -0.0335981, 2.97094E-011, -2.62281E-011
130, 0.00000, 0.0357924, -0.0345706, 0.0357925, -0.0345704, 0.0357926, -0.0345704, 9.71306E-012, -2.0825E-011
131, 0.00000, 0.447791, -0.034798, 0.447797, -0.0348059, 0.447798, -0.034806, -6.73407E-009, -9.88761E-010
132, 0.00000, 0.55571, -0.0345495, 0.55571, -0.0345511, 0.555713, -0.0345443, -1.1971E-008, -1.32615E-009
133, 0.00000, 0.620062, -0.0346964, 0.620063, -0.0347001, 0.620067, -0.0346929, -1.58985E-008, -1.4217E-009
134, 0.00000, 0.089151, -0.0353735, 0.0891503, -0.0353763, 0.0891495, -0.0353743, -2.63459E-011, -7.17181E-011
135, 0.00000, -0.045842, -0.0368685, -0.04584, -0.0368593, -0.0458338, -0.0368587, 6.92729E-011, -4.45976E-011
136, 0.00000, -0.15653, -0.0405107, -0.156528, -0.0405037, -0.156524, -0.0405012, 9.73431E-010, -3.33094E-010
137, 0.00000, -0.176565, -0.0470773, -0.176564, -0.0470782, -0.176564, -0.0470775, 1.47259E-009, -5.2674E-010
138, 0.00000, -0.192838, -0.052426, -0.192838, -0.0524271, -0.192837, -0.0524262, 2.02031E-009, -7.17273E-010
139, 0.00000, -0.167613, -0.054524, -0.167592, -0.0545196, -0.167598, -0.0545262, 1.68103E-009, -6.92133E-010
140, 0.00000, -0.202945, -0.055748, -0.202946, -0.0557496, -0.202945, -0.0557485, 2.42155E-009, -8.69053E-010
141, 0.00000, -0.198613, -0.054324, -0.198611, -0.054325, -0.198611, -0.054324, 2.24568E-009, -8.05426E-010
142, 0.00000, -0.184558, -0.0497045, -0.184557, -0.0497056, -0.184557, -0.0497047, 1.72998E-009, -6.13218E-010
143, 0.00000, -0.161676, -0.0421836, -0.161675, -0.0421842, -0.161674, -0.0421835, 1.06588E-009, -3.86846E-010
144, 0.00000, -0.134378, -0.0332116, -0.134378, -0.0332119, -0.134377, -0.0332115, 5.40074E-010, -2.0165E-010
145, 0.00000, -0.11153, -0.0257018, -0.11153, -0.025702, -0.111529, -0.0257018, 2.71362E-010, -1.02722E-010
146, 0.00000, -0.0679309, -0.0217788, -0.0679301, -0.0217797, -0.0679309, -0.0217797, 8.43966E-011, -3.8713E-011
147, 0.00000, -0.0940068, -0.0199423, -0.0940066, -0.0199425, -0.0940064, -0.0199423, 1.42901E-010, -5.40198E-011
148, 0.00000, -0.060415, -0.0193001, -0.0604093, -0.0193014, -0.0604102, -0.0193049, 6.03741E-011, -3.4842E-011
149, 0.00000, -0.417838, -0.0201074, -0.417839, -0.020111, -0.417836, -0.0201062, 3.83357E-009, -7.655E-010
150, 0.00000, -0.432226, -0.0232037, -0.432231, -0.0232084, -0.432231, -0.0232012, 4.62285E-009, -9.40414E-010
151, 0.00000, -0.451128, -0.029405, -0.451128, -0.0294097, -0.451125, -0.0294042, 6.38503E-009, -1.3702E-009
152, 0.00000, -0.373195, -0.0327989, -0.373187, -0.0328025, -0.373184, -0.0328019, 3.995E-009, -1.11972E-009
153, 0.00000, -0.132442, -0.0335941, -0.132438, -0.0335953, -0.132439, -0.0335969, 1.42163E-010, -1.52187E-010
154, 0.00000, -0.0576012, -0.03456, -0.0575953, -0.0345603, -0.0575961, -0.0345644, 1.41113E-011, -4.4809E-011
155, 0.00000, 0.0540993, -0.0347823, 0.054112, -0.0347831, 0.0541071, -0.0347954, -5.63278E-011, -2.19289E-011
156, 0.00000, 0.109655, -0.0345351, 0.109657, -0.0345354, 0.109656, -0.0345378, -1.44915E-010, -9.62618E-011
157, 0.00000, 0.0835276, -0.0347096, 0.0835204, -0.0347096, 0.0835225, -0.0347024, -1.69793E-011, -7.48866E-011
158, 0.00000, -0.00150422, -0.0353783, -0.00150691, -0.0353778, -0.001506, -0.0353761, 1.77205E-011, -1.23051E-011
159, 0.00000, -0.0322672, -0.0368007, -0.0322695, -0.0368146, -0.0322688, -0.0368197, 5.79626E-011, -4.03934E-011
160, 0.00000, -0.0281924, -0.0404832, -0.0281916, -0.0404844, -0.0281898, -0.0404854, 1.09849E-010, -4.92487E-011
161, 0.00000, -0.0382377, -0.0470712, -0.0382362, -0.0470717, -0.0382334, -0.0470729, 1.97881E-010, -8.92958E-011
162, 0.00000, -0.0228453, -0.0524233, -0.0228451, -0.0524223, -0.0228435, -0.0524233, 2.24517E-010, -7.78644E-011
163, 0.00000, 0.285756, -0.0545384, 0.285758, -0.0545389, 0.285759, -0.0545354, 3.40824E-009, -4.58544E-010
164, 0.00000, 0.248715, -0.0557472, 0.248716, -0.0557489, 0.248718, -0.0557476, 2.79221E-009, -2.9613E-010
165, 0.00000, -0.166931, -0.0543287, -0.166937, -0.0543306, -0.166935, -0.0543275, 1.61214E-009, -5.99897E-010
166, 0.00000, -0.184558, -0.0497045, -0.184557, -0.0497055, -0.184557, -0.0497047, 1.7299E-009, -6.13091E-010
167, 0.00000, -0.161675, -0.0421836, -0.161675, -0.0421842, -0.161674, -0.0421835, 1.06545E-009, -3.86724E-010
168, 0.00000, -0.134378, -0.0332115, -0.134378, -0.0332119, -0.134377, -0.0332115, 5.39752E-010, -2.0153E-010
169, 0.00000, -1.30656, -0.0256869, -1.30653, -0.0257298, -1.30651, -0.0256881, 8.51716E-008, -9.63866E-009
170, 0.00000, -1.21129, -0.0217671, -1.21127, -0.0218029, -1.21125, -0.0217684, 6.35945E-008, -6.51592E-009
171, 0.00000, -1.09903, -0.0199314, -1.09901, -0.0199607, -1.09899, -0.0199329, 4.62503E-008, -5.02316E-009
172, 0.00000, -1.04211, -0.0192956, -1.04209, -0.0193216, -1.04207, -0.0192976, 3.93478E-008, -4.43361E-009
173, 0.00000, -1.23285, -0.0200944, -1.23284, -0.0201316, -1.23282, -0.0200954, 6.37876E-008, -6.19436E-009
174, 0.00000, -1.02059, -0.0231881, -1.02058, -0.0232136, -1.02056, -0.0231893, 4.12972E-008, -5.06378E-009
175, 0.00000, 0.250527, -0.029418, 0.250529, -0.0294144, 0.250533, -0.029412, 1.02486E-009, -2.74913E-010
176, 0.00000, -0.519111, -0.032795, -0.519087, -0.0327995, -0.519085, -0.0327996, 9.39001E-009, -2.15553E-009
177, 0.00000, -0.0194959, -0.0335906, -0.0194892, -0.0335916, -0.0194911, -0.033596, 8.30834E-012, -2.13632E-011
178, 0.00000, 0.920196, -0.0345638, 0.920203, -0.0345819, 0.92021, -0.0345629, -1.11539E-008, -5.40118E-009
179, 0.00000, 1.13576, -0.034809, 1.13577, -0.0348287, 1.13578, -0.0348089, -3.76209E-008, -7.42893E-009
180, 0.00000, 0.983612, -0.0345412, 0.983616, -0.0345547, 0.983631, -0.034539, -1.87894E-008, -6.13594E-009
181, 0.00000, 1.01129, -0.0346868, 1.0113, -0.0347045, 1.01131, -0.0346864, -1.57307E-008, -6.44989E-009
