hour, t(sec), V1.re, V1.im, V2.re, V2.im, V3.re, V3.im, V4.re, V4.im, I1.re, I1.im, I2.re, I2.im, I3.re, I3.im, I4.re, I4.im
1, 0.00000, 191.189, -111.473, -192.412, -109.871, 0.995449, 221.764, 0.000145819, -0.000925068, -0.190023, 0.214321, 0.280319, 0.0571953, -0.0904712, -0.271145, 0.000174828, -0.000370838
2, 0.00000, 191.866, -111.665, -192.87, -110.354, 0.817075, 222.37, 0.000121679, -0.000777061, -0.160673, 0.180931, 0.23682, 0.0485336, -0.0762711, -0.229208, 0.000124233, -0.000257201
3, 0.00000, 192.186, -111.755, -193.085, -110.583, 0.73204, 222.655, 0.00011058, -0.000708778, -0.14697, 0.165377, 0.216535, 0.0444685, -0.0696678, -0.209632, 0.000102552, -0.000213439
4, 0.00000, 192.366, -111.787, -193.191, -110.72, 0.670063, 222.807, 0.000107035, -0.000684503, -0.142225, 0.159947, 0.209476, 0.0430841, -0.0673466, -0.202838, 9.51301E-005, -0.000193239
5, 0.00000, 192.257, -111.749, -193.111, -110.645, 0.693416, 222.706, 0.000111937, -0.000713645, -0.148165, 0.166659, 0.218246, 0.0448631, -0.0701851, -0.211314, 0.00010405, -0.000208001
6, 0.00000, 191.87, -111.602, -192.817, -110.385, 0.767101, 222.341, 0.000131067, -0.000827066, -0.171192, 0.192677, 0.252241, 0.0517569, -0.0811866, -0.244163, 0.00013811, -0.000271346
7, 0.00000, 191.014, -111.301, -192.19, -109.799, 0.949768, 221.549, 0.000170584, -0.00105993, -0.217698, 0.245401, 0.32102, 0.0655714, -0.103544, -0.310532, 0.000221296, -0.000440781
8, 0.00000, 190.011, -111.115, -191.598, -109.039, 1.28918, 220.701, 0.000143562, -0.00111061, -0.243517, 0.275371, 0.359726, 0.0728553, -0.116506, -0.347603, 0.000296236, -0.000622425
9, 0.00000, 193.857, -111.117, -193.275, -112.253, -0.539032, 223.603, -0.000276803, -0.000299195, -0.24807, 0.275662, 0.362705, 0.076784, -0.114866, -0.352332, 0.000230971, -0.000113708
10, 0.00000, 195.443, -111.071, -193.929, -113.601, -1.33122, 224.783, -0.000453885, 1.97094E-005, -0.254752, 0.280997, 0.370843, 0.0799512, -0.116303, -0.361035, 0.000211391, 8.69703E-005
11, 0.00000, 201.97, -110.946, -196.7, -119.133, -4.55755, 229.706, -0.0011206, 0.00126706, -0.254235, 0.272403, 0.363795, 0.0840367, -0.109632, -0.357283, 7.10628E-005, 0.000843832
12, 0.00000, 202.315, -110.947, -196.854, -119.423, -4.72272, 229.972, -0.00115194, 0.00133061, -0.25211, 0.269739, 0.360453, 0.0835419, -0.108402, -0.354153, 5.8643E-005, 0.000872395
13, 0.00000, 199.852, -111.008, -195.815, -117.326, -3.49176, 228.113, -0.000906425, 0.000874232, -0.254073, 0.274806, 0.3656, 0.0826207, -0.111641, -0.358039, 0.000114288, 0.000612314
14, 0.00000, 193.904, -111.034, -193.224, -112.328, -0.623794, 223.598, -0.000303216, -0.000292099, -0.261318, 0.290132, 0.381871, 0.0810026, -0.120805, -0.371026, 0.00025201, -0.000108703
15, 0.00000, 190.587, -110.934, -191.694, -109.597, 0.880904, 221.044, 3.01248E-005, -0.000988317, -0.273639, 0.308171, 0.40323, 0.0824991, -0.129936, -0.390074, 0.000344105, -0.000595981
16, 0.00000, 188.203, -110.712, -190.473, -107.703, 1.84664, 219.146, 0.000243026, -0.00151468, -0.302078, 0.343378, 0.447541, 0.0893514, -0.145922, -0.431665, 0.000459619, -0.00106423
17, 0.00000, 187.032, -110.368, -189.676, -106.874, 2.14409, 218.102, 0.000290686, -0.00178859, -0.352589, 0.401902, 0.523143, 0.103623, -0.171181, -0.504051, 0.000626723, -0.00147494
18, 0.00000, 186.077, -110.083, -189.021, -106.196, 2.38603, 217.245, 0.000331369, -0.00201612, -0.393906, 0.450003, 0.585148, 0.115151, -0.192027, -0.563305, 0.000786301, -0.00184901
19, 0.00000, 185.699, -109.969, -188.763, -105.93, 2.48119, 216.904, 0.000348351, -0.00210712, -0.410256, 0.469092, 0.609718, 0.119677, -0.200322, -0.586759, 0.000860806, -0.00200913
20, 0.00000, 185.481, -109.902, -188.613, -105.777, 2.53569, 216.707, 0.000358521, -0.00216007, -0.41973, 0.480166, 0.623961, 0.122291, -0.205139, -0.600352, 0.00090804, -0.00210455
21, 0.00000, 185.868, -109.986, -188.85, -106.064, 2.41345, 217.04, 0.000347721, -0.00209512, -0.408573, 0.46686, 0.60697, 0.119351, -0.199254, -0.584239, 0.000857353, -0.0019711
22, 0.00000, 186.563, -110.229, -189.355, -106.541, 2.26299, 217.682, 0.000310433, -0.00190006, -0.372856, 0.425474, 0.55354, 0.109293, -0.181386, -0.533109, 0.00070212, -0.00165741
23, 0.00000, 187.903, -110.625, -190.269, -107.49, 1.92317, 218.879, 0.000255374, -0.00158461, -0.315036, 0.358362, 0.46691, 0.0930297, -0.152377, -0.450225, 0.000503729, -0.00116675
24, 0.00000, 189.48, -111.085, -191.342, -108.609, 1.51915, 220.287, 0.000193332, -0.00122228, -0.246743, 0.279639, 0.36497, 0.0734897, -0.118536, -0.352427, 0.000308479, -0.000701921
25, 0.00000, 190.527, -111.455, -192.11, -109.323, 1.29896, 221.255, 0.000144013, -0.000933664, -0.190211, 0.215157, 0.281077, 0.0569184, -0.0910536, -0.271639, 0.000187906, -0.000436606
26, 0.00000, 191.254, -111.65, -192.592, -109.847, 1.09897, 221.9, 0.000120174, -0.000784322, -0.160829, 0.181591, 0.237418, 0.0483219, -0.0767259, -0.2296, 0.000136833, -0.0003133
27, 0.00000, 191.615, -111.742, -192.827, -110.11, 0.995302, 222.217, 0.000109072, -0.00071469, -0.147094, 0.165928, 0.217033, 0.044286, -0.070052, -0.209957, 0.000113026, -0.000257354
28, 0.00000, 191.923, -111.778, -192.99, -110.352, 0.875056, 222.467, 0.000105868, -0.000688979, -0.142319, 0.160362, 0.209852, 0.0429475, -0.0676356, -0.203083, 0.000103187, -0.000226259
29, 0.00000, 192.025, -111.744, -193.006, -110.453, 0.800487, 222.528, 0.0001112, -0.000716028, -0.148217, 0.166887, 0.218454, 0.0447884, -0.0703441, -0.21145, 0.000106849, -0.000225166
30, 0.00000, 191.432, -111.591, -192.618, -110.022, 0.969186, 222.005, 0.00012975, -0.000832459, -0.171313, 0.193184, 0.252705, 0.0515953, -0.0815365, -0.244467, 0.000144552, -0.000312097
31, 0.00000, 190.264, -111.28, -191.847, -109.179, 1.29305, 220.972, 0.000168493, -0.00107102, -0.217946, 0.24649, 0.322009, 0.0652136, -0.1043, -0.311176, 0.0002364, -0.000526733
32, 0.00000, 189.986, -111.114, -191.585, -109.018, 1.30105, 220.681, 0.000143692, -0.00111174, -0.243518, 0.275402, 0.359759, 0.072841, -0.116533, -0.347623, 0.000291364, -0.000619717
33, 0.00000, 192.597, -111.112, -192.72, -111.201, 0.0578223, 222.648, -0.000130249, -0.00058401, -0.248516, 0.277717, 0.364565, 0.0760971, -0.116304, -0.353536, 0.000255239, -0.000278585
34, 0.00000, 194.499, -111.072, -193.517, -112.809, -0.878788, 224.067, -0.000355647, -0.000170122, -0.255093, 0.282557, 0.372263, 0.0794317, -0.117399, -0.361956, 0.000229735, -3.18608E-005
35, 0.00000, 197.064, -111.043, -194.617, -114.97, -2.12674, 226.001, -0.000663032, 0.000407657, -0.255991, 0.280301, 0.371037, 0.0814274, -0.115228, -0.36202, 0.000181547, 0.000290805
36, 0.00000, 197.512, -111.05, -194.821, -115.343, -2.33596, 226.347, -0.000705699, 0.000495058, -0.25381, 0.277388, 0.367466, 0.0810138, -0.113825, -0.358741, 0.000168972, 0.000339696
37, 0.00000, 195.8, -111.059, -194.076, -113.904, -1.50969, 225.047, -0.000529354, 0.000156072, -0.255531, 0.281386, 0.371613, 0.0804414, -0.116288, -0.361965, 0.000205537, 0.000137336
38, 0.00000, 192.76, -111.025, -192.717, -111.374, -0.0839007, 222.727, -0.00021053, -0.000478059, -0.261746, 0.292086, 0.383644, 0.0803515, -0.122174, -0.372178, 0.00027662, -0.000258641
39, 0.00000, 189.668, -110.917, -191.281, -108.837, 1.30487, 220.345, 0.000124321, -0.00117866, -0.274007, 0.309855, 0.404748, 0.0819377, -0.131104, -0.391055, 0.000362949, -0.000738492
40, 0.00000, 189.464, -110.756, -191.055, -108.739, 1.27814, 220.116, 0.000246015, -0.00148853, -0.301483, 0.340814, 0.445215, 0.090186, -0.144155, -0.430149, 0.000423833, -0.00085111
41, 0.00000, 187.066, -110.37, -189.692, -106.902, 2.12894, 218.128, 0.000291227, -0.00178822, -0.352586, 0.40184, 0.523086, 0.103652, -0.171131, -0.504019, 0.00063088, -0.00147354
42, 0.00000, 186.076, -110.083, -189.021, -106.196, 2.38608, 217.244, 0.000331342, -0.00201615, -0.393914, 0.450012, 0.585159, 0.115152, -0.192032, -0.563315, 0.000786242, -0.00184928
43, 0.00000, 185.7, -109.969, -188.763, -105.93, 2.48099, 216.905, 0.000348077, -0.0021068, -0.410248, 0.46908, 0.609708, 0.119676, -0.200319, -0.586751, 0.00085797, -0.00200532
44, 0.00000, 185.481, -109.902, -188.613, -105.777, 2.53561, 216.708, 0.00035834, -0.00215987, -0.419725, 0.480159, 0.623955, 0.122291, -0.205137, -0.600347, 0.000906203, -0.00210209
45, 0.00000, 185.736, -109.98, -188.788, -105.956, 2.47199, 216.938, 0.000347173, -0.00209834, -0.40865, 0.467216, 0.607296, 0.11923, -0.199506, -0.58445, 0.000859514, -0.00199626
46, 0.00000, 186.563, -110.229, -189.355, -106.541, 2.26303, 217.682, 0.000310499, -0.00190012, -0.372858, 0.425476, 0.553541, 0.109293, -0.181386, -0.53311, 0.000702869, -0.00165813
47, 0.00000, 187.903, -110.625, -190.269, -107.49, 1.92305, 218.879, 0.000255208, -0.00158462, -0.315033, 0.358357, 0.466906, 0.0930296, -0.152375, -0.45022, 0.00050167, -0.00116674
48, 0.00000, 189.48, -111.085, -191.342, -108.609, 1.51915, 220.287, 0.000193332, -0.00122228, -0.246743, 0.279639, 0.36497, 0.0734897, -0.118536, -0.352427, 0.000308483, -0.000701921
49, 0.00000, 190.782, -111.462, -192.226, -109.534, 1.18236, 221.451, 0.000144612, -0.000930135, -0.190135, 0.214831, 0.280782, 0.0570244, -0.0908288, -0.271447, 0.00018194, -0.000408581
50, 0.00000, 191.455, -111.655, -192.683, -110.013, 1.00693, 222.053, 0.000120493, -0.000781747, -0.160774, 0.181372, 0.23722, 0.0483892, -0.0765772, -0.229469, 0.000130851, -0.000292365
51, 0.00000, 191.363, -111.736, -192.712, -109.9, 1.11174, 222.023, 0.000108232, -0.000717197, -0.147146, 0.166174, 0.217255, 0.0442024, -0.0702243, -0.210101, 0.000115865, -0.000275276
52, 0.00000, 191.471, -111.767, -192.785, -109.977, 1.08353, 222.12, 0.00010445, -0.000693605, -0.142419, 0.160795, 0.210246, 0.0428064, -0.0679358, -0.203341, 0.000108749, -0.000260166
53, 0.00000, 191.335, -111.728, -192.693, -109.88, 1.11907, 221.998, 0.000109114, -0.000723245, -0.14837, 0.167566, 0.219071, 0.044564, -0.0708175, -0.211852, 0.000116557, -0.000278268
54, 0.00000, 190.804, -111.575, -192.332, -109.503, 1.25734, 221.523, 0.000127835, -0.000839778, -0.171472, 0.193896, 0.253351, 0.0513591, -0.0820334, -0.244888, 0.000153974, -0.000366647
55, 0.00000, 190.84, -111.297, -192.111, -109.655, 1.02946, 221.415, 0.000170154, -0.00106267, -0.217759, 0.245656, 0.321253, 0.0654901, -0.103719, -0.310684, 0.000225246, -0.000462659
56, 0.00000, 190.28, -111.128, -191.724, -109.26, 1.16948, 220.911, 0.000192388, -0.00119393, -0.243401, 0.274926, 0.359322, 0.0729926, -0.116204, -0.347333, 0.000282273, -0.000585143
57, 0.00000, 190.769, -111.091, -191.906, -109.683, 0.911197, 221.259, 5.84817E-005, -0.000959451, -0.249178, 0.280737, 0.36729, 0.075091, -0.118405, -0.3553, 0.000293148, -0.000528682
58, 0.00000, 191.387, -111.053, -192.142, -110.215, 0.58939, 221.705, -2.75469E-005, -0.000814628, -0.256239, 0.287791, 0.377, 0.0776882, -0.121055, -0.365027, 0.000294141, -0.000452489
59, 0.00000, 192.21, -111.05, -192.499, -110.904, 0.195954, 222.325, -0.000117887, -0.000641725, -0.257763, 0.288415, 0.378401, 0.0787239, -0.120919, -0.366798, 0.000281928, -0.000340588
60, 0.00000, 192.255, -111.063, -192.53, -110.936, 0.184232, 222.365, -0.000119477, -0.000631752, -0.255707, 0.286085, 0.375364, 0.0781142, -0.119932, -0.363869, 0.00027569, -0.000331038
61, 0.00000, 191.798, -111.052, -192.32, -110.558, 0.393362, 222.014, -7.27768E-005, -0.000727883, -0.256992, 0.288094, 0.377692, 0.0782032, -0.120986, -0.365904, 0.00028612, -0.000393088
62, 0.00000, 190.818, -111.007, -191.856, -109.759, 0.825808, 221.254, 2.33197E-005, -0.000936653, -0.262482, 0.295464, 0.386692, 0.0792243, -0.124526, -0.374148, 0.000315468, -0.000539603
63, 0.00000, 190.564, -110.933, -191.683, -109.578, 0.891694, 221.026, 3.2629E-005, -0.000993332, -0.273648, 0.308213, 0.403268, 0.0824849, -0.129965, -0.390098, 0.000344696, -0.000599789
64, 0.00000, 188.203, -110.712, -190.473, -107.703, 1.84664, 219.146, 0.00024304, -0.00151471, -0.302078, 0.343378, 0.447541, 0.0893515, -0.145922, -0.431665, 0.000459753, -0.00106455
65, 0.00000, 187.033, -110.369, -189.676, -106.874, 2.14405, 218.102, 0.000290626, -0.00178814, -0.352579, 0.401889, 0.523131, 0.103622, -0.171177, -0.504042, 0.000625665, -0.00146895
66, 0.00000, 186.208, -110.089, -189.083, -106.304, 2.32778, 217.346, 0.00033233, -0.0020133, -0.393852, 0.449685, 0.584859, 0.115269, -0.191796, -0.563126, 0.000789328, -0.00182822
67, 0.00000, 185.7, -109.969, -188.763, -105.93, 2.4811, 216.904, 0.000348155, -0.00210692, -0.410249, 0.469083, 0.60971, 0.119675, -0.200319, -0.586752, 0.000858847, -0.00200683
68, 0.00000, 185.481, -109.902, -188.613, -105.777, 2.53567, 216.707, 0.000358439, -0.00215999, -0.419728, 0.480163, 0.623958, 0.122291, -0.205138, -0.60035, 0.000907295, -0.00210361
69, 0.00000, 185.737, -109.98, -188.788, -105.956, 2.47191, 216.938, 0.000347065, -0.00209821, -0.408647, 0.467212, 0.607293, 0.11923, -0.199504, -0.584447, 0.000858311, -0.00199464
70, 0.00000, 186.563, -110.229, -189.355, -106.541, 2.263, 217.682, 0.000310446, -0.00190007, -0.372857, 0.425474, 0.55354, 0.109293, -0.181386, -0.53311, 0.000702268, -0.00165748
71, 0.00000, 187.903, -110.624, -190.269, -107.49, 1.92304, 218.879, 0.000255149, -0.00158456, -0.315032, 0.358356, 0.466906, 0.09303, -0.152375, -0.45022, 0.000500975, -0.00116597
72, 0.00000, 189.481, -111.085, -191.342, -108.609, 1.51915, 220.287, 0.000193265, -0.00122224, -0.246742, 0.279638, 0.36497, 0.0734899, -0.118536, -0.352427, 0.000307672, -0.000701281
73, 0.00000, 190.463, -111.37, -192.009, -109.307, 1.26529, 221.165, 0.000156403, -0.00100129, -0.204044, 0.230718, 0.301441, 0.0610919, -0.0976077, -0.291337, 0.000210604, -0.000473728
74, 0.00000, 191.2, -111.582, -192.51, -109.832, 1.07337, 221.826, 0.000129649, -0.00083781, -0.171877, 0.194013, 0.253683, 0.0516614, -0.0819564, -0.245339, 0.000150396, -0.000336126
75, 0.00000, 191.598, -111.697, -192.78, -110.115, 0.969422, 222.182, 0.00011544, -0.000750289, -0.154504, 0.174241, 0.227928, 0.046537, -0.0735449, -0.220508, 0.00012126, -0.000270109
76, 0.00000, 191.78, -111.749, -192.904, -110.245, 0.921677, 222.345, 0.00010899, -0.000710352, -0.146534, 0.165183, 0.216121, 0.0441787, -0.069696, -0.20912, 0.000108813, -0.000242185
77, 0.00000, 191.782, -111.749, -192.905, -110.246, 0.921251, 222.347, 0.000108907, -0.000709968, -0.146464, 0.165104, 0.216018, 0.0441581, -0.0696625, -0.20902, 0.000108413, -0.000241464
78, 0.00000, 191.603, -111.698, -192.784, -110.119, 0.968014, 222.187, 0.000115174, -0.000749007, -0.154272, 0.173977, 0.227585, 0.0464686, -0.0734332, -0.220178, 0.000120058, -0.000267709
79, 0.00000, 191.19, -111.579, -192.503, -109.824, 1.07612, 221.816, 0.000129895, -0.000839944, -0.172344, 0.194545, 0.254378, 0.0517998, -0.0821838, -0.24601, 0.000149716, -0.000334935
80, 0.00000, 190.824, -111.359, -192.157, -109.613, 1.08554, 221.432, 0.000113367, -0.000924366, -0.206549, 0.233142, 0.304827, 0.0620556, -0.0984869, -0.294761, 0.000208944, -0.000436217
81, 0.00000, 192.146, -111.034, -192.457, -110.857, 0.214318, 222.268, -0.000115194, -0.00065559, -0.260293, 0.291293, 0.382151, 0.079469, -0.122144, -0.370411, 0.000286573, -0.000350376
82, 0.00000, 193.172, -110.724, -192.642, -111.848, -0.50599, 222.891, -0.000304929, -0.000452071, -0.310365, 0.344883, 0.453718, 0.0959828, -0.143722, -0.440632, 0.000368591, -0.000233693
83, 0.00000, 195.529, -110.557, -193.532, -113.893, -1.75567, 224.596, -0.000593744, 2.12331E-005, -0.335973, 0.368967, 0.487731, 0.106182, -0.15212, -0.475305, 0.000362701, 0.000155916
84, 0.00000, 195.288, -110.494, -193.373, -113.718, -1.68754, 224.382, -0.000585067, -2.87997E-005, -0.346261, 0.380484, 0.502827, 0.109304, -0.156956, -0.489914, 0.000390469, 0.000126378
85, 0.00000, 193.908, -110.465, -192.744, -112.575, -1.05026, 223.32, -0.000448959, -0.000309192, -0.351716, 0.388758, 0.512512, 0.109807, -0.16124, -0.49845, 0.000443599, -0.000115639
86, 0.00000, 190.739, -110.393, -191.302, -109.956, 0.405374, 220.893, -0.000125231, -0.000973559, -0.360255, 0.403708, 0.529201, 0.109537, -0.1695, -0.51252, 0.000554789, -0.000724642
87, 0.00000, 186, -110.214, -189.102, -106.072, 2.52372, 217.249, 0.000208092, -0.00171887, -0.369787, 0.423048, 0.5498, 0.107806, -0.180743, -0.529101, 0.000730082, -0.00175295
88, 0.00000, 185.001, -110.127, -188.598, -105.273, 2.93758, 216.454, 0.000312941, -0.00195915, -0.377784, 0.43396, 0.563029, 0.109181, -0.186037, -0.541142, 0.000792448, -0.00199926
89, 0.00000, 185.678, -110.049, -188.822, -105.877, 2.55193, 216.927, 0.000333911, -0.00203914, -0.396619, 0.453839, 0.589729, 0.11554, -0.193929, -0.567428, 0.000818914, -0.00195061
90, 0.00000, 186.608, -110.03, -189.205, -106.667, 2.09062, 217.619, 0.000346233, -0.00206731, -0.406702, 0.463254, 0.603088, 0.119604, -0.197192, -0.581071, 0.000806398, -0.00178726
91, 0.00000, 187.997, -110.1, -189.863, -107.8, 1.48112, 218.696, 0.000346414, -0.00201893, -0.40365, 0.457043, 0.596478, 0.120179, -0.193571, -0.575756, 0.000743119, -0.00146654
92, 0.00000, 185.856, -110.016, -188.87, -106.04, 2.44176, 217.045, 0.000341218, -0.00206921, -0.403473, 0.461169, 0.599523, 0.117801, -0.196879, -0.577029, 0.000829164, -0.00194093
93, 0.00000, 186.22, -110.126, -189.12, -106.298, 2.34995, 217.374, 0.000325794, -0.00198197, -0.387694, 0.442761, 0.575807, 0.113421, -0.188882, -0.554387, 0.000768884, -0.00179521
94, 0.00000, 186.931, -110.339, -189.607, -106.802, 2.16974, 218.012, 0.00029495, -0.00181275, -0.356953, 0.406975, 0.529685, 0.104846, -0.173374, -0.510305, 0.000642902, -0.00151636
95, 0.00000, 187.95, -110.638, -190.301, -107.523, 1.91121, 218.92, 0.000253346, -0.0015738, -0.313026, 0.356036, 0.463905, 0.0924608, -0.151374, -0.447345, 0.000495425, -0.00115115
96, 0.00000, 189.18, -110.998, -191.138, -108.396, 1.59633, 220.019, 0.000204846, -0.00129046, -0.259759, 0.294596, 0.384367, 0.0772416, -0.12495, -0.371057, 0.000341707, -0.000780537
97, 0.00000, 190.356, -111.339, -191.937, -109.231, 1.29293, 221.07, 0.000160221, -0.00102492, -0.208683, 0.236022, 0.308338, 0.0624462, -0.0998739, -0.297975, 0.00021899, -0.000493889
98, 0.00000, 191.127, -111.561, -192.46, -109.779, 1.09254, 221.76, 0.000132289, -0.000853979, -0.175092, 0.197676, 0.258452, 0.0526076, -0.0835163, -0.249936, 0.000156031, -0.000347901
99, 0.00000, 191.57, -111.689, -192.762, -110.095, 0.976634, 222.157, 0.000116423, -0.00075634, -0.155708, 0.17561, 0.229712, 0.0468929, -0.0741269, -0.222229, 0.000123242, -0.000274537
100, 0.00000, 191.791, -111.752, -192.911, -110.253, 0.918925, 222.355, 0.000108629, -0.000708066, -0.146075, 0.164661, 0.215441, 0.0440426, -0.0694742, -0.208463, 0.000108214, -0.000240786
101, 0.00000, 191.858, -111.771, -192.957, -110.3, 0.901387, 222.415, 0.000106306, -0.00069348, -0.143136, 0.161323, 0.211088, 0.0431716, -0.068056, -0.204263, 0.000104208, -0.000232262
102, 0.00000, 191.749, -111.74, -192.882, -110.223, 0.929789, 222.317, 0.000109964, -0.000716984, -0.147912, 0.166749, 0.218166, 0.0445875, -0.0703627, -0.211093, 0.000109482, -0.000243366
103, 0.00000, 191.391, -111.637, -192.64, -109.967, 1.02358, 221.996, 0.000122704, -0.000795637, -0.163557, 0.184539, 0.241347, 0.0492106, -0.0779251, -0.233448, 0.000134864, -0.000301239
104, 0.00000, 191.187, -111.464, -192.404, -109.872, 0.991203, 221.757, 0.000100341, -0.000843968, -0.190608, 0.214968, 0.281173, 0.0573753, -0.0907428, -0.271975, 0.000177635, -0.000367469
105, 0.00000, 192.572, -111.158, -192.748, -111.16, 0.104118, 222.652, -0.000129283, -0.000562746, -0.240952, 0.26939, 0.353573, 0.0737208, -0.112863, -0.342837, 0.000242072, -0.000274069
106, 0.00000, 193.506, -110.823, -192.871, -112.085, -0.591163, 223.192, -0.000315072, -0.000380325, -0.294751, 0.327296, 0.430725, 0.0912992, -0.136302, -0.41842, 0.000327206, -0.000175149
107, 0.00000, 198.643, -110.553, -194.899, -116.502, -3.24589, 226.963, -0.00106725, 0.000917887, -0.326658, 0.353904, 0.470442, 0.105799, -0.144051, -0.460348, 0.000266737, 0.000645179
