hour, t(sec), V1.re, V1.im, V2.re, V2.im, V3.re, V3.im, V4.re, V4.im, I1.re, I1.im, I2.re, I2.im, I3.re, I3.im, I4.re, I4.im
1, 0.00000, 188.394, -109.244, -189.419, -108.612, 0.504758, 218.721, -9.28971E-006, -2.59018E-005, -1.1068, 1.24236, 1.62543, 0.334691, -0.520928, -1.57266, 0.0115848, 0.0215079
2, 0.00000, 189.533, -109.798, -190.362, -109.305, 0.403223, 219.821, -7.79592E-006, -2.12866E-005, -0.932973, 1.04637, 1.36997, 0.282943, -0.438618, -1.32626, 0.00941823, 0.0182348
3, 0.00000, 190.067, -110.055, -190.803, -109.631, 0.353574, 220.337, -7.1251E-006, -1.92376E-005, -0.852242, 0.955446, 1.25133, 0.258809, -0.400431, -1.2117, 0.00846848, 0.0166858
4, 0.00000, 190.346, -110.155, -191.005, -109.818, 0.300513, 220.592, -6.86806E-006, -1.84766E-005, -0.824195, 0.923547, 1.20989, 0.250589, -0.386936, -1.17183, 0.00810846, 0.0161662
5, 0.00000, 190.155, -110.048, -190.835, -109.707, 0.307267, 220.4, -7.14332E-006, -1.93193E-005, -0.859057, 0.962628, 1.26101, 0.261118, -0.403299, -1.22128, 0.00849264, 0.0168486
6, 0.00000, 189.46, -109.64, -190.201, -109.316, 0.314761, 219.695, -8.24638E-006, -2.26994E-005, -0.994655, 1.11452, 1.45966, 0.302092, -0.466799, -1.41338, 0.0100442, 0.0194638
7, 0.00000, 187.947, -108.796, -188.86, -108.445, 0.365255, 218.186, -1.0543E-005, -3.00956E-005, -1.27091, 1.42443, 1.86425, 0.385051, -0.596315, -1.80406, 0.0135208, 0.0246787
8, 0.00000, 186.486, -108.266, -187.806, -107.473, 0.638192, 216.863, -1.19355E-005, -2.94753E-005, -1.15177, 1.44318, 1.81976, 0.272319, -0.671033, -1.70891, 0.0149788, 0.0228819
9, 0.00000, 192.651, -109.155, -191.188, -112.149, -1.50649, 221.873, -1.04476E-005, 1.73552E-005, 1.32101, 0.0192861, -0.644518, -1.1517, -0.67433, 1.13295, 0.00828801, -0.017891
10, 0.00000, 195.158, -109.412, -192.489, -114.102, -2.46394, 223.88, -1.03614E-005, 3.39542E-005, 2.37211, -0.550026, -1.66415, -1.77711, -0.705421, 2.32876, 0.00782635, -0.0355858
11, 0.00000, 205.394, -110.568, -197.957, -122.065, -6.32784, 232.214, -9.72997E-006, 8.31669E-005, 6.44029, -2.72087, -5.59657, -4.22499, -0.849819, 6.96872, 0.0158273, -0.10603
12, 0.00000, 205.934, -110.644, -198.259, -122.48, -6.5209, 232.663, -9.56884E-006, 8.49923E-005, 6.63695, -2.82748, -5.7887, -4.34312, -0.855245, 7.19508, 0.0165643, -0.109481
13, 0.00000, 202.094, -110.243, -196.223, -119.471, -5.03996, 229.534, -9.63133E-006, 6.95685E-005, 5.11966, -2.03713, -4.33617, -3.4184, -0.785418, 5.46885, 0.0115613, -0.0828866
14, 0.00000, 192.703, -108.993, -191.076, -112.262, -1.65266, 221.838, -1.10382E-005, 1.94855E-005, 1.46368, -0.0197234, -0.749764, -1.25553, -0.711515, 1.27586, 0.00864044, -0.0200895
15, 0.00000, 187.363, -108.025, -187.983, -108.298, 0.0569314, 217.406, -1.28928E-005, -1.74309E-005, -0.518149, 1.16454, 1.26347, -0.135062, -0.746434, -1.02501, 0.014005, 0.0129632
16, 0.00000, 183.438, -106.995, -185.474, -105.536, 1.06111, 214.039, -1.53641E-005, -4.66516E-005, -1.78295, 2.01163, 2.62184, 0.530817, -0.845318, -2.52947, 0.0217957, 0.0336821
17, 0.00000, 181.413, -105.981, -183.798, -104.328, 1.20989, 212.102, -1.81868E-005, -5.74033E-005, -2.0937, 2.36552, 3.07868, 0.619957, -0.994036, -2.96712, 0.0272481, 0.0390463
18, 0.00000, 179.854, -105.194, -182.362, -103.342, 1.37311, 210.49, -2.08121E-005, -6.61605E-005, -2.34983, 2.65764, 3.45703, 0.693578, -1.11802, -3.3284, 0.0316328, 0.0433354
19, 0.00000, 179.275, -104.919, -181.802, -102.981, 1.44644, 209.824, -2.27763E-005, -6.54136E-005, -2.44764, 2.76969, 3.60784, 0.723139, -1.16798, -3.47267, 0.0305598, 0.0452505
20, 0.00000, 178.944, -104.764, -181.487, -102.776, 1.48784, 209.446, -2.58613E-005, -5.60816E-005, -2.4964, 2.82583, 3.69511, 0.740243, -1.19704, -3.55653, 0.0241925, 0.0465397
21, 0.00000, 179.496, -104.961, -181.96, -103.147, 1.37022, 210.045, -2.15234E-005, -6.82624E-005, -2.43999, 2.7591, 3.59026, 0.720841, -1.16128, -3.45687, 0.032531, 0.0451941
22, 0.00000, 180.625, -105.583, -183.104, -103.842, 1.28055, 211.316, -1.94964E-005, -6.17002E-005, -2.21925, 2.50867, 3.26391, 0.655953, -1.05456, -3.14406, 0.0293976, 0.041129
23, 0.00000, 182.921, -106.736, -185.045, -105.226, 1.10024, 213.543, -1.61264E-005, -4.93002E-005, -1.86235, 2.10196, 2.73865, 0.553695, -0.883297, -2.6414, 0.0231201, 0.0350445
24, 0.00000, 185.626, -108.082, -187.289, -106.849, 0.89007, 216.142, -1.23499E-005, -3.61199E-005, -1.44722, 1.63035, 2.1279, 0.433318, -0.684915, -2.05523, 0.0165884, 0.0276866
25, 0.00000, 187.488, -109.127, -188.938, -107.916, 0.8353, 217.994, -9.47186E-006, -2.64921E-005, -1.10913, 1.24908, 1.63173, 0.333135, -0.525088, -1.57714, 0.0119622, 0.0214192
26, 0.00000, 188.699, -109.694, -189.922, -108.661, 0.711154, 219.153, -7.94014E-006, -2.18042E-005, -0.934881, 1.05167, 1.37494, 0.281771, -0.441869, -1.3298, 0.00974678, 0.0181566
27, 0.00000, 189.293, -109.961, -190.395, -109.032, 0.641905, 219.716, -7.23406E-006, -1.95962E-005, -0.853674, 0.95973, 1.25534, 0.257771, -0.403135, -1.21454, 0.00870013, 0.0166362
28, 0.00000, 189.745, -110.083, -190.689, -109.352, 0.525275, 220.11, -6.94927E-006, -1.87497E-005, -0.825292, 0.926783, 1.21293, 0.249818, -0.388974, -1.17398, 0.00828473, 0.0161293
29, 0.00000, 189.841, -110.011, -190.67, -109.464, 0.424729, 220.148, -7.19959E-006, -1.94591E-005, -0.859676, 0.964429, 1.26272, 0.260701, -0.40443, -1.22249, 0.00858133, 0.0168236
30, 0.00000, 188.864, -109.566, -189.885, -108.855, 0.535974, 219.217, -8.38225E-006, -2.30577E-005, -0.996148, 1.11862, 1.46357, 0.301212, -0.46931, -1.41617, 0.0102683, 0.0193962
31, 0.00000, 186.92, -108.661, -188.312, -107.656, 0.73916, 217.361, -1.0818E-005, -3.07854E-005, -1.27388, 1.43306, 1.87244, 0.383038, -0.601701, -1.80986, 0.0139575, 0.024552
32, 0.00000, 186.451, -108.262, -187.786, -107.446, 0.651503, 216.833, -1.19456E-005, -2.9508E-005, -1.1554, 1.44544, 1.82357, 0.274327, -0.671193, -1.71321, 0.0149672, 0.022946
33, 0.00000, 190.608, -108.847, -190.05, -110.604, -0.805184, 220.199, -1.09244E-005, 2.18297E-006, 0.45415, 0.516658, 0.219132, -0.650735, -0.672202, 0.135271, 0.0098447, -0.00337623
34, 0.00000, 193.66, -109.206, -191.667, -112.957, -1.93087, 222.655, -1.05876E-005, 2.48072E-005, 1.78342, -0.219808, -1.08306, -1.43233, -0.697858, 1.65291, 0.00809239, -0.0255818
35, 0.00000, 197.801, -109.748, -193.924, -116.134, -3.42435, 226.037, -1.0152E-005, 5.19554E-005, 3.61836, -1.23274, -2.88153, -2.51599, -0.734926, 3.75369, 0.00825467, -0.0569183
36, 0.00000, 198.511, -109.861, -194.329, -116.671, -3.66637, 226.628, -9.96419E-006, 5.53884E-005, 3.8795, -1.38092, -3.14143, -2.6686, -0.736631, 4.05557, 0.00852133, -0.0614398
37, 0.00000, 195.803, -109.502, -192.846, -114.591, -2.68877, 224.409, -1.02854E-005, 4.06969E-005, 2.81324, -0.79333, -2.09618, -2.03751, -0.714505, 2.83324, 0.00772784, -0.0430967
38, 0.00000, 190.937, -108.744, -190.108, -110.916, -1.02921, 220.398, -1.13817E-005, 9.90654E-006, 0.905862, 0.299653, -0.194438, -0.932559, -0.709554, 0.63375, 0.0095121, -0.0107501
39, 0.00000, 185.886, -107.779, -187.151, -107.195, 0.54318, 216.198, -1.33521E-005, -2.91353E-005, -1.07021, 1.49319, 1.8217, 0.176642, -0.754519, -1.66263, 0.0163805, 0.0219338
40, 0.00000, 185.185, -107.249, -186.417, -106.862, 0.448745, 215.44, -1.46941E-005, -4.47988E-005, -1.77539, 1.99068, 2.60202, 0.535469, -0.832568, -2.51537, 0.0206309, 0.0340197
41, 0.00000, 181.462, -105.989, -183.821, -104.363, 1.195, 212.139, -1.82668E-005, -5.71228E-005, -2.09351, 2.36489, 3.07849, 0.620204, -0.993777, -2.96701, 0.0270581, 0.0390377
42, 0.00000, 179.854, -105.194, -182.361, -103.342, 1.37292, 210.489, -2.08154E-005, -6.60333E-005, -2.34982, 2.65763, 3.45724, 0.693634, -1.11816, -3.32859, 0.0315532, 0.0433571
43, 0.00000, 179.274, -104.918, -181.803, -102.98, 1.44525, 209.827, -2.27965E-005, -6.56242E-005, -2.44761, 2.76968, 3.60756, 0.723071, -1.16784, -3.47233, 0.0306869, 0.0452008
44, 0.00000, 178.944, -104.764, -181.488, -102.776, 1.48743, 209.447, -2.58836E-005, -5.61635E-005, -2.49638, 2.82581, 3.69499, 0.740205, -1.19696, -3.55636, 0.02424, 0.0465109
45, 0.00000, 179.333, -104.947, -181.855, -103.016, 1.4401, 209.887, -2.20539E-005, -6.6695E-005, -2.43927, 2.76014, 3.5931, 0.720302, -1.16326, -3.45894, 0.0314844, 0.0451968
46, 0.00000, 180.625, -105.583, -183.103, -103.841, 1.28107, 211.316, -1.95438E-005, -6.16425E-005, -2.21924, 2.50865, 3.26402, 0.655975, -1.05458, -3.1441, 0.0293545, 0.0411109
47, 0.00000, 182.92, -106.736, -185.046, -105.226, 1.09941, 213.544, -1.60801E-005, -4.94199E-005, -1.86238, 2.102, 2.7385, 0.553661, -0.883244, -2.6413, 0.0232013, 0.0350515
48, 0.00000, 185.626, -108.082, -187.289, -106.849, 0.89007, 216.142, -1.23496E-005, -3.612E-005, -1.44722, 1.63035, 2.1279, 0.433318, -0.684915, -2.05524, 0.0165885, 0.0276868
49, 0.00000, 187.838, -109.172, -189.123, -108.184, 0.708601, 218.274, -9.40877E-006, -2.62114E-005, -1.10817, 1.24642, 1.62928, 0.33373, -0.523482, -1.5754, 0.0117829, 0.0214569
50, 0.00000, 188.973, -109.729, -190.066, -108.872, 0.61105, 219.372, -7.89982E-006, -2.15777E-005, -0.934163, 1.04984, 1.37325, 0.28213, -0.440787, -1.32858, 0.00960332, 0.0181855
51, 0.00000, 188.949, -109.919, -190.213, -108.766, 0.769482, 219.441, -7.28987E-006, -1.97197E-005, -0.854263, 0.96161, 1.25711, 0.257284, -0.404339, -1.21579, 0.0087803, 0.0166149
52, 0.00000, 189.131, -110.008, -190.364, -108.877, 0.753712, 219.617, -7.0606E-006, -1.90082E-005, -0.826456, 0.930184, 1.21617, 0.249023, -0.391103, -1.17628, 0.00844823, 0.0160798
53, 0.00000, 188.903, -109.896, -190.174, -108.738, 0.773854, 219.395, -7.36368E-006, -1.98727E-005, -0.861443, 0.969721, 1.26773, 0.259427, -0.407772, -1.22603, 0.00884475, 0.0167498
54, 0.00000, 188.009, -109.458, -189.431, -108.196, 0.851013, 218.53, -8.55781E-006, -2.34706E-005, -0.997987, 1.12416, 1.46884, 0.299869, -0.472827, -1.41988, 0.0105313, 0.0193202
55, 0.00000, 187.71, -108.766, -188.734, -108.263, 0.452487, 217.995, -1.06091E-005, -3.02172E-005, -1.2715, 1.42631, 1.86604, 0.384574, -0.597525, -1.80531, 0.0135981, 0.0246519
56, 0.00000, 186.749, -108.279, -187.925, -107.688, 0.521395, 217.062, -1.19105E-005, -3.46661E-005, -1.4253, 1.59974, 2.09167, 0.430101, -0.670207, -2.02267, 0.0157471, 0.0274953
57, 0.00000, 187.685, -108.387, -188.417, -108.404, 0.182696, 217.808, -1.17669E-005, -1.93483E-005, -0.658479, 1.16839, 1.33707, -0.0157672, -0.680068, -1.14823, 0.01324, 0.0149536
58, 0.00000, 188.684, -108.459, -188.904, -109.192, -0.218013, 218.585, -1.17702E-005, -9.71933E-006, -0.162555, 0.900071, 0.858108, -0.309658, -0.695681, -0.587595, 0.0118982, 0.00690149
59, 0.00000, 190.002, -108.642, -189.622, -110.194, -0.681173, 219.653, -1.14913E-005, 3.44765E-007, 0.368715, 0.595875, 0.330156, -0.616426, -0.697851, 0.0220624, 0.0104715, -0.00185635
60, 0.00000, 190.079, -108.68, -189.686, -110.24, -0.687275, 219.727, -1.13745E-005, 6.19991E-007, 0.379736, 0.582934, 0.313502, -0.619501, -0.692207, 0.0380083, 0.0103432, -0.00206134
61, 0.00000, 189.343, -108.552, -189.263, -109.692, -0.448195, 219.119, -1.16095E-005, -4.60484E-006, 0.102606, 0.747762, 0.594287, -0.462503, -0.696411, -0.283207, 0.0111276, 0.00255235
62, 0.00000, 187.757, -108.232, -188.32, -108.53, 0.0337601, 217.791, -1.2289E-005, -1.59814E-005, -0.468018, 1.09918, 1.18226, -0.145587, -0.71519, -0.949626, 0.0132337, 0.0120096
63, 0.00000, 187.325, -108.019, -187.962, -108.269, 0.0693403, 217.375, -1.29035E-005, -1.77398E-005, -0.532781, 1.17319, 1.27822, -0.126767, -0.746601, -1.04189, 0.0140667, 0.0132013
64, 0.00000, 183.438, -106.995, -185.474, -105.536, 1.06107, 214.039, -1.53619E-005, -4.66636E-005, -1.78296, 2.01164, 2.62184, 0.530818, -0.84532, -2.52948, 0.0218034, 0.0336816
65, 0.00000, 181.415, -105.982, -183.798, -104.328, 1.2102, 212.102, -1.81628E-005, -5.73182E-005, -2.09352, 2.36526, 3.07848, 0.619968, -0.993994, -2.96698, 0.0271988, 0.0390705
66, 0.00000, 180.023, -105.214, -182.465, -103.476, 1.30556, 210.64, -2.07689E-005, -6.53623E-005, -2.3488, 2.65475, 3.45494, 0.694313, -1.1165, -3.32715, 0.0311299, 0.0434476
67, 0.00000, 179.275, -104.918, -181.802, -102.98, 1.44612, 209.826, -2.28226E-005, -6.56156E-005, -2.44762, 2.76969, 3.60764, 0.723095, -1.16788, -3.47236, 0.0306773, 0.0451874
68, 0.00000, 178.944, -104.764, -181.487, -102.776, 1.48782, 209.446, -2.58827E-005, -5.61241E-005, -2.49639, 2.82582, 3.69505, 0.740224, -1.197, -3.55644, 0.0242156, 0.0465189
69, 0.00000, 179.332, -104.946, -181.855, -103.016, 1.43952, 209.888, -2.20593E-005, -6.67331E-005, -2.43926, 2.76012, 3.59303, 0.720279, -1.16322, -3.45885, 0.0315073, 0.0451863
70, 0.00000, 180.625, -105.583, -183.104, -103.841, 1.28063, 211.316, -1.95069E-005, -6.16742E-005, -2.21924, 2.50867, 3.26394, 0.655959, -1.05457, -3.14408, 0.0293799, 0.0411271
71, 0.00000, 182.92, -106.736, -185.046, -105.227, 1.0996, 213.544, -1.60859E-005, -4.94018E-005, -1.86235, 2.10197, 2.73849, 0.553665, -0.883244, -2.64128, 0.0231892, 0.0350506
72, 0.00000, 185.626, -108.082, -187.289, -106.849, 0.890321, 216.142, -1.23611E-005, -3.61023E-005, -1.4472, 1.63032, 2.1279, 0.433321, -0.684915, -2.05522, 0.0165758, 0.0276824
73, 0.00000, 187.297, -108.907, -188.674, -107.857, 0.75391, 217.752, -1.01201E-005, -2.85573E-005, -1.19107, 1.34019, 1.75118, 0.358184, -0.562901, -1.69281, 0.0129098, 0.0229967
74, 0.00000, 188.543, -109.519, -189.71, -108.612, 0.647851, 218.957, -8.46118E-006, -2.33529E-005, -0.999904, 1.12408, 1.46991, 0.301641, -0.471985, -1.42179, 0.0104428, 0.0194217
75, 0.00000, 189.214, -109.847, -190.267, -109.019, 0.589913, 219.606, -7.57893E-006, -2.06136E-005, -0.897147, 1.00806, 1.31879, 0.271113, -0.423219, -1.27605, 0.00915375, 0.0174863
76, 0.00000, 189.521, -109.997, -190.521, -109.205, 0.563123, 219.903, -7.17738E-006, -1.93838E-005, -0.850137, 0.955027, 1.24966, 0.257112, -0.400929, -1.20935, 0.00857882, 0.016596
77, 0.00000, 189.524, -109.998, -190.523, -109.207, 0.562958, 219.905, -7.17529E-006, -1.93618E-005, -0.849711, 0.954545, 1.24905, 0.256988, -0.400732, -1.20876, 0.00856665, 0.0165889
78, 0.00000, 189.224, -109.851, -190.274, -109.024, 0.589333, 219.615, -7.57203E-006, -2.05403E-005, -0.895728, 1.00646, 1.31675, 0.270702, -0.422563, -1.27409, 0.00911322, 0.0174627
79, 0.00000, 188.527, -109.51, -189.695, -108.601, 0.649781, 218.94, -8.49164E-006, -2.33571E-005, -1.00257, 1.12709, 1.47392, 0.302456, -0.473287, -1.42567, 0.0104337, 0.0194794
80, 0.00000, 187.874, -108.968, -188.971, -108.303, 0.537047, 218.209, -1.0003E-005, -2.34602E-005, -0.941713, 1.2, 1.50607, 0.213142, -0.566391, -1.40867, 0.0120361, 0.0189851
81, 0.00000, 189.895, -108.594, -189.535, -110.127, -0.668576, 219.55, -1.16222E-005, -6.97535E-008, 0.349859, 0.614824, 0.355934, -0.609615, -0.704803, -0.00363605, 0.0106315, -0.00150309
82, 0.00000, 191.444, -108.183, -189.869, -111.581, -1.68879, 220.528, -1.37293E-005, 1.79199E-005, 1.42401, 0.158507, -0.57589, -1.30961, -0.844985, 1.15198, 0.010592, -0.0188005
83, 0.00000, 195.151, -108.368, -191.633, -114.553, -3.25017, 223.405, -1.47493E-005, 4.44204E-005, 3.12202, -0.708386, -2.17765, -2.3458, -0.940067, 3.0571, 0.0104469, -0.0473354
84, 0.00000, 194.75, -108.184, -191.307, -114.304, -3.20534, 223.019, -1.53099E-005, 4.34662E-005, 3.05914, -0.641562, -2.08813, -2.32454, -0.966431, 2.96874, 0.0107346, -0.046102
85, 0.00000, 192.543, -107.81, -190.042, -112.649, -2.47384, 221.187, -1.58028E-005, 3.08187E-005, 2.24074, -0.170115, -1.26938, -1.85128, -0.966732, 2.02268, 0.0111764, -0.0320976
86, 0.00000, 187.438, -106.928, -187.121, -108.84, -0.807732, 216.971, -1.69629E-005, -3.73074E-006, 0.320329, 0.952792, 0.661434, -0.752735, -0.980243, -0.196485, 0.0154434, 0.000158992
87, 0.00000, 180.15, -105.618, -182.841, -103.38, 1.57871, 210.905, -1.98564E-005, -4.87317E-005, -1.65438, 2.17347, 2.6949, 0.337769, -1.04688, -2.49414, 0.0262199, 0.0316343
88, 0.00000, 178.65, -105.316, -181.789, -102.271, 2.07323, 209.432, -2.36425E-005, -5.08727E-005, -2.2417, 2.55299, 3.33061, 0.657447, -1.08741, -3.20122, 0.0221446, 0.0416592
89, 0.00000, 179.343, -105.112, -182.001, -102.947, 1.56534, 209.978, -2.1197E-005, -6.65306E-005, -2.36719, 2.68214, 3.48755, 0.696836, -1.13091, -3.35614, 0.0317475, 0.0436918
90, 0.00000, 180.435, -105.084, -182.594, -103.905, 0.987377, 210.936, -2.07299E-005, -6.79467E-005, -2.42673, 2.73436, 3.56109, 0.721081, -1.14607, -3.43261, 0.0324439, 0.0451204
91, 0.00000, 182.355, -105.403, -183.715, -105.366, 0.32554, 212.533, -1.9664E-005, -6.49327E-005, -2.40225, 2.68895, 3.51227, 0.723564, -1.12096, -3.39292, 0.0306062, 0.0453323
92, 0.00000, 179.513, -105.031, -182.033, -103.129, 1.41553, 210.102, -2.14319E-005, -6.79143E-005, -2.40901, 2.7254, 3.54527, 0.710874, -1.14726, -3.41278, 0.0324336, 0.0444272
93, 0.00000, 180.081, -105.306, -182.576, -103.486, 1.34683, 210.734, -2.05255E-005, -6.43741E-005, -2.31107, 2.61337, 3.40038, 0.682559, -1.09945, -3.27426, 0.030667, 0.0427008
94, 0.00000, 181.237, -105.892, -183.651, -104.222, 1.22256, 211.934, -1.85083E-005, -5.83941E-005, -2.1208, 2.39641, 3.11855, 0.627681, -1.00699, -3.00516, 0.0277457, 0.03946
95, 0.00000, 183, -106.776, -185.113, -105.275, 1.09333, 213.621, -1.5949E-005, -4.90159E-005, -1.85008, 2.08801, 2.72038, 0.550118, -0.877358, -2.62396, 0.0230019, 0.0348472
96, 0.00000, 185.113, -107.828, -186.864, -106.541, 0.930854, 215.649, -1.30459E-005, -3.85256E-005, -1.5258, 1.71949, 2.24349, 0.456237, -0.72241, -2.16631, 0.0177703, 0.0291048
97, 0.00000, 187.117, -108.818, -188.524, -107.748, 0.769131, 217.578, -1.03723E-005, -2.92934E-005, -1.21872, 1.37147, 1.79192, 0.366345, -0.576085, -1.73204, 0.0132549, 0.02351
98, 0.00000, 188.419, -109.458, -189.607, -108.537, 0.658575, 218.837, -8.61777E-006, -2.3847E-005, -1.01892, 1.14555, 1.49788, 0.307284, -0.481025, -1.44878, 0.0106747, 0.0197862
99, 0.00000, 189.168, -109.824, -190.228, -108.99, 0.59394, 219.561, -7.63957E-006, -2.08027E-005, -0.904258, 1.01609, 1.32925, 0.273229, -0.426591, -1.28614, 0.00924265, 0.0176205
100, 0.00000, 189.539, -110.005, -190.536, -109.216, 0.561552, 219.92, -7.15378E-006, -1.93173E-005, -0.847434, 0.951978, 1.24568, 0.256305, -0.399646, -1.20551, 0.00854841, 0.0165444
101, 0.00000, 189.651, -110.06, -190.63, -109.284, 0.551648, 220.029, -7.0093E-006, -1.88849E-005, -0.830163, 0.932498, 1.22027, 0.251151, -0.391451, -1.18098, 0.00834883, 0.0162121
102, 0.00000, 189.47, -109.971, -190.477, -109.174, 0.567921, 219.852, -7.24474E-006, -1.95392E-005, -0.858156, 0.96407, 1.26151, 0.259515, -0.404757, -1.2208, 0.0086434, 0.0167582
103, 0.00000, 188.866, -109.676, -189.977, -108.807, 0.620485, 219.268, -8.04424E-006, -2.19748E-005, -0.950571, 1.06836, 1.39742, 0.287016, -0.448592, -1.3519, 0.00978373, 0.0184995
104, 0.00000, 188.488, -109.27, -189.482, -108.675, 0.485363, 218.803, -9.17503E-006, -2.09486E-005, -0.848533, 1.09401, 1.36838, 0.18587, -0.521515, -1.27617, 0.0108451, 0.0172398
105, 0.00000, 190.614, -108.95, -190.137, -110.562, -0.727879, 220.249, -1.05735E-005, 2.35363E-006, 0.452952, 0.493665, 0.199881, -0.638206, -0.651774, 0.145662, 0.00951394, -0.0034755
106, 0.00000, 192.006, -108.464, -190.343, -111.92, -1.73305, 221.076, -1.28427E-005, 1.95004E-005, 1.49964, 0.0659335, -0.693753, -1.32897, -0.802921, 1.26381, 0.00987302, -0.0202673
107, 0.00000, 200.443, -109.203, -194.646, -118.547, -5.04487, 227.804, -1.45316E-005, 8.24235E-005, 5.93559, -2.25876, -4.93692, -4.01081, -0.997036, 6.28342, 0.0129007, -0.0962694
108, 0.00000, 211.075, -110.038, -200.071, -127.004, -9.36124, 236.359, -1.62262E-005, 0.000118806, 10.2578, -4.38427, -8.97262, -6.71207, -1.30188, 11.1501, 0.0329675, -0.172556
109, 0.00000, 210.23, -109.862, -199.547, -126.378, -9.0991, 235.625, -1.676E-005, 0.000117235, 9.97719, -4.22275, -8.68957, -6.54754, -1.3022, 10.8206, 0.0313326, -0.167497
110, 0.00000, 190.927, -107.507, -189.095, -111.452, -1.9627, 219.837, -1.62825E-005, 2.12299E-005, 1.67169, 0.167748, -0.692125, -1.52772, -0.975354, 1.36117, 0.0120711, -0.022428
