hour, t(sec), V1.re, V1.im, V2.re, V2.im, V3.re, V3.im, V4.re, V4.im, I1.re, I1.im, I2.re, I2.im, I3.re, I3.im, I4.re, I4.im
1, 0.00000, 192.034, -112.205, -193.545, -110.316, 1.09547, 222.837, -5.84777E-006, -1.28352E-005, -0.538454, 0.608453, 0.794918, 0.161544, -0.256999, -0.769135, 0.00638285, 0.0119737
2, 0.00000, 192.547, -112.271, -193.803, -110.71, 0.905474, 223.246, -4.93255E-006, -1.07686E-005, -0.455781, 0.514094, 0.672223, 0.137282, -0.216825, -0.650765, 0.00531594, 0.0101582
3, 0.00000, 192.788, -112.301, -193.923, -110.895, 0.81546, 223.438, -4.50722E-006, -9.81939E-006, -0.417128, 0.470091, 0.614929, 0.125871, -0.198125, -0.595448, 0.00483185, 0.00930469
4, 0.00000, 192.895, -112.296, -193.963, -110.988, 0.758845, 223.516, -4.35881E-006, -9.48738E-006, -0.403798, 0.454829, 0.595099, 0.121981, -0.191602, -0.576333, 0.00466038, 0.00901122
5, 0.00000, 192.8, -112.277, -193.91, -110.919, 0.787257, 223.438, -4.54212E-006, -9.8949E-006, -0.420596, 0.47388, 0.619942, 0.126978, -0.199671, -0.600346, 0.0048661, 0.0093833
6, 0.00000, 192.447, -112.193, -193.703, -110.669, 0.884105, 223.141, -5.25387E-006, -1.14962E-005, -0.485723, 0.547781, 0.716262, 0.146322, -0.230966, -0.693427, 0.00568118, 0.0108197
7, 0.00000, 191.706, -112.04, -193.288, -110.133, 1.10631, 222.528, -6.69915E-006, -1.48127E-005, -0.616975, 0.697324, 0.910755, 0.184948, -0.294482, -0.881151, 0.00740216, 0.0136923
8, 0.00000, 191.21, -112.093, -193.09, -109.651, 1.42805, 222.148, -7.51323E-006, -1.65816E-005, -0.688555, 0.780322, 1.01829, 0.205252, -0.330542, -0.984275, 0.00832347, 0.0152823
9, 0.00000, 193.325, -111.399, -193.099, -111.463, 0.0932757, 223.189, -7.38486E-006, -1.59357E-005, -0.706403, 0.788589, 1.0371, 0.216663, -0.330906, -1.00534, 0.00759061, 0.0160278
10, 0.00000, 194.172, -111.076, -193.055, -112.198, -0.467977, 223.58, -7.4774E-006, -1.596E-005, -0.727526, 0.807052, 1.06488, 0.225746, -0.337295, -1.03349, 0.00741585, 0.016647
11, 0.00000, 197.798, -109.877, -193.076, -115.304, -2.76251, 225.388, -7.10474E-006, -1.43123E-005, -0.734362, 0.794349, 1.06201, 0.238372, -0.326414, -1.03571, 0.00586862, 0.0173059
12, 0.00000, 198, -109.825, -193.093, -115.475, -2.88213, 225.499, -7.03415E-006, -1.41098E-005, -0.728639, 0.787153, 1.0531, 0.237047, -0.323164, -1.02728, 0.00573918, 0.017191
13, 0.00000, 196.622, -110.276, -193.079, -114.295, -2.01277, 224.806, -7.20938E-006, -1.48226E-005, -0.731237, 0.797471, 1.06162, 0.233978, -0.329537, -1.0337, 0.00635993, 0.017078
14, 0.00000, 193.288, -111.308, -192.986, -111.451, 0.0575122, 223.103, -7.76347E-006, -1.67559E-005, -0.744254, 0.830392, 1.09243, 0.228457, -0.348378, -1.059, 0.0079695, 0.0169028
15, 0.00000, 191.391, -111.808, -192.843, -109.849, 1.18541, 222.085, -8.36222E-006, -1.84292E-005, -0.774691, 0.875251, 1.14406, 0.232185, -0.370175, -1.10629, 0.00917057, 0.0172853
16, 0.00000, 189.935, -112.034, -192.564, -108.651, 1.96045, 221.203, -9.41441E-006, -2.10246E-005, -0.851542, 0.970292, 1.26285, 0.250928, -0.412655, -1.21895, 0.0107564, 0.0187543
17, 0.00000, 189.047, -111.916, -192.115, -107.973, 2.28416, 220.496, -1.10513E-005, -2.48777E-005, -0.992003, 1.13397, 1.47363, 0.290239, -0.48345, -1.42107, 0.0128735, 0.0217417
18, 0.00000, 188.324, -111.816, -191.746, -107.418, 2.54863, 219.915, -1.2385E-005, -2.80858E-005, -1.10648, 1.26812, 1.64594, 0.321824, -0.541742, -1.58603, 0.0146654, 0.0241718
19, 0.00000, 188.04, -111.776, -191.601, -107.201, 2.65301, 219.685, -1.29029E-005, -2.93715E-005, -1.15165, 1.32124, 1.71406, 0.334178, -0.564897, -1.65118, 0.0153934, 0.0251354
20, 0.00000, 187.875, -111.752, -191.517, -107.076, 2.71294, 219.552, -1.31991E-005, -3.01236E-005, -1.1778, 1.35203, 1.75351, 0.341304, -0.578334, -1.68891, 0.0158225, 0.0256946
21, 0.00000, 188.113, -111.752, -191.613, -107.276, 2.59558, 219.731, -1.28338E-005, -2.92359E-005, -1.14734, 1.3156, 1.70707, 0.333292, -0.562201, -1.64471, 0.0153103, 0.025051
22, 0.00000, 188.692, -111.867, -191.934, -107.7, 2.41401, 220.211, -1.17094E-005, -2.64463E-005, -1.04819, 1.19974, 1.55816, 0.305792, -0.511999, -1.50202, 0.0137461, 0.0229321
23, 0.00000, 189.708, -112.004, -192.449, -108.477, 2.04363, 221.022, -9.83316E-006, -2.20036E-005, -0.887616, 1.01223, 1.31692, 0.261081, -0.430762, -1.27083, 0.0112905, 0.019524
24, 0.00000, 190.905, -112.164, -193.055, -109.393, 1.6059, 221.977, -7.64803E-006, -1.69232E-005, -0.697003, 0.791447, 1.03179, 0.206972, -0.335682, -0.99692, 0.00854758, 0.0154247
25, 0.00000, 191.808, -112.351, -193.562, -110.046, 1.33548, 222.724, -5.87301E-006, -1.28496E-005, -0.538091, 0.609364, 0.795512, 0.160761, -0.257957, -0.769238, 0.00640849, 0.011963
26, 0.00000, 192.339, -112.407, -193.82, -110.461, 1.12764, 223.143, -4.9521E-006, -1.07825E-005, -0.45551, 0.51481, 0.672695, 0.136678, -0.217572, -0.650855, 0.00533798, 0.0101495
27, 0.00000, 192.594, -112.428, -193.94, -110.663, 1.02258, 223.342, -4.52306E-006, -9.8241E-006, -0.41687, 0.470673, 0.615302, 0.12535, -0.198754, -0.595497, 0.00484522, 0.009299
28, 0.00000, 192.744, -112.394, -193.976, -110.808, 0.919888, 223.442, -4.37047E-006, -9.49269E-006, -0.40361, 0.455272, 0.595385, 0.12159, -0.192076, -0.576376, 0.00467189, 0.00900684
29, 0.00000, 192.722, -112.328, -193.916, -110.825, 0.871325, 223.399, -4.54857E-006, -9.89981E-006, -0.420504, 0.474135, 0.620112, 0.126767, -0.199934, -0.600382, 0.00487394, 0.0093807
30, 0.00000, 192.297, -112.29, -193.715, -110.49, 1.04312, 223.066, -5.26863E-006, -1.15137E-005, -0.485542, 0.548364, 0.716658, 0.145864, -0.23155, -0.693527, 0.00570353, 0.0108124
31, 0.00000, 191.45, -112.204, -193.307, -109.827, 1.37779, 222.399, -6.73242E-006, -1.48306E-005, -0.616508, 0.698512, 0.911534, 0.183933, -0.295729, -0.881293, 0.00743467, 0.0136784
32, 0.00000, 191.201, -112.098, -193.09, -109.64, 1.43723, 222.143, -7.51336E-006, -1.658E-005, -0.688531, 0.780362, 1.01831, 0.205211, -0.330587, -0.984277, 0.0083232, 0.015283
33, 0.00000, 192.597, -111.611, -193.076, -110.855, 0.527257, 222.821, -7.4841E-006, -1.63041E-005, -0.706123, 0.792186, 1.0391, 0.214574, -0.333415, -1.00636, 0.00791721, 0.0159027
34, 0.00000, 193.647, -111.242, -193.045, -111.749, -0.139889, 223.315, -7.54653E-006, -1.62172E-005, -0.727275, 0.80972, 1.06639, 0.224154, -0.339214, -1.03422, 0.00764735, 0.0165621
35, 0.00000, 195.143, -110.793, -193.07, -112.99, -1.03032, 224.061, -7.40505E-006, -1.55413E-005, -0.732993, 0.807832, 1.06974, 0.230163, -0.336343, -1.03939, 0.00699782, 0.016936
36, 0.00000, 195.403, -110.725, -193.09, -113.208, -1.18434, 224.202, -7.32039E-006, -1.53004E-005, -0.727308, 0.800226, 1.06059, 0.229078, -0.332798, -1.03084, 0.00683476, 0.0168365
37, 0.00000, 194.44, -111.023, -193.065, -112.389, -0.588101, 223.712, -7.46677E-006, -1.58321E-005, -0.730048, 0.80855, 1.06795, 0.227197, -0.337723, -1.03668, 0.00728577, 0.0167652
38, 0.00000, 192.706, -111.519, -192.982, -110.925, 0.457697, 222.809, -7.84333E-006, -1.70116E-005, -0.743809, 0.833448, 1.09418, 0.2265, -0.350737, -1.05975, 0.00820655, 0.0168153
39, 0.00000, 190.889, -111.964, -192.828, -109.416, 1.50145, 221.829, -8.44538E-006, -1.86934E-005, -0.774392, 0.878014, 1.14561, 0.230516, -0.372182, -1.10703, 0.00940621, 0.0171886
40, 0.00000, 190.369, -111.763, -192.538, -109.165, 1.50682, 221.422, -9.3217E-006, -2.09862E-005, -0.85263, 0.967505, 1.26101, 0.253291, -0.409746, -1.21861, 0.0106871, 0.0187972
41, 0.00000, 189.059, -111.908, -192.114, -107.986, 2.27207, 220.502, -1.10474E-005, -2.48749E-005, -0.992048, 1.13389, 1.47359, 0.290316, -0.483368, -1.42108, 0.0128703, 0.0217447
42, 0.00000, 188.324, -111.816, -191.746, -107.418, 2.54869, 219.915, -1.23837E-005, -2.80849E-005, -1.10649, 1.26813, 1.64596, 0.321823, -0.541752, -1.58604, 0.0146651, 0.0241736
43, 0.00000, 188.04, -111.776, -191.601, -107.201, 2.65279, 219.685, -1.29036E-005, -2.93703E-005, -1.15164, 1.32123, 1.71405, 0.334177, -0.564892, -1.65117, 0.0153922, 0.0251349
44, 0.00000, 187.875, -111.752, -191.517, -107.076, 2.71283, 219.552, -1.31995E-005, -3.01225E-005, -1.17779, 1.35203, 1.7535, 0.341303, -0.578332, -1.6889, 0.0158216, 0.0256944
45, 0.00000, 188.068, -111.78, -191.615, -107.222, 2.64296, 219.707, -1.28447E-005, -2.92458E-005, -1.14719, 1.31599, 1.70732, 0.332956, -0.562614, -1.64475, 0.0153243, 0.0250454
46, 0.00000, 188.691, -111.867, -191.934, -107.7, 2.41406, 220.211, -1.17095E-005, -2.64462E-005, -1.04819, 1.19974, 1.55816, 0.305791, -0.512, -1.50202, 0.0137459, 0.0229321
47, 0.00000, 189.708, -112.004, -192.449, -108.477, 2.04349, 221.022, -9.83392E-006, -2.20067E-005, -0.887615, 1.01223, 1.31691, 0.261081, -0.430758, -1.27082, 0.0112927, 0.0195225
48, 0.00000, 190.905, -112.164, -193.055, -109.393, 1.6059, 221.977, -7.64803E-006, -1.69232E-005, -0.697003, 0.791447, 1.03179, 0.206972, -0.335682, -0.99692, 0.00854758, 0.0154247
49, 0.00000, 191.895, -112.295, -193.556, -110.15, 1.24315, 222.767, -5.86252E-006, -1.28422E-005, -0.538226, 0.609008, 0.795279, 0.161061, -0.257587, -0.769195, 0.00639736, 0.0119681
50, 0.00000, 192.407, -112.362, -193.815, -110.542, 1.05496, 223.177, -4.94573E-006, -1.07761E-005, -0.455593, 0.514574, 0.672539, 0.136872, -0.217329, -0.650823, 0.00532934, 0.0101527
51, 0.00000, 192.508, -112.483, -193.947, -110.56, 1.11442, 223.299, -4.53061E-006, -9.82695E-006, -0.416758, 0.470941, 0.615476, 0.125115, -0.199038, -0.595525, 0.00485172, 0.00929608
52, 0.00000, 192.591, -112.494, -193.988, -110.623, 1.08413, 223.365, -4.38336E-006, -9.50019E-006, -0.403428, 0.455745, 0.595697, 0.121189, -0.192571, -0.576436, 0.00468512, 0.00900157
53, 0.00000, 192.487, -112.481, -193.936, -110.544, 1.12225, 223.282, -4.56842E-006, -9.9108E-006, -0.420209, 0.474876, 0.620598, 0.126131, -0.200714, -0.600469, 0.00489434, 0.00937279
54, 0.00000, 192.083, -112.428, -193.732, -110.235, 1.2707, 222.96, -5.28951E-006, -1.15239E-005, -0.485231, 0.549139, 0.717165, 0.145197, -0.232368, -0.693616, 0.00572389, 0.0108043
55, 0.00000, 191.647, -112.078, -193.292, -110.062, 1.16917, 222.498, -6.70601E-006, -1.48175E-005, -0.616872, 0.697604, 0.91094, 0.184715, -0.294772, -0.881191, 0.00741041, 0.0136897
56, 0.00000, 191.209, -112.012, -193.065, -109.731, 1.32306, 222.145, -7.51225E-006, -1.66758E-005, -0.68892, 0.780248, 1.01812, 0.20561, -0.330079, -0.984439, 0.00839046, 0.0152565
57, 0.00000, 191.592, -111.925, -193.05, -109.992, 1.15788, 222.311, -7.62867E-006, -1.67859E-005, -0.705604, 0.797196, 1.04193, 0.21156, -0.337042, -1.0077, 0.00834808, 0.0157317
58, 0.00000, 191.917, -111.779, -193.002, -110.271, 0.935834, 222.439, -7.79012E-006, -1.70771E-005, -0.726422, 0.818558, 1.07136, 0.218877, -0.345562, -1.03663, 0.00841716, 0.0162669
59, 0.00000, 192.366, -111.627, -192.999, -110.657, 0.649486, 222.657, -7.77642E-006, -1.6967E-005, -0.731849, 0.822013, 1.07767, 0.221866, -0.346318, -1.04338, 0.00827035, 0.0164657
60, 0.00000, 192.4, -111.632, -193.017, -110.684, 0.636827, 222.685, -7.71321E-006, -1.68221E-005, -0.726064, 0.815416, 1.06909, 0.22017, -0.343505, -1.0351, 0.00819523, 0.0163381
61, 0.00000, 192.141, -111.703, -193, -110.464, 0.792971, 222.548, -7.78221E-006, -1.70194E-005, -0.729115, 0.820268, 1.07449, 0.220363, -0.345935, -1.03998, 0.00834203, 0.0163672
62, 0.00000, 191.572, -111.838, -192.941, -109.986, 1.12263, 222.233, -8.01494E-006, -1.76301E-005, -0.743377, 0.839373, 1.09747, 0.223093, -0.354828, -1.06144, 0.00875095, 0.0165995
63, 0.00000, 191.378, -111.812, -192.843, -109.838, 1.19341, 222.078, -8.36442E-006, -1.84363E-005, -0.774684, 0.875321, 1.1441, 0.232142, -0.370226, -1.10631, 0.0091769, 0.0172826
64, 0.00000, 189.935, -112.034, -192.564, -108.651, 1.96046, 221.203, -9.41452E-006, -2.1025E-005, -0.851543, 0.970293, 1.26286, 0.250928, -0.412655, -1.21895, 0.0107566, 0.0187542
65, 0.00000, 189.047, -111.916, -192.115, -107.973, 2.28409, 220.496, -1.10479E-005, -2.48713E-005, -0.991988, 1.13394, 1.47361, 0.290239, -0.483442, -1.42106, 0.0128692, 0.0217454
66, 0.00000, 188.369, -111.788, -191.744, -107.471, 2.50167, 219.938, -1.23691E-005, -2.80768E-005, -1.10665, 1.26777, 1.64573, 0.322147, -0.541367, -1.58602, 0.0146539, 0.0241823
67, 0.00000, 188.04, -111.776, -191.601, -107.201, 2.6529, 219.685, -1.29041E-005, -2.93708E-005, -1.15164, 1.32123, 1.71405, 0.334176, -0.564893, -1.65117, 0.0153926, 0.0251344
68, 0.00000, 187.875, -111.752, -191.517, -107.076, 2.71291, 219.552, -1.31996E-005, -3.01229E-005, -1.1778, 1.35203, 1.75351, 0.341303, -0.578333, -1.6889, 0.015822, 0.0256943
69, 0.00000, 188.068, -111.78, -191.615, -107.222, 2.64286, 219.707, -1.28448E-005, -2.92453E-005, -1.14719, 1.31599, 1.70732, 0.332957, -0.562612, -1.64475, 0.0153239, 0.0250454
70, 0.00000, 188.692, -111.867, -191.934, -107.7, 2.41402, 220.211, -1.17093E-005, -2.64462E-005, -1.04819, 1.19974, 1.55816, 0.305792, -0.511999, -1.50202, 0.013746, 0.0229322
71, 0.00000, 189.708, -112.004, -192.449, -108.477, 2.04346, 221.022, -9.83351E-006, -2.20062E-005, -0.887616, 1.01222, 1.31691, 0.261082, -0.430758, -1.27082, 0.0112925, 0.0195229
72, 0.00000, 190.905, -112.164, -193.055, -109.393, 1.60588, 221.977, -7.64783E-006, -1.69228E-005, -0.697003, 0.791446, 1.03179, 0.206972, -0.335682, -0.99692, 0.00854734, 0.015425
73, 0.00000, 191.652, -112.263, -193.433, -109.964, 1.3323, 222.573, -6.29961E-006, -1.38345E-005, -0.577301, 0.653786, 0.8534, 0.172429, -0.276715, -0.825202, 0.00691561, 0.0128217
74, 0.00000, 192.213, -112.337, -193.717, -110.394, 1.12619, 223.022, -5.29241E-006, -1.15551E-005, -0.486857, 0.550264, 0.718949, 0.146046, -0.23253, -0.695595, 0.00573068, 0.0108397
75, 0.00000, 192.516, -112.377, -193.87, -110.626, 1.0148, 223.264, -4.75051E-006, -1.03385E-005, -0.437924, 0.494427, 0.646326, 0.131674, -0.208756, -0.625526, 0.00510481, 0.00976363
76, 0.00000, 192.655, -112.395, -193.94, -110.732, 0.963687, 223.375, -4.50253E-006, -9.78403E-006, -0.415456, 0.46883, 0.613007, 0.125051, -0.19787, -0.593365, 0.00482117, 0.00926844
77, 0.00000, 192.657, -112.395, -193.941, -110.733, 0.963228, 223.376, -4.50028E-006, -9.77888E-006, -0.41526, 0.468607, 0.612718, 0.124993, -0.197776, -0.593086, 0.00481847, 0.00926428
78, 0.00000, 192.521, -112.377, -193.872, -110.629, 1.01328, 223.267, -4.74293E-006, -1.03212E-005, -0.437273, 0.493685, 0.645361, 0.131482, -0.20844, -0.624596, 0.0050957, 0.00974991
79, 0.00000, 192.205, -112.336, -193.713, -110.388, 1.12912, 223.015, -5.3063E-006, -1.15858E-005, -0.48818, 0.551774, 0.720915, 0.146435, -0.233174, -0.697493, 0.00574609, 0.01087
80, 0.00000, 191.84, -112.185, -193.417, -110.129, 1.20403, 222.655, -6.35257E-006, -1.39268E-005, -0.584787, 0.661289, 0.863852, 0.175153, -0.279642, -0.835534, 0.00692911, 0.0130182
81, 0.00000, 192.318, -111.622, -192.977, -110.621, 0.667919, 222.62, -7.85465E-006, -1.71458E-005, -0.738961, 0.830151, 1.08825, 0.223937, -0.349796, -1.05356, 0.00836348, 0.0166226
82, 0.00000, 192.65, -111.133, -192.563, -110.981, 0.239125, 222.531, -9.22284E-006, -2.00533E-005, -0.883036, 0.98672, 1.29723, 0.270095, -0.414584, -1.25679, 0.00961722, 0.0200277
83, 0.00000, 193.836, -110.557, -192.367, -112.033, -0.61631, 222.995, -9.75782E-006, -2.08827E-005, -0.960133, 1.06237, 1.40392, 0.298959, -0.443669, -1.36252, 0.00964213, 0.0220691
84, 0.00000, 193.653, -110.537, -192.278, -111.893, -0.547341, 222.85, -1.00632E-005, -2.15821E-005, -0.989178, 1.09522, 1.44688, 0.30759, -0.457638, -1.40395, 0.00999681, 0.0227232
85, 0.00000, 192.862, -110.747, -192.22, -111.225, -0.0761261, 222.426, -1.03334E-005, -2.23958E-005, -1.00229, 1.11553, 1.46975, 0.308661, -0.467723, -1.42466, 0.0105995, 0.0228692
86, 0.00000, 191.065, -111.244, -192.111, -109.705, 1.0047, 221.477, -1.08755E-005, -2.40632E-005, -1.02072, 1.14983, 1.50555, 0.307226, -0.485858, -1.45589, 0.011906, 0.0228995
87, 0.00000, 188.714, -112.057, -192.012, -107.54, 2.64009, 220.239, -1.15947E-005, -2.58696E-005, -1.0373, 1.18893, 1.54432, 0.301775, -0.508807, -1.48765, 0.0133842, 0.022819
88, 0.00000, 188.118, -112.165, -191.923, -107.048, 2.96859, 219.887, -1.19092E-005, -2.68032E-005, -1.05778, 1.21686, 1.57763, 0.305413, -0.521967, -1.51863, 0.0140288, 0.0231613
89, 0.00000, 188.164, -111.882, -191.73, -107.246, 2.68742, 219.818, -1.24797E-005, -2.82922E-005, -1.11297, 1.27719, 1.65696, 0.32286, -0.546313, -1.59607, 0.0148029, 0.0243175
90, 0.00000, 188.38, -111.606, -191.613, -107.583, 2.33202, 219.879, -1.27494E-005, -2.9106E-005, -1.14433, 1.30898, 1.6999, 0.334048, -0.558009, -1.6389, 0.015195, 0.0249761
91, 0.00000, 188.881, -111.328, -191.609, -108.158, 1.83907, 220.147, -1.2561E-005, -2.88752E-005, -1.13979, 1.29787, 1.68812, 0.335745, -0.550762, -1.62964, 0.0149927, 0.024898
92, 0.00000, 188.158, -111.792, -191.661, -107.291, 2.60974, 219.78, -1.26866E-005, -2.88358E-005, -1.13291, 1.29919, 1.68579, 0.329058, -0.555286, -1.62415, 0.0150897, 0.0247374
93, 0.00000, 188.433, -111.831, -191.802, -107.501, 2.50921, 220.002, -1.21812E-005, -2.75925E-005, -1.08925, 1.24789, 1.61999, 0.317091, -0.532948, -1.5612, 0.0143876, 0.0238108
94, 0.00000, 188.97, -111.905, -192.076, -107.914, 2.31215, 220.435, -1.11955E-005, -2.52164E-005, -1.00411, 1.14812, 1.49183, 0.293597, -0.489588, -1.4385, 0.0130613, 0.0219957
95, 0.00000, 189.743, -112.009, -192.467, -108.504, 2.03062, 221.05, -9.76884E-006, -2.18549E-005, -0.88203, 1.00573, 1.30854, 0.259512, -0.427951, -1.26279, 0.0112099, 0.0194034
96, 0.00000, 190.677, -112.133, -192.94, -109.218, 1.6893, 221.795, -8.06157E-006, -1.78781E-005, -0.733412, 0.833468, 1.08615, 0.217393, -0.35373, -1.0492, 0.00905773, 0.0162123
97, 0.00000, 191.571, -112.252, -193.392, -109.902, 1.36201, 222.508, -6.44462E-006, -1.41646E-005, -0.59033, 0.668732, 0.872793, 0.17621, -0.283107, -0.843885, 0.00708826, 0.0131074
98, 0.00000, 192.157, -112.329, -193.688, -110.351, 1.14676, 222.977, -5.39267E-006, -1.17809E-005, -0.49591, 0.560606, 0.732393, 0.148698, -0.236938, -0.708562, 0.00584729, 0.0110388
99, 0.00000, 192.495, -112.374, -193.859, -110.61, 1.02252, 223.247, -4.78801E-006, -1.04225E-005, -0.441317, 0.498295, 0.651359, 0.132673, -0.210401, -0.630384, 0.00514789, 0.00983833
100, 0.00000, 192.663, -112.396, -193.944, -110.739, 0.960744, 223.382, -4.48826E-006, -9.75224E-006, -0.414159, 0.467354, 0.611085, 0.124668, -0.197243, -0.59151, 0.00480497, 0.00923979
101, 0.00000, 192.714, -112.403, -193.97, -110.778, 0.941966, 223.422, -4.39695E-006, -9.5495E-006, -0.405864, 0.45791, 0.598787, 0.122219, -0.193228, -0.579636, 0.00470187, 0.00905635
102, 0.00000, 192.631, -112.392, -193.928, -110.714, 0.972383, 223.356, -4.54515E-006, -9.87716E-006, -0.419358, 0.473274, 0.618796, 0.126203, -0.199761, -0.598955, 0.00486798, 0.00935564
103, 0.00000, 192.359, -112.356, -193.79, -110.505, 1.0728, 223.138, -5.0321E-006, -1.09694E-005, -0.463436, 0.523522, 0.684179, 0.139177, -0.22114, -0.662056, 0.00542843, 0.010326
104, 0.00000, 192.117, -112.222, -193.557, -110.341, 1.10259, 222.877, -5.85462E-006, -1.27979E-005, -0.539964, 0.610007, 0.797231, 0.162072, -0.257754, -0.771317, 0.00634232, 0.0120351
105, 0.00000, 192.646, -111.668, -193.146, -110.871, 0.54905, 222.885, -7.26087E-006, -1.57924E-005, -0.684506, 0.768107, 1.00746, 0.207941, -0.323354, -0.975674, 0.00766518, 0.0154181
106, 0.00000, 192.909, -111.171, -192.699, -111.178, 0.146588, 222.741, -8.75024E-006, -1.89693E-005, -0.839038, 0.936742, 1.23203, 0.257116, -0.393299, -1.19394, 0.00906033, 0.0190483
107, 0.00000, 195.943, -110.121, -192.527, -113.644, -1.66835, 224.103, -9.21608E-006, -1.88416E-005, -0.93761, 1.02434, 1.36378, 0.298782, -0.425019, -1.3263, 0.00806684, 0.0220215
108, 0.00000, 199.701, -108.75, -192.426, -116.885, -4.11674, 225.91, -9.07152E-006, -1.71934E-005, -0.978236, 1.04048, 1.40496, 0.326449, -0.423832, -1.37334, 0.0061787, 0.0236098
109, 0.00000, 199.354, -108.8, -192.354, -116.604, -3.9382, 225.694, -9.32884E-006, -1.78099E-005, -1.00274, 1.06852, 1.44142, 0.333551, -0.435849, -1.40842, 0.00650426, 0.0241601
