hour, t(sec), V1.re, V1.im, V2.re, V2.im, V3.re, V3.im, V4.re, V4.im, I1.re, I1.im, I2.re, I2.im, I3.re, I3.im, I4.re, I4.im
1, 0.00000, 191.932, -112.168, -193.485, -110.235, 1.12964, 222.776, -5.86802E-006, -8.59775E-006, -0.386371, 0.436673, 0.570435, 0.115817, -0.184475, -0.551806, 0.00627945, 0.0079134
2, 0.00000, 192.464, -112.241, -193.755, -110.644, 0.933919, 223.198, -4.95282E-006, -7.20816E-006, -0.327024, 0.368914, 0.482347, 0.0984301, -0.155617, -0.46686, 0.0052473, 0.00672382
3, 0.00000, 192.714, -112.274, -193.881, -110.836, 0.841182, 223.396, -4.52718E-006, -6.57049E-006, -0.299279, 0.33732, 0.441218, 0.0902519, -0.142187, -0.427164, 0.00477583, 0.00616273
4, 0.00000, 192.829, -112.272, -193.926, -110.934, 0.782844, 223.481, -4.37854E-006, -6.34706E-006, -0.289707, 0.326355, 0.426974, 0.0874634, -0.137499, -0.413442, 0.00460963, 0.00597067
5, 0.00000, 192.733, -112.252, -193.872, -110.864, 0.812115, 223.402, -4.56208E-006, -6.62049E-006, -0.301761, 0.340028, 0.444803, 0.0910452, -0.143291, -0.430669, 0.00481084, 0.006216
6, 0.00000, 192.374, -112.166, -193.663, -110.609, 0.911895, 223.104, -5.27478E-006, -7.69499E-006, -0.348494, 0.393067, 0.513923, 0.104909, -0.165757, -0.497442, 0.00560334, 0.00716106
7, 0.00000, 191.619, -112.007, -193.24, -110.059, 1.14082, 222.485, -6.72093E-006, -9.92365E-006, -0.442689, 0.500413, 0.653515, 0.132587, -0.211364, -0.632118, 0.00725966, 0.00904148
8, 0.00000, 191.034, -112.03, -193.004, -109.537, 1.46342, 222.045, -7.42886E-006, -1.12027E-005, -0.494205, 0.560251, 0.730861, 0.147125, -0.237314, -0.706284, 0.00808691, 0.0101118
9, 0.00000, 193.031, -111.324, -193.152, -111.45, 0.00865385, 223.135, -6.36883E-006, -1.14343E-005, -0.507145, 0.566565, 0.743782, 0.155255, -0.237136, -0.721377, 0.00686745, 0.0109919
10, 0.00000, 193.824, -110.995, -193.169, -112.229, -0.605318, 223.545, -6.03517E-006, -1.1739E-005, -0.522374, 0.580009, 0.763448, 0.161738, -0.241516, -0.74156, 0.00647752, 0.0115525
11, 0.00000, 197.257, -109.782, -193.427, -115.519, -3.10858, 225.435, -3.95124E-006, -1.15616E-005, -0.527498, 0.571497, 0.760363, 0.170683, -0.232938, -0.743084, 0.00402405, 0.0124656
12, 0.00000, 197.451, -109.729, -193.456, -115.699, -3.23843, 225.55, -3.79591E-006, -1.14541E-005, -0.523395, 0.566345, 0.75393, 0.16973, -0.230579, -0.737027, 0.00384012, 0.012407
13, 0.00000, 196.145, -110.185, -193.352, -114.449, -2.28992, 224.826, -4.63014E-006, -1.16186E-005, -0.525182, 0.57354, 0.76042, 0.16757, -0.235432, -0.741668, 0.00482382, 0.0121769
14, 0.00000, 192.975, -111.229, -193.047, -111.442, -0.0352435, 223.047, -6.66667E-006, -1.20661E-005, -0.534347, 0.596661, 0.783432, 0.163696, -0.24963, -0.759888, 0.00721255, 0.011597
15, 0.00000, 191.158, -111.734, -192.79, -109.754, 1.18792, 221.985, -7.98412E-006, -1.26894E-005, -0.556116, 0.62861, 0.820994, 0.1664, -0.265648, -0.79387, 0.00875362, 0.0115491
16, 0.00000, 189.732, -111.958, -192.439, -108.497, 2.02008, 221.07, -9.41718E-006, -1.41288E-005, -0.611265, 0.696747, 0.906635, 0.17984, -0.296406, -0.874769, 0.0104538, 0.0123113
17, 0.00000, 188.812, -111.827, -191.969, -107.795, 2.35311, 220.342, -1.10373E-005, -1.67386E-005, -0.712183, 0.814428, 1.05811, 0.207982, -0.347336, -1.0199, 0.0124456, 0.0142297
18, 0.00000, 188.062, -111.717, -191.584, -107.22, 2.62512, 219.744, -1.23599E-005, -1.89155E-005, -0.794449, 0.910913, 1.18197, 0.230584, -0.389287, -1.13836, 0.0141222, 0.0157825
19, 0.00000, 187.768, -111.672, -191.432, -106.995, 2.73245, 219.507, -1.28768E-005, -1.97894E-005, -0.826919, 0.949128, 1.23095, 0.239423, -0.405955, -1.18516, 0.0148009, 0.0163965
20, 0.00000, 187.597, -111.646, -191.344, -106.865, 2.79408, 219.37, -1.31737E-005, -2.03007E-005, -0.845715, 0.971284, 1.25932, 0.244521, -0.415629, -1.21226, 0.0151998, 0.0167523
21, 0.00000, 187.851, -111.653, -191.452, -107.076, 2.67344, 219.562, -1.28111E-005, -1.96945E-005, -0.823794, 0.945025, 1.22587, 0.238791, -0.403993, -1.18047, 0.0147236, 0.0163466
22, 0.00000, 188.443, -111.773, -191.78, -107.512, 2.48666, 220.049, -1.16885E-005, -1.78027E-005, -0.752562, 0.86173, 1.11887, 0.219112, -0.36788, -1.07803, 0.0132629, 0.0149909
23, 0.00000, 189.496, -111.925, -192.318, -108.317, 2.10566, 220.883, -9.83189E-006, -1.47914E-005, -0.637181, 0.726895, 0.945486, 0.187109, -0.309431, -0.912019, 0.0109578, 0.0128067
24, 0.00000, 190.738, -112.101, -192.952, -109.266, 1.65519, 221.866, -7.66148E-006, -1.13574E-005, -0.500262, 0.568209, 0.740626, 0.148361, -0.241058, -0.715369, 0.00835602, 0.0101572
25, 0.00000, 191.659, -112.296, -193.468, -109.935, 1.37677, 222.62, -5.89017E-006, -8.61422E-006, -0.386178, 0.437439, 0.57098, 0.115254, -0.185216, -0.551978, 0.00630446, 0.00789928
26, 0.00000, 192.212, -112.36, -193.74, -110.367, 1.16275, 223.055, -4.96991E-006, -7.22306E-006, -0.326883, 0.369517, 0.482779, 0.0979962, -0.156195, -0.467002, 0.00526853, 0.00671249
27, 0.00000, 192.48, -112.386, -193.867, -110.578, 1.05456, 223.263, -4.54089E-006, -6.57827E-006, -0.29914, 0.337813, 0.441565, 0.0898772, -0.142674, -0.427267, 0.00479003, 0.00615489
28, 0.00000, 192.647, -112.359, -193.916, -110.734, 0.948776, 223.377, -4.38879E-006, -6.35405E-006, -0.289606, 0.326729, 0.427239, 0.0871828, -0.137866, -0.413522, 0.00462129, 0.00596454
29, 0.00000, 192.638, -112.297, -193.866, -110.759, 0.898742, 223.348, -4.56794E-006, -6.62556E-006, -0.301713, 0.340242, 0.444957, 0.0908935, -0.143494, -0.430722, 0.00481821, 0.00621227
30, 0.00000, 192.194, -112.251, -193.653, -110.41, 1.07571, 223.001, -5.28828E-006, -7.71068E-006, -0.348404, 0.393551, 0.514277, 0.10458, -0.166208, -0.497572, 0.00562316, 0.00715119
31, 0.00000, 191.31, -112.152, -193.221, -109.72, 1.42037, 222.309, -6.75009E-006, -9.94452E-006, -0.442442, 0.501412, 0.65423, 0.131857, -0.212329, -0.632348, 0.00729159, 0.00902317
32, 0.00000, 191.023, -112.035, -193.003, -109.526, 1.47299, 222.039, -7.43062E-006, -1.12007E-005, -0.49419, 0.560283, 0.730882, 0.147096, -0.237349, -0.706289, 0.00808794, 0.0101117
33, 0.00000, 192.351, -111.543, -193.087, -110.812, 0.48366, 222.756, -6.79891E-006, -1.14571E-005, -0.506885, 0.568994, 0.745397, 0.153774, -0.239079, -0.722093, 0.00736575, 0.0107815
34, 0.00000, 193.325, -111.163, -193.124, -111.755, -0.247951, 223.268, -6.33651E-006, -1.17651E-005, -0.522164, 0.581838, 0.764674, 0.160609, -0.243002, -0.742096, 0.00682889, 0.0114147
35, 0.00000, 194.71, -110.697, -193.236, -113.058, -1.22608, 224.028, -5.45725E-006, -1.17719E-005, -0.526417, 0.580845, 0.766708, 0.164874, -0.240635, -0.745851, 0.00580028, 0.0119042
36, 0.00000, 194.959, -110.629, -193.272, -113.289, -1.39319, 224.174, -5.26605E-006, -1.16653E-005, -0.522348, 0.575414, 0.760081, 0.164091, -0.238048, -0.73971, 0.00558057, 0.0118702
37, 0.00000, 194.046, -110.931, -193.187, -112.424, -0.743479, 223.663, -5.84807E-006, -1.17698E-005, -0.524256, 0.581231, 0.765623, 0.162767, -0.241776, -0.743916, 0.00625774, 0.0116872
38, 0.00000, 192.401, -111.435, -192.998, -110.88, 0.395168, 222.726, -6.96095E-006, -1.20959E-005, -0.534035, 0.598828, 0.784897, 0.162305, -0.251457, -0.760491, 0.00755572, 0.0114541
39, 0.00000, 190.677, -111.891, -192.742, -109.296, 1.53066, 221.716, -8.26408E-006, -1.2711E-005, -0.555879, 0.630516, 0.822267, 0.165215, -0.267202, -0.794413, 0.00907814, 0.0113934
40, 0.00000, 190.255, -111.72, -192.477, -109.068, 1.55337, 221.369, -9.33948E-006, -1.40816E-005, -0.61184, 0.694406, 0.904953, 0.18154, -0.294157, -0.874226, 0.0103837, 0.0123613
41, 0.00000, 188.826, -111.82, -191.97, -107.81, 2.34068, 220.35, -1.10342E-005, -1.67362E-005, -0.71221, 0.814365, 1.05807, 0.208037, -0.347272, -1.0199, 0.0124429, 0.0142325
42, 0.00000, 188.062, -111.717, -191.584, -107.22, 2.62517, 219.744, -1.23591E-005, -1.89152E-005, -0.794457, 0.910925, 1.18199, 0.230584, -0.389294, -1.13838, 0.0141223, 0.0157837
43, 0.00000, 187.768, -111.672, -191.432, -106.995, 2.73222, 219.507, -1.28773E-005, -1.97883E-005, -0.826913, 0.94912, 1.23094, 0.239423, -0.405952, -1.18515, 0.0147997, 0.0163963
44, 0.00000, 187.597, -111.646, -191.344, -106.865, 2.79397, 219.37, -1.3174E-005, -2.02998E-005, -0.845712, 0.971279, 1.25931, 0.244521, -0.415627, -1.21225, 0.0151989, 0.0167522
45, 0.00000, 187.796, -111.677, -191.447, -107.017, 2.7221, 219.53, -1.28209E-005, -1.97043E-005, -0.823713, 0.945356, 1.22611, 0.238549, -0.404312, -1.18054, 0.0147365, 0.0163394
46, 0.00000, 188.443, -111.773, -191.78, -107.512, 2.48671, 220.049, -1.16886E-005, -1.78027E-005, -0.752563, 0.861731, 1.11887, 0.219112, -0.367881, -1.07803, 0.0132628, 0.0149909
47, 0.00000, 189.496, -111.925, -192.318, -108.317, 2.10552, 220.883, -9.83236E-006, -1.47935E-005, -0.63718, 0.726893, 0.945481, 0.187109, -0.309428, -0.912014, 0.0109594, 0.0128055
48, 0.00000, 190.738, -112.101, -192.952, -109.266, 1.65519, 221.866, -7.66147E-006, -1.13574E-005, -0.500262, 0.568209, 0.740626, 0.148361, -0.241058, -0.715369, 0.00835602, 0.0101572
49, 0.00000, 191.764, -112.246, -193.474, -110.051, 1.28171, 222.68, -5.88113E-006, -8.60658E-006, -0.386249, 0.437141, 0.570766, 0.11547, -0.18493, -0.551909, 0.00629391, 0.00790549
50, 0.00000, 192.295, -112.321, -193.745, -110.457, 1.0879, 223.102, -4.96439E-006, -7.21676E-006, -0.326925, 0.369319, 0.482636, 0.0981354, -0.156007, -0.466954, 0.00526042, 0.00671657
51, 0.00000, 192.376, -112.435, -193.861, -110.464, 1.14913, 223.204, -4.54751E-006, -6.58203E-006, -0.29908, 0.338039, 0.441725, 0.0897087, -0.142894, -0.427317, 0.0047965, 0.00615098
52, 0.00000, 192.461, -112.447, -193.905, -110.529, 1.11794, 223.272, -4.40011E-006, -6.36265E-006, -0.289511, 0.327127, 0.427525, 0.0868951, -0.138248, -0.413617, 0.00463427, 0.00595744
53, 0.00000, 192.354, -112.432, -193.85, -110.447, 1.1572, 223.186, -4.58548E-006, -6.63835E-006, -0.301557, 0.340865, 0.445403, 0.0904368, -0.144098, -0.430865, 0.00483818, 0.00620145
54, 0.00000, 191.935, -112.373, -193.637, -110.126, 1.31006, 222.854, -5.30675E-006, -7.72318E-006, -0.348239, 0.394203, 0.514743, 0.1041, -0.166841, -0.49772, 0.00564333, 0.00714005
55, 0.00000, 191.548, -112.041, -193.236, -109.981, 1.20556, 222.444, -6.72709E-006, -9.92892E-006, -0.442637, 0.500648, 0.653685, 0.132419, -0.211589, -0.632177, 0.00726762, 0.00903772
56, 0.00000, 191.095, -111.97, -193, -109.638, 1.36406, 222.083, -7.53135E-006, -1.11808E-005, -0.494361, 0.560004, 0.730643, 0.147388, -0.236956, -0.70627, 0.00820561, 0.0100585
57, 0.00000, 191.392, -111.86, -192.995, -109.9, 1.16859, 222.221, -7.35427E-006, -1.1486E-005, -0.506467, 0.572443, 0.747701, 0.151635, -0.241887, -0.723084, 0.00800672, 0.0104926
58, 0.00000, 191.683, -111.708, -192.97, -110.195, 0.92285, 222.352, -7.31876E-006, -1.18348E-005, -0.521455, 0.587895, 0.768722, 0.156866, -0.247919, -0.743854, 0.00797079, 0.0109276
59, 0.00000, 192.106, -111.553, -192.997, -110.603, 0.610651, 222.581, -7.10426E-006, -1.19082E-005, -0.525381, 0.590461, 0.773123, 0.158997, -0.248362, -0.748693, 0.00772349, 0.0111427
60, 0.00000, 192.143, -111.558, -193.016, -110.63, 0.597637, 222.609, -7.0411E-006, -1.18081E-005, -0.521225, 0.585719, 0.76696, 0.157782, -0.246343, -0.742752, 0.00764925, 0.0110592
61, 0.00000, 191.894, -111.631, -192.984, -110.398, 0.767109, 222.466, -7.21136E-006, -1.18695E-005, -0.523403, 0.589165, 0.770906, 0.157926, -0.248137, -0.746257, 0.00784605, 0.0110361
62, 0.00000, 191.346, -111.766, -192.892, -109.896, 1.12377, 222.138, -7.6427E-006, -1.2138E-005, -0.533621, 0.602816, 0.78754, 0.15989, -0.254625, -0.761668, 0.00834813, 0.0111008
63, 0.00000, 191.145, -111.738, -192.789, -109.742, 1.19662, 221.978, -7.99158E-006, -1.26901E-005, -0.556109, 0.628658, 0.821026, 0.16637, -0.265687, -0.793883, 0.00876227, 0.0115449
64, 0.00000, 189.732, -111.958, -192.439, -108.497, 2.02009, 221.07, -9.41725E-006, -1.4129E-005, -0.611265, 0.696747, 0.906635, 0.17984, -0.296406, -0.874769, 0.0104539, 0.0123112
65, 0.00000, 188.812, -111.827, -191.969, -107.795, 2.35303, 220.342, -1.1035E-005, -1.67338E-005, -0.712172, 0.81441, 1.05809, 0.207981, -0.34733, -1.01989, 0.0124423, 0.0142327
66, 0.00000, 188.117, -111.693, -191.588, -107.279, 2.57686, 219.775, -1.23469E-005, -1.89071E-005, -0.794544, 0.910619, 1.18178, 0.230817, -0.388996, -1.13832, 0.014112, 0.0157929
67, 0.00000, 187.768, -111.672, -191.432, -106.995, 2.73234, 219.507, -1.28775E-005, -1.97888E-005, -0.826913, 0.949121, 1.23094, 0.239422, -0.405952, -1.18515, 0.0148001, 0.0163959
68, 0.00000, 187.597, -111.646, -191.344, -106.865, 2.79405, 219.37, -1.3174E-005, -2.03002E-005, -0.845713, 0.971281, 1.25932, 0.24452, -0.415628, -1.21225, 0.0151993, 0.0167522
69, 0.00000, 187.797, -111.677, -191.447, -107.017, 2.722, 219.53, -1.2821E-005, -1.97039E-005, -0.823712, 0.945354, 1.22611, 0.238549, -0.40431, -1.18054, 0.0147361, 0.0163394
70, 0.00000, 188.443, -111.773, -191.78, -107.512, 2.48667, 220.049, -1.16884E-005, -1.78027E-005, -0.752563, 0.86173, 1.11887, 0.219112, -0.36788, -1.07803, 0.0132628, 0.014991
71, 0.00000, 189.496, -111.925, -192.318, -108.317, 2.10549, 220.883, -9.8321E-006, -1.47933E-005, -0.63718, 0.726892, 0.945481, 0.18711, -0.309427, -0.912014, 0.0109593, 0.0128058
72, 0.00000, 190.738, -112.101, -192.951, -109.266, 1.65517, 221.866, -7.66136E-006, -1.13572E-005, -0.500262, 0.568208, 0.740626, 0.148361, -0.241058, -0.715369, 0.00835583, 0.0101574
73, 0.00000, 191.512, -112.211, -193.346, -109.858, 1.37351, 222.48, -6.31739E-006, -9.27477E-006, -0.414304, 0.469305, 0.612504, 0.123615, -0.198675, -0.592108, 0.0067928, 0.00846291
74, 0.00000, 192.094, -112.293, -193.643, -110.304, 1.16127, 222.942, -5.31096E-006, -7.74065E-006, -0.349369, 0.394949, 0.515958, 0.10471, -0.166927, -0.499086, 0.00564929, 0.00716684
75, 0.00000, 192.408, -112.337, -193.803, -110.544, 1.04654, 223.192, -4.76901E-006, -6.92264E-006, -0.314241, 0.354851, 0.463817, 0.09441, -0.149849, -0.4488, 0.00504247, 0.00646127
76, 0.00000, 192.552, -112.357, -193.876, -110.655, 0.993894, 223.306, -4.52085E-006, -6.55005E-006, -0.298113, 0.33647, 0.439897, 0.0896633, -0.14203, -0.42572, 0.00476676, 0.00613613
77, 0.00000, 192.553, -112.357, -193.876, -110.655, 0.993421, 223.307, -4.51864E-006, -6.54657E-006, -0.297972, 0.33631, 0.439689, 0.0896219, -0.141962, -0.425519, 0.00476418, 0.00613343
78, 0.00000, 192.412, -112.337, -193.805, -110.547, 1.04497, 223.195, -4.76157E-006, -6.91095E-006, -0.313774, 0.354318, 0.463124, 0.0942728, -0.149622, -0.448132, 0.0050338, 0.00645238
79, 0.00000, 192.086, -112.292, -193.638, -110.297, 1.16429, 222.936, -5.32513E-006, -7.76118E-006, -0.350319, 0.396033, 0.517369, 0.104989, -0.16739, -0.500448, 0.00566453, 0.0071869
80, 0.00000, 191.687, -112.131, -193.344, -110.033, 1.23308, 222.567, -6.27412E-006, -9.40444E-006, -0.419689, 0.474727, 0.619958, 0.125563, -0.20074, -0.599521, 0.00674561, 0.00863486
81, 0.00000, 192.057, -111.548, -192.974, -110.564, 0.629776, 222.542, -7.18454E-006, -1.20303E-005, -0.530489, 0.596312, 0.780717, 0.16048, -0.25086, -0.756006, 0.00781692, 0.0112444
82, 0.00000, 192.295, -111.04, -192.619, -110.957, 0.144253, 222.46, -8.04708E-006, -1.44492E-005, -0.634081, 0.709156, 0.93036, 0.1935, -0.297082, -0.90188, 0.00885015, 0.0136738
83, 0.00000, 193.379, -110.451, -192.518, -112.076, -0.797422, 222.95, -7.8698E-006, -1.55988E-005, -0.689611, 0.763967, 1.00635, 0.214113, -0.317502, -0.977752, 0.00863722, 0.0152713
84, 0.00000, 193.19, -110.428, -192.425, -111.931, -0.726094, 222.802, -8.18269E-006, -1.60995E-005, -0.710488, 0.787616, 1.03717, 0.22029, -0.327516, -1.0075, 0.009012, 0.0156984
85, 0.00000, 192.432, -110.64, -192.32, -111.226, -0.214607, 222.359, -8.76479E-006, -1.64347E-005, -0.719862, 0.802071, 1.05385, 0.221076, -0.334951, -1.02239, 0.0097246, 0.0156811
86, 0.00000, 190.715, -111.142, -192.1, -109.622, 0.959084, 221.37, -1.0011E-005, -1.70005E-005, -0.732981, 0.826362, 1.0802, 0.220092, -0.348452, -1.04486, 0.0112404, 0.0154082
87, 0.00000, 188.339, -111.921, -191.813, -107.309, 2.70155, 219.993, -1.13814E-005, -1.76322E-005, -0.745071, 0.85457, 1.10925, 0.216213, -0.365674, -1.06814, 0.0128748, 0.0149892
88, 0.00000, 187.765, -112.031, -191.692, -106.793, 3.05621, 219.63, -1.18884E-005, -1.80763E-005, -0.759751, 0.874534, 1.13339, 0.218824, -0.375283, -1.09039, 0.0135368, 0.0151076
89, 0.00000, 187.877, -111.773, -191.549, -107.032, 2.76768, 219.624, -1.24551E-005, -1.90638E-005, -0.799187, 0.917559, 1.19002, 0.231322, -0.392633, -1.14568, 0.0142529, 0.0158681
90, 0.00000, 188.168, -111.526, -191.489, -107.416, 2.40262, 219.755, -1.27277E-005, -1.95894E-005, -0.821476, 0.94001, 1.22045, 0.239341, -0.400856, -1.17608, 0.0146101, 0.0163146
91, 0.00000, 188.764, -111.283, -191.554, -108.051, 1.89567, 220.108, -1.25557E-005, -1.94021E-005, -0.817917, 0.931536, 1.21148, 0.240569, -0.39542, -1.169, 0.0144144, 0.0162972
92, 0.00000, 187.89, -111.691, -191.495, -107.088, 2.68795, 219.605, -1.26613E-005, -1.94253E-005, -0.81345, 0.933269, 1.21063, 0.235761, -0.399036, -1.16575, 0.0145183, 0.0161432
93, 0.00000, 188.175, -111.734, -191.642, -107.306, 2.58456, 219.834, -1.21587E-005, -1.85809E-005, -0.782068, 0.896367, 1.16332, 0.227198, -0.382957, -1.12054, 0.0138642, 0.0155529
94, 0.00000, 188.732, -111.815, -191.928, -107.734, 2.3819, 220.279, -1.11792E-005, -1.69684E-005, -0.72088, 0.824608, 1.07119, 0.210385, -0.351753, -1.03242, 0.0126214, 0.0143919
95, 0.00000, 189.533, -111.93, -192.337, -108.345, 2.09228, 220.912, -9.76797E-006, -1.46908E-005, -0.633168, 0.722222, 0.939463, 0.185986, -0.307409, -0.906245, 0.0108813, 0.0127289
96, 0.00000, 190.502, -112.068, -192.831, -109.085, 1.74103, 221.679, -8.07302E-006, -1.20021E-005, -0.526411, 0.598405, 0.779676, 0.155825, -0.254033, -0.752896, 0.00884224, 0.010668
97, 0.00000, 191.428, -112.199, -193.303, -109.794, 1.40411, 222.414, -6.46238E-006, -9.49713E-006, -0.423659, 0.480042, 0.626431, 0.126324, -0.203269, -0.605518, 0.00695919, 0.00864953
98, 0.00000, 192.036, -112.285, -193.613, -110.259, 1.18245, 222.896, -5.41129E-006, -7.89247E-006, -0.355868, 0.402377, 0.525611, 0.106611, -0.170094, -0.508392, 0.00576213, 0.00729728
99, 0.00000, 192.386, -112.334, -193.791, -110.528, 1.05449, 223.174, -4.80653E-006, -6.97912E-006, -0.316677, 0.357629, 0.46743, 0.095126, -0.151031, -0.452286, 0.0050843, 0.00651029
100, 0.00000, 192.56, -112.358, -193.88, -110.661, 0.990862, 223.313, -4.50656E-006, -6.5287E-006, -0.297182, 0.33541, 0.438517, 0.0893891, -0.141579, -0.424388, 0.00475098, 0.00611731
101, 0.00000, 192.614, -112.366, -193.907, -110.701, 0.971518, 223.355, -4.41512E-006, -6.39266E-006, -0.291228, 0.32863, 0.429689, 0.0876337, -0.138696, -0.415867, 0.00465051, 0.00599665
102, 0.00000, 192.527, -112.353, -193.863, -110.636, 1.00285, 223.286, -4.56367E-006, -6.61229E-006, -0.300913, 0.33966, 0.444052, 0.0904887, -0.143388, -0.42973, 0.00481263, 0.00619372
103, 0.00000, 192.245, -112.314, -193.719, -110.419, 1.10628, 223.062, -5.05091E-006, -7.34668E-006, -0.332555, 0.375744, 0.490994, 0.0997871, -0.158745, -0.475015, 0.00535677, 0.00683036
104, 0.00000, 191.974, -112.172, -193.49, -110.252, 1.12865, 222.795, -5.77669E-006, -8.6415E-006, -0.387506, 0.437888, 0.57212, 0.116191, -0.185015, -0.553429, 0.0061774, 0.00799204
105, 0.00000, 192.398, -111.599, -193.15, -110.824, 0.507584, 222.815, -6.59124E-006, -1.10937E-005, -0.491372, 0.551705, 0.722718, 0.149025, -0.231878, -0.700093, 0.00712374, 0.0104563
106, 0.00000, 192.564, -111.082, -192.76, -111.162, 0.0492983, 222.676, -7.57553E-006, -1.36829E-005, -0.602463, 0.673196, 0.883565, 0.184209, -0.281812, -0.856756, 0.0082859, 0.013033
107, 0.00000, 195.252, -109.968, -192.762, -113.741, -1.97218, 224.018, -6.18872E-006, -1.49585E-005, -0.673883, 0.737569, 0.977142, 0.213914, -0.303676, -0.95209, 0.00660551, 0.0155654
108, 0.00000, 198.792, -108.587, -192.916, -117.183, -4.64912, 225.908, -4.07195E-006, -1.49278E-005, -0.703419, 0.750104, 1.00519, 0.233562, -0.301673, -0.985749, 0.00397751, 0.0170111
