hour, t(sec), V1.re, V1.im, V2.re, V2.im, V3.re, V3.im, V4.re, V4.im, I1.re, I1.im, I2.re, I2.im, I3.re, I3.im, I4.re, I4.im
1, 0.00000, 193.017, -112.991, -194.497, -110.704, 1.32443, 223.841, 7.67943E-005, -0.000410254, -0.467746, 0.529422, 0.691957, 0.140185, -0.224366, -0.669246, 0.000155114, -0.000361643
2, 0.00000, 193.377, -112.935, -194.607, -111.037, 1.09856, 224.095, 6.46561E-005, -0.000345596, -0.396331, 0.447659, 0.585559, 0.119271, -0.18934, -0.566676, 0.000111883, -0.000254519
3, 0.00000, 193.546, -112.907, -194.658, -111.194, 0.99192, 224.214, 5.90542E-005, -0.000315679, -0.362886, 0.409482, 0.53582, 0.109417, -0.17303, -0.518685, 9.48833E-005, -0.000214541
4, 0.00000, 193.626, -112.881, -194.671, -111.275, 0.929898, 224.264, 5.71187E-005, -0.000305253, -0.351354, 0.396248, 0.51861, 0.106056, -0.167344, -0.502105, 8.85402E-005, -0.000198444
5, 0.00000, 193.561, -112.886, -194.648, -111.219, 0.965632, 224.216, 5.95473E-005, -0.000318153, -0.365902, 0.41279, 0.540192, 0.110375, -0.174385, -0.522952, 9.52856E-005, -0.000213205
6, 0.00000, 193.322, -112.896, -194.553, -111.012, 1.09113, 224.037, 6.90708E-005, -0.000368483, -0.42224, 0.476902, 0.623803, 0.127074, -0.201688, -0.603694, 0.000125213, -0.000281998
7, 0.00000, 192.817, -112.935, -194.367, -110.566, 1.37129, 223.664, 8.86384E-005, -0.000471353, -0.535471, 0.606364, 0.792326, 0.160316, -0.257057, -0.766213, 0.000202344, -0.000467133
8, 0.00000, 192.401, -113.083, -194.296, -110.127, 1.71397, 223.398, 9.88755E-005, -0.00052832, -0.597149, 0.678273, 0.885359, 0.177708, -0.288451, -0.855413, 0.000241526, -0.000569256
9, 0.00000, 193.765, -112.171, -194.088, -111.688, 0.317346, 223.992, 0.000102236, -0.000528297, -0.614147, 0.68837, 0.903111, 0.187407, -0.289163, -0.875578, 0.000199919, -0.000199976
10, 0.00000, 194.302, -111.774, -193.972, -112.32, -0.263745, 224.207, 0.00010554, -0.000538619, -0.633105, 0.705725, 0.927836, 0.195154, -0.294913, -0.900824, 0.00018177, -5.54614E-005
11, 0.00000, 196.598, -110.203, -193.586, -114.968, -2.65268, 225.199, 0.00010591, -0.000522434, -0.641933, 0.699753, 0.927977, 0.205904, -0.286071, -0.906198, 2.63832E-005, 0.000540798
12, 0.00000, 196.726, -110.125, -193.574, -115.112, -2.77847, 225.261, 0.000104862, -0.000517369, -0.637109, 0.693688, 0.920355, 0.20477, -0.283257, -0.899025, 1.1606E-005, 0.0005661
13, 0.00000, 195.859, -110.719, -193.721, -114.111, -1.87443, 224.885, 0.000105739, -0.000526799, -0.638264, 0.700813, 0.926771, 0.202155, -0.288587, -0.903322, 8.02707E-005, 0.000353636
14, 0.00000, 193.728, -112.115, -194.022, -111.681, 0.291728, 223.934, 0.000107974, -0.000556359, -0.646908, 0.72489, 0.951124, 0.197491, -0.304434, -0.922172, 0.000218164, -0.000209092
15, 0.00000, 192.49, -112.846, -194.125, -110.304, 1.48598, 223.344, 0.000112098, -0.000592001, -0.671711, 0.761251, 0.994521, 0.200725, -0.323097, -0.961394, 0.000287773, -0.000581989
16, 0.00000, 191.514, -113.298, -194.093, -109.273, 2.32784, 222.815, 0.000123036, -0.000661715, -0.736765, 0.841687, 1.09626, 0.216754, -0.359862, -1.05749, 0.000364775, -0.000955317
17, 0.00000, 190.887, -113.393, -193.898, -108.695, 2.71614, 222.374, 0.000144155, -0.000777679, -0.856755, 0.982339, 1.27768, 0.250187, -0.421405, -1.2312, 0.00048265, -0.00132366
18, 0.00000, 190.377, -113.469, -193.737, -108.222, 3.03409, 222.011, 0.000161743, -0.000872677, -0.954217, 1.09733, 1.42565, 0.276934, -0.472036, -1.37263, 0.000600201, -0.00163875
19, 0.00000, 190.176, -113.498, -193.674, -108.036, 3.15979, 221.867, 0.000169054, -0.000910087, -0.99259, 1.14279, 1.48406, 0.287366, -0.492135, -1.4284, 0.000660985, -0.00176151
20, 0.00000, 190.06, -113.515, -193.638, -107.93, 3.23211, 221.783, 0.000173506, -0.000931822, -1.01478, 1.16913, 1.51787, 0.293376, -0.503796, -1.46067, 0.000703505, -0.00183558
21, 0.00000, 190.237, -113.465, -193.674, -108.105, 3.10043, 221.9, 0.000168591, -0.000905877, -0.988952, 1.138, 1.4781, 0.286626, -0.489809, -1.42288, 0.000658853, -0.00173668
22, 0.00000, 190.636, -113.431, -193.819, -108.463, 2.87215, 222.196, 0.000152652, -0.000824356, -0.90463, 1.03875, 1.3503, 0.263369, -0.446206, -1.30064, 0.000534678, -0.00147961
23, 0.00000, 191.353, -113.323, -194.043, -109.125, 2.42749, 222.702, 0.000128416, -0.000691323, -0.767623, 0.87776, 1.14284, 0.225404, -0.375608, -1.10212, 0.000392783, -0.00104449
24, 0.00000, 192.197, -113.194, -194.305, -109.904, 1.90353, 223.296, 9.99962E-005, -0.000536717, -0.604233, 0.687555, 0.896863, 0.179191, -0.292882, -0.866115, 0.000251339, -0.000630228
25, 0.00000, 192.816, -113.147, -194.533, -110.449, 1.56183, 223.751, 7.64022E-005, -0.000410881, -0.467379, 0.530134, 0.69239, 0.139502, -0.225164, -0.669264, 0.000152542, -0.000372492
26, 0.00000, 193.192, -113.079, -194.641, -110.802, 1.31809, 224.012, 6.44286E-005, -0.000346201, -0.396056, 0.448223, 0.585908, 0.118744, -0.189963, -0.566701, 0.000111799, -0.000266438
27, 0.00000, 193.374, -113.042, -194.69, -110.976, 1.19648, 224.137, 5.88236E-005, -0.000316052, -0.362636, 0.409946, 0.536098, 0.108963, -0.173556, -0.518688, 9.38237E-005, -0.000220333
28, 0.00000, 193.492, -112.986, -194.697, -111.106, 1.08892, 224.205, 5.69657E-005, -0.000305555, -0.351169, 0.396599, 0.518821, 0.105715, -0.16774, -0.50211, 8.83076E-005, -0.000203433
29, 0.00000, 193.491, -112.941, -194.661, -111.13, 1.04866, 224.185, 5.94538E-005, -0.000318326, -0.365806, 0.412988, 0.540315, 0.11019, -0.174604, -0.522962, 9.48485E-005, -0.00021603
30, 0.00000, 193.19, -113, -194.578, -110.844, 1.24831, 223.978, 6.89222E-005, -0.000369016, -0.422043, 0.47735, 0.624088, 0.126673, -0.202171, -0.60373, 0.000125954, -0.000293107
31, 0.00000, 192.588, -113.111, -194.407, -110.278, 1.64001, 223.562, 8.81173E-005, -0.0004722, -0.535001, 0.607297, 0.792898, 0.159432, -0.258096, -0.766247, 0.000198908, -0.000482306
32, 0.00000, 192.393, -113.089, -194.298, -110.117, 1.72319, 223.394, 9.88334E-005, -0.000528245, -0.597126, 0.678302, 0.885374, 0.177673, -0.288489, -0.855409, 0.00024093, -0.000566586
33, 0.00000, 193.305, -112.464, -194.149, -111.17, 0.775152, 223.786, 0.000102113, -0.000532673, -0.613341, 0.690471, 0.90434, 0.185644, -0.291221, -0.875783, 0.000221777, -0.000332188
34, 0.00000, 193.965, -111.996, -194.021, -111.935, 0.0796, 224.058, 0.000105447, -0.000541662, -0.632479, 0.707314, 0.92877, 0.193804, -0.29649, -0.900972, 0.000199051, -0.000145923
35, 0.00000, 194.892, -111.385, -193.88, -112.986, -0.857319, 224.462, 0.000106185, -0.000536524, -0.638667, 0.707911, 0.932784, 0.198899, -0.294261, -0.906935, 0.000144372, 0.000125635
36, 0.00000, 195.059, -111.285, -193.865, -113.172, -1.01978, 224.542, 0.000105308, -0.000530957, -0.633933, 0.701598, 0.925007, 0.197967, -0.291206, -0.89973, 0.000132212, 0.000164912
37, 0.00000, 194.445, -111.688, -193.952, -112.473, -0.395828, 224.269, 0.000105728, -0.000538566, -0.635556, 0.707528, 0.930721, 0.196377, -0.295334, -0.903912, 0.000169008, 7.688E-006
38, 0.00000, 193.333, -112.383, -194.08, -111.221, 0.705841, 223.758, 0.000107662, -0.000559603, -0.646105, 0.726799, 0.95225, 0.195824, -0.306379, -0.922322, 0.000233355, -0.000301388
39, 0.00000, 192.159, -113.058, -194.165, -109.929, 1.81774, 223.194, 0.000111761, -0.000595432, -0.671053, 0.762913, 0.9955, 0.199315, -0.324745, -0.961546, 0.000297234, -0.000682511
40, 0.00000, 191.902, -113.004, -194.029, -109.76, 1.8776, 222.991, 0.000124643, -0.000659571, -0.737859, 0.839506, 1.09492, 0.218812, -0.357443, -1.0574, 0.000384285, -0.000914433
41, 0.00000, 190.897, -113.385, -193.896, -108.708, 2.70413, 222.379, 0.000144177, -0.000777521, -0.856797, 0.98228, 1.27765, 0.250252, -0.421336, -1.23121, 0.000482523, -0.00131913
42, 0.00000, 190.377, -113.469, -193.737, -108.222, 3.03416, 222.011, 0.000161719, -0.000872559, -0.954222, 1.09734, 1.42567, 0.276932, -0.472044, -1.37264, 0.000599669, -0.0016347
43, 0.00000, 190.176, -113.498, -193.674, -108.037, 3.15956, 221.867, 0.000169044, -0.000910098, -0.992585, 1.14279, 1.48406, 0.287365, -0.492132, -1.42839, 0.000660619, -0.00176195
44, 0.00000, 190.061, -113.514, -193.638, -107.93, 3.232, 221.783, 0.000173493, -0.000931818, -1.01478, 1.16912, 1.51787, 0.293376, -0.503794, -1.46066, 0.000703117, -0.0018355
45, 0.00000, 190.196, -113.495, -193.681, -108.054, 3.14763, 221.881, 0.000168523, -0.000906234, -0.988798, 1.1383, 1.47829, 0.286334, -0.490152, -1.42289, 0.000661355, -0.00174478
46, 0.00000, 190.636, -113.431, -193.819, -108.463, 2.8722, 222.196, 0.000152641, -0.000824353, -0.904631, 1.03875, 1.3503, 0.263369, -0.446207, -1.30064, 0.000534351, -0.00147945
47, 0.00000, 191.353, -113.322, -194.043, -109.125, 2.42736, 222.702, 0.000128454, -0.000691429, -0.767623, 0.877758, 1.14283, 0.225404, -0.375605, -1.10211, 0.000393795, -0.00104801
48, 0.00000, 192.197, -113.194, -194.305, -109.904, 1.90353, 223.296, 9.99964E-005, -0.000536717, -0.604233, 0.687555, 0.896863, 0.179191, -0.292882, -0.866115, 0.000251347, -0.000630229
49, 0.00000, 192.893, -113.087, -194.519, -110.547, 1.47049, 223.786, 7.65307E-005, -0.000410554, -0.467515, 0.529855, 0.692218, 0.139764, -0.224856, -0.669253, 0.000152994, -0.000365646
50, 0.00000, 193.253, -113.032, -194.63, -110.879, 1.24627, 224.039, 6.44742E-005, -0.000345956, -0.396142, 0.448038, 0.585792, 0.118914, -0.189761, -0.566691, 0.000111066, -0.000261018
51, 0.00000, 193.297, -113.102, -194.705, -110.879, 1.2872, 224.103, 5.87052E-005, -0.000316228, -0.362526, 0.410158, 0.536227, 0.108759, -0.173794, -0.518694, 9.28775E-005, -0.000223134
52, 0.00000, 193.355, -113.093, -194.722, -110.932, 1.25114, 224.144, 5.6781E-005, -0.000305901, -0.350986, 0.396971, 0.519051, 0.105366, -0.168152, -0.502127, 8.71455E-005, -0.000209453
53, 0.00000, 193.282, -113.104, -194.7, -110.865, 1.29653, 224.092, 5.91891E-005, -0.000318866, -0.365512, 0.413572, 0.540673, 0.109636, -0.175255, -0.522983, 9.40049E-005, -0.000225514
54, 0.00000, 192.999, -113.148, -194.613, -110.603, 1.47329, 223.893, 6.86025E-005, -0.00036953, -0.421732, 0.47796, 0.624461, 0.126091, -0.202854, -0.60375, 0.000124109, -0.000301525
55, 0.00000, 192.764, -112.976, -194.376, -110.5, 1.4335, 223.641, 8.86032E-005, -0.000471645, -0.535374, 0.606592, 0.792471, 0.160115, -0.257301, -0.766233, 0.000204079, -0.00047365
56, 0.00000, 192.458, -113.017, -194.278, -110.22, 1.61928, 223.423, 9.92931E-005, -0.000528768, -0.59736, 0.677991, 0.885165, 0.17804, -0.288054, -0.855438, 0.000249507, -0.000592844
57, 0.00000, 192.649, -112.888, -194.234, -110.425, 1.43641, 223.491, 0.000101678, -0.00053873, -0.612155, 0.693477, 0.90611, 0.183095, -0.294199, -0.876061, 0.000244778, -0.00051157
58, 0.00000, 192.847, -112.72, -194.171, -110.665, 1.208, 223.558, 0.000104937, -0.000552187, -0.630409, 0.712581, 0.931864, 0.18934, -0.301703, -0.901463, 0.000248265, -0.000458605
59, 0.00000, 193.137, -112.524, -194.124, -110.998, 0.908885, 223.683, 0.000105923, -0.000553288, -0.635448, 0.716235, 0.937659, 0.191882, -0.302451, -0.907738, 0.000240251, -0.000378068
60, 0.00000, 193.161, -112.52, -194.132, -111.02, 0.893753, 223.7, 0.000105035, -0.000548719, -0.630468, 0.710523, 0.930232, 0.19043, -0.3, -0.900584, 0.000235872, -0.000368758
61, 0.00000, 192.992, -112.622, -194.148, -110.831, 1.05873, 223.62, 0.000105409, -0.000552634, -0.632911, 0.714392, 0.934741, 0.190604, -0.302074, -0.90458, 0.000243873, -0.000415438
62, 0.00000, 192.618, -112.831, -194.168, -110.42, 1.40985, 223.436, 0.000107368, -0.00056713, -0.644802, 0.730242, 0.954267, 0.192955, -0.30973, -0.922668, 0.000265121, -0.000528257
63, 0.00000, 192.482, -112.852, -194.126, -110.295, 1.4944, 223.34, 0.000112093, -0.000592099, -0.671694, 0.761293, 0.994545, 0.200689, -0.323139, -0.961397, 0.000288108, -0.000584919
64, 0.00000, 191.514, -113.298, -194.093, -109.273, 2.32784, 222.815, 0.000123038, -0.000661725, -0.736765, 0.841687, 1.09626, 0.216754, -0.359862, -1.05749, 0.00036482, -0.000955658
65, 0.00000, 190.887, -113.393, -193.898, -108.695, 2.71605, 222.374, 0.000144168, -0.00077747, -0.856747, 0.982323, 1.27766, 0.250187, -0.421399, -1.23119, 0.000483396, -0.00131732
66, 0.00000, 190.417, -113.439, -193.731, -108.272, 2.98735, 222.03, 0.000161899, -0.000872125, -0.954377, 1.09706, 1.4255, 0.277213, -0.471722, -1.37265, 0.000601113, -0.00162411
67, 0.00000, 190.176, -113.498, -193.674, -108.036, 3.15967, 221.867, 0.000169037, -0.000910124, -0.992584, 1.14279, 1.48406, 0.287365, -0.492132, -1.42839, 0.000660391, -0.00176278
68, 0.00000, 190.06, -113.515, -193.638, -107.93, 3.23207, 221.783, 0.000173497, -0.000931827, -1.01478, 1.16913, 1.51787, 0.293376, -0.503796, -1.46067, 0.000703234, -0.00183573
69, 0.00000, 190.196, -113.495, -193.681, -108.055, 3.14753, 221.881, 0.000168515, -0.000906226, -0.988798, 1.1383, 1.47829, 0.286335, -0.49015, -1.42289, 0.000661092, -0.00174454
70, 0.00000, 190.636, -113.431, -193.819, -108.463, 2.87216, 222.196, 0.00015265, -0.000824349, -0.90463, 1.03875, 1.3503, 0.26337, -0.446207, -1.30064, 0.000534629, -0.00147936
71, 0.00000, 191.353, -113.322, -194.043, -109.125, 2.42733, 222.702, 0.000128454, -0.000691403, -0.767623, 0.877757, 1.14283, 0.225404, -0.375604, -1.10211, 0.000393824, -0.00104721
72, 0.00000, 192.198, -113.194, -194.305, -109.904, 1.90351, 223.296, 9.99901E-005, -0.000536698, -0.604232, 0.687554, 0.896863, 0.179191, -0.292881, -0.866115, 0.000251185, -0.000629622
73, 0.00000, 192.723, -113.114, -194.467, -110.389, 1.5768, 223.666, 8.2283E-005, -0.000441408, -0.501213, 0.568605, 0.742561, 0.149544, -0.241524, -0.717724, 0.000175368, -0.000424784
74, 0.00000, 193.117, -113.053, -194.588, -110.754, 1.33109, 223.944, 6.90313E-005, -0.000370378, -0.423163, 0.478974, 0.626051, 0.126828, -0.203014, -0.605501, 0.000126324, -0.00030011
75, 0.00000, 193.329, -113.02, -194.654, -110.95, 1.19845, 224.093, 6.19081E-005, -0.000332212, -0.380862, 0.430567, 0.563044, 0.114426, -0.182285, -0.544753, 0.000102892, -0.000240745
76, 0.00000, 193.427, -113.005, -194.684, -111.04, 1.13763, 224.162, 5.86475E-005, -0.000314759, -0.361421, 0.408361, 0.53412, 0.108706, -0.172792, -0.516851, 9.28267E-005, -0.000215684
77, 0.00000, 193.427, -113.005, -194.684, -111.041, 1.13708, 224.163, 5.86164E-005, -0.000314597, -0.361252, 0.408168, 0.533869, 0.108656, -0.172709, -0.516608, 9.2674E-005, -0.000215126
78, 0.00000, 193.332, -113.02, -194.655, -110.953, 1.19665, 224.095, 6.18056E-005, -0.000331667, -0.380299, 0.429924, 0.562207, 0.114261, -0.18201, -0.543946, 0.000102417, -0.000238735
79, 0.00000, 193.111, -113.054, -194.587, -110.748, 1.33459, 223.94, 6.92135E-005, -0.000371339, -0.424307, 0.480283, 0.627757, 0.127163, -0.203576, -0.607147, 0.000126772, -0.000299384
80, 0.00000, 192.843, -113.021, -194.438, -110.532, 1.44439, 223.712, 8.34597E-005, -0.000446027, -0.507807, 0.575355, 0.751741, 0.151877, -0.244109, -0.726834, 0.000175675, -0.000399165
81, 0.00000, 193.104, -112.53, -194.115, -110.966, 0.930507, 223.66, 0.000106979, -0.000558864, -0.641564, 0.723273, 0.946802, 0.193653, -0.305482, -0.916538, 0.000244822, -0.00038806
82, 0.00000, 193.271, -112.119, -193.823, -111.287, 0.525817, 223.577, 0.000129366, -0.000663227, -0.766423, 0.860616, 1.12829, 0.233, -0.362187, -1.09326, 0.000317144, -0.000359649
83, 0.00000, 194.008, -111.476, -193.576, -112.195, -0.347187, 223.821, 0.000141605, -0.000710012, -0.83426, 0.929024, 1.22187, 0.257515, -0.387925, -1.18644, 0.00031225, -9.91145E-005
84, 0.00000, 193.882, -111.499, -193.539, -112.077, -0.265985, 223.733, 0.000146124, -0.000732446, -0.859192, 0.95749, 1.25896, 0.264841, -0.400104, -1.2222, 0.000336115, -0.000133732
85, 0.00000, 193.369, -111.806, -193.586, -111.505, 0.232249, 223.49, 0.000148163, -0.000748962, -0.86966, 0.973725, 1.27799, 0.265747, -0.408713, -1.23915, 0.000382355, -0.000326251
86, 0.00000, 192.2, -112.516, -193.7, -110.197, 1.37469, 222.943, 0.00015045, -0.000779307, -0.8836, 1.00013, 1.3072, 0.264543, -0.424069, -1.26388, 0.000464052, -0.000792187
87, 0.00000, 190.529, -113.577, -193.871, -108.273, 3.07373, 222.156, 0.000149589, -0.000813931, -0.895639, 1.03012, 1.33854, 0.259879, -0.443403, -1.28864, 0.000499011, -0.00135096
88, 0.00000, 190.136, -113.773, -193.872, -107.849, 3.42964, 221.944, 0.000153468, -0.000834678, -0.912552, 1.05311, 1.36668, 0.262974, -0.454702, -1.31457, 0.000570772, -0.00150871
89, 0.00000, 190.241, -113.551, -193.744, -108.062, 3.17564, 221.939, 0.000162641, -0.000878565, -0.959668, 1.10502, 1.43502, 0.277789, -0.475963, -1.38115, 0.000615581, -0.00165513
90, 0.00000, 190.471, -113.3, -193.646, -108.396, 2.83605, 222.016, 0.000168718, -0.000902205, -0.986532, 1.1325, 1.47214, 0.287309, -0.486256, -1.41808, 0.000649738, -0.00172921
91, 0.00000, 190.912, -112.988, -193.591, -108.938, 2.34239, 222.226, 0.000169814, -0.000894306, -0.982906, 1.12328, 1.46237, 0.288821, -0.480121, -1.41045, 0.0006609, -0.00165902
92, 0.00000, 190.259, -113.486, -193.7, -108.113, 3.10767, 221.927, 0.000166008, -0.000894464, -0.976676, 1.12393, 1.45983, 0.283044, -0.483793, -1.40527, 0.000635406, -0.0017072
93, 0.00000, 190.453, -113.458, -193.761, -108.293, 2.98657, 222.066, 0.000158966, -0.000858031, -0.939564, 1.08001, 1.40338, 0.272931, -0.464398, -1.35136, 0.000578515, -0.00157988
94, 0.00000, 190.832, -113.401, -193.881, -108.645, 2.74976, 222.336, 0.000145942, -0.000787837, -0.867073, 0.994484, 1.29332, 0.253035, -0.426738, -1.24616, 0.000492084, -0.00136048
95, 0.00000, 191.378, -113.319, -194.051, -109.148, 2.41193, 222.72, 0.00012763, -0.00068684, -0.762847, 0.87217, 1.13562, 0.224067, -0.373164, -1.0952, 0.00038967, -0.0010341
96, 0.00000, 192.037, -113.219, -194.255, -109.756, 2.00324, 223.183, 0.000105412, -0.000565973, -0.635505, 0.72381, 0.943821, 0.188113, -0.308593, -0.911223, 0.000276648, -0.000700915
97, 0.00000, 192.666, -113.122, -194.449, -110.337, 1.61226, 223.626, 8.41858E-005, -0.000451634, -0.512442, 0.581533, 0.759352, 0.152795, -0.247093, -0.733886, 0.000182669, -0.000442451
98, 0.00000, 193.077, -113.059, -194.576, -110.717, 1.3556, 223.916, 7.03595E-005, -0.000377446, -0.430984, 0.487936, 0.63771, 0.129114, -0.206857, -0.616738, 0.000131126, -0.000311318
99, 0.00000, 193.314, -113.022, -194.649, -110.937, 1.20764, 224.083, 6.24018E-005, -0.000334854, -0.383797, 0.433922, 0.567413, 0.115289, -0.18372, -0.548966, 0.00010447, -0.000244704
100, 0.00000, 193.432, -113.004, -194.685, -111.046, 1.13412, 224.166, 5.84608E-005, -0.000313757, -0.360299, 0.40708, 0.532451, 0.108375, -0.172244, -0.515241, 9.2288E-005, -0.000214397
101, 0.00000, 193.468, -112.999, -194.696, -111.079, 1.11177, 224.191, 5.7266E-005, -0.00030735, -0.353117, 0.398883, 0.521771, 0.106258, -0.168742, -0.504935, 8.8877E-005, -0.000206382
102, 0.00000, 193.41, -113.008, -194.678, -111.025, 1.14801, 224.15, 5.91946E-005, -0.000317718, -0.364801, 0.41222, 0.539149, 0.109701, -0.174442, -0.521704, 9.40771E-005, -0.0002176
103, 0.00000, 193.219, -113.037, -194.62, -110.848, 1.26751, 224.015, 6.56077E-005, -0.000352025, -0.402923, 0.455797, 0.595893, 0.120903, -0.193084, -0.57643, 0.000114628, -0.000268955
104, 0.00000, 193.037, -112.992, -194.498, -110.712, 1.32339, 223.849, 7.68608E-005, -0.000410813, -0.469145, 0.530958, 0.694029, 0.140626, -0.225034, -0.671247, 0.000150307, -0.000336413
105, 0.00000, 193.334, -112.496, -194.188, -111.178, 0.788418, 223.823, 9.87584E-005, -0.000516227, -0.594682, 0.669546, 0.876909, 0.179963, -0.282436, -0.849196, 0.000207903, -0.000312118
106, 0.00000, 193.453, -112.094, -193.881, -111.453, 0.414872, 223.707, 0.000122568, -0.000628819, -0.728622, 0.81734, 1.07198, 0.221947, -0.343636, -1.03899, 0.000282282, -0.000296609
107, 0.00000, 195.235, -110.769, -193.458, -113.518, -1.48538, 224.388, 0.000136884, -0.000676073, -0.817235, 0.900135, 1.18916, 0.257294, -0.372097, -1.15787, 0.000175284, 0.000437384
108, 0.00000, 197.578, -109.053, -192.962, -116.27, -4.01466, 225.346, 0.000141145, -0.000676566, -0.856606, 0.921533, 1.22867, 0.280863, -0.371994, -1.20364, -6.63346E-005, 0.00124019
