hour, t(sec), V1.re, V1.im, V2.re, V2.im, V3.re, V3.im, V4.re, V4.im, I1.re, I1.im, I2.re, I2.im, I3.re, I3.im, I4.re, I4.im
1, 0.00000, 189.974, -110.441, -191.101, -109.366, 0.721218, 220.448, -5.01449E-006, -9.06025E-006, -0.71232, 0.801328, 1.04822, 0.214941, -0.336985, -1.01409, 0.0109795, 0.0159746
2, 0.00000, 190.887, -110.811, -191.796, -109.956, 0.579425, 221.3, -4.17894E-006, -7.50689E-006, -0.601334, 0.675636, 0.884463, 0.182051, -0.283923, -0.856265, 0.00903429, 0.0136164
3, 0.00000, 191.318, -110.986, -192.124, -110.236, 0.511547, 221.702, -3.81703E-006, -6.8038E-006, -0.549607, 0.617163, 0.808228, 0.166655, -0.259251, -0.782656, 0.00815477, 0.0124664
4, 0.00000, 191.599, -111.07, -192.314, -110.43, 0.446293, 221.95, -3.6792E-006, -6.55294E-006, -0.531617, 0.596592, 0.781528, 0.161423, -0.250495, -0.756974, 0.00783662, 0.0120845
5, 0.00000, 191.467, -111.005, -192.203, -110.35, 0.458382, 221.821, -3.82828E-006, -6.85127E-006, -0.553984, 0.62173, 0.81438, 0.168159, -0.261055, -0.78876, 0.00820676, 0.0125936
6, 0.00000, 191.025, -110.764, -191.817, -110.088, 0.484449, 221.38, -4.42361E-006, -7.99243E-006, -0.64056, 0.718991, 0.941574, 0.194267, -0.301899, -0.911789, 0.0096089, 0.0145395
7, 0.00000, 189.987, -110.253, -190.954, -109.454, 0.580475, 220.372, -5.65703E-006, -1.03686E-005, -0.8159, 0.916449, 1.19945, 0.246791, -0.384951, -1.16089, 0.0125591, 0.0184173
8, 0.00000, 188.27, -109.715, -189.785, -108.281, 0.955899, 218.854, -5.9943E-006, -9.02306E-006, -0.670151, 0.889318, 1.1023, 0.134144, -0.433515, -1.02038, 0.0132137, 0.0154378
9, 0.00000, 194.294, -110.521, -193.041, -112.884, -1.19534, 223.723, -1.64983E-006, 1.63491E-005, 1.54935, -0.386399, -1.10981, -1.14711, -0.438013, 1.53408, 0.00189478, -0.0293389
10, 0.00000, 196.769, -110.768, -194.325, -114.819, -2.14947, 225.704, -2.07723E-007, 2.58981E-005, 2.5008, -0.904926, -2.03627, -1.71233, -0.463332, 2.61985, -0.00055223, -0.049121
11, 0.00000, 206.654, -111.72, -199.479, -122.597, -6.02515, 233.687, 4.43978E-006, 5.62758E-005, 6.15569, -2.84599, -5.56289, -3.91806, -0.601255, 6.78868, 0.000262124, -0.127768
12, 0.00000, 207.162, -111.774, -199.749, -122.995, -6.22131, 234.102, 4.66167E-006, 5.7515E-005, 6.33047, -2.93833, -5.73164, -4.02422, -0.60806, 6.9887, 0.00063438, -0.131602
13, 0.00000, 203.472, -111.46, -197.848, -120.067, -4.73573, 231.125, 3.20736E-006, 4.7329E-005, 4.96703, -2.23294, -4.43021, -3.19038, -0.541027, 5.43864, -0.00165597, -0.101786
14, 0.00000, 194.432, -110.43, -193.027, -113.036, -1.32548, 223.785, -1.64577E-006, 1.78767E-005, 1.69605, -0.442571, -1.232, -1.24598, -0.46243, 1.68927, 0.0017962, -0.0322503
15, 0.00000, 189.327, -109.627, -190.165, -109.183, 0.412534, 219.597, -5.26712E-006, -1.66978E-006, -0.0577806, 0.590502, 0.53876, -0.245264, -0.480908, -0.343705, 0.0103868, 0.00349561
16, 0.00000, 185.706, -108.83, -187.973, -106.559, 1.46565, 216.555, -8.28097E-006, -1.5611E-005, -1.141, 1.29268, 1.68397, 0.338134, -0.546119, -1.62441, 0.0195117, 0.0248903
17, 0.00000, 184.104, -108.154, -186.748, -105.54, 1.68907, 215.071, -9.81113E-006, -1.88254E-005, -1.33574, 1.51655, 1.97279, 0.393428, -0.64141, -1.90102, 0.023779, 0.0287782
18, 0.00000, 182.788, -107.59, -185.738, -104.704, 1.86885, 213.848, -1.10812E-005, -2.1582E-005, -1.49597, 1.70137, 2.21066, 0.438403, -0.72023, -2.12843, 0.0274845, 0.0319236
19, 0.00000, 182.265, -107.364, -185.336, -104.375, 1.93876, 213.362, -1.15863E-005, -2.27256E-005, -1.55967, 1.77501, 2.30523, 0.456126, -0.75165, -2.21873, 0.0290422, 0.0331562
20, 0.00000, 181.963, -107.232, -185.104, -104.184, 1.97854, 213.08, -1.18777E-005, -2.3399E-005, -1.59664, 1.81778, 2.36012, 0.466386, -0.769907, -2.27113, 0.0299633, 0.0338712
21, 0.00000, 182.573, -107.443, -185.526, -104.589, 1.86099, 213.621, -1.14972E-005, -2.24556E-005, -1.55234, 1.7652, 2.29365, 0.454874, -0.747159, -2.20816, 0.0286185, 0.0331006
22, 0.00000, 183.458, -107.878, -186.253, -105.13, 1.77752, 214.472, -1.04354E-005, -2.01762E-005, -1.41427, 1.60707, 2.08931, 0.415508, -0.679979, -2.01245, 0.0255937, 0.0303154
23, 0.00000, 185.295, -108.657, -187.659, -106.297, 1.5235, 216.174, -8.67746E-006, -1.64226E-005, -1.19092, 1.34999, 1.75799, 0.352373, -0.570489, -1.69532, 0.0205822, 0.025884
24, 0.00000, 187.443, -109.558, -189.304, -107.67, 1.21615, 218.169, -6.65758E-006, -1.23375E-005, -0.929118, 1.05019, 1.37009, 0.277135, -0.443071, -1.32312, 0.0152487, 0.0205184
25, 0.00000, 188.721, -110.196, -190.368, -108.446, 1.10472, 219.408, -5.10351E-006, -9.25862E-006, -0.714674, 0.807096, 1.0538, 0.213903, -0.340398, -1.01833, 0.0113414, 0.015893
26, 0.00000, 189.731, -110.592, -191.124, -109.106, 0.937502, 220.341, -4.27589E-006, -7.69711E-006, -0.603279, 0.680234, 0.88893, 0.181289, -0.286585, -0.859593, 0.00936824, 0.0134974
27, 0.00000, 190.244, -110.783, -191.499, -109.444, 0.846566, 220.81, -3.89109E-006, -6.9576E-006, -0.551232, 0.621028, 0.81198, 0.166003, -0.261506, -0.785467, 0.00842993, 0.0123807
28, 0.00000, 190.765, -110.914, -191.829, -109.815, 0.707476, 221.257, -3.73301E-006, -6.6688E-006, -0.532841, 0.599491, 0.784343, 0.160938, -0.252187, -0.759089, 0.00804487, 0.012023
29, 0.00000, 191.032, -110.923, -191.951, -110.028, 0.594663, 221.46, -3.85483E-006, -6.89014E-006, -0.554585, 0.62325, 0.81588, 0.167878, -0.261976, -0.789897, 0.00828091, 0.0125722
30, 0.00000, 190.199, -110.609, -191.336, -109.479, 0.742013, 220.695, -4.50217E-006, -8.10642E-006, -0.641934, 0.722378, 0.944909, 0.193666, -0.303905, -0.914252, 0.00980983, 0.0144506
31, 0.00000, 188.571, -109.977, -190.124, -108.413, 1.01585, 219.195, -5.81594E-006, -1.06362E-005, -0.818974, 0.923927, 1.20678, 0.245481, -0.389348, -1.16633, 0.0130266, 0.0182391
32, 0.00000, 188.225, -109.706, -189.757, -108.247, 0.971204, 218.815, -6.00921E-006, -9.04358E-006, -0.673419, 0.891328, 1.10574, 0.135965, -0.433642, -1.02424, 0.0132011, 0.0154998
33, 0.00000, 192.38, -110.276, -192.01, -111.413, -0.499508, 222.173, -3.07617E-006, 7.98583E-006, 0.773499, 0.0564729, -0.338106, -0.696988, -0.434258, 0.64075, 0.00504612, -0.0134129
34, 0.00000, 195.319, -110.591, -193.546, -113.698, -1.61319, 224.528, -1.05616E-006, 2.06967E-005, 1.97363, -0.610913, -1.51697, -1.40236, -0.455147, 2.01452, 0.000773422, -0.0380758
35, 0.00000, 199.148, -110.993, -195.555, -116.688, -3.08148, 227.612, 1.42508E-006, 3.65894E-005, 3.62332, -1.51906, -3.13256, -2.37876, -0.490639, 3.90422, -0.00261372, -0.07283
36, 0.00000, 199.821, -111.082, -195.924, -117.207, -3.32664, 228.165, 1.79822E-006, 3.86043E-005, 3.85498, -1.64823, -3.36127, -2.51542, -0.494125, 4.17124, -0.00278235, -0.0777822
37, 0.00000, 197.218, -110.785, -194.536, -115.183, -2.34531, 226.052, 4.12143E-007, 2.99221E-005, 2.89967, -1.12541, -2.42741, -1.94765, -0.471157, 3.0765, -0.00164491, -0.0574551
38, 0.00000, 192.583, -110.164, -192.008, -111.629, -0.677065, 222.275, -2.55076E-006, 1.26738E-005, 1.19819, -0.159722, -0.737682, -0.956126, -0.458901, 1.11604, 0.00356667, -0.0219944
39, 0.00000, 187.868, -109.4, -189.356, -108.085, 0.906625, 218.411, -6.3458E-006, -7.73867E-006, -0.549989, 0.881634, 1.03552, 0.0341305, -0.486666, -0.912637, 0.0136952, 0.0132362
40, 0.00000, 188.101, -109.32, -189.386, -108.304, 0.752094, 218.543, -7.9109E-006, -1.49321E-005, -1.13352, 1.27484, 1.66658, 0.341178, -0.535781, -1.61142, 0.0183458, 0.0253153
41, 0.00000, 184.168, -108.167, -186.786, -105.587, 1.67035, 215.124, -9.80314E-006, -1.88057E-005, -1.33568, 1.51618, 1.9725, 0.393573, -0.641169, -1.90085, 0.0237437, 0.0287918
42, 0.00000, 182.788, -107.59, -185.737, -104.704, 1.86916, 213.848, -1.10886E-005, -2.15704E-005, -1.49598, 1.70139, 2.21073, 0.438394, -0.720253, -2.12846, 0.0274645, 0.031917
43, 0.00000, 182.268, -107.365, -185.336, -104.376, 1.93912, 213.363, -1.15884E-005, -2.2691E-005, -1.55952, 1.77483, 2.3051, 0.456103, -0.751615, -2.21861, 0.0289847, 0.0331619
44, 0.00000, 181.964, -107.233, -185.104, -104.185, 1.97881, 213.081, -1.18793E-005, -2.33769E-005, -1.59655, 1.81767, 2.36004, 0.466373, -0.769885, -2.27105, 0.0299265, 0.0338746
45, 0.00000, 182.315, -107.386, -185.376, -104.407, 1.93153, 213.409, -1.15341E-005, -2.2649E-005, -1.55352, 1.76791, 2.296, 0.454381, -0.74858, -2.20992, 0.0289504, 0.0330283
46, 0.00000, 183.457, -107.878, -186.253, -105.13, 1.77726, 214.472, -1.04321E-005, -2.01902E-005, -1.41431, 1.60712, 2.08932, 0.415508, -0.679984, -2.01247, 0.0256182, 0.0303163
47, 0.00000, 185.295, -108.658, -187.661, -106.298, 1.52282, 216.175, -8.6666E-006, -1.64423E-005, -1.19088, 1.34994, 1.75784, 0.352344, -0.570443, -1.69522, 0.0206191, 0.0258911
48, 0.00000, 187.443, -109.558, -189.304, -107.67, 1.21615, 218.169, -6.65751E-006, -1.23375E-005, -0.929118, 1.05019, 1.37009, 0.277135, -0.443071, -1.32312, 0.0152487, 0.0205186
49, 0.00000, 189.205, -110.29, -190.65, -108.8, 0.957431, 219.809, -5.05773E-006, -9.15965E-006, -0.713709, 0.804808, 1.0516, 0.214292, -0.339081, -1.01669, 0.0111686, 0.0159501
50, 0.00000, 190.111, -110.664, -191.344, -109.384, 0.821139, 220.655, -4.24558E-006, -7.61773E-006, -0.602577, 0.678662, 0.887421, 0.181521, -0.285702, -0.858457, 0.00923031, 0.013539
51, 0.00000, 189.766, -110.692, -191.22, -109.092, 0.994251, 220.412, -3.9238E-006, -7.01855E-006, -0.551913, 0.622729, 0.813615, 0.165684, -0.262506, -0.786689, 0.00854073, 0.0123445
52, 0.00000, 189.912, -110.752, -191.331, -109.186, 0.972772, 220.549, -3.79959E-006, -6.76763E-006, -0.53405, 0.602454, 0.787254, 0.160413, -0.253934, -0.76125, 0.00822191, 0.0119484
53, 0.00000, 189.73, -110.676, -191.191, -109.068, 1.00054, 220.378, -3.96268E-006, -7.06429E-006, -0.556494, 0.627925, 0.820444, 0.167051, -0.264724, -0.793258, 0.00858883, 0.012443
54, 0.00000, 189.014, -110.38, -190.643, -108.607, 1.10786, 219.71, -4.60601E-006, -8.27377E-006, -0.643914, 0.727264, 0.949692, 0.19279, -0.3068, -0.917805, 0.0101076, 0.0143359
55, 0.00000, 189.66, -110.194, -190.763, -109.213, 0.683496, 220.099, -5.74237E-006, -1.04755E-005, -0.816711, 0.918268, 1.20126, 0.246529, -0.385945, -1.1621, 0.0127246, 0.0182832
56, 0.00000, 188.92, -109.873, -190.187, -108.742, 0.784144, 219.405, -6.39872E-006, -1.18308E-005, -0.913942, 1.02853, 1.34472, 0.275165, -0.432593, -1.30047, 0.0144489, 0.0204752
57, 0.00000, 189.51, -109.86, -190.434, -109.235, 0.500414, 219.84, -5.11027E-006, -3.50999E-006, -0.220487, 0.635286, 0.658773, -0.127094, -0.438585, -0.506513, 0.0104327, 0.00659517
58, 0.00000, 190.491, -109.939, -190.92, -110.006, 0.112172, 220.608, -4.31499E-006, 1.85048E-006, 0.233618, 0.384611, 0.215461, -0.394109, -0.448509, 0.0102835, 0.00802222, -0.00245461
59, 0.00000, 191.784, -110.109, -191.617, -110.996, -0.352293, 221.651, -3.39592E-006, 7.29983E-006, 0.711, 0.111378, -0.259359, -0.670249, -0.450447, 0.559138, 0.00561488, -0.0120889
60, 0.00000, 191.845, -110.134, -191.663, -111.035, -0.361054, 221.708, -3.33662E-006, 7.37966E-006, 0.717808, 0.103263, -0.26978, -0.672112, -0.446847, 0.569095, 0.00551323, -0.012235
61, 0.00000, 191.138, -110.025, -191.269, -110.5, -0.118692, 221.129, -3.84277E-006, 4.59614E-006, 0.471826, 0.247866, -0.0217598, -0.531682, -0.449165, 0.284267, 0.00677555, -0.00723866
62, 0.00000, 189.632, -109.763, -190.407, -109.375, 0.374144, 219.887, -4.98081E-006, -1.28475E-006, -0.0299932, 0.551255, 0.491057, -0.249648, -0.460954, -0.300259, 0.00978338, 0.0028757
63, 0.00000, 189.29, -109.622, -190.145, -109.155, 0.425077, 219.568, -5.29523E-006, -1.82781E-006, -0.0708285, 0.598172, 0.551893, -0.237827, -0.481021, -0.358774, 0.0104695, 0.00375471
64, 0.00000, 185.706, -108.83, -187.973, -106.559, 1.46564, 216.555, -8.28104E-006, -1.56132E-005, -1.141, 1.29268, 1.68398, 0.338134, -0.54612, -1.62441, 0.0195153, 0.0248895
65, 0.00000, 184.104, -108.154, -186.748, -105.541, 1.68915, 215.071, -9.80383E-006, -1.8818E-005, -1.3357, 1.51646, 1.97272, 0.393445, -0.641388, -1.90098, 0.0237668, 0.0287914
66, 0.00000, 183.041, -107.646, -185.887, -104.886, 1.7975, 214.058, -1.10432E-005, -2.14552E-005, -1.49509, 1.69908, 2.20861, 0.438881, -0.71893, -2.12693, 0.0272663, 0.0319816
67, 0.00000, 182.266, -107.365, -185.336, -104.375, 1.93891, 213.362, -1.15891E-005, -2.26987E-005, -1.55955, 1.77488, 2.30514, 0.456104, -0.751626, -2.21864, 0.0289973, 0.0331589
68, 0.00000, 181.963, -107.232, -185.104, -104.185, 1.9786, 213.08, -1.18791E-005, -2.33891E-005, -1.5966, 1.81774, 2.36009, 0.466377, -0.769898, -2.2711, 0.0299469, 0.0338716
69, 0.00000, 182.316, -107.386, -185.376, -104.407, 1.93172, 213.41, -1.15336E-005, -2.26366E-005, -1.55347, 1.76784, 2.29595, 0.454377, -0.748566, -2.20987, 0.0289299, 0.0330323
70, 0.00000, 183.458, -107.878, -186.253, -105.13, 1.7775, 214.472, -1.04348E-005, -2.01789E-005, -1.41427, 1.60708, 2.08931, 0.415509, -0.67998, -2.01245, 0.0255985, 0.0303155
71, 0.00000, 185.296, -108.658, -187.66, -106.298, 1.52315, 216.175, -8.66975E-006, -1.64316E-005, -1.19085, 1.3499, 1.75783, 0.352347, -0.570441, -1.6952, 0.0206001, 0.0258896
72, 0.00000, 187.444, -109.558, -189.303, -107.67, 1.21649, 218.169, -6.66121E-006, -1.23273E-005, -0.929091, 1.05016, 1.37008, 0.277136, -0.443068, -1.32311, 0.0152305, 0.020516
73, 0.00000, 188.772, -110.112, -190.321, -108.523, 1.02104, 219.407, -5.44138E-006, -9.93564E-006, -0.766544, 0.864893, 1.12962, 0.229773, -0.364503, -1.09184, 0.0121648, 0.017084
74, 0.00000, 189.767, -110.523, -191.082, -109.163, 0.872489, 220.335, -4.55066E-006, -8.20954E-006, -0.644605, 0.726338, 0.949453, 0.193929, -0.305849, -0.918264, 0.00997798, 0.0144496
75, 0.00000, 190.304, -110.744, -191.492, -109.508, 0.791773, 220.835, -4.07311E-006, -7.29664E-006, -0.578901, 0.651829, 0.852457, 0.174509, -0.274355, -0.824738, 0.0088303, 0.013022
76, 0.00000, 190.549, -110.845, -191.679, -109.667, 0.754629, 221.064, -3.85564E-006, -6.88329E-006, -0.5488, 0.61773, 0.808039, 0.165585, -0.259951, -0.781887, 0.00831289, 0.0123644
77, 0.00000, 190.552, -110.846, -191.681, -109.668, 0.754374, 221.066, -3.85386E-006, -6.8766E-006, -0.548527, 0.617421, 0.807646, 0.165506, -0.259824, -0.781507, 0.00830321, 0.0123594
78, 0.00000, 190.312, -110.747, -191.497, -109.513, 0.79088, 220.842, -4.06719E-006, -7.27466E-006, -0.577996, 0.650802, 0.851148, 0.174247, -0.273931, -0.823476, 0.00879857, 0.0130053
79, 0.00000, 189.755, -110.517, -191.071, -109.154, 0.875005, 220.322, -4.56364E-006, -8.21681E-006, -0.646322, 0.72828, 0.952034, 0.194449, -0.306691, -0.920756, 0.00998006, 0.0144933
80, 0.00000, 189.355, -110.179, -190.625, -108.971, 0.806538, 219.87, -4.9803E-006, -7.1294E-006, -0.539264, 0.735516, 0.904651, 0.098215, -0.36626, -0.831656, 0.0107186, 0.0126219
81, 0.00000, 191.698, -110.076, -191.552, -110.938, -0.336255, 221.571, -3.46753E-006, 7.14519E-006, 0.69786, 0.124079, -0.241816, -0.665238, -0.454862, 0.54144, 0.00576746, -0.0117979
82, 0.00000, 193.541, -109.914, -192.222, -112.523, -1.29869, 222.881, -2.62234E-006, 1.83243E-005, 1.73076, -0.363497, -1.18079, -1.31487, -0.54766, 1.67899, 0.00301539, -0.0326394
83, 0.00000, 197.293, -110.161, -194.064, -115.511, -2.83884, 225.826, -7.67629E-007, 3.36892E-005, 3.28352, -1.17407, -2.66241, -2.25499, -0.619167, 3.4336, -0.00019541, -0.0650595
84, 0.00000, 196.974, -110.04, -193.826, -115.298, -2.78091, 225.528, -1.03872E-006, 3.33641E-005, 3.24145, -1.13086, -2.60371, -2.2399, -0.635539, 3.375, 6.71712E-005, -0.0640773
85, 0.00000, 194.88, -109.746, -192.67, -113.698, -2.03648, 223.812, -2.22893E-006, 2.64516E-005, 2.51833, -0.721533, -1.88571, -1.81745, -0.629723, 2.54087, 0.00167277, -0.0487845
86, 0.00000, 190.004, -109.022, -189.967, -109.997, -0.342609, 219.826, -5.32369E-006, 8.34661E-006, 0.820098, 0.257715, -0.187658, -0.837079, -0.63038, 0.580045, 0.00854259, -0.0136777
87, 0.00000, 182.036, -107.526, -185.375, -104.127, 2.148, 213.277, -9.71093E-006, -1.39699E-005, -0.920318, 1.31801, 1.593, 0.134276, -0.67556, -1.44332, 0.0221285, 0.0199995
88, 0.00000, 180.53, -107.198, -184.405, -103, 2.62243, 211.963, -1.11638E-005, -2.14992E-005, -1.44155, 1.65227, 2.13951, 0.415536, -0.703581, -2.05463, 0.0277367, 0.0299372
89, 0.00000, 182.045, -107.406, -185.28, -104.179, 2.0657, 213.223, -1.13079E-005, -2.20613E-005, -1.50867, 1.7194, 2.23166, 0.439996, -0.728825, -2.14709, 0.0282357, 0.0319176
90, 0.00000, 183.982, -107.764, -186.378, -105.601, 1.46445, 214.801, -1.11409E-005, -2.18013E-005, -1.54071, 1.74473, 2.2716, 0.455609, -0.736392, -2.19001, 0.0275501, 0.0333653
91, 0.00000, 186.599, -108.33, -187.941, -107.492, 0.709626, 216.981, -1.05412E-005, -2.0638E-005, -1.52128, 1.70937, 2.23404, 0.457465, -0.717552, -2.1593, 0.0256273, 0.0338229
92, 0.00000, 182.483, -107.458, -185.503, -104.511, 1.91001, 213.564, -1.13823E-005, -2.22259E-005, -1.53318, 1.74439, 2.26597, 0.448766, -0.738606, -2.18124, 0.0283532, 0.0326441
93, 0.00000, 182.986, -107.675, -185.887, -104.828, 1.84317, 214.031, -1.0911E-005, -2.11234E-005, -1.47189, 1.67357, 2.17506, 0.431685, -0.708415, -2.09435, 0.0268474, 0.0314365
94, 0.00000, 183.964, -108.094, -186.642, -105.452, 1.7079, 214.942, -9.94496E-006, -1.91305E-005, -1.35267, 1.53606, 1.99786, 0.398183, -0.649698, -1.925, 0.0241937, 0.0291046
95, 0.00000, 185.359, -108.684, -187.709, -106.339, 1.51396, 216.234, -8.60678E-006, -1.63147E-005, -1.18315, 1.34106, 1.74639, 0.350145, -0.56667, -1.68424, 0.0204495, 0.0257356
96, 0.00000, 187.035, -109.388, -188.992, -107.409, 1.27515, 217.79, -7.03425E-006, -1.30928E-005, -0.978836, 1.10699, 1.44369, 0.291522, -0.467184, -1.39383, 0.0162273, 0.0215548
97, 0.00000, 188.63, -110.052, -190.21, -108.43, 1.04288, 219.273, -5.57763E-006, -1.01657E-005, -0.78411, 0.884878, 1.15567, 0.234932, -0.372997, -1.1169, 0.0124465, 0.0174594
98, 0.00000, 189.668, -110.482, -191.007, -109.1, 0.887122, 220.243, -4.63434E-006, -8.38406E-006, -0.656777, 0.740153, 0.967406, 0.197515, -0.311689, -0.935586, 0.0102015, 0.0147197
99, 0.00000, 190.266, -110.729, -191.463, -109.485, 0.79737, 220.801, -4.10599E-006, -7.35986E-006, -0.583452, 0.656986, 0.859173, 0.175856, -0.276533, -0.831215, 0.00890978, 0.0131211
100, 0.00000, 190.563, -110.85, -191.69, -109.676, 0.752463, 221.077, -3.84308E-006, -6.8606E-006, -0.547068, 0.615769, 0.805481, 0.165071, -0.259122, -0.779418, 0.00828497, 0.0123262
101, 0.00000, 190.653, -110.887, -191.759, -109.734, 0.73881, 221.162, -3.76442E-006, -6.71288E-006, -0.535995, 0.603232, 0.789138, 0.161782, -0.253823, -0.763643, 0.00810149, 0.0120804
102, 0.00000, 190.509, -110.828, -191.647, -109.64, 0.761122, 221.025, -3.89126E-006, -6.94055E-006, -0.553949, 0.62356, 0.81567, 0.167121, -0.262429, -0.789258, 0.00837948, 0.0124852
103, 0.00000, 190.026, -110.629, -191.278, -109.329, 0.834165, 220.575, -4.32185E-006, -7.75547E-006, -0.613081, 0.690573, 0.902949, 0.184632, -0.290745, -0.873434, 0.00940011, 0.0137708
104, 0.00000, 189.845, -110.381, -190.999, -109.286, 0.733598, 220.327, -4.53981E-006, -6.31258E-006, -0.480157, 0.667827, 0.816818, 0.0810671, -0.337368, -0.74718, 0.00968248, 0.0113408
105, 0.00000, 192.265, -110.312, -191.989, -111.304, -0.421142, 222.104, -2.95309E-006, 7.88647E-006, 0.761581, 0.0481008, -0.339373, -0.682491, -0.421091, 0.634579, 0.00482403, -0.0132298
106, 0.00000, 193.98, -110.098, -192.562, -112.806, -1.36355, 223.295, -2.21602E-006, 1.87676E-005, 1.77599, -0.420426, -1.25278, -1.3258, -0.521108, 1.74695, 0.00243218, -0.033682
107, 0.00000, 201.533, -110.553, -196.257, -118.855, -4.51783, 229.232, 2.59501E-006, 5.6869E-005, 5.80905, -2.55613, -5.13117, -3.7549, -0.678973, 6.3265, -0.00363343, -0.119199
108, 0.00000, 211.845, -111.233, -201.421, -127.128, -8.82288, 237.478, 5.45899E-006, 8.27872E-005, 9.71673, -4.47785, -8.78058, -6.1983, -0.955353, 10.73, 0.00915492, -0.20582
109, 0.00000, 211.105, -111.124, -200.999, -126.558, -8.55612, 236.855, 5.06997E-006, 8.14972E-005, 9.47231, -4.34434, -8.54025, -6.0514, -0.94939, 10.4465, 0.00800969, -0.20034
