hour, t(sec), V1.re, V1.im, V2.re, V2.im, V3.re, V3.im, V4.re, V4.im, I1.re, I1.im, I2.re, I2.im, I3.re, I3.im, I4.re, I4.im
1, 0.00000, 189.719, -110.331, -190.863, -109.197, 0.758825, 220.177, 3.33123E-005, -0.000163689, -0.191854, 0.215898, 0.282404, 0.0578661, -0.0908371, -0.27319, 0.000287117, -0.000574583
2, 0.00000, 190.628, -110.705, -191.564, -109.784, 0.619688, 221.03, 2.70258E-005, -0.000135886, -0.161977, 0.182055, 0.238305, 0.049012, -0.0765331, -0.230665, 0.000204241, -0.000402543
3, 0.00000, 191.053, -110.878, -191.891, -110.061, 0.552832, 221.43, 2.42454E-005, -0.000123387, -0.148068, 0.166327, 0.217788, 0.0448705, -0.0698908, -0.210859, 0.000170457, -0.000338399
4, 0.00000, 191.264, -110.938, -192.032, -110.21, 0.498432, 221.616, 2.3247E-005, -0.000118803, -0.143248, 0.160834, 0.210647, 0.0434589, -0.067556, -0.203985, 0.000157475, -0.000307604
5, 0.00000, 191.107, -110.862, -191.901, -110.113, 0.514509, 221.463, 2.44001E-005, -0.000124005, -0.149269, 0.167613, 0.219508, 0.0452678, -0.0704098, -0.212552, 0.000170341, -0.000328211
6, 0.00000, 190.528, -110.57, -191.41, -109.764, 0.560473, 220.895, 2.90662E-005, -0.000144811, -0.172666, 0.193953, 0.253928, 0.0522957, -0.0814882, -0.245818, 0.000225886, -0.000429896
7, 0.00000, 189.285, -109.976, -190.383, -108.998, 0.684514, 219.691, 3.95888E-005, -0.000189383, -0.220154, 0.247545, 0.323833, 0.0664568, -0.104053, -0.313281, 0.00037392, -0.000721215
8, 0.00000, 188.199, -109.668, -189.664, -108.228, 0.966075, 218.736, 4.63032E-005, -0.000216637, -0.246513, 0.277901, 0.363081, 0.0739712, -0.117057, -0.350905, 0.000488459, -0.000967108
9, 0.00000, 192.539, -109.869, -191.695, -111.744, -0.918931, 222.071, 4.51676E-005, -0.000200304, -0.250582, 0.277376, 0.365232, 0.0779266, -0.115045, -0.354962, 0.000395313, -0.000340774
10, 0.00000, 194.287, -109.867, -192.453, -113.201, -1.74545, 223.387, 4.58719E-005, -0.000198028, -0.257184, 0.28247, 0.373152, 0.0811504, -0.116341, -0.363509, 0.000372709, -0.000110934
11, 0.00000, 201.532, -110, -195.746, -119.199, -5.08717, 228.965, 4.25328E-005, -0.00016918, -0.255904, 0.272715, 0.364831, 0.0851965, -0.109127, -0.358681, 0.000198748, 0.000769359
12, 0.00000, 201.922, -110.023, -195.937, -119.516, -5.25594, 229.274, 4.17765E-005, -0.000166335, -0.253709, 0.269982, 0.361405, 0.084681, -0.107876, -0.35547, 0.000180007, 0.000807588
13, 0.00000, 199.196, -109.991, -194.706, -117.247, -3.9802, 227.173, 4.32712E-005, -0.000177561, -0.255955, 0.275451, 0.36701, 0.0837902, -0.1113, -0.359751, 0.000245356, 0.000509507
14, 0.00000, 192.528, -109.724, -191.569, -111.8, -1.02538, 221.994, 4.80161E-005, -0.000210777, -0.264087, 0.292006, 0.384651, 0.082272, -0.120992, -0.373924, 0.000428507, -0.000353207
15, 0.00000, 188.712, -109.376, -189.64, -108.783, 0.501457, 218.98, 5.31913E-005, -0.000240087, -0.277225, 0.311053, 0.407143, 0.0839078, -0.130494, -0.393976, 0.000576407, -0.000985462
16, 0.00000, 185.84, -108.855, -187.989, -106.637, 1.44347, 216.614, 6.25481E-005, -0.000282524, -0.306898, 0.347548, 0.452978, 0.0910835, -0.146861, -0.436978, 0.000781946, -0.00165374
17, 0.00000, 184.231, -108.17, -186.745, -105.614, 1.66503, 215.115, 7.83936E-005, -0.000341686, -0.359305, 0.407749, 0.530706, 0.106003, -0.172494, -0.511422, 0.00109246, -0.0023293
18, 0.00000, 182.971, -107.631, -185.688, -104.778, 1.86941, 213.872, 9.09901E-005, -0.000391015, -0.402329, 0.457325, 0.594762, 0.118192, -0.193766, -0.572611, 0.00133277, -0.00290585
19, 0.00000, 182.494, -107.437, -185.275, -104.464, 1.95465, 213.364, 9.44383E-005, -0.000409144, -0.419328, 0.476987, 0.620239, 0.123043, -0.202286, -0.596951, 0.00137525, -0.00307909
20, 0.00000, 182.219, -107.327, -185.042, -104.286, 2.00284, 213.073, 9.72685E-005, -0.000419046, -0.429177, 0.4884, 0.634984, 0.125844, -0.207238, -0.611084, 0.00143082, -0.00315981
21, 0.00000, 182.654, -107.454, -185.373, -104.592, 1.88749, 213.512, 9.35296E-005, -0.000404528, -0.417572, 0.474693, 0.617432, 0.122679, -0.201213, -0.594407, 0.00135327, -0.00296529
22, 0.00000, 183.599, -107.899, -186.233, -105.202, 1.76005, 214.509, 8.42073E-005, -0.000365862, -0.380404, 0.432046, 0.562098, 0.111982, -0.182891, -0.541416, 0.00119729, -0.00261123
23, 0.00000, 185.429, -108.68, -187.67, -106.375, 1.50096, 216.23, 6.62993E-005, -0.000297409, -0.320316, 0.362938, 0.472876, 0.094922, -0.15341, -0.456043, 0.000850656, -0.00181681
24, 0.00000, 187.581, -109.591, -189.337, -107.75, 1.19553, 218.242, 4.75571E-005, -0.000222629, -0.249896, 0.282352, 0.36852, 0.074635, -0.119145, -0.355906, 0.000520477, -0.0010808
25, 0.00000, 189.108, -110.326, -190.597, -108.686, 1.04894, 219.717, 3.38176E-005, -0.000166043, -0.192029, 0.216699, 0.283114, 0.0575932, -0.0913928, -0.273645, 0.000307126, -0.000646824
26, 0.00000, 190.065, -110.704, -191.322, -109.312, 0.889461, 220.607, 2.75266E-005, -0.000137901, -0.162123, 0.182687, 0.238867, 0.0488041, -0.0769674, -0.231026, 0.000223254, -0.000465337
27, 0.00000, 190.531, -110.879, -191.667, -109.621, 0.805139, 221.037, 2.45227E-005, -0.000124735, -0.148165, 0.166834, 0.218235, 0.0446875, -0.0702518, -0.211142, 0.000182048, -0.000379023
28, 0.00000, 190.859, -110.939, -191.858, -109.869, 0.694947, 221.311, 2.34741E-005, -0.000119844, -0.143326, 0.161218, 0.210987, 0.0433227, -0.0678285, -0.204202, 0.000166785, -0.000339103
29, 0.00000, 190.895, -110.863, -191.81, -109.935, 0.61716, 221.304, 2.44787E-005, -0.000124598, -0.149316, 0.16783, 0.219705, 0.0451946, -0.0705619, -0.212679, 0.000173753, -0.00034599
30, 0.00000, 190.126, -110.57, -191.236, -109.426, 0.754003, 220.591, 2.93235E-005, -0.00014635, -0.17279, 0.19445, 0.25438, 0.05214, -0.0818263, -0.246113, 0.00023592, -0.000477175
31, 0.00000, 188.592, -109.969, -190.08, -108.42, 1.01257, 219.168, 3.99326E-005, -0.000192186, -0.220372, 0.248572, 0.324755, 0.0661024, -0.104773, -0.313869, 0.000389212, -0.000805392
32, 0.00000, 188.175, -109.668, -189.653, -108.207, 0.977718, 218.718, 4.61468E-005, -0.000216474, -0.246502, 0.277919, 0.363098, 0.073954, -0.11708, -0.350912, 0.000483534, -0.000960714
33, 0.00000, 191.088, -109.785, -190.999, -110.575, -0.301314, 220.944, 4.59946E-005, -0.00020726, -0.251243, 0.279753, 0.367433, 0.0772494, -0.116622, -0.356454, 0.00043264, -0.000549168
34, 0.00000, 193.226, -109.822, -191.954, -112.338, -1.27918, 222.566, 4.63683E-005, -0.000202861, -0.257657, 0.284226, 0.374785, 0.0806385, -0.117524, -0.364611, 0.000396641, -0.000253751
35, 0.00000, 196.168, -109.933, -193.328, -114.738, -2.58153, 224.839, 4.52626E-005, -0.00019086, -0.258164, 0.281354, 0.3729, 0.082628, -0.115066, -0.364123, 0.000330276, 0.000141304
36, 0.00000, 196.678, -109.97, -193.581, -115.148, -2.79505, 225.243, 4.45529E-005, -0.000187294, -0.255898, 0.278345, 0.369214, 0.0821942, -0.113629, -0.360739, 0.000312216, 0.000200377
37, 0.00000, 194.756, -109.895, -192.679, -113.577, -1.94226, 223.752, 4.56649E-005, -0.000196203, -0.257851, 0.282675, 0.373733, 0.0816431, -0.11624, -0.364283, 0.000358335, -3.47452E-005
38, 0.00000, 191.29, -109.672, -190.991, -110.79, -0.478654, 221.04, 4.86786E-005, -0.000216526, -0.264631, 0.294127, 0.386604, 0.0816271, -0.122433, -0.375231, 0.0004596, -0.00052339
39, 0.00000, 187.67, -109.302, -189.134, -107.952, 0.933361, 218.173, 5.39381E-005, -0.000246085, -0.277762, 0.312984, 0.408915, 0.0833535, -0.131762, -0.39517, 0.0006082, -0.00116784
40, 0.00000, 187.019, -108.887, -188.515, -107.61, 0.903158, 217.505, 6.14771E-005, -0.000275178, -0.306332, 0.345074, 0.450759, 0.0919063, -0.145165, -0.435551, 0.000738089, -0.00142934
41, 0.00000, 184.264, -108.171, -186.757, -105.64, 1.65152, 215.139, 7.75736E-005, -0.000340898, -0.359295, 0.407678, 0.530689, 0.10604, -0.172458, -0.511418, 0.00106389, -0.00229994
42, 0.00000, 182.971, -107.631, -185.688, -104.778, 1.86936, 213.871, 9.03439E-005, -0.00039053, -0.402331, 0.457328, 0.5948, 0.118202, -0.19378, -0.572643, 0.00131046, -0.00288663
43, 0.00000, 182.493, -107.437, -185.276, -104.464, 1.95381, 213.365, 9.49902E-005, -0.000409897, -0.419332, 0.476991, 0.620208, 0.123036, -0.202271, -0.596919, 0.00139368, -0.00310756
44, 0.00000, 182.219, -107.327, -185.042, -104.286, 2.00253, 213.073, 9.75239E-005, -0.000419471, -0.42918, 0.488403, 0.63497, 0.12584, -0.20723, -0.611067, 0.00143922, -0.00317571
45, 0.00000, 182.541, -107.457, -185.314, -104.495, 1.947, 213.411, 9.36722E-005, -0.000405515, -0.417635, 0.475033, 0.617745, 0.122574, -0.201469, -0.594611, 0.00135905, -0.00299514
46, 0.00000, 183.599, -107.899, -186.232, -105.202, 1.76039, 214.509, 8.39354E-005, -0.000365761, -0.380404, 0.432044, 0.562109, 0.111984, -0.182894, -0.541421, 0.00118775, -0.00260693
47, 0.00000, 185.428, -108.68, -187.671, -106.375, 1.50039, 216.231, 6.67139E-005, -0.000297749, -0.32032, 0.362943, 0.472859, 0.0949183, -0.153404, -0.456031, 0.000864881, -0.00183002
48, 0.00000, 187.581, -109.591, -189.337, -107.75, 1.19553, 218.242, 4.75582E-005, -0.000222628, -0.249896, 0.282352, 0.36852, 0.074635, -0.119145, -0.355906, 0.00052052, -0.00108079
49, 0.00000, 189.344, -110.328, -190.7, -108.882, 0.937611, 219.894, 3.34874E-005, -0.000164972, -0.191955, 0.216383, 0.282839, 0.0576977, -0.0911784, -0.273468, 0.000294884, -0.000612912
50, 0.00000, 190.25, -110.704, -191.401, -109.467, 0.801589, 220.746, 2.72203E-005, -0.000137051, -0.162064, 0.18247, 0.238676, 0.0488689, -0.0768236, -0.230901, 0.000212339, -0.000437883
51, 0.00000, 190.299, -110.879, -191.567, -109.427, 0.916869, 220.862, 2.4554E-005, -0.000125238, -0.148205, 0.167058, 0.218434, 0.0446034, -0.0704135, -0.211268, 0.000184143, -0.000393488
52, 0.00000, 190.445, -110.939, -191.679, -109.52, 0.894925, 220.999, 2.35741E-005, -0.000120911, -0.143412, 0.161624, 0.211354, 0.043183, -0.0681135, -0.204436, 0.000171617, -0.00037081
53, 0.00000, 190.262, -110.863, -191.537, -109.402, 0.922725, 220.827, 2.46935E-005, -0.000126275, -0.149444, 0.168462, 0.22027, 0.0449716, -0.0710098, -0.213038, 0.000183455, -0.000396135
54, 0.00000, 189.549, -110.567, -190.985, -108.942, 1.03014, 220.156, 2.94881E-005, -0.000148036, -0.17292, 0.195111, 0.254973, 0.0519052, -0.0822969, -0.246489, 0.000244075, -0.000527087
55, 0.00000, 189.125, -109.975, -190.314, -108.865, 0.760872, 219.57, 3.95539E-005, -0.000189806, -0.22019, 0.247765, 0.324032, 0.0663728, -0.104215, -0.313405, 0.000373791, -0.000732718
56, 0.00000, 188.354, -109.642, -189.708, -108.374, 0.865775, 218.843, 4.60149E-005, -0.000215903, -0.246488, 0.277614, 0.362843, 0.0741046, -0.116833, -0.350774, 0.000478046, -0.000943983
57, 0.00000, 189.023, -109.659, -190.008, -108.916, 0.571912, 219.344, 4.72495E-005, -0.000217593, -0.252191, 0.283195, 0.370603, 0.0762574, -0.1189, -0.358592, 0.000487885, -0.000860873
58, 0.00000, 189.707, -109.629, -190.275, -109.496, 0.228881, 219.839, 4.8587E-005, -0.000220294, -0.259295, 0.290187, 0.380289, 0.0789192, -0.121489, -0.368329, 0.000494701, -0.000776944
59, 0.00000, 190.632, -109.666, -190.704, -110.249, -0.177319, 220.547, 4.84888E-005, -0.000217134, -0.260725, 0.29064, 0.381521, 0.0799668, -0.121272, -0.369966, 0.000476852, -0.000640525
60, 0.00000, 190.694, -109.692, -190.752, -110.288, -0.18618, 220.605, 4.78403E-005, -0.000215009, -0.258614, 0.288265, 0.378427, 0.0793372, -0.120277, -0.36698, 0.000464115, -0.000621875
61, 0.00000, 190.169, -109.648, -190.49, -109.872, 0.0267732, 220.192, 4.83208E-005, -0.000218418, -0.25999, 0.290392, 0.380889, 0.079439, -0.121378, -0.369133, 0.000478611, -0.000698085
62, 0.00000, 189.03, -109.518, -189.893, -108.983, 0.462042, 219.282, 5.02147E-005, -0.000228661, -0.265758, 0.298088, 0.390263, 0.080517, -0.125031, -0.377714, 0.000525872, -0.000890556
63, 0.00000, 188.685, -109.374, -189.627, -108.762, 0.512471, 218.959, 5.32472E-005, -0.000240272, -0.277239, 0.311103, 0.407186, 0.0838934, -0.130526, -0.394005, 0.000578479, -0.000991349
64, 0.00000, 185.84, -108.855, -187.989, -106.637, 1.44344, 216.614, 6.25769E-005, -0.000282557, -0.3069, 0.34755, 0.452978, 0.0910835, -0.146861, -0.436979, 0.000782914, -0.00165495
65, 0.00000, 184.232, -108.17, -186.745, -105.615, 1.66522, 215.116, 7.80866E-005, -0.000341108, -0.359269, 0.407708, 0.530673, 0.105998, -0.172486, -0.511397, 0.00108258, -0.00230873
66, 0.00000, 183.086, -107.631, -185.746, -104.877, 1.81138, 213.967, 8.90683E-005, -0.000388103, -0.402256, 0.45699, 0.594551, 0.118321, -0.193562, -0.572509, 0.0012667, -0.00280211
67, 0.00000, 182.494, -107.437, -185.276, -104.464, 1.95436, 213.365, 9.4921E-005, -0.000409932, -0.419332, 0.476992, 0.620215, 0.123037, -0.202274, -0.596921, 0.00139112, -0.00310857
68, 0.00000, 182.219, -107.327, -185.042, -104.286, 2.0028, 213.073, 9.74112E-005, -0.000419302, -0.429179, 0.488403, 0.634977, 0.125842, -0.207234, -0.611075, 0.00143548, -0.00316935
69, 0.00000, 182.541, -107.457, -185.315, -104.495, 1.94661, 213.412, 9.37605E-005, -0.000405678, -0.417636, 0.475032, 0.617738, 0.122571, -0.201464, -0.594602, 0.00136194, -0.00300126
70, 0.00000, 183.599, -107.899, -186.233, -105.202, 1.76011, 214.509, 8.41114E-005, -0.000365788, -0.380403, 0.432045, 0.562101, 0.111983, -0.182891, -0.541419, 0.001194, -0.00260836
71, 0.00000, 185.428, -108.68, -187.671, -106.375, 1.5005, 216.231, 6.66625E-005, -0.000297704, -0.320317, 0.362939, 0.472858, 0.0949189, -0.153404, -0.456029, 0.000863115, -0.00182833
72, 0.00000, 187.582, -109.591, -189.337, -107.75, 1.19567, 218.242, 4.74912E-005, -0.000222597, -0.249893, 0.282349, 0.36852, 0.0746354, -0.119145, -0.355904, 0.000518178, -0.00107954
73, 0.00000, 188.913, -110.148, -190.366, -108.605, 1.00145, 219.49, 3.67986E-005, -0.000178776, -0.206156, 0.232524, 0.303825, 0.0618693, -0.098014, -0.293677, 0.00034547, -0.000715905
74, 0.00000, 189.907, -110.562, -191.136, -109.246, 0.853003, 220.424, 2.96657E-005, -0.000147663, -0.173363, 0.195281, 0.255357, 0.052211, -0.0822405, -0.246985, 0.000246057, -0.000506457
75, 0.00000, 190.443, -110.784, -191.55, -109.591, 0.77236, 220.927, 2.59269E-005, -0.000131186, -0.155693, 0.175252, 0.229268, 0.0469795, -0.0737716, -0.221828, 0.000196253, -0.000403604
76, 0.00000, 190.688, -110.886, -191.74, -109.75, 0.735225, 221.158, 2.42594E-005, -0.00012374, -0.147598, 0.166086, 0.217322, 0.0445761, -0.0698985, -0.210302, 0.000175004, -0.000360152
77, 0.00000, 190.69, -110.886, -191.741, -109.751, 0.734938, 221.16, 2.42167E-005, -0.000123638, -0.147526, 0.166004, 0.217217, 0.0445549, -0.0698645, -0.210201, 0.000173884, -0.000358398
78, 0.00000, 190.45, -110.787, -191.556, -109.596, 0.771393, 220.934, 2.57826E-005, -0.000130842, -0.155452, 0.174979, 0.228918, 0.0469093, -0.0736583, -0.221491, 0.000192448, -0.000397667
79, 0.00000, 189.894, -110.557, -191.125, -109.237, 0.855381, 220.411, 2.95984E-005, -0.000147867, -0.173829, 0.195808, 0.256055, 0.0523513, -0.0824679, -0.247659, 0.000241837, -0.000500469
80, 0.00000, 189.311, -110.147, -190.535, -108.936, 0.813302, 219.785, 3.71253E-005, -0.000179276, -0.208659, 0.234909, 0.307185, 0.0628515, -0.0988683, -0.29709, 0.000342225, -0.000670974
81, 0.00000, 190.547, -109.634, -190.64, -110.192, -0.162071, 220.468, 4.90135E-005, -0.000219514, -0.263315, 0.293565, 0.385338, 0.0807364, -0.122507, -0.373647, 0.000483336, -0.000654433
82, 0.00000, 191.464, -109.137, -190.623, -111.177, -0.976263, 220.923, 6.07595E-005, -0.000255961, -0.314398, 0.347687, 0.457809, 0.097787, -0.144045, -0.444866, 0.000633659, -0.000608521
83, 0.00000, 193.994, -108.969, -191.58, -113.359, -2.29928, 222.748, 6.55228E-005, -0.000261915, -0.340225, 0.371527, 0.491755, 0.108283, -0.152176, -0.479623, 0.000645741, -0.000187123
84, 0.00000, 193.674, -108.845, -191.338, -113.148, -2.24365, 222.448, 6.81901E-005, -0.000271403, -0.350802, 0.383256, 0.507159, 0.111532, -0.157046, -0.494548, 0.000688992, -0.000239848
85, 0.00000, 192.093, -108.717, -190.547, -111.889, -1.59612, 221.2, 7.09427E-005, -0.000285471, -0.356703, 0.392053, 0.517449, 0.112126, -0.161517, -0.503625, 0.00077141, -0.000553771
86, 0.00000, 188.455, -108.417, -188.736, -109, -0.117144, 218.344, 7.65026E-005, -0.000317009, -0.366231, 0.408261, 0.535526, 0.112001, -0.170249, -0.51891, 0.000953939, -0.001351
87, 0.00000, 183.333, -108.001, -186.147, -104.895, 2.00456, 214.305, 8.13998E-005, -0.000361342, -0.376803, 0.428861, 0.55771, 0.110496, -0.182029, -0.536828, 0.00112264, -0.00252977
88, 0.00000, 182.222, -107.864, -185.469, -104.028, 2.44405, 213.289, 8.44147E-005, -0.000375353, -0.385196, 0.44028, 0.571637, 0.112074, -0.187642, -0.549581, 0.00120156, -0.0027735
89, 0.00000, 182.607, -107.608, -185.47, -104.478, 2.03712, 213.534, 9.00564E-005, -0.000393592, -0.405044, 0.461134, 0.599489, 0.118682, -0.195738, -0.576908, 0.00129352, -0.00290774
90, 0.00000, 183.305, -107.466, -185.74, -105.156, 1.55872, 214.086, 9.56342E-005, -0.000401732, -0.415808, 0.471253, 0.613458, 0.122818, -0.199074, -0.591128, 0.00142434, -0.00294271
91, 0.00000, 184.616, -107.536, -186.384, -106.234, 0.974644, 215.115, 9.34506E-005, -0.000389268, -0.412722, 0.465104, 0.606867, 0.123326, -0.195493, -0.585815, 0.00134863, -0.0026151
92, 0.00000, 182.691, -107.516, -185.446, -104.593, 1.91914, 213.575, 9.28026E-005, -0.000401438, -0.412275, 0.468825, 0.609675, 0.121033, -0.19875, -0.586858, 0.0013506, -0.00300016
93, 0.00000, 183.156, -107.709, -185.846, -104.901, 1.83801, 214.06, 8.73699E-005, -0.000382068, -0.395832, 0.449826, 0.585164, 0.116372, -0.19057, -0.563437, 0.00123762, -0.00276076
94, 0.00000, 184.091, -108.109, -186.636, -105.525, 1.68405, 214.986, 7.96492E-005, -0.000347225, -0.363856, 0.412987, 0.537465, 0.107289, -0.174724, -0.517874, 0.00111458, -0.00240193
95, 0.00000, 185.492, -108.707, -187.72, -106.416, 1.49148, 216.29, 6.62018E-005, -0.000295444, -0.318242, 0.360558, 0.469774, 0.0943244, -0.152389, -0.453078, 0.000856681, -0.00180496
96, 0.00000, 187.173, -109.419, -189.021, -107.489, 1.25421, 217.861, 5.09926E-005, -0.000236422, -0.263271, 0.297623, 0.388322, 0.0785137, -0.12563, -0.374931, 0.000578992, -0.00120604
97, 0.00000, 188.769, -110.088, -190.255, -108.512, 1.02282, 219.355, 3.77454E-005, -0.000183233, -0.210892, 0.23791, 0.310834, 0.0632597, -0.1003, -0.300425, 0.000357019, -0.000744503
98, 0.00000, 189.808, -110.521, -191.06, -109.182, 0.867911, 220.331, 3.03567E-005, -0.000150657, -0.176632, 0.198989, 0.260187, 0.0531774, -0.0838107, -0.251643, 0.000255376, -0.000523484
99, 0.00000, 190.405, -110.769, -191.522, -109.567, 0.777957, 220.892, 2.61859E-005, -0.000132323, -0.156917, 0.176638, 0.231075, 0.0473425, -0.0743574, -0.22357, 0.0001997, -0.000410598
100, 0.00000, 190.702, -110.891, -191.75, -109.759, 0.733068, 221.171, 2.41738E-005, -0.000123326, -0.147132, 0.165559, 0.216634, 0.0444375, -0.0696754, -0.209638, 0.000174131, -0.000358186
101, 0.00000, 190.792, -110.929, -191.82, -109.817, 0.71938, 221.256, 2.35912E-005, -0.000120666, -0.144153, 0.162187, 0.212236, 0.0435513, -0.0682499, -0.205393, 0.000167303, -0.00034516
102, 0.00000, 190.646, -110.868, -191.707, -109.723, 0.741702, 221.118, 2.44357E-005, -0.000124815, -0.148989, 0.16766, 0.21938, 0.0449906, -0.0705665, -0.21229, 0.000175069, -0.00036003
103, 0.00000, 190.164, -110.669, -191.335, -109.412, 0.814607, 220.665, 2.77161E-005, -0.000139539, -0.164889, 0.185672, 0.242852, 0.0497067, -0.0781797, -0.23493, 0.00021691, -0.000448793
104, 0.00000, 189.802, -110.351, -190.915, -109.252, 0.74056, 220.246, 3.34824E-005, -0.000163763, -0.19239, 0.216456, 0.283163, 0.0580513, -0.0910626, -0.273943, 0.000289537, -0.000563701
105, 0.00000, 191.124, -109.876, -191.09, -110.564, -0.246536, 221.013, 4.41971E-005, -0.000200779, -0.243501, 0.271284, 0.356247, 0.0748033, -0.113153, -0.345561, 0.000407284, -0.000525763
106, 0.00000, 191.917, -109.329, -190.978, -111.467, -1.04084, 221.352, 5.65424E-005, -0.000240801, -0.298338, 0.329758, 0.434342, 0.0929219, -0.136566, -0.422177, 0.000562065, -0.000502556
