hour, t(sec), V1.re, V1.im, V2.re, V2.im, V3.re, V3.im, V4.re, V4.im, I1.re, I1.im, I2.re, I2.im, I3.re, I3.im, I4.re, I4.im
1, 0.00000, 191.026, -111.34, -192.235, -109.797, 0.96512, 221.585, -1.93657E-005, -0.000312366, -0.681432, 0.768339, 1.00497, 0.205167, -0.324211, -0.972099, 0.000672841, -0.0014083
2, 0.00000, 191.73, -111.553, -192.721, -110.293, 0.791325, 222.219, -1.68048E-005, -0.0002608, -0.576076, 0.64855, 0.848901, 0.174058, -0.273303, -0.82163, 0.000477847, -0.000977074
3, 0.00000, 192.062, -111.653, -192.95, -110.527, 0.70839, 222.518, -1.55334E-005, -0.000237218, -0.526901, 0.592759, 0.776139, 0.159463, -0.249632, -0.75141, 0.00039464, -0.000811001
4, 0.00000, 192.249, -111.69, -193.062, -110.668, 0.646763, 222.678, -1.44279E-005, -0.000228428, -0.50987, 0.573274, 0.750811, 0.154493, -0.241308, -0.727032, 0.000366, -0.000734336
5, 0.00000, 192.135, -111.648, -192.977, -110.591, 0.669055, 222.571, -1.47119E-005, -0.000238274, -0.531183, 0.597344, 0.782263, 0.160879, -0.251481, -0.757432, 0.000400095, -0.000790311
6, 0.00000, 191.733, -111.485, -192.665, -110.325, 0.738429, 222.189, -1.5537E-005, -0.000276613, -0.613809, 0.69065, 0.904185, 0.185631, -0.290907, -0.875251, 0.000531173, -0.0010312
7, 0.00000, 190.841, -111.154, -191.998, -109.724, 0.912716, 221.357, -1.73293E-005, -0.000356692, -0.780757, 0.879795, 1.15095, 0.235262, -0.371044, -1.11338, 0.000852567, -0.00167618
8, 0.00000, 189.801, -110.943, -191.369, -108.945, 1.24999, 220.47, -2.18299E-005, -0.000402677, -0.873547, 0.987442, 1.28997, 0.261449, -0.417559, -1.24653, 0.00114065, -0.00236543
9, 0.00000, 193.793, -110.999, -193.151, -112.253, -0.600046, 223.504, 1.67285E-005, -0.000311767, -0.889376, 0.987673, 1.29979, 0.275535, -0.411295, -1.26276, 0.000885997, -0.000450034
10, 0.00000, 195.439, -110.972, -193.847, -113.64, -1.40333, 224.737, 3.26278E-005, -0.000280841, -0.913135, 1.00645, 1.3286, 0.2869, -0.416272, -1.29366, 0.000809837, 0.000303471
11, 0.00000, 202.217, -110.933, -196.796, -119.337, -4.6723, 229.886, 8.86768E-005, -0.00012844, -0.910419, 0.97437, 1.30192, 0.301476, -0.391772, -1.27899, 0.000271422, 0.0031437
12, 0.00000, 202.576, -110.94, -196.96, -119.636, -4.83937, 230.164, 9.10498E-005, -0.00011872, -0.90276, 0.964777, 1.28988, 0.299692, -0.387347, -1.26772, 0.000224352, 0.00325095
13, 0.00000, 200.017, -110.968, -195.854, -117.476, -3.59175, 228.219, 7.10783E-005, -0.000176311, -0.910116, 0.983388, 1.30884, 0.296426, -0.39916, -1.28209, 0.000436971, 0.00227597
14, 0.00000, 193.841, -110.911, -193.098, -112.331, -0.68873, 223.497, 1.93467E-005, -0.000325709, -0.936898, 1.03951, 1.36847, 0.2907, -0.432539, -1.32977, 0.000966836, -0.000433651
15, 0.00000, 190.397, -110.759, -191.471, -109.521, 0.830482, 220.827, -1.07185E-005, -0.000424734, -0.981595, 1.10491, 1.44586, 0.29612, -0.465587, -1.39876, 0.00132438, -0.00227131
16, 0.00000, 187.921, -110.491, -190.175, -107.573, 1.80001, 218.842, -2.97076E-005, -0.000525157, -1.0841, 1.23178, 1.60545, 0.320797, -0.523128, -1.54853, 0.00177391, -0.00404355
17, 0.00000, 186.704, -110.109, -189.328, -106.724, 2.08888, 217.747, -3.12555E-005, -0.000625497, -1.26579, 1.44208, 1.87713, 0.372186, -0.613762, -1.80866, 0.00242244, -0.00560603
18, 0.00000, 185.71, -109.793, -188.632, -106.029, 2.32365, 216.848, -3.16345E-005, -0.000709742, -1.4145, 1.615, 2.10004, 0.413729, -0.688584, -2.02169, 0.00304141, -0.00703267
19, 0.00000, 185.317, -109.666, -188.357, -105.756, 2.41593, 216.492, -3.1286E-005, -0.000743767, -1.47337, 1.68364, 2.1884, 0.430048, -0.71836, -2.10605, 0.00332941, -0.00764508
20, 0.00000, 185.09, -109.592, -188.198, -105.599, 2.46876, 216.285, -3.09026E-005, -0.000763631, -1.50749, 1.72347, 2.23963, 0.439477, -0.735652, -2.15494, 0.00351133, -0.00800997
21, 0.00000, 185.492, -109.687, -188.45, -105.893, 2.34793, 216.634, -2.96859E-005, -0.000738474, -1.46728, 1.67558, 2.17847, 0.42887, -0.714508, -2.09695, 0.00331567, -0.00750158
22, 0.00000, 186.215, -109.955, -188.987, -106.382, 2.20427, 217.307, -3.15593E-005, -0.000666738, -1.33872, 1.52681, 1.98639, 0.392615, -0.650387, -1.91312, 0.00271534, -0.00630144
23, 0.00000, 187.609, -110.394, -189.958, -107.355, 1.87435, 218.561, -3.00251E-005, -0.000550727, -1.1307, 1.28561, 1.67504, 0.334037, -0.546288, -1.61521, 0.00194486, -0.00443355
24, 0.00000, 189.25, -110.905, -191.098, -108.502, 1.4817, 220.038, -2.68643E-005, -0.000419951, -0.885199, 1.00286, 1.3089, 0.263734, -0.424885, -1.26393, 0.00118862, -0.00266565
25, 0.00000, 190.339, -111.312, -191.915, -109.234, 1.27193, 221.054, -2.51882E-005, -0.000319394, -0.682173, 0.771444, 1.0078, 0.204175, -0.326347, -0.973963, 0.000722778, -0.00165672
26, 0.00000, 191.095, -111.53, -192.427, -109.772, 1.07636, 221.73, -2.20775E-005, -0.000267017, -0.576689, 0.650997, 0.851135, 0.1733, -0.274971, -0.823108, 0.000525764, -0.00118845
27, 0.00000, 191.471, -111.632, -192.676, -110.041, 0.974611, 222.062, -2.04429E-005, -0.000242551, -0.527389, 0.594802, 0.777997, 0.158809, -0.251041, -0.752635, 0.000434186, -0.000976228
28, 0.00000, 191.79, -111.674, -192.85, -110.29, 0.854075, 222.323, -1.8231E-005, -0.000232527, -0.510241, 0.574812, 0.752212, 0.154003, -0.242368, -0.727957, 0.000396439, -0.00085861
29, 0.00000, 191.895, -111.639, -192.866, -110.394, 0.777338, 222.386, -1.67724E-005, -0.000240429, -0.531387, 0.598189, 0.78304, 0.160611, -0.252064, -0.757945, 0.00041086, -0.000855171
30, 0.00000, 191.278, -111.469, -192.454, -109.952, 0.942765, 221.838, -1.94466E-005, -0.000281166, -0.614281, 0.69253, 0.905916, 0.185053, -0.292191, -0.876398, 0.000556024, -0.00118509
31, 0.00000, 190.064, -111.123, -191.635, -109.087, 1.2597, 220.755, -2.40062E-005, -0.00036538, -0.781731, 0.883834, 1.15464, 0.233981, -0.373819, -1.11581, 0.000910353, -0.00200044
32, 0.00000, 189.774, -110.942, -191.357, -108.923, 1.26199, 220.449, -2.2303E-005, -0.000402765, -0.873551, 0.987556, 1.29009, 0.261398, -0.41766, -1.2466, 0.0011221, -0.0023552
33, 0.00000, 192.484, -110.976, -192.562, -111.17, 0.00373297, 222.504, 4.57153E-006, -0.000344976, -0.891146, 0.995305, 1.30674, 0.27308, -0.41657, -1.26731, 0.00098043, -0.00107065
34, 0.00000, 194.459, -110.961, -193.409, -112.826, -0.945428, 223.988, 2.39009E-005, -0.00030409, -0.914486, 1.01224, 1.3339, 0.285045, -0.420291, -1.29714, 0.000880878, -0.000143449
35, 0.00000, 197.122, -110.966, -194.58, -115.051, -2.20915, 226.011, 4.77602E-005, -0.000239, -0.917358, 1.00362, 1.32892, 0.292183, -0.41226, -1.29687, 0.000694066, 0.00106904
36, 0.00000, 197.588, -110.98, -194.797, -115.435, -2.42059, 226.373, 5.13777E-005, -0.000226209, -0.909478, 0.9931, 1.31603, 0.29069, -0.407201, -1.28504, 0.000646013, 0.00125248
37, 0.00000, 195.81, -110.965, -194.004, -113.953, -1.5842, 225.014, 3.62773E-005, -0.000268728, -0.915876, 1.00777, 1.33127, 0.288657, -0.416182, -1.29692, 0.000786712, 0.000492614
38, 0.00000, 192.654, -110.886, -192.56, -111.349, -0.142579, 222.587, 8.76929E-006, -0.000351273, -0.938593, 1.04675, 1.37509, 0.288373, -0.43756, -1.33413, 0.00106183, -0.000998101
39, 0.00000, 189.443, -110.728, -191.033, -108.739, 1.25895, 220.097, -1.99381E-005, -0.000448839, -0.983056, 1.11117, 1.45153, 0.294111, -0.469877, -1.40247, 0.00139828, -0.00280877
40, 0.00000, 189.228, -110.553, -190.79, -108.638, 1.22577, 219.853, -1.83914E-005, -0.000506711, -1.08175, 1.22225, 1.59676, 0.323785, -0.516642, -1.5428, 0.00163558, -0.00323797
41, 0.00000, 186.739, -110.111, -189.345, -106.752, 2.07357, 217.775, -3.07012E-005, -0.000625242, -1.26577, 1.44185, 1.87691, 0.37229, -0.613579, -1.80853, 0.0024384, -0.00560135
42, 0.00000, 185.71, -109.793, -188.632, -106.029, 2.32369, 216.848, -3.16326E-005, -0.000709777, -1.41452, 1.61503, 2.10008, 0.413733, -0.6886, -2.02173, 0.00304141, -0.00703434
43, 0.00000, 185.318, -109.666, -188.357, -105.756, 2.41574, 216.492, -3.141E-005, -0.000743561, -1.47334, 1.6836, 2.18836, 0.430045, -0.718348, -2.10602, 0.00331855, -0.00763041
44, 0.00000, 185.091, -109.592, -188.198, -105.599, 2.46868, 216.285, -3.09826E-005, -0.000763499, -1.50747, 1.72345, 2.23961, 0.439475, -0.735645, -2.15492, 0.00350431, -0.00800053
45, 0.00000, 185.356, -109.679, -188.384, -105.783, 2.40701, 216.527, -3.10349E-005, -0.000740577, -1.46758, 1.6769, 2.17969, 0.428438, -0.71543, -2.09774, 0.00332373, -0.00759644
46, 0.00000, 186.215, -109.955, -188.987, -106.382, 2.20431, 217.307, -3.15256E-005, -0.000666776, -1.33873, 1.52681, 1.9864, 0.392615, -0.650389, -1.91313, 0.00271824, -0.00630422
47, 0.00000, 187.609, -110.393, -189.958, -107.355, 1.87423, 218.562, -3.01242E-005, -0.000550715, -1.13068, 1.28559, 1.67503, 0.334037, -0.546281, -1.6152, 0.00193691, -0.00443319
48, 0.00000, 189.25, -110.905, -191.098, -108.502, 1.4817, 220.038, -2.68641E-005, -0.000419951, -0.885199, 1.00286, 1.3089, 0.263734, -0.424885, -1.26393, 0.00118864, -0.00266565
49, 0.00000, 190.603, -111.323, -192.038, -109.451, 1.15408, 221.258, -2.29795E-005, -0.000316559, -0.681875, 0.770235, 1.0067, 0.204555, -0.325523, -0.973238, 0.000700024, -0.00155111
50, 0.00000, 191.303, -111.538, -192.523, -109.942, 0.983295, 221.89, -2.04286E-005, -0.000264865, -0.576472, 0.650183, 0.850394, 0.173541, -0.274425, -0.822614, 0.000503062, -0.00110958
51, 0.00000, 191.209, -111.623, -192.555, -109.826, 1.09234, 221.86, -2.27176E-005, -0.000244822, -0.527595, 0.595712, 0.778823, 0.158509, -0.251673, -0.753177, 0.000444997, -0.00104373
52, 0.00000, 191.321, -111.657, -192.633, -109.905, 1.06488, 221.961, -2.22614E-005, -0.000236684, -0.510631, 0.576417, 0.753682, 0.153498, -0.243469, -0.728929, 0.000417663, -0.000986386
53, 0.00000, 191.18, -111.614, -192.534, -109.806, 1.09948, 221.833, -2.28804E-005, -0.000246884, -0.531988, 0.600708, 0.78534, 0.159807, -0.2538, -0.75946, 0.000447751, -0.00105518
54, 0.00000, 190.628, -111.444, -192.152, -109.418, 1.23408, 221.335, -2.50406E-005, -0.000287386, -0.614906, 0.69517, 0.908328, 0.184207, -0.294013, -0.877986, 0.000591943, -0.00139079
55, 0.00000, 190.661, -111.148, -191.914, -109.577, 0.993273, 221.218, -1.8865E-005, -0.000358821, -0.780995, 0.88074, 1.15182, 0.234971, -0.371687, -1.11395, 0.000867386, -0.00175774
56, 0.00000, 190.078, -110.96, -191.503, -109.171, 1.12905, 220.688, -2.02543E-005, -0.000404989, -0.873097, 0.985795, 1.28846, 0.261941, -0.416452, -1.24551, 0.00108796, -0.00222456
57, 0.00000, 190.587, -110.928, -191.697, -109.607, 0.866607, 221.053, -1.32284E-005, -0.000391102, -0.893767, 1.00652, 1.31692, 0.269481, -0.424281, -1.27399, 0.00112794, -0.002013
58, 0.00000, 191.228, -110.896, -191.948, -110.155, 0.539634, 221.519, -5.79976E-006, -0.000382985, -0.919026, 1.03167, 1.3516, 0.278812, -0.433703, -1.30876, 0.00113103, -0.00172716
59, 0.00000, 192.082, -110.905, -192.327, -110.864, 0.141396, 222.167, 2.59819E-006, -0.000364031, -0.924381, 1.03373, 1.35643, 0.282527, -0.433131, -1.31495, 0.00108315, -0.00130591
60, 0.00000, 192.13, -110.92, -192.36, -110.898, 0.129998, 222.209, 2.62357E-006, -0.00036039, -0.916997, 1.02537, 1.34553, 0.280335, -0.429592, -1.30443, 0.00105921, -0.0012696
61, 0.00000, 191.654, -110.901, -192.137, -110.509, 0.341229, 221.842, -1.67454E-006, -0.00037334, -0.921669, 1.03267, 1.35398, 0.28066, -0.433412, -1.31182, 0.00109977, -0.00150352
62, 0.00000, 190.637, -110.84, -191.644, -109.687, 0.777286, 221.047, -1.04615E-005, -0.000404951, -0.941511, 1.0593, 1.38649, 0.284341, -0.446191, -1.34159, 0.0012138, -0.00205661
63, 0.00000, 190.373, -110.758, -191.46, -109.501, 0.841388, 220.809, -1.09462E-005, -0.000425366, -0.981631, 1.10507, 1.446, 0.296069, -0.465695, -1.39885, 0.00132668, -0.00228565
64, 0.00000, 187.921, -110.491, -190.175, -107.573, 1.80001, 218.842, -2.97017E-005, -0.000525174, -1.0841, 1.23178, 1.60545, 0.320797, -0.523128, -1.54853, 0.00177443, -0.00404475
65, 0.00000, 186.704, -110.109, -189.328, -106.724, 2.08884, 217.747, -3.12977E-005, -0.00062519, -1.26575, 1.44203, 1.87708, 0.372182, -0.613749, -1.80862, 0.00241814, -0.00558347
66, 0.00000, 185.846, -109.801, -188.698, -106.139, 2.26484, 216.954, -3.00562E-005, -0.000707916, -1.41428, 1.61382, 2.09896, 0.414153, -0.687736, -2.02102, 0.00305316, -0.0069555
67, 0.00000, 185.318, -109.666, -188.357, -105.756, 2.41584, 216.492, -3.138E-005, -0.000743633, -1.47334, 1.68361, 2.18837, 0.430043, -0.718351, -2.10602, 0.00332187, -0.00763606
68, 0.00000, 185.09, -109.592, -188.198, -105.599, 2.46874, 216.285, -3.09385E-005, -0.000763576, -1.50748, 1.72346, 2.23962, 0.439476, -0.735649, -2.15493, 0.00350845, -0.00800629
69, 0.00000, 185.356, -109.679, -188.384, -105.783, 2.40693, 216.527, -3.10835E-005, -0.000740494, -1.46757, 1.67689, 2.17968, 0.428438, -0.715425, -2.09774, 0.00331918, -0.00759029
70, 0.00000, 186.215, -109.955, -188.987, -106.382, 2.20428, 217.307, -3.15518E-005, -0.000666743, -1.33872, 1.52681, 1.98639, 0.392616, -0.650388, -1.91312, 0.00271592, -0.00630173
71, 0.00000, 187.61, -110.393, -189.958, -107.355, 1.87423, 218.562, -3.01493E-005, -0.00055068, -1.13068, 1.28559, 1.67503, 0.334038, -0.54628, -1.6152, 0.00193429, -0.00443034
72, 0.00000, 189.25, -110.905, -191.098, -108.502, 1.4817, 220.038, -2.68947E-005, -0.000419922, -0.885196, 1.00286, 1.3089, 0.263735, -0.424884, -1.26393, 0.00118559, -0.00266329
73, 0.00000, 190.271, -111.221, -191.807, -109.218, 1.23477, 220.959, -2.40169E-005, -0.000341584, -0.731819, 0.827249, 1.08084, 0.219169, -0.34983, -1.04462, 0.000810558, -0.00179851
74, 0.00000, 191.038, -111.457, -192.34, -109.756, 1.04798, 221.651, -2.13853E-005, -0.000284386, -0.616328, 0.695538, 0.90946, 0.185292, -0.293711, -0.879554, 0.000578322, -0.00127569
75, 0.00000, 191.452, -111.584, -192.627, -110.047, 0.946776, 222.024, -1.98403E-005, -0.000253963, -0.55397, 0.624603, 0.817059, 0.16689, -0.263554, -0.790468, 0.000466073, -0.00102503
76, 0.00000, 191.642, -111.642, -192.758, -110.18, 0.90028, 222.196, -1.90989E-005, -0.000240137, -0.525369, 0.592111, 0.774707, 0.158423, -0.249756, -0.749615, 0.000418153, -0.00091902
77, 0.00000, 191.643, -111.642, -192.759, -110.182, 0.899866, 222.197, -1.91033E-005, -0.000239993, -0.525118, 0.591826, 0.774337, 0.158349, -0.249636, -0.749259, 0.000416631, -0.000916305
78, 0.00000, 191.458, -111.585, -192.631, -110.051, 0.945405, 222.029, -1.98509E-005, -0.000253484, -0.553136, 0.623654, 0.815828, 0.166644, -0.263154, -0.789282, 0.000461481, -0.00101599
79, 0.00000, 191.027, -111.453, -192.332, -109.749, 1.05066, 221.641, -2.14815E-005, -0.000285064, -0.618004, 0.697443, 0.911954, 0.185788, -0.294526, -0.88196, 0.000575758, -0.00127131
80, 0.00000, 190.646, -111.214, -191.964, -109.533, 1.05248, 221.237, -1.99498E-005, -0.000335909, -0.740767, 0.835874, 1.09291, 0.22263, -0.352948, -1.05685, 0.000803888, -0.00165756
81, 0.00000, 192.016, -110.887, -192.282, -110.817, 0.159409, 222.107, 2.35277E-006, -0.000368582, -0.933467, 1.04405, 1.36989, 0.285207, -0.437522, -1.32792, 0.00110117, -0.00134325
82, 0.00000, 193.079, -110.572, -192.478, -111.84, -0.580316, 222.755, 2.1415E-005, -0.00040081, -1.11301, 1.23585, 1.62621, 0.344586, -0.514607, -1.57952, 0.00141513, -0.00091415
83, 0.00000, 195.524, -110.428, -193.425, -113.946, -1.85062, 224.536, 4.78808E-005, -0.000367632, -1.2045, 1.32149, 1.74744, 0.381232, -0.544322, -1.70326, 0.00138988, 0.000546015
84, 0.00000, 195.274, -110.357, -193.256, -113.766, -1.78388, 224.311, 4.76676E-005, -0.000385051, -1.24146, 1.36279, 1.80161, 0.392473, -0.561641, -1.7557, 0.00149649, 0.000432714
85, 0.00000, 193.84, -110.307, -192.587, -112.59, -1.14008, 223.201, 3.63649E-005, -0.000428271, -1.2613, 1.39284, 1.83676, 0.394317, -0.577156, -1.78668, 0.00170217, -0.000479437
86, 0.00000, 190.551, -110.186, -191.054, -109.895, 0.33033, 220.663, 8.2672E-006, -0.000526678, -1.29258, 1.44738, 1.89762, 0.393416, -0.607177, -1.83802, 0.00213524, -0.00277608
87, 0.00000, 185.635, -109.933, -188.72, -105.902, 2.46815, 216.858, -3.56078E-005, -0.000657996, -1.3278, 1.51828, 1.97315, 0.387267, -0.648169, -1.89888, 0.00282017, -0.00666531
88, 0.00000, 184.596, -109.827, -188.186, -105.08, 2.88405, 216.026, -4.41355E-005, -0.000699448, -1.35676, 1.55779, 2.02101, 0.392235, -0.667302, -1.94242, 0.0030598, -0.00760238
89, 0.00000, 185.296, -109.752, -188.421, -105.701, 2.49047, 216.517, -3.43179E-005, -0.000721002, -1.42434, 1.62891, 2.11664, 0.415138, -0.695463, -2.03663, 0.00316634, -0.00742015
90, 0.00000, 186.26, -109.742, -188.825, -106.513, 2.02248, 217.237, -2.40481E-005, -0.000722335, -1.46038, 1.66236, 2.16425, 0.429769, -0.706994, -2.08533, 0.0031202, -0.00680102
91, 0.00000, 187.699, -109.834, -189.522, -107.676, 1.40769, 218.36, -1.21321E-005, -0.000693825, -1.4491, 1.6396, 2.14002, 0.43181, -0.693791, -2.06582, 0.00287578, -0.00558709
92, 0.00000, 185.48, -109.719, -188.471, -105.869, 2.3777, 216.64, -3.14608E-005, -0.000729561, -1.44894, 1.65515, 2.15173, 0.423284, -0.705999, -2.07105, 0.00320717, -0.00738458
93, 0.00000, 185.859, -109.841, -188.737, -106.133, 2.28865, 216.984, -3.12513E-005, -0.000697203, -1.39213, 1.58896, 2.06646, 0.407494, -0.677295, -1.98963, 0.00297389, -0.00682858
94, 0.00000, 186.598, -110.076, -189.254, -106.65, 2.11377, 217.653, -3.13262E-005, -0.000634474, -1.28149, 1.46031, 1.90064, 0.376592, -0.621634, -1.83114, 0.00248542, -0.00576357
95, 0.00000, 187.658, -110.409, -189.992, -107.389, 1.86274, 218.605, -3.00464E-005, -0.000546769, -1.12347, 1.27725, 1.66424, 0.331989, -0.542689, -1.60487, 0.00191265, -0.00437386
96, 0.00000, 188.938, -110.808, -190.881, -108.284, 1.55674, 219.757, -2.76118E-005, -0.000444334, -0.931969, 1.05657, 1.37855, 0.277226, -0.447893, -1.33083, 0.00131714, -0.00296452
97, 0.00000, 190.16, -111.186, -191.73, -109.14, 1.26167, 220.859, -2.44165E-005, -0.000349858, -0.748479, 0.846285, 1.10559, 0.224036, -0.357957, -1.06845, 0.000842999, -0.00187526
98, 0.00000, 190.962, -111.433, -192.287, -109.703, 1.06665, 221.582, -2.16584E-005, -0.000290003, -0.627868, 0.708678, 0.926572, 0.18869, -0.299304, -0.896047, 0.0006, -0.00132043
99, 0.00000, 191.423, -111.575, -192.607, -110.027, 0.953798, 221.999, -1.99485E-005, -0.000256063, -0.558292, 0.629514, 0.823459, 0.168168, -0.265641, -0.79664, 0.000473702, -0.00104183
100, 0.00000, 191.653, -111.645, -192.766, -110.188, 0.8976, 222.205, -1.90516E-005, -0.00023935, -0.52372, 0.590238, 0.772265, 0.157935, -0.248961, -0.747259, 0.000415844, -0.000913702
101, 0.00000, 191.722, -111.667, -192.814, -110.237, 0.880522, 222.269, -1.87584E-005, -0.000234338, -0.513175, 0.578267, 0.756653, 0.154808, -0.243878, -0.732193, 0.000400428, -0.00088132
102, 0.00000, 191.609, -111.632, -192.735, -110.158, 0.908176, 222.166, -1.92796E-005, -0.000242356, -0.530313, 0.597726, 0.782038, 0.15989, -0.252146, -0.756692, 0.000420767, -0.000923597
103, 0.00000, 191.237, -111.518, -192.477, -109.896, 0.999512, 221.83, -2.07044E-005, -0.000269654, -0.586461, 0.661545, 0.8652, 0.17649, -0.279258, -0.836892, 0.000518526, -0.00114333
104, 0.00000, 191.024, -111.331, -192.227, -109.799, 0.96068, 221.578, -1.87545E-005, -0.000307599, -0.683528, 0.770657, 1.00803, 0.205814, -0.325182, -0.975074, 0.000683145, -0.00139626
105, 0.00000, 192.459, -111.025, -192.592, -111.128, 0.0522391, 222.509, 3.18157E-006, -0.000334992, -0.864005, 0.965468, 1.26733, 0.264538, -0.404258, -1.22895, 0.000929736, -0.00105238
106, 0.00000, 193.426, -110.681, -192.722, -112.082, -0.663057, 223.071, 2.16128E-005, -0.000374134, -1.05692, 1.17275, 1.54369, 0.327732, -0.488022, -1.49979, 0.0012558, -0.000690376
107, 0.00000, 198.761, -110.47, -194.882, -116.633, -3.35798, 227.015, 7.41602E-005, -0.000259536, -1.17053, 1.2667, 1.68457, 0.379778, -0.515062, -1.64887, 0.00101685, 0.00238529
108, 0.00000, 205.88, -110.249, -197.844, -122.704, -6.93855, 232.364, 0.000128675, -0.000105356, -1.20573, 1.26456, 1.70354, 0.412519, -0.498083, -1.68318, 0.000279871, 0.00610065
