hour, t(sec), P1 (kW), Q1 (kvar), P2 (kW), Q2 (kvar)
0, 60.00000, -0.141983, 6.39232E-007, -7.00121E-008, -1.39614E-008
0, 120.00000, -0.141983, 1.37894E-008, -7.00074E-008, -1.39685E-008
0, 180.00000, -0.141983, 1.39697E-008, -7.00074E-008, -1.39685E-008
0, 240.00000, -0.141983, 1.39685E-008, -7.00074E-008, -1.39685E-008
0, 300.00000, -0.141983, 1.39685E-008, -7.00074E-008, -1.39685E-008
0, 360.00000, -0.141983, 3.11717E-007, 6.32231E-008, -8.01673E-008
0, 420.00000, -0.141983, 8.05622E-008, 6.32027E-008, -8.01753E-008
0, 480.00000, -0.141983, 8.01744E-008, 6.32027E-008, -8.01753E-008
0, 540.00000, -0.141983, 8.01753E-008, 6.32027E-008, -8.01753E-008
0, 600.00000, -0.141983, 8.01753E-008, 6.32027E-008, -8.01753E-008
0, 660.00000, -0.141983, -3.42445E-007, -6.78167E-008, 8.2086E-008
0, 720.00000, -0.141983, -8.26867E-008, -6.7799E-008, 8.20962E-008
0, 780.00000, -0.141983, -8.2096E-008, -6.7799E-008, 8.20963E-008
0, 840.00000, -0.141983, -8.20963E-008, -6.7799E-008, 8.20963E-008
0, 900.00000, -0.141983, -8.20963E-008, -6.7799E-008, 8.20963E-008
0, 960.00000, -0.141982, -4.18017E-006, 3.05714E-008, 8.26637E-009
0, 1020.00000, -0.141983, -2.95498E-008, 3.08393E-008, 8.43414E-009
0, 1080.00000, -0.141983, -8.45056E-009, 3.08394E-008, 8.43528E-009
0, 1140.00000, -0.141983, -8.4352E-009, 3.08394E-008, 8.43528E-009
0, 1200.00000, -0.141983, -8.43528E-009, 3.08394E-008, 8.43528E-009
0, 1260.00000, -0.141984, -1.07933E-007, 6.25959E-008, 1.25698E-008
0, 1320.00000, -0.141983, -1.29677E-008, 6.26107E-008, 1.25557E-008
0, 1380.00000, -0.141983, -1.25529E-008, 6.26107E-008, 1.25557E-008
0, 1440.00000, -0.141983, -1.25557E-008, 6.26107E-008, 1.25557E-008
0, 1500.00000, -0.141983, -1.25557E-008, 6.26107E-008, 1.25557E-008
0, 1560.00000, -0.141984, -2.16352E-007, 6.938E-008, 4.47016E-009
0, 1620.00000, -0.141983, -4.28249E-009, 6.93931E-008, 4.48194E-009
0, 1680.00000, -0.141983, -4.47999E-009, 6.93931E-008, 4.48196E-009
0, 1740.00000, -0.141983, -4.48195E-009, 6.93931E-008, 4.48196E-009
0, 1800.00000, -0.141983, -4.48196E-009, 6.93931E-008, 4.48196E-009
0, 1860.00000, -0.141983, -3.90869E-008, -8.59339E-009, 5.74017E-008
0, 1920.00000, -0.141983, -5.74038E-008, -8.59484E-009, 5.74012E-008
0, 1980.00000, -0.141983, -5.74032E-008, -8.59482E-009, 5.74012E-008
0, 2040.00000, -0.141983, -5.74012E-008, -8.59482E-009, 5.74012E-008
0, 2100.00000, -0.141983, -5.74012E-008, -8.59482E-009, 5.74012E-008
0, 2160.00000, -0.141983, 5.69974E-009, -3.4515E-008, -9.79343E-008
0, 2220.00000, -0.141983, 9.7428E-008, -3.45113E-008, -9.79297E-008
0, 2280.00000, -0.141983, 9.79288E-008, -3.45113E-008, -9.79296E-008
0, 2340.00000, -0.141983, 9.79296E-008, -3.45113E-008, -9.79296E-008
0, 2400.00000, -0.141983, 9.79296E-008, -3.45113E-008, -9.79296E-008
0, 2460.00000, -0.141983, 3.06648E-007, -1.24503E-008, -3.35161E-008
0, 2520.00000, -0.141983, 3.36022E-008, -1.24688E-008, -3.35211E-008
0, 2580.00000, -0.141983, 3.35177E-008, -1.24687E-008, -3.35212E-008
0, 2640.00000, -0.141983, 3.35211E-008, -1.24687E-008, -3.35212E-008
0, 2700.00000, -0.141983, 3.35212E-008, -1.24687E-008, -3.35212E-008
0, 2760.00000, -0.141984, 1.47133E-008, -5.60027E-010, -1.38121E-009
0, 2820.00000, -0.141983, 7.94208E-010, -5.49498E-010, -1.39387E-009
0, 2880.00000, -0.141983, 1.39224E-009, -5.4947E-010, -1.39388E-009
0, 2940.00000, -0.141983, 1.39387E-009, -5.4947E-010, -1.39388E-009
0, 3000.00000, -0.141983, 1.39388E-009, -5.4947E-010, -1.39388E-009
0, 3060.00000, -0.141984, -1.91482E-007, -7.54535E-008, -4.60595E-008
0, 3120.00000, -0.141983, 4.6442E-008, -7.54327E-008, -4.60484E-008
0, 3180.00000, -0.141983, 4.60532E-008, -7.54327E-008, -4.60484E-008
0, 3240.00000, -0.141983, 4.60484E-008, -7.54327E-008, -4.60484E-008
0, 3300.00000, -0.141983, 4.60484E-008, -7.54327E-008, -4.60484E-008
0, 3360.00000, -0.141983, 2.39508E-007, 1.32445E-007, 1.90983E-008
0, 3420.00000, -0.141983, -1.82653E-008, 1.32413E-007, 1.90988E-008
0, 3480.00000, -0.141983, -1.90951E-008, 1.32413E-007, 1.90988E-008
0, 3540.00000, -0.141983, -1.90988E-008, 1.32413E-007, 1.90988E-008
1, 0.00000, -0.141983, -1.90988E-008, 1.32413E-007, 1.90988E-008
1, 60.00000, -0.127671, 1.3384E-007, 2.08908E-008, -2.1433E-008
1, 120.00000, -0.127671, 2.02294E-008, 2.08954E-008, -2.14531E-008
1, 180.00000, -0.127671, 2.14502E-008, 2.08954E-008, -2.14531E-008
1, 240.00000, -0.127671, 2.14531E-008, 2.08954E-008, -2.14531E-008
1, 300.00000, -0.127671, 2.14531E-008, 2.08954E-008, -2.14531E-008
1, 360.00000, -0.127671, 3.48703E-007, -8.10105E-008, 8.91821E-009
1, 420.00000, -0.127671, -9.84851E-009, -8.10052E-008, 8.88598E-009
1, 480.00000, -0.127671, -8.89365E-009, -8.10051E-008, 8.88595E-009
1, 540.00000, -0.127671, -8.88606E-009, -8.10051E-008, 8.88595E-009
1, 600.00000, -0.127671, -8.88595E-009, -8.10051E-008, 8.88595E-009
1, 660.00000, -0.127671, -5.62207E-007, -4.74174E-008, 1.53833E-008
1, 720.00000, -0.127671, -1.54123E-008, -4.74039E-008, 1.54112E-008
1, 780.00000, -0.127671, -1.54058E-008, -4.7404E-008, 1.54113E-008
1, 840.00000, -0.127671, -1.54112E-008, -4.7404E-008, 1.54113E-008
1, 900.00000, -0.127671, -1.54113E-008, -4.7404E-008, 1.54113E-008
1, 960.00000, -0.12767, 3.63229E-007, 1.52306E-008, -2.65357E-008
1, 1020.00000, -0.127671, 2.71441E-008, 1.52096E-008, -2.65465E-008
1, 1080.00000, -0.127671, 2.65371E-008, 1.52096E-008, -2.65466E-008
1, 1140.00000, -0.127671, 2.65465E-008, 1.52096E-008, -2.65466E-008
1, 1200.00000, -0.127671, 2.65466E-008, 1.52096E-008, -2.65466E-008
1, 1260.00000, -0.127671, 1.38588E-008, 9.06651E-008, 1.23335E-008
1, 1320.00000, -0.127671, -1.29187E-008, 9.06766E-008, 1.23258E-008
1, 1380.00000, -0.127671, -1.23206E-008, 9.06766E-008, 1.23258E-008
1, 1440.00000, -0.127671, -1.23257E-008, 9.06766E-008, 1.23258E-008
1, 1500.00000, -0.127671, -1.23258E-008, 9.06766E-008, 1.23258E-008
1, 1560.00000, -0.127671, -2.48509E-007, -6.19208E-009, -3.0257E-008
1, 1620.00000, -0.127671, 2.95766E-008, -6.18201E-009, -3.02461E-008
1, 1680.00000, -0.127671, 3.02418E-008, -6.182E-009, -3.02461E-008
1, 1740.00000, -0.127671, 3.02461E-008, -6.182E-009, -3.02461E-008
1, 1800.00000, -0.127671, 3.02461E-008, -6.182E-009, -3.02461E-008
1, 1860.00000, -0.127671, 1.8454E-007, 3.19914E-008, 4.9547E-009
1, 1920.00000, -0.127671, -4.83972E-009, 3.19846E-008, 4.94669E-009
1, 1980.00000, -0.127671, -4.95122E-009, 3.19846E-008, 4.94664E-009
1, 2040.00000, -0.127671, -4.94672E-009, 3.19846E-008, 4.94664E-009
1, 2100.00000, -0.127671, -4.94665E-009, 3.19846E-008, 4.94664E-009
1, 2160.00000, -0.127671, 2.30313E-007, -1.01669E-008, -3.44033E-008
1, 2220.00000, -0.127671, 3.46958E-008, -1.01717E-008, -3.4411E-008
1, 2280.00000, -0.127671, 3.44134E-008, -1.01717E-008, -3.4411E-008
1, 2340.00000, -0.127671, 3.4411E-008, -1.01717E-008, -3.4411E-008
1, 2400.00000, -0.127671, 3.4411E-008, -1.01717E-008, -3.4411E-008
1, 2460.00000, -0.127666, 2.23417E-006, -1.33335E-008, -2.78818E-008
1, 2520.00000, -0.127671, 3.27424E-008, -1.36126E-008, -2.78891E-008
1, 2580.00000, -0.127671, 2.78826E-008, -1.36127E-008, -2.78892E-008
1, 2640.00000, -0.127671, 2.78895E-008, -1.36127E-008, -2.78892E-008
1, 2700.00000, -0.127671, 2.78892E-008, -1.36127E-008, -2.78892E-008
1, 2760.00000, -0.127671, -1.45762E-007, -5.93365E-008, -1.4E-008
1, 2820.00000, -0.127671, 1.3886E-008, -5.93226E-008, -1.39935E-008
1, 2880.00000, -0.127671, 1.39952E-008, -5.93226E-008, -1.39935E-008
1, 2940.00000, -0.127671, 1.39935E-008, -5.93226E-008, -1.39935E-008
1, 3000.00000, -0.127671, 1.39935E-008, -5.93226E-008, -1.39935E-008
1, 3060.00000, -0.127671, -2.66196E-008, -4.59806E-008, 1.4444E-008
1, 3120.00000, -0.127671, -1.41109E-008, -4.59879E-008, 1.44474E-008
1, 3180.00000, -0.127671, -1.44505E-008, -4.59879E-008, 1.44473E-008
1, 3240.00000, -0.127671, -1.44474E-008, -4.59879E-008, 1.44473E-008
1, 3300.00000, -0.127671, -1.44473E-008, -4.59879E-008, 1.44473E-008
1, 3360.00000, -0.12767, 2.32545E-007, -2.10271E-009, -3.27327E-010
1, 3420.00000, -0.127671, 1.28948E-009, -2.11698E-009, -3.27751E-010
1, 3480.00000, -0.127671, 3.3862E-010, -2.11703E-009, -3.27733E-010
1, 3540.00000, -0.127671, 3.27849E-010, -2.11703E-009, -3.27733E-010
2, 0.00000, -0.127671, 3.27734E-010, -2.11703E-009, -3.27733E-010
2, 60.00000, -0.11208, -5.20365E-007, -6.80736E-008, 7.61784E-009
2, 120.00000, -0.11208, -8.6545E-009, -6.80478E-008, 7.6278E-009
2, 180.00000, -0.11208, -7.62795E-009, -6.80479E-008, 7.62785E-009
2, 240.00000, -0.11208, -7.62787E-009, -6.80479E-008, 7.62785E-009
2, 300.00000, -0.11208, -7.62785E-009, -6.80479E-008, 7.62785E-009
2, 360.00000, -0.11208, 5.60184E-007, 3.06287E-010, -3.25088E-009
2, 420.00000, -0.11208, 3.77946E-009, 2.7956E-010, -3.26761E-009
2, 480.00000, -0.11208, 3.26047E-009, 2.79616E-010, -3.26767E-009
2, 540.00000, -0.11208, 3.26764E-009, 2.79616E-010, -3.26767E-009
2, 600.00000, -0.11208, 3.26767E-009, 2.79616E-010, -3.26767E-009
2, 660.00000, -0.112081, 1.24019E-006, 2.60621E-008, 3.76446E-009
2, 720.00000, -0.11208, -1.13526E-009, 2.60431E-008, 3.72486E-009
2, 780.00000, -0.11208, -3.7397E-009, 2.60434E-008, 3.7247E-009
2, 840.00000, -0.11208, -3.72461E-009, 2.60434E-008, 3.7247E-009
2, 900.00000, -0.11208, -3.7247E-009, 2.60434E-008, 3.7247E-009
2, 960.00000, -0.11208, 3.89332E-008, -1.83974E-008, 1.78802E-008
2, 1020.00000, -0.11208, -1.72443E-008, -1.8402E-008, 1.78823E-008
2, 1080.00000, -0.11208, -1.78786E-008, -1.8402E-008, 1.78823E-008
2, 1140.00000, -0.11208, -1.78823E-008, -1.8402E-008, 1.78823E-008
2, 1200.00000, -0.11208, -1.78823E-008, -1.8402E-008, 1.78823E-008
2, 1260.00000, -0.112082, -1.03504E-006, 4.42958E-008, -1.79299E-008
2, 1320.00000, -0.11208, 2.12132E-008, 4.43326E-008, -1.79296E-008
2, 1380.00000, -0.11208, 1.796E-008, 4.43324E-008, -1.79296E-008
2, 1440.00000, -0.11208, 1.79298E-008, 4.43324E-008, -1.79296E-008
2, 1500.00000, -0.11208, 1.79296E-008, 4.43324E-008, -1.79296E-008
2, 1560.00000, -0.11208, -3.44645E-007, 8.19847E-010, -4.45038E-009
2, 1620.00000, -0.11208, 4.48233E-009, 8.19393E-010, -4.43143E-009
2, 1680.00000, -0.11208, 4.4302E-009, 8.19364E-010, -4.43142E-009
2, 1740.00000, -0.11208, 4.43139E-009, 8.19364E-010, -4.43142E-009
2, 1800.00000, -0.11208, 4.43142E-009, 8.19364E-010, -4.43142E-009
2, 1860.00000, -0.112081, 1.24381E-006, 1.14517E-009, 3.02311E-010
2, 1920.00000, -0.11208, -3.53353E-009, 1.16856E-009, 1.74145E-010
2, 1980.00000, -0.11208, -1.72563E-010, 1.16876E-009, 1.7423E-010
2, 2040.00000, -0.11208, -1.74096E-010, 1.16876E-009, 1.7423E-010
2, 2100.00000, -0.11208, -1.7423E-010, 1.16876E-009, 1.7423E-010
2, 2160.00000, -0.112079, -6.08572E-006, 1.04338E-008, 2.33982E-008
2, 2220.00000, -0.11208, -3.0535E-008, 1.05775E-008, 2.36953E-008
2, 2280.00000, -0.11208, -2.3664E-008, 1.0577E-008, 2.3696E-008
2, 2340.00000, -0.11208, -2.3696E-008, 1.0577E-008, 2.3696E-008
2, 2400.00000, -0.11208, -2.3696E-008, 1.0577E-008, 2.3696E-008
2, 2460.00000, -0.11208, -1.72313E-007, -6.0965E-008, -3.47392E-008
2, 2520.00000, -0.11208, 3.45861E-008, -6.09595E-008, -3.47332E-008
2, 2580.00000, -0.11208, 3.47322E-008, -6.09596E-008, -3.47332E-008
2, 2640.00000, -0.11208, 3.47332E-008, -6.09596E-008, -3.47332E-008
2, 2700.00000, -0.11208, 3.47332E-008, -6.09596E-008, -3.47332E-008
2, 2760.00000, -0.11208, 2.83874E-008, -5.99304E-008, 3.49403E-008
2, 2820.00000, -0.11208, -3.52811E-008, -5.99237E-008, 3.49305E-008
2, 2880.00000, -0.11208, -3.49278E-008, -5.99237E-008, 3.49305E-008
2, 2940.00000, -0.11208, -3.49305E-008, -5.99237E-008, 3.49305E-008
2, 3000.00000, -0.11208, -3.49305E-008, -5.99237E-008, 3.49305E-008
2, 3060.00000, -0.11208, 2.35526E-007, -2.69105E-008, -7.73505E-008
2, 3120.00000, -0.11208, 7.83971E-008, -2.69291E-008, -7.73429E-008
2, 3180.00000, -0.11208, 7.73449E-008, -2.69291E-008, -7.73429E-008
2, 3240.00000, -0.11208, 7.7343E-008, -2.69291E-008, -7.73429E-008
2, 3300.00000, -0.11208, 7.73429E-008, -2.69291E-008, -7.73429E-008
2, 3360.00000, -0.11208, 3.98206E-008, -1.75246E-008, 2.13443E-008
2, 3420.00000, -0.11208, -2.18222E-008, -1.75206E-008, 2.13368E-008
2, 3480.00000, -0.11208, -2.13412E-008, -1.75206E-008, 2.13368E-008
2, 3540.00000, -0.11208, -2.13369E-008, -1.75206E-008, 2.13368E-008
3, 0.00000, -0.11208, -2.13368E-008, -1.75206E-008, 2.13368E-008
3, 60.00000, -0.11621, -2.37747E-007, 2.55539E-008, 2.69092E-009
3, 120.00000, -0.116209, -3.62843E-009, 2.55921E-008, 2.69772E-009
3, 180.00000, -0.116209, -2.70087E-009, 2.55922E-008, 2.69776E-009
3, 240.00000, -0.116209, -2.69777E-009, 2.55922E-008, 2.69776E-009
3, 300.00000, -0.116209, -2.69776E-009, 2.55922E-008, 2.69776E-009
3, 360.00000, -0.116209, -4.16168E-008, 3.79575E-010, -1.95744E-009
3, 420.00000, -0.116209, 1.42626E-009, 3.9734E-010, -1.96784E-009
3, 480.00000, -0.116209, 1.96105E-009, 3.97409E-010, -1.96788E-009
3, 540.00000, -0.116209, 1.9678E-009, 3.9741E-010, -1.96788E-009
3, 600.00000, -0.116209, 1.96787E-009, 3.9741E-010, -1.96788E-009
3, 660.00000, -0.116212, -1.92482E-006, -6.03014E-009, 4.30437E-008
3, 720.00000, -0.116209, -5.22605E-008, -5.79896E-009, 4.30855E-008
3, 780.00000, -0.116209, -4.31106E-008, -5.7984E-009, 4.3086E-008
3, 840.00000, -0.116209, -4.30859E-008, -5.7984E-009, 4.3086E-008
3, 900.00000, -0.116209, -4.3086E-008, -5.7984E-009, 4.3086E-008
3, 960.00000, -0.116209, 2.38291E-007, -2.6133E-008, -7.44636E-009
3, 1020.00000, -0.116209, 8.17634E-009, -2.61416E-008, -7.46183E-009
3, 1080.00000, -0.116209, 7.46583E-009, -2.61416E-008, -7.46187E-009
3, 1140.00000, -0.116209, 7.46189E-009, -2.61416E-008, -7.46187E-009
3, 1200.00000, -0.116209, 7.46187E-009, -2.61416E-008, -7.46187E-009
3, 1260.00000, -0.116208, 1.75292E-007, 5.3965E-008, 4.55655E-009
3, 1320.00000, -0.116209, -4.27966E-009, 5.39509E-008, 4.54784E-009
3, 1380.00000, -0.116209, -4.55111E-009, 5.39509E-008, 4.54779E-009
3, 1440.00000, -0.116209, -4.54785E-009, 5.39509E-008, 4.54779E-009
3, 1500.00000, -0.116209, -4.54779E-009, 5.39509E-008, 4.54779E-009
3, 1560.00000, -0.116213, -3.61571E-006, -1.22011E-008, -3.07668E-008
3, 1620.00000, -0.116209, 1.65878E-008, -1.18348E-008, -3.05427E-008
3, 1680.00000, -0.116209, 3.05147E-008, -1.18342E-008, -3.05417E-008
3, 1740.00000, -0.116209, 3.05418E-008, -1.18342E-008, -3.05417E-008
3, 1800.00000, -0.116209, 3.05417E-008, -1.18342E-008, -3.05417E-008
3, 1860.00000, -0.116208, 9.08635E-008, 4.09113E-008, 2.70084E-008
3, 1920.00000, -0.116209, -2.64649E-008, 4.08984E-008, 2.70069E-008
3, 1980.00000, -0.116209, -2.70019E-008, 4.08983E-008, 2.70069E-008
3, 2040.00000, -0.116209, -2.70069E-008, 4.08983E-008, 2.70069E-008
3, 2100.00000, -0.116209, -2.70069E-008, 4.08983E-008, 2.70069E-008
3, 2160.00000, -0.116209, -1.45637E-007, 2.6934E-008, 2.06799E-009
3, 2220.00000, -0.116209, -2.69319E-009, 2.69464E-008, 2.07269E-009
3, 2280.00000, -0.116209, -2.07494E-009, 2.69464E-008, 2.07273E-009
3, 2340.00000, -0.116209, -2.07272E-009, 2.69464E-008, 2.07273E-009
3, 2400.00000, -0.116209, -2.07273E-009, 2.69464E-008, 2.07273E-009
3, 2460.00000, -0.116209, 1.57268E-007, 9.21274E-010, -4.82176E-009
3, 2520.00000, -0.116209, 5.4674E-009, 9.25405E-010, -4.83735E-009
3, 2580.00000, -0.116209, 4.83912E-009, 9.25402E-010, -4.83741E-009
3, 2640.00000, -0.116209, 4.83737E-009, 9.25402E-010, -4.83741E-009
3, 2700.00000, -0.116209, 4.83741E-009, 9.25402E-010, -4.83741E-009
3, 2760.00000, -0.116209, -1.89136E-007, 1.99246E-008, -2.21771E-008
3, 2820.00000, -0.116209, 2.13675E-008, 1.99288E-008, -2.21632E-008
3, 2880.00000, -0.116209, 2.21553E-008, 1.99288E-008, -2.21632E-008
3, 2940.00000, -0.116209, 2.21631E-008, 1.99288E-008, -2.21632E-008
3, 3000.00000, -0.116209, 2.21632E-008, 1.99288E-008, -2.21632E-008
3, 3060.00000, -0.116209, -6.04446E-008, -1.52081E-008, -5.26224E-008
3, 3120.00000, -0.116209, 5.18932E-008, -1.51937E-008, -5.26235E-008
3, 3180.00000, -0.116209, 5.26217E-008, -1.51937E-008, -5.26234E-008
3, 3240.00000, -0.116209, 5.26235E-008, -1.51937E-008, -5.26234E-008
3, 3300.00000, -0.116209, 5.26234E-008, -1.51937E-008, -5.26234E-008
3, 3360.00000, -0.116208, 3.45496E-007, 3.49204E-008, -4.67E-008
3, 3420.00000, -0.116209, 4.74929E-008, 3.48957E-008, -4.67121E-008
3, 3480.00000, -0.116209, 4.67115E-008, 3.48957E-008, -4.67122E-008
3, 3540.00000, -0.116209, 4.67121E-008, 3.48957E-008, -4.67122E-008
4, 0.00000, -0.116209, 4.67122E-008, 3.48957E-008, -4.67122E-008
4, 60.00000, -0.109441, -5.87853E-007, -9.41499E-010, -4.05383E-009
4, 120.00000, -0.109441, 3.17598E-009, -9.57192E-010, -3.97859E-009
4, 180.00000, -0.109441, 3.98779E-009, -9.57438E-010, -3.9783E-009
4, 240.00000, -0.109441, 3.97841E-009, -9.57439E-010, -3.9783E-009
4, 300.00000, -0.109441, 3.9783E-009, -9.57439E-010, -3.9783E-009
4, 360.00000, -0.109441, -2.11324E-007, -1.71353E-008, 2.10128E-008
4, 420.00000, -0.109441, -2.15838E-008, -1.71188E-008, 2.10223E-008
4, 480.00000, -0.109441, -2.1023E-008, -1.71187E-008, 2.10223E-008
4, 540.00000, -0.109441, -2.10224E-008, -1.71187E-008, 2.10223E-008
4, 600.00000, -0.109441, -2.10223E-008, -1.71187E-008, 2.10223E-008
4, 660.00000, -0.10944, -4.71286E-007, 7.84326E-009, 2.33031E-008
4, 720.00000, -0.109441, -2.49763E-008, 7.85298E-009, 2.33366E-008
4, 780.00000, -0.109441, -2.33429E-008, 7.85296E-009, 2.33368E-008
4, 840.00000, -0.109441, -2.33368E-008, 7.85296E-009, 2.33368E-008
4, 900.00000, -0.109441, -2.33368E-008, 7.85296E-009, 2.33368E-008
4, 960.00000, -0.109443, 4.1431E-006, 9.36132E-009, 2.29618E-008
4, 1020.00000, -0.109441, -9.18687E-009, 9.26143E-009, 2.2586E-008
4, 1080.00000, -0.109441, -2.25807E-008, 9.26199E-009, 2.25843E-008
4, 1140.00000, -0.109441, -2.25845E-008, 9.262E-009, 2.25842E-008
4, 1200.00000, -0.109441, -2.25842E-008, 9.262E-009, 2.25842E-008
4, 1260.00000, -0.109438, -2.41214E-006, -6.95489E-009, -2.67057E-008
4, 1320.00000, -0.109441, 2.12771E-008, -6.95344E-009, -2.64368E-008
4, 1380.00000, -0.109441, 2.64666E-008, -6.95416E-009, -2.64357E-008
4, 1440.00000, -0.109441, 2.64362E-008, -6.95417E-009, -2.64357E-008
4, 1500.00000, -0.109441, 2.64357E-008, -6.95417E-009, -2.64357E-008
4, 1560.00000, -0.109441, 9.15794E-008, -6.17114E-011, -2.7418E-010
4, 1620.00000, -0.109441, 3.19034E-010, -6.25015E-011, -2.83516E-010
4, 1680.00000, -0.109441, 2.79369E-010, -6.24669E-011, -2.83564E-010
4, 1740.00000, -0.109441, 2.83509E-010, -6.24665E-011, -2.83564E-010
4, 1800.00000, -0.109441, 2.83564E-010, -6.24665E-011, -2.83564E-010
4, 1860.00000, -0.10944, 1.03852E-008, 4.42715E-008, -1.25353E-008
4, 1920.00000, -0.109441, 1.319E-008, 4.42485E-008, -1.25196E-008
4, 1980.00000, -0.109441, -1.92141E-008, 4.42264E-008, -1.25374E-008
4, 2040.00000, -0.10944, 4.4145E-008, 4.42489E-008, -1.2518E-008
4, 2100.00000, -0.109441, -1.38598E-008, 4.42301E-008, -1.25345E-008
4, 2160.00000, -0.109441, -7.43776E-008, 2.46346E-009, -5.46057E-010
4, 2220.00000, -0.109441, -5.61999E-008, 2.46501E-009, -5.89891E-010
4, 2280.00000, -0.109441, -1.81977E-008, 2.45735E-009, -5.97131E-010
4, 2340.00000, -0.109441, -1.18966E-008, 2.45193E-009, -6.02949E-010
4, 2400.00000, -0.109441, -1.35555E-007, 2.39044E-009, -6.76879E-010
4, 2460.00000, -0.10944, 3.87685E-007, -1.86247E-008, 1.8472E-008
4, 2520.00000, -0.109441, -2.31537E-007, -1.87234E-008, 1.83342E-008
4, 2580.00000, -0.109441, -1.919E-008, -1.87183E-008, 1.83448E-008
4, 2640.00000, -0.109441, -1.84129E-008, -1.87184E-008, 1.83448E-008
4, 2700.00000, -0.109441, -1.83672E-008, -1.87184E-008, 1.83448E-008
4, 2760.00000, -0.109441, -3.36231E-007, -2.52511E-008, 6.01914E-008
4, 2820.00000, -0.109441, -1.73141E-007, -2.5275E-008, 6.01363E-008
4, 2880.00000, -0.109441, -8.85404E-008, -2.52826E-008, 6.01234E-008
4, 2940.00000, -0.109441, -1.30465E-007, -2.53057E-008, 6.00786E-008
4, 3000.00000, -0.109441, -1.3022E-007, -2.53279E-008, 6.0036E-008
4, 3060.00000, -0.10944, 1.65056E-007, 2.98065E-008, 4.16034E-009
4, 3120.00000, -0.109442, -2.27312E-007, 2.96435E-008, 4.03661E-009
4, 3180.00000, -0.10944, 4.26333E-008, 2.96755E-008, 4.0743E-009
4, 3240.00000, -0.109441, -1.57315E-007, 2.95845E-008, 3.98536E-009
4, 3300.00000, -0.109441, -2.79115E-008, 2.95737E-008, 3.97958E-009
