hour, t(sec), P1 (kW), Q1 (kvar), P2 (kW), Q2 (kvar)
0, 60.00000, -0.131719, 2.2461E-007, 1.04125E-008, 2.71228E-008
0, 120.00000, -0.13172, -2.70537E-008, 1.04094E-008, 2.71255E-008
0, 180.00000, -0.13172, -2.71256E-008, 1.04094E-008, 2.71255E-008
0, 240.00000, -0.13172, -2.71255E-008, 1.04094E-008, 2.71255E-008
0, 300.00000, -0.13172, -2.71255E-008, 1.04094E-008, 2.71255E-008
0, 360.00000, -0.13172, 5.49928E-008, 5.9775E-008, -3.81761E-008
0, 420.00000, -0.13172, 3.84402E-008, 5.97761E-008, -3.81752E-008
0, 480.00000, -0.13172, 3.81774E-008, 5.97761E-008, -3.81752E-008
0, 540.00000, -0.13172, 3.81752E-008, 5.97761E-008, -3.81752E-008
0, 600.00000, -0.13172, 3.81752E-008, 5.97761E-008, -3.81752E-008
0, 660.00000, -0.13172, 4.00407E-008, -8.58921E-008, -5.94299E-008
0, 720.00000, -0.13172, 5.92135E-008, -8.58928E-008, -5.94308E-008
0, 780.00000, -0.13172, 5.94285E-008, -8.58928E-008, -5.94308E-008
0, 840.00000, -0.13172, 5.94308E-008, -8.58928E-008, -5.94308E-008
0, 900.00000, -0.13172, 5.94308E-008, -8.58928E-008, -5.94308E-008
0, 960.00000, -0.131719, -4.10717E-007, -2.89995E-009, -5.01149E-009
0, 1020.00000, -0.13172, 5.80921E-009, -2.93864E-009, -5.01038E-009
0, 1080.00000, -0.13172, 5.01016E-009, -2.93866E-009, -5.01045E-009
0, 1140.00000, -0.13172, 5.01043E-009, -2.93866E-009, -5.01045E-009
0, 1200.00000, -0.13172, 5.01045E-009, -2.93866E-009, -5.01045E-009
0, 1260.00000, -0.13172, -4.53979E-009, 2.19145E-010, -5.88384E-009
0, 1320.00000, -0.13172, 6.02744E-009, 2.21711E-010, -5.88101E-009
0, 1380.00000, -0.13172, 5.88304E-009, 2.21709E-010, -5.88098E-009
0, 1440.00000, -0.13172, 5.881E-009, 2.21709E-010, -5.88098E-009
0, 1500.00000, -0.13172, 5.88098E-009, 2.21709E-010, -5.88098E-009
0, 1560.00000, -0.13172, 4.84923E-008, -4.2639E-008, -3.35741E-008
0, 1620.00000, -0.13172, 3.35011E-008, -4.26408E-008, -3.35732E-008
0, 1680.00000, -0.13172, 3.35732E-008, -4.26408E-008, -3.35732E-008
0, 1740.00000, -0.13172, 3.35732E-008, -4.26408E-008, -3.35732E-008
0, 1800.00000, -0.13172, 3.35732E-008, -4.26408E-008, -3.35732E-008
0, 1860.00000, -0.13172, 5.50015E-008, -1.25586E-008, -3.00193E-008
0, 1920.00000, -0.13172, 3.01283E-008, -1.25595E-008, -3.00201E-008
0, 1980.00000, -0.13172, 3.00201E-008, -1.25595E-008, -3.00201E-008
0, 2040.00000, -0.13172, 3.00201E-008, -1.25595E-008, -3.00201E-008
0, 2100.00000, -0.13172, 3.00201E-008, -1.25595E-008, -3.00201E-008
0, 2160.00000, -0.13172, -1.25691E-007, -6.953E-009, 4.74576E-008
0, 2220.00000, -0.13172, -4.76216E-008, -6.9488E-009, 4.74564E-008
0, 2280.00000, -0.13172, -4.7458E-008, -6.94879E-009, 4.74564E-008
0, 2340.00000, -0.13172, -4.74564E-008, -6.94879E-009, 4.74564E-008
0, 2400.00000, -0.13172, -4.74564E-008, -6.94879E-009, 4.74564E-008
0, 2460.00000, -0.13172, -1.49934E-008, 2.64753E-008, 7.90393E-008
0, 2520.00000, -0.13172, -7.90039E-008, 2.64701E-008, 7.9036E-008
0, 2580.00000, -0.13172, -7.9037E-008, 2.64701E-008, 7.90359E-008
0, 2640.00000, -0.13172, -7.90359E-008, 2.64701E-008, 7.90359E-008
0, 2700.00000, -0.13172, -7.90359E-008, 2.64701E-008, 7.90359E-008
0, 2760.00000, -0.13172, 3.22497E-008, -3.10402E-008, -2.53975E-009
0, 2820.00000, -0.13172, 2.7688E-009, -3.10421E-008, -2.5394E-009
0, 2880.00000, -0.13172, 2.54069E-009, -3.10422E-008, -2.5394E-009
0, 2940.00000, -0.13172, 2.5394E-009, -3.10422E-008, -2.5394E-009
0, 3000.00000, -0.13172, 2.5394E-009, -3.10422E-008, -2.5394E-009
0, 3060.00000, -0.13172, -5.13279E-008, 2.25284E-008, 1.56747E-009
0, 3120.00000, -0.13172, -1.98388E-009, 2.25326E-008, 1.56715E-009
0, 3180.00000, -0.13172, -1.56931E-009, 2.25326E-008, 1.56716E-009
0, 3240.00000, -0.13172, -1.56717E-009, 2.25326E-008, 1.56716E-009
0, 3300.00000, -0.13172, -1.56716E-009, 2.25326E-008, 1.56716E-009
0, 3360.00000, -0.13172, -9.09754E-008, -2.69454E-008, 7.54606E-008
0, 3420.00000, -0.13172, -7.54987E-008, -2.69431E-008, 7.54634E-008
0, 3480.00000, -0.13172, -7.54625E-008, -2.69431E-008, 7.54634E-008
0, 3540.00000, -0.13172, -7.54634E-008, -2.69431E-008, 7.54634E-008
1, 0.00000, -0.13172, -7.54634E-008, -2.69431E-008, 7.54634E-008
1, 60.00000, -0.110217, -8.95486E-008, -1.10655E-008, -1.89682E-008
1, 120.00000, -0.110217, 1.84861E-008, -1.10675E-008, -1.89691E-008
1, 180.00000, -0.110217, 1.89667E-008, -1.10675E-008, -1.89691E-008
1, 240.00000, -0.110217, 1.89691E-008, -1.10675E-008, -1.89691E-008
1, 300.00000, -0.110217, 1.89691E-008, -1.10675E-008, -1.89691E-008
1, 360.00000, -0.110217, -3.31647E-008, 6.63639E-009, 2.34003E-008
1, 420.00000, -0.110217, -2.28457E-008, 6.63587E-009, 2.34042E-008
1, 480.00000, -0.110217, -2.33962E-008, 6.63584E-009, 2.34042E-008
1, 540.00000, -0.110217, -2.34041E-008, 6.63584E-009, 2.34042E-008
1, 600.00000, -0.110217, -2.34042E-008, 6.63584E-009, 2.34042E-008
1, 660.00000, -0.110217, 1.94774E-008, -5.41455E-008, 3.384E-008
1, 720.00000, -0.110217, -3.4067E-008, -5.41462E-008, 3.38366E-008
1, 780.00000, -0.110217, -3.38404E-008, -5.41462E-008, 3.38366E-008
1, 840.00000, -0.110217, -3.38366E-008, -5.41462E-008, 3.38366E-008
1, 900.00000, -0.110217, -3.38366E-008, -5.41462E-008, 3.38366E-008
1, 960.00000, -0.110217, 8.44002E-009, 6.02867E-009, 2.29867E-008
1, 1020.00000, -0.110217, -2.23461E-008, 6.02669E-009, 2.29896E-008
1, 1080.00000, -0.110217, -2.29835E-008, 6.02665E-009, 2.29896E-008
1, 1140.00000, -0.110217, -2.29896E-008, 6.02665E-009, 2.29896E-008
1, 1200.00000, -0.110217, -2.29896E-008, 6.02665E-009, 2.29896E-008
1, 1260.00000, -0.110217, -1.161E-007, 3.63847E-009, 6.48699E-008
1, 1320.00000, -0.110217, -6.5531E-008, 3.64058E-009, 6.48669E-008
1, 1380.00000, -0.110217, -6.48751E-008, 3.64061E-009, 6.48669E-008
1, 1440.00000, -0.110217, -6.4867E-008, 3.64061E-009, 6.48669E-008
1, 1500.00000, -0.110217, -6.48669E-008, 3.64061E-009, 6.48669E-008
1, 1560.00000, -0.110217, 5.28613E-008, -7.08737E-008, -6.84781E-009
1, 1620.00000, -0.110217, 7.19307E-009, -7.08753E-008, -6.84883E-009
1, 1680.00000, -0.110217, 6.85084E-009, -7.08753E-008, -6.84884E-009
1, 1740.00000, -0.110217, 6.84883E-009, -7.08753E-008, -6.84884E-009
1, 1800.00000, -0.110217, 6.84884E-009, -7.08753E-008, -6.84884E-009
1, 1860.00000, -0.110217, 2.57518E-008, 5.55509E-009, 2.38944E-008
1, 1920.00000, -0.110217, -2.35208E-008, 5.55318E-009, 2.38949E-008
1, 1980.00000, -0.110217, -2.38896E-008, 5.55316E-009, 2.38949E-008
1, 2040.00000, -0.110217, -2.38949E-008, 5.55316E-009, 2.38949E-008
1, 2100.00000, -0.110217, -2.38949E-008, 5.55316E-009, 2.38949E-008
1, 2160.00000, -0.110217, -9.82734E-008, -5.97892E-009, 4.14705E-008
1, 2220.00000, -0.110217, -4.18344E-008, -5.97759E-009, 4.14713E-008
1, 2280.00000, -0.110217, -4.14762E-008, -5.97757E-009, 4.14712E-008
1, 2340.00000, -0.110217, -4.14713E-008, -5.97757E-009, 4.14712E-008
1, 2400.00000, -0.110217, -4.14712E-008, -5.97757E-009, 4.14712E-008
1, 2460.00000, -0.110217, -6.503E-007, -5.09633E-008, -7.26496E-009
1, 2520.00000, -0.110217, 5.30447E-009, -5.09759E-008, -7.24838E-009
1, 2580.00000, -0.110217, 7.21888E-009, -5.09759E-008, -7.24847E-009
1, 2640.00000, -0.110217, 7.24807E-009, -5.09759E-008, -7.24848E-009
1, 2700.00000, -0.110217, 7.24847E-009, -5.09759E-008, -7.24848E-009
1, 2760.00000, -0.110217, 1.9247E-008, 7.63416E-008, -2.92298E-008
1, 2820.00000, -0.110217, 2.93071E-008, 7.6343E-008, -2.92285E-008
1, 2880.00000, -0.110217, 2.92305E-008, 7.6343E-008, -2.92285E-008
1, 2940.00000, -0.110217, 2.92285E-008, 7.6343E-008, -2.92285E-008
1, 3000.00000, -0.110217, 2.92285E-008, 7.6343E-008, -2.92285E-008
1, 3060.00000, -0.110217, -8.10801E-009, 1.85035E-008, 4.43876E-008
1, 3120.00000, -0.110217, -4.4123E-008, 1.85021E-008, 4.43872E-008
1, 3180.00000, -0.110217, -4.4384E-008, 1.85021E-008, 4.43872E-008
1, 3240.00000, -0.110217, -4.43872E-008, 1.85021E-008, 4.43872E-008
1, 3300.00000, -0.110217, -4.43872E-008, 1.85021E-008, 4.43872E-008
1, 3360.00000, -0.110217, -2.17414E-008, -1.43948E-008, -2.60554E-008
1, 3420.00000, -0.110217, 2.54321E-008, -1.43922E-008, -2.60554E-008
1, 3480.00000, -0.110217, 2.60519E-008, -1.43921E-008, -2.60553E-008
1, 3540.00000, -0.110217, 2.60554E-008, -1.43921E-008, -2.60553E-008
2, 0.00000, -0.110217, 2.60553E-008, -1.43921E-008, -2.60553E-008
2, 60.00000, -0.102219, 5.42491E-008, 1.42438E-008, -5.89457E-008
2, 120.00000, -0.102219, 5.90315E-008, 1.42427E-008, -5.89463E-008
2, 180.00000, -0.102219, 5.89466E-008, 1.42427E-008, -5.89463E-008
2, 240.00000, -0.102219, 5.89463E-008, 1.42427E-008, -5.89463E-008
2, 300.00000, -0.102219, 5.89463E-008, 1.42427E-008, -5.89463E-008
2, 360.00000, -0.102219, -4.78492E-008, 4.5043E-008, 7.33755E-009
2, 420.00000, -0.102219, -7.21556E-009, 4.50442E-008, 7.33822E-009
2, 480.00000, -0.102219, -7.33825E-009, 4.50442E-008, 7.33821E-009
2, 540.00000, -0.102219, -7.33823E-009, 4.50442E-008, 7.33821E-009
2, 600.00000, -0.102219, -7.33821E-009, 4.50442E-008, 7.33821E-009
2, 660.00000, -0.10222, -8.2548E-007, 3.46004E-008, 4.66016E-008
2, 720.00000, -0.102219, -4.88772E-008, 3.47266E-008, 4.66215E-008
2, 780.00000, -0.102219, -4.66441E-008, 3.47267E-008, 4.66214E-008
2, 840.00000, -0.102219, -4.66218E-008, 3.47267E-008, 4.66214E-008
2, 900.00000, -0.102219, -4.66214E-008, 3.47267E-008, 4.66214E-008
2, 960.00000, -0.102219, 7.29379E-009, 3.83078E-009, -3.66665E-008
2, 1020.00000, -0.102219, 3.66386E-008, 3.83294E-009, -3.66644E-008
2, 1080.00000, -0.102219, 3.66676E-008, 3.83294E-009, -3.66644E-008
2, 1140.00000, -0.102219, 3.66644E-008, 3.83294E-009, -3.66644E-008
2, 1200.00000, -0.102219, 3.66644E-008, 3.83294E-009, -3.66644E-008
2, 1260.00000, -0.102218, -8.00459E-007, -1.65074E-008, 1.73583E-008
2, 1320.00000, -0.102219, -1.89479E-008, -1.65184E-008, 1.73906E-008
2, 1380.00000, -0.102219, -1.74064E-008, -1.65183E-008, 1.73906E-008
2, 1440.00000, -0.102219, -1.73907E-008, -1.65183E-008, 1.73906E-008
2, 1500.00000, -0.102219, -1.73906E-008, -1.65183E-008, 1.73906E-008
2, 1560.00000, -0.102219, 8.88159E-008, 2.32285E-009, -4.39385E-008
2, 1620.00000, -0.102219, 4.41401E-008, 2.32072E-009, -4.39394E-008
2, 1680.00000, -0.102219, 4.394E-008, 2.32071E-009, -4.39394E-008
2, 1740.00000, -0.102219, 4.39394E-008, 2.32071E-009, -4.39394E-008
2, 1800.00000, -0.102219, 4.39394E-008, 2.32071E-009, -4.39394E-008
2, 1860.00000, -0.10222, 2.59955E-006, 5.09461E-008, 3.01743E-008
2, 1920.00000, -0.102219, -2.87483E-008, 5.08705E-008, 3.00781E-008
2, 1980.00000, -0.102219, -3.00786E-008, 5.08705E-008, 3.0078E-008
2, 2040.00000, -0.102219, -3.0078E-008, 5.08705E-008, 3.0078E-008
2, 2100.00000, -0.102219, -3.0078E-008, 5.08705E-008, 3.0078E-008
2, 2160.00000, -0.102218, -1.04941E-006, -1.45534E-008, 1.50264E-008
2, 2220.00000, -0.102219, -1.52314E-008, -1.45113E-008, 1.50659E-008
2, 2280.00000, -0.102219, -1.50606E-008, -1.45113E-008, 1.5066E-008
2, 2340.00000, -0.102219, -1.50659E-008, -1.45113E-008, 1.5066E-008
2, 2400.00000, -0.102219, -1.5066E-008, -1.45113E-008, 1.5066E-008
2, 2460.00000, -0.102219, 2.1061E-009, 5.90161E-009, 1.78716E-008
2, 2520.00000, -0.102219, -1.7654E-008, 5.90101E-009, 1.78718E-008
2, 2580.00000, -0.102219, -1.78698E-008, 5.901E-009, 1.78718E-008
2, 2640.00000, -0.102219, -1.78718E-008, 5.901E-009, 1.78718E-008
2, 2700.00000, -0.102219, -1.78718E-008, 5.901E-009, 1.78718E-008
2, 2760.00000, -0.102219, -2.91031E-009, -2.5522E-008, -7.28496E-009
2, 2820.00000, -0.102219, 7.11482E-009, -2.55218E-008, -7.28491E-009
2, 2880.00000, -0.102219, 7.28404E-009, -2.55218E-008, -7.2849E-009
2, 2940.00000, -0.102219, 7.28491E-009, -2.55218E-008, -7.2849E-009
2, 3000.00000, -0.102219, 7.2849E-009, -2.55218E-008, -7.2849E-009
2, 3060.00000, -0.102219, -1.796E-008, 5.75878E-008, -1.29103E-008
2, 3120.00000, -0.102219, 1.24375E-008, 5.75895E-008, -1.29125E-008
2, 3180.00000, -0.102219, 1.29054E-008, 5.75895E-008, -1.29125E-008
2, 3240.00000, -0.102219, 1.29125E-008, 5.75895E-008, -1.29125E-008
2, 3300.00000, -0.102219, 1.29125E-008, 5.75895E-008, -1.29125E-008
2, 3360.00000, -0.102219, 4.16592E-008, 1.0517E-008, -1.64374E-008
2, 3420.00000, -0.102219, 1.70097E-008, 1.05155E-008, -1.64342E-008
2, 3480.00000, -0.102219, 1.6443E-008, 1.05154E-008, -1.64342E-008
2, 3540.00000, -0.102219, 1.64343E-008, 1.05154E-008, -1.64342E-008
3, 0.00000, -0.102219, 1.64342E-008, 1.05154E-008, -1.64342E-008
3, 60.00000, -0.0988135, -3.71563E-008, 6.42607E-009, 1.64581E-008
3, 120.00000, -0.0988135, -1.64009E-008, 6.4265E-009, 1.64586E-008
3, 180.00000, -0.0988135, -1.6458E-008, 6.42649E-009, 1.64586E-008
3, 240.00000, -0.0988135, -1.64586E-008, 6.42649E-009, 1.64586E-008
3, 300.00000, -0.0988135, -1.64586E-008, 6.42649E-009, 1.64586E-008
3, 360.00000, -0.0988134, -1.23031E-008, -3.77609E-008, 1.39151E-008
3, 420.00000, -0.0988134, -1.35458E-008, -3.77616E-008, 1.39169E-008
3, 480.00000, -0.0988134, -1.39136E-008, -3.77616E-008, 1.39169E-008
3, 540.00000, -0.0988134, -1.39168E-008, -3.77616E-008, 1.39168E-008
3, 600.00000, -0.0988134, -1.39169E-008, -3.77616E-008, 1.39168E-008
3, 660.00000, -0.0988135, -6.04947E-008, -1.58054E-009, -2.12217E-009
3, 720.00000, -0.0988135, 1.20261E-009, -1.58343E-009, -2.14511E-009
3, 780.00000, -0.0988135, 2.13111E-009, -1.58339E-009, -2.14518E-009
3, 840.00000, -0.0988135, 2.14502E-009, -1.58339E-009, -2.14518E-009
3, 900.00000, -0.0988135, 2.14518E-009, -1.58339E-009, -2.14518E-009
3, 960.00000, -0.0988135, 2.42528E-008, -8.15993E-009, -2.18412E-008
3, 1020.00000, -0.0988135, 2.16939E-008, -8.15714E-009, -2.18426E-008
3, 1080.00000, -0.0988135, 2.18424E-008, -8.15714E-009, -2.18426E-008
3, 1140.00000, -0.0988135, 2.18426E-008, -8.15714E-009, -2.18426E-008
3, 1200.00000, -0.0988135, 2.18426E-008, -8.15714E-009, -2.18426E-008
3, 1260.00000, -0.0988134, 3.7342E-008, -9.50733E-009, -1.97168E-008
3, 1320.00000, -0.0988135, 2.00915E-008, -9.51146E-009, -1.97134E-008
3, 1380.00000, -0.0988135, 1.97164E-008, -9.51148E-009, -1.97134E-008
3, 1440.00000, -0.0988135, 1.97134E-008, -9.51148E-009, -1.97134E-008
3, 1500.00000, -0.0988135, 1.97134E-008, -9.51148E-009, -1.97134E-008
3, 1560.00000, -0.0988123, -1.18367E-006, 1.69657E-008, -5.58314E-008
3, 1620.00000, -0.0988135, 5.52738E-008, 1.69324E-008, -5.57651E-008
3, 1680.00000, -0.0988135, 5.57538E-008, 1.69324E-008, -5.57651E-008
3, 1740.00000, -0.0988135, 5.5765E-008, 1.69324E-008, -5.57651E-008
3, 1800.00000, -0.0988135, 5.57651E-008, 1.69324E-008, -5.57651E-008
3, 1860.00000, -0.0988135, -4.23948E-008, -2.5391E-008, -2.91834E-009
3, 1920.00000, -0.0988135, 2.64371E-009, -2.53896E-008, -2.91767E-009
3, 1980.00000, -0.0988134, 2.91566E-009, -2.53896E-008, -2.91766E-009
3, 2040.00000, -0.0988134, 2.91766E-009, -2.53896E-008, -2.91766E-009
3, 2100.00000, -0.0988134, 2.91766E-009, -2.53896E-008, -2.91766E-009
3, 2160.00000, -0.0988134, 6.99016E-008, -1.86021E-008, -4.06317E-008
3, 2220.00000, -0.0988135, 4.05766E-008, -1.86034E-008, -4.06338E-008
3, 2280.00000, -0.0988135, 4.06316E-008, -1.86034E-008, -4.06338E-008
3, 2340.00000, -0.0988135, 4.06338E-008, -1.86034E-008, -4.06338E-008
3, 2400.00000, -0.0988135, 4.06338E-008, -1.86034E-008, -4.06338E-008
3, 2460.00000, -0.0988135, 4.59313E-009, -3.91358E-009, 4.03405E-010
3, 2520.00000, -0.0988135, -2.12859E-010, -3.91251E-009, 4.05338E-010
3, 2580.00000, -0.0988135, -4.00848E-010, -3.91253E-009, 4.05363E-010
3, 2640.00000, -0.0988135, -4.05305E-010, -3.91253E-009, 4.05363E-010
3, 2700.00000, -0.0988135, -4.05363E-010, -3.91253E-009, 4.05363E-010
3, 2760.00000, -0.0988134, 2.85264E-008, 1.09091E-008, -1.42453E-008
3, 2820.00000, -0.0988135, 1.46263E-008, 1.09071E-008, -1.42443E-008
3, 2880.00000, -0.0988135, 1.42466E-008, 1.0907E-008, -1.42443E-008
3, 2940.00000, -0.0988135, 1.42443E-008, 1.0907E-008, -1.42443E-008
3, 3000.00000, -0.0988135, 1.42443E-008, 1.0907E-008, -1.42443E-008
3, 3060.00000, -0.0988134, 1.59965E-008, -1.41892E-008, -1.99135E-008
3, 3120.00000, -0.0988135, 1.96503E-008, -1.41899E-008, -1.99156E-008
3, 3180.00000, -0.0988135, 1.99106E-008, -1.41899E-008, -1.99157E-008
3, 3240.00000, -0.0988135, 1.99156E-008, -1.41899E-008, -1.99157E-008
3, 3300.00000, -0.0988135, 1.99157E-008, -1.41899E-008, -1.99157E-008
3, 3360.00000, -0.0988135, 1.80145E-008, 4.24944E-008, 8.74866E-009
3, 3420.00000, -0.0988135, -8.45068E-009, 4.2495E-008, 8.74945E-009
3, 3480.00000, -0.0988135, -8.74559E-009, 4.2495E-008, 8.74946E-009
3, 3540.00000, -0.0988135, -8.74943E-009, 4.2495E-008, 8.74946E-009
4, 0.00000, -0.0988135, -8.74946E-009, 4.2495E-008, 8.74946E-009
4, 60.00000, -0.0949594, -6.1226E-008, 7.69169E-009, 2.09794E-008
4, 120.00000, -0.0949593, -2.12376E-008, 7.69089E-009, 2.09778E-008
4, 180.00000, -0.0949593, -2.09785E-008, 7.69091E-009, 2.09778E-008
4, 240.00000, -0.0949593, -2.09778E-008, 7.69091E-009, 2.09778E-008
4, 300.00000, -0.0949593, -2.09778E-008, 7.69091E-009, 2.09778E-008
4, 360.00000, -0.0949593, 2.63484E-008, -1.41768E-008, 1.75651E-008
4, 420.00000, -0.0949593, -1.73454E-008, -1.41787E-008, 1.75659E-008
4, 480.00000, -0.0949593, -1.75617E-008, -1.41787E-008, 1.7566E-008
4, 540.00000, -0.0949593, -1.75659E-008, -1.41787E-008, 1.7566E-008
4, 600.00000, -0.0949593, -1.7566E-008, -1.41787E-008, 1.7566E-008
4, 660.00000, -0.0949593, 6.19125E-008, 2.01535E-009, -3.64399E-008
4, 720.00000, -0.0949593, 3.65135E-008, 2.01357E-009, -3.64412E-008
4, 780.00000, -0.0949593, 3.64404E-008, 2.01357E-009, -3.64412E-008
4, 840.00000, -0.0949593, 3.64412E-008, 2.01357E-009, -3.64412E-008
4, 900.00000, -0.0949593, 3.64412E-008, 2.01357E-009, -3.64412E-008
4, 960.00000, -0.094958, -6.83978E-008, -6.39555E-008, -1.10796E-008
4, 1020.00000, -0.0949593, 1.22639E-008, -6.4054E-008, -1.10569E-008
4, 1080.00000, -0.0949593, 1.10581E-008, -6.40541E-008, -1.10569E-008
4, 1140.00000, -0.0949593, 1.10569E-008, -6.40541E-008, -1.10569E-008
4, 1200.00000, -0.0949593, 1.10569E-008, -6.40541E-008, -1.10569E-008
4, 1260.00000, -0.0949599, -2.17974E-007, 1.12817E-008, -1.6385E-008
4, 1320.00000, -0.0949594, 1.46193E-008, 1.13248E-008, -1.63966E-008
4, 1380.00000, -0.0949594, 1.63841E-008, 1.13249E-008, -1.63966E-008
4, 1440.00000, -0.0949594, 1.63965E-008, 1.13249E-008, -1.63966E-008
4, 1500.00000, -0.0949594, 1.63966E-008, 1.13249E-008, -1.63966E-008
4, 1560.00000, -0.0949593, 1.22808E-009, -3.26719E-008, 2.9685E-008
4, 1620.00000, -0.0949593, -2.94718E-008, -3.26743E-008, 2.96858E-008
4, 1680.00000, -0.0949593, -2.96847E-008, -3.26743E-008, 2.96857E-008
4, 1740.00000, -0.0949593, -2.96857E-008, -3.26743E-008, 2.96857E-008
4, 1800.00000, -0.0949593, -2.96857E-008, -3.26743E-008, 2.96857E-008
4, 1860.00000, -0.0949594, -2.91488E-009, -9.92894E-009, -2.23304E-008
4, 1920.00000, -0.0949593, 2.2193E-008, -9.92751E-009, -2.23311E-008
4, 1980.00000, -0.0949594, 3.59968E-008, -9.93109E-009, -2.23105E-008
4, 2040.00000, -0.0949593, 8.61365E-009, -9.92781E-009, -2.23314E-008
4, 2100.00000, -0.0949594, 3.37824E-008, -9.9305E-009, -2.23139E-008
4, 2160.00000, -0.0949593, -5.00991E-008, -4.55084E-008, 2.66871E-008
4, 2220.00000, -0.0949593, -8.63175E-009, -4.55089E-008, 2.67128E-008
4, 2280.00000, -0.0949593, -2.07538E-008, -4.55099E-008, 2.67211E-008
4, 2340.00000, -0.0949593, -2.27159E-008, -4.55105E-008, 2.67266E-008
4, 2400.00000, -0.0949594, 1.74457E-008, -4.55151E-008, 2.67881E-008
4, 2460.00000, -0.0949594, -3.00347E-008, 2.64765E-008, 2.27645E-008
4, 2520.00000, -0.0949595, 4.37207E-008, 2.64499E-008, 2.2854E-008
4, 2580.00000, -0.0949594, -2.30305E-008, 2.64478E-008, 2.2853E-008
4, 2640.00000, -0.0949594, -2.28333E-008, 2.64477E-008, 2.2853E-008
4, 2700.00000, -0.0949594, -2.28462E-008, 2.64477E-008, 2.2853E-008
4, 2760.00000, -0.0949594, -2.51811E-008, -2.67702E-008, 3.20173E-008
4, 2820.00000, -0.0949594, 2.90025E-009, -2.67758E-008, 3.20601E-008
4, 2880.00000, -0.0949593, -2.33901E-008, -2.67782E-008, 3.20707E-008
4, 2940.00000, -0.0949594, -1.01045E-008, -2.6783E-008, 3.20985E-008
4, 3000.00000, -0.0949594, -1.02539E-008, -2.67881E-008, 3.2126E-008
4, 3060.00000, -0.0949593, -5.33456E-009, 4.61661E-008, 2.63271E-008
4, 3120.00000, -0.0949595, 6.52606E-008, 4.61204E-008, 2.64424E-008
4, 3180.00000, -0.0949594, -4.5966E-008, 4.61268E-008, 2.64164E-008
