hour, t(sec), P1 (kW), Q1 (kvar), P2 (kW), Q2 (kvar)
0, 60.00000, -0.146623, 2.4602E-007, 3.99195E-008, 5.06558E-009
0, 120.00000, -0.146623, -5.00428E-009, 3.99195E-008, 5.06029E-009
0, 180.00000, -0.146623, -5.0601E-009, 3.99194E-008, 5.06029E-009
0, 240.00000, -0.146623, -5.06029E-009, 3.99194E-008, 5.06029E-009
0, 300.00000, -0.146623, -5.06029E-009, 3.99194E-008, 5.06029E-009
0, 360.00000, -0.146623, -1.83096E-008, -2.36446E-008, 2.22634E-008
0, 420.00000, -0.146623, -2.23391E-008, -2.36463E-008, 2.22638E-008
0, 480.00000, -0.146623, -2.22657E-008, -2.36463E-008, 2.22638E-008
0, 540.00000, -0.146623, -2.22638E-008, -2.36463E-008, 2.22638E-008
0, 600.00000, -0.146623, -2.22638E-008, -2.36463E-008, 2.22638E-008
0, 660.00000, -0.146623, 7.2555E-008, 1.96259E-008, -6.28419E-008
0, 720.00000, -0.146623, 6.28318E-008, 1.96273E-008, -6.28419E-008
0, 780.00000, -0.146623, 6.2843E-008, 1.96273E-008, -6.28418E-008
0, 840.00000, -0.146623, 6.28418E-008, 1.96273E-008, -6.28418E-008
0, 900.00000, -0.146623, 6.28418E-008, 1.96273E-008, -6.28418E-008
0, 960.00000, -0.146624, 1.10071E-006, 2.3533E-009, -3.27148E-009
0, 1020.00000, -0.146623, 3.15612E-009, 2.38117E-009, -3.30372E-009
0, 1080.00000, -0.146623, 3.30085E-009, 2.38124E-009, -3.30369E-009
0, 1140.00000, -0.146623, 3.30369E-009, 2.38124E-009, -3.30369E-009
0, 1200.00000, -0.146623, 3.30369E-009, 2.38124E-009, -3.30369E-009
0, 1260.00000, -0.146622, -3.07298E-008, -1.80328E-008, 6.16969E-008
0, 1320.00000, -0.146623, -6.14884E-008, -1.80374E-008, 6.16974E-008
0, 1380.00000, -0.146623, -6.16969E-008, -1.80375E-008, 6.16973E-008
0, 1440.00000, -0.146623, -6.16973E-008, -1.80375E-008, 6.16973E-008
0, 1500.00000, -0.146623, -6.16973E-008, -1.80375E-008, 6.16973E-008
0, 1560.00000, -0.146623, -1.9482E-008, 4.45671E-008, 4.33033E-008
0, 1620.00000, -0.146623, -4.30507E-008, 4.45676E-008, 4.3301E-008
0, 1680.00000, -0.146623, -4.3299E-008, 4.45676E-008, 4.3301E-008
0, 1740.00000, -0.146623, -4.33009E-008, 4.45676E-008, 4.3301E-008
0, 1800.00000, -0.146623, -4.3301E-008, 4.45676E-008, 4.3301E-008
0, 1860.00000, -0.146623, 8.87663E-008, -8.58216E-008, -9.54273E-008
0, 1920.00000, -0.146623, 9.51998E-008, -8.58202E-008, -9.54275E-008
0, 1980.00000, -0.146623, 9.54256E-008, -8.58202E-008, -9.54275E-008
0, 2040.00000, -0.146623, 9.54275E-008, -8.58202E-008, -9.54275E-008
0, 2100.00000, -0.146623, 9.54275E-008, -8.58202E-008, -9.54275E-008
0, 2160.00000, -0.146623, -2.06546E-008, 1.42521E-009, -2.21738E-009
0, 2220.00000, -0.146623, 2.10841E-009, 1.42313E-009, -2.2128E-009
0, 2280.00000, -0.146623, 2.21293E-009, 1.42314E-009, -2.21278E-009
0, 2340.00000, -0.146623, 2.21279E-009, 1.42314E-009, -2.21278E-009
0, 2400.00000, -0.146623, 2.21278E-009, 1.42314E-009, -2.21278E-009
0, 2460.00000, -0.146623, -7.16676E-008, -2.70673E-008, 2.2967E-008
0, 2520.00000, -0.146623, -2.32643E-008, -2.70602E-008, 2.29646E-008
0, 2580.00000, -0.146623, -2.29664E-008, -2.70602E-008, 2.29646E-008
0, 2640.00000, -0.146623, -2.29646E-008, -2.70602E-008, 2.29646E-008
0, 2700.00000, -0.146623, -2.29646E-008, -2.70602E-008, 2.29646E-008
0, 2760.00000, -0.146623, -9.10739E-008, -8.15946E-008, 7.34429E-008
0, 2820.00000, -0.146623, -7.36645E-008, -8.15935E-008, 7.34409E-008
0, 2880.00000, -0.146623, -7.34429E-008, -8.15935E-008, 7.34408E-008
0, 2940.00000, -0.146623, -7.34409E-008, -8.15935E-008, 7.34408E-008
0, 3000.00000, -0.146623, -7.34408E-008, -8.15935E-008, 7.34408E-008
0, 3060.00000, -0.146623, 1.2787E-007, 8.13687E-008, -8.12465E-008
0, 3120.00000, -0.146623, 8.18211E-008, 8.13662E-008, -8.12424E-008
0, 3180.00000, -0.146623, 8.12476E-008, 8.13662E-008, -8.12424E-008
0, 3240.00000, -0.146623, 8.12424E-008, 8.13662E-008, -8.12424E-008
0, 3300.00000, -0.146623, 8.12424E-008, 8.13662E-008, -8.12424E-008
0, 3360.00000, -0.146622, 1.11021E-007, -1.06653E-008, -4.03846E-008
0, 3420.00000, -0.146623, 4.08307E-008, -1.06696E-008, -4.03845E-008
0, 3480.00000, -0.146623, 4.03871E-008, -1.06697E-008, -4.03845E-008
0, 3540.00000, -0.146623, 4.03845E-008, -1.06697E-008, -4.03845E-008
1, 0.00000, -0.146623, 4.03845E-008, -1.06697E-008, -4.03845E-008
1, 60.00000, -0.121994, -1.71044E-007, -2.67539E-010, 7.12545E-010
1, 120.00000, -0.121994, -1.28666E-009, -2.65124E-010, 7.11314E-010
1, 180.00000, -0.121994, -7.12295E-010, -2.65122E-010, 7.11321E-010
1, 240.00000, -0.121994, -7.1131E-010, -2.65122E-010, 7.11321E-010
1, 300.00000, -0.121994, -7.11321E-010, -2.65122E-010, 7.11321E-010
1, 360.00000, -0.121994, 2.90788E-008, 7.3522E-009, 2.93459E-008
1, 420.00000, -0.121994, -2.93996E-008, 7.3489E-009, 2.93427E-008
1, 480.00000, -0.121994, -2.9349E-008, 7.34891E-009, 2.93427E-008
1, 540.00000, -0.121994, -2.93428E-008, 7.34891E-009, 2.93427E-008
1, 600.00000, -0.121994, -2.93427E-008, 7.34891E-009, 2.93427E-008
1, 660.00000, -0.121994, -1.09913E-007, -1.27992E-008, 4.96863E-008
1, 720.00000, -0.121994, -4.97383E-008, -1.27954E-008, 4.9688E-008
1, 780.00000, -0.121994, -4.96854E-008, -1.27954E-008, 4.9688E-008
1, 840.00000, -0.121994, -4.96879E-008, -1.27954E-008, 4.9688E-008
1, 900.00000, -0.121994, -4.9688E-008, -1.27954E-008, 4.9688E-008
1, 960.00000, -0.121994, 4.80422E-008, 1.02695E-009, -2.11585E-009
1, 1020.00000, -0.121994, 1.70649E-009, 1.02566E-009, -2.11974E-009
1, 1080.00000, -0.121994, 2.11055E-009, 1.02569E-009, -2.11978E-009
1, 1140.00000, -0.121994, 2.11966E-009, 1.02569E-009, -2.11978E-009
1, 1200.00000, -0.121994, 2.11977E-009, 1.02569E-009, -2.11978E-009
1, 1260.00000, -0.121994, -9.9667E-008, -1.37577E-008, 4.99431E-008
1, 1320.00000, -0.121994, -4.97826E-008, -1.37563E-008, 4.99471E-008
1, 1380.00000, -0.121994, -4.99396E-008, -1.37564E-008, 4.99472E-008
1, 1440.00000, -0.121994, -4.9947E-008, -1.37564E-008, 4.99472E-008
1, 1500.00000, -0.121994, -4.99472E-008, -1.37564E-008, 4.99472E-008
1, 1560.00000, -0.121994, 1.54033E-008, 1.56602E-008, -5.28678E-008
1, 1620.00000, -0.121994, 5.24286E-008, 1.56623E-008, -5.28685E-008
1, 1680.00000, -0.121994, 5.28627E-008, 1.56623E-008, -5.28685E-008
1, 1740.00000, -0.121994, 5.28685E-008, 1.56623E-008, -5.28685E-008
1, 1800.00000, -0.121994, 5.28685E-008, 1.56623E-008, -5.28685E-008
1, 1860.00000, -0.121994, -1.25285E-008, 6.02564E-008, 1.59306E-008
1, 1920.00000, -0.121994, -1.59684E-008, 6.02573E-008, 1.59285E-008
1, 1980.00000, -0.121994, -1.59323E-008, 6.02574E-008, 1.59285E-008
1, 2040.00000, -0.121994, -1.59285E-008, 6.02574E-008, 1.59285E-008
1, 2100.00000, -0.121994, -1.59285E-008, 6.02574E-008, 1.59285E-008
1, 2160.00000, -0.121994, 4.43514E-008, 8.24767E-008, -7.2037E-009
1, 2220.00000, -0.121994, 7.35225E-009, 8.2475E-008, -7.20307E-009
1, 2280.00000, -0.121994, 7.2074E-009, 8.2475E-008, -7.20304E-009
1, 2340.00000, -0.121994, 7.20312E-009, 8.2475E-008, -7.20304E-009
1, 2400.00000, -0.121994, 7.20304E-009, 8.2475E-008, -7.20304E-009
1, 2460.00000, -0.121995, 5.05227E-007, 6.0453E-008, 1.46225E-008
1, 2520.00000, -0.121994, -1.53103E-008, 6.04445E-008, 1.45949E-008
1, 2580.00000, -0.121994, -1.45889E-008, 6.04446E-008, 1.4595E-008
1, 2640.00000, -0.121994, -1.45947E-008, 6.04446E-008, 1.4595E-008
1, 2700.00000, -0.121994, -1.4595E-008, 6.04446E-008, 1.4595E-008
1, 2760.00000, -0.121994, 9.90999E-008, -1.48798E-008, -5.84994E-008
1, 2820.00000, -0.121994, 5.87312E-008, -1.48821E-008, -5.8499E-008
1, 2880.00000, -0.121994, 5.84998E-008, -1.48821E-008, -5.84991E-008
1, 2940.00000, -0.121994, 5.8499E-008, -1.48821E-008, -5.84991E-008
1, 3000.00000, -0.121994, 5.84991E-008, -1.48821E-008, -5.84991E-008
1, 3060.00000, -0.121994, -3.2467E-008, -9.16777E-010, -1.66532E-009
1, 3120.00000, -0.121994, 1.4562E-009, -9.15422E-010, -1.66628E-009
1, 3180.00000, -0.121994, 1.66214E-009, -9.15411E-010, -1.6663E-009
1, 3240.00000, -0.121994, 1.66624E-009, -9.15411E-010, -1.6663E-009
1, 3300.00000, -0.121994, 1.66629E-009, -9.15411E-010, -1.6663E-009
1, 3360.00000, -0.121994, 4.43696E-008, 3.00348E-008, 6.64428E-009
1, 3420.00000, -0.121994, -5.7291E-009, 3.00329E-008, 6.64682E-009
1, 3480.00000, -0.121994, -6.63475E-009, 3.00329E-008, 6.64683E-009
1, 3540.00000, -0.121994, -6.64673E-009, 3.00329E-008, 6.64683E-009
2, 0.00000, -0.121994, -6.64683E-009, 3.00329E-008, 6.64683E-009
2, 60.00000, -0.114792, -9.42436E-008, 6.65504E-009, 2.61465E-008
2, 120.00000, -0.114792, -2.65375E-008, 6.65643E-009, 2.61459E-008
2, 180.00000, -0.114792, -2.61492E-008, 6.65644E-009, 2.61459E-008
2, 240.00000, -0.114792, -2.6146E-008, 6.65644E-009, 2.61459E-008
2, 300.00000, -0.114792, -2.61459E-008, 6.65644E-009, 2.61459E-008
2, 360.00000, -0.114792, 3.26242E-008, 4.27842E-008, -4.00588E-008
2, 420.00000, -0.114792, 3.98129E-008, 4.27828E-008, -4.00582E-008
2, 480.00000, -0.114792, 4.0055E-008, 4.27828E-008, -4.00582E-008
2, 540.00000, -0.114792, 4.00582E-008, 4.27828E-008, -4.00582E-008
2, 600.00000, -0.114792, 4.00582E-008, 4.27828E-008, -4.00582E-008
2, 660.00000, -0.11479, -1.77506E-006, -2.62403E-008, -9.85105E-009
2, 720.00000, -0.114792, 8.26595E-009, -2.63508E-008, -9.75552E-009
2, 780.00000, -0.114792, 9.75231E-009, -2.63509E-008, -9.7554E-009
2, 840.00000, -0.114792, 9.75559E-009, -2.63509E-008, -9.7554E-009
2, 900.00000, -0.114792, 9.7554E-009, -2.63509E-008, -9.7554E-009
2, 960.00000, -0.114792, 7.79796E-008, 2.22206E-008, -1.96896E-008
2, 1020.00000, -0.114792, 2.02579E-008, 2.2217E-008, -1.96891E-008
2, 1080.00000, -0.114792, 1.96924E-008, 2.22169E-008, -1.96892E-008
2, 1140.00000, -0.114792, 1.96891E-008, 2.22169E-008, -1.96892E-008
2, 1200.00000, -0.114792, 1.96892E-008, 2.22169E-008, -1.96892E-008
2, 1260.00000, -0.114793, 7.5115E-007, 2.24394E-008, -2.20791E-008
2, 1320.00000, -0.114792, 2.22645E-008, 2.24141E-008, -2.21122E-008
2, 1380.00000, -0.114792, 2.2123E-008, 2.24141E-008, -2.21122E-008
2, 1440.00000, -0.114792, 2.21124E-008, 2.24141E-008, -2.21122E-008
2, 1500.00000, -0.114792, 2.21122E-008, 2.24141E-008, -2.21122E-008
2, 1560.00000, -0.114792, -1.59035E-008, 2.08203E-008, -1.99242E-008
2, 1620.00000, -0.114792, 1.95247E-008, 2.08228E-008, -1.99256E-008
2, 1680.00000, -0.114792, 1.99215E-008, 2.08228E-008, -1.99256E-008
2, 1740.00000, -0.114792, 1.99256E-008, 2.08228E-008, -1.99256E-008
2, 1800.00000, -0.114792, 1.99256E-008, 2.08228E-008, -1.99256E-008
2, 1860.00000, -0.114793, 2.81917E-007, -2.11171E-008, 1.85148E-008
2, 1920.00000, -0.114792, -1.83561E-008, -2.09832E-008, 1.85181E-008
2, 1980.00000, -0.114792, -1.85067E-008, -2.09832E-008, 1.85182E-008
2, 2040.00000, -0.114792, -1.85181E-008, -2.09832E-008, 1.85182E-008
2, 2100.00000, -0.114792, -1.85182E-008, -2.09832E-008, 1.85182E-008
2, 2160.00000, -0.114791, -4.91532E-007, 2.88255E-008, 5.87024E-009
2, 2220.00000, -0.114792, -6.61661E-009, 2.87612E-008, 5.88035E-009
2, 2280.00000, -0.114792, -5.89165E-009, 2.87612E-008, 5.88032E-009
2, 2340.00000, -0.114792, -5.88045E-009, 2.87612E-008, 5.88032E-009
2, 2400.00000, -0.114792, -5.88032E-009, 2.87612E-008, 5.88032E-009
2, 2460.00000, -0.114792, -7.98351E-009, -2.6392E-008, -8.51281E-009
2, 2520.00000, -0.114792, 8.31031E-009, -2.63918E-008, -8.51348E-009
2, 2580.00000, -0.114792, 8.51016E-009, -2.63918E-008, -8.51349E-009
2, 2640.00000, -0.114792, 8.51345E-009, -2.63918E-008, -8.51349E-009
2, 2700.00000, -0.114792, 8.51349E-009, -2.63918E-008, -8.51349E-009
2, 2760.00000, -0.114792, 2.43779E-008, -2.79751E-008, -9.65266E-009
2, 2820.00000, -0.114792, 9.89223E-009, -2.79753E-008, -9.65247E-009
2, 2880.00000, -0.114792, 9.65575E-009, -2.79753E-008, -9.65247E-009
2, 2940.00000, -0.114792, 9.6525E-009, -2.79753E-008, -9.65247E-009
2, 3000.00000, -0.114792, 9.65247E-009, -2.79753E-008, -9.65247E-009
2, 3060.00000, -0.114792, -3.11744E-008, -7.20584E-010, -1.37868E-009
2, 3120.00000, -0.114792, 1.35817E-009, -7.19698E-010, -1.37544E-009
2, 3180.00000, -0.114792, 1.37961E-009, -7.197E-010, -1.3754E-009
2, 3240.00000, -0.114792, 1.37549E-009, -7.197E-010, -1.3754E-009
2, 3300.00000, -0.114792, 1.3754E-009, -7.197E-010, -1.3754E-009
2, 3360.00000, -0.114792, 7.22012E-008, -2.81648E-008, -9.33096E-009
2, 3420.00000, -0.114792, 9.4272E-009, -2.81668E-008, -9.3348E-009
2, 3480.00000, -0.114792, 9.32962E-009, -2.81668E-008, -9.33485E-009
2, 3540.00000, -0.114792, 9.33473E-009, -2.81668E-008, -9.33485E-009
3, 0.00000, -0.114792, 9.33485E-009, -2.81668E-008, -9.33485E-009
3, 60.00000, -0.106062, 1.14264E-008, 1.86169E-008, -1.90478E-008
3, 120.00000, -0.106062, 1.90955E-008, 1.86162E-008, -1.90477E-008
3, 180.00000, -0.106062, 1.90476E-008, 1.86162E-008, -1.90477E-008
3, 240.00000, -0.106062, 1.90477E-008, 1.86162E-008, -1.90477E-008
3, 300.00000, -0.106062, 1.90477E-008, 1.86162E-008, -1.90477E-008
3, 360.00000, -0.106062, -1.17556E-009, -7.34226E-010, -6.98251E-010
3, 420.00000, -0.106062, 4.30758E-010, -7.35369E-010, -7.00094E-010
3, 480.00000, -0.106062, 6.9527E-010, -7.3535E-010, -7.00112E-010
3, 540.00000, -0.106062, 7.0006E-010, -7.3535E-010, -7.00113E-010
3, 600.00000, -0.106062, 7.00112E-010, -7.3535E-010, -7.00113E-010
3, 660.00000, -0.106063, -4.603E-007, -1.35895E-008, -5.1834E-008
3, 720.00000, -0.106062, 5.0585E-008, -1.35642E-008, -5.18206E-008
3, 780.00000, -0.106062, 5.18215E-008, -1.35642E-008, -5.18205E-008
3, 840.00000, -0.106062, 5.18206E-008, -1.35642E-008, -5.18205E-008
3, 900.00000, -0.106062, 5.18205E-008, -1.35642E-008, -5.18205E-008
3, 960.00000, -0.106062, -6.65604E-008, 6.98115E-009, 2.47566E-008
3, 1020.00000, -0.106062, -2.45416E-008, 6.98057E-009, 2.47602E-008
3, 1080.00000, -0.106062, -2.4758E-008, 6.98055E-009, 2.47602E-008
3, 1140.00000, -0.106062, -2.47602E-008, 6.98055E-009, 2.47602E-008
3, 1200.00000, -0.106062, -2.47602E-008, 6.98055E-009, 2.47602E-008
3, 1260.00000, -0.106062, 1.1262E-007, -6.57139E-009, -2.67366E-008
3, 1320.00000, -0.106062, 2.65615E-008, -6.57163E-009, -2.67428E-008
3, 1380.00000, -0.106062, 2.6739E-008, -6.57162E-009, -2.67429E-008
3, 1440.00000, -0.106062, 2.67428E-008, -6.57162E-009, -2.67429E-008
3, 1500.00000, -0.106062, 2.67429E-008, -6.57162E-009, -2.67429E-008
3, 1560.00000, -0.106063, 1.84207E-006, 1.46945E-009, -7.0525E-010
3, 1620.00000, -0.106062, 1.64525E-009, 1.43642E-009, -7.8072E-010
3, 1680.00000, -0.106062, 7.86034E-010, 1.43647E-009, -7.807E-010
3, 1740.00000, -0.106062, 7.80839E-010, 1.43647E-009, -7.80699E-010
3, 1800.00000, -0.106062, 7.80701E-010, 1.43647E-009, -7.80699E-010
3, 1860.00000, -0.106062, -1.53059E-008, -3.69446E-008, 3.63748E-008
3, 1920.00000, -0.106062, -3.6153E-008, -3.69462E-008, 3.63757E-008
3, 1980.00000, -0.106062, -3.63723E-008, -3.69462E-008, 3.63757E-008
3, 2040.00000, -0.106062, -3.63756E-008, -3.69462E-008, 3.63757E-008
3, 2100.00000, -0.106062, -3.63757E-008, -3.69462E-008, 3.63757E-008
3, 2160.00000, -0.106062, -6.33401E-008, 5.82269E-008, 3.83909E-008
3, 2220.00000, -0.106062, -3.85671E-008, 5.82297E-008, 3.8391E-008
3, 2280.00000, -0.106062, -3.83911E-008, 5.82297E-008, 3.8391E-008
3, 2340.00000, -0.106062, -3.8391E-008, 5.82297E-008, 3.8391E-008
3, 2400.00000, -0.106062, -3.8391E-008, 5.82297E-008, 3.8391E-008
3, 2460.00000, -0.106062, 2.75256E-008, -2.73478E-010, -1.30721E-009
3, 2520.00000, -0.106062, 1.6036E-009, -2.75992E-010, -1.30758E-009
3, 2580.00000, -0.106062, 1.30707E-009, -2.76006E-010, -1.30761E-009
3, 2640.00000, -0.106062, 1.30756E-009, -2.76006E-010, -1.30761E-009
3, 2700.00000, -0.106062, 1.30761E-009, -2.76006E-010, -1.30761E-009
3, 2760.00000, -0.106062, -1.05538E-008, -4.42081E-008, 1.05589E-008
3, 2820.00000, -0.106062, -1.09836E-008, -4.42076E-008, 1.05563E-008
3, 2880.00000, -0.106062, -1.0562E-008, -4.42076E-008, 1.05563E-008
3, 2940.00000, -0.106062, -1.05563E-008, -4.42076E-008, 1.05563E-008
3, 3000.00000, -0.106062, -1.05563E-008, -4.42076E-008, 1.05563E-008
3, 3060.00000, -0.106062, -5.88488E-008, -1.97308E-008, 1.89606E-008
3, 3120.00000, -0.106062, -1.91987E-008, -1.97283E-008, 1.89614E-008
3, 3180.00000, -0.106062, -1.89602E-008, -1.97283E-008, 1.89615E-008
3, 3240.00000, -0.106062, -1.89614E-008, -1.97283E-008, 1.89615E-008
3, 3300.00000, -0.106062, -1.89615E-008, -1.97283E-008, 1.89615E-008
3, 3360.00000, -0.106062, 6.63604E-008, 8.13392E-009, -7.03824E-008
3, 3420.00000, -0.106062, 7.03724E-008, 8.13281E-009, -7.03825E-008
3, 3480.00000, -0.106062, 7.03797E-008, 8.13281E-009, -7.03825E-008
3, 3540.00000, -0.106062, 7.03825E-008, 8.13281E-009, -7.03825E-008
4, 0.00000, -0.106062, 7.03825E-008, 8.13281E-009, -7.03825E-008
4, 60.00000, -0.105122, -4.88228E-008, 1.43302E-009, -7.77116E-010
4, 120.00000, -0.105122, 9.51032E-010, 1.435E-009, -7.76815E-010
4, 180.00000, -0.105122, 7.79417E-010, 1.43499E-009, -7.76808E-010
4, 240.00000, -0.105122, 7.76823E-010, 1.43499E-009, -7.76808E-010
4, 300.00000, -0.105122, 7.76808E-010, 1.43499E-009, -7.76808E-010
4, 360.00000, -0.105122, 2.29491E-008, -1.73917E-008, 1.68388E-008
4, 420.00000, -0.105122, -1.66082E-008, -1.73911E-008, 1.68365E-008
4, 480.00000, -0.105122, -1.68371E-008, -1.73912E-008, 1.68365E-008
4, 540.00000, -0.105122, -1.68365E-008, -1.73912E-008, 1.68365E-008
4, 600.00000, -0.105122, -1.68365E-008, -1.73912E-008, 1.68365E-008
4, 660.00000, -0.105122, -6.45275E-008, 1.2823E-008, 4.97141E-008
4, 720.00000, -0.105122, -4.99825E-008, 1.28255E-008, 4.97133E-008
4, 780.00000, -0.105122, -4.97153E-008, 1.28255E-008, 4.97133E-008
4, 840.00000, -0.105122, -4.97133E-008, 1.28255E-008, 4.97133E-008
4, 900.00000, -0.105122, -4.97133E-008, 1.28255E-008, 4.97133E-008
4, 960.00000, -0.105124, 1.65126E-006, -3.14739E-008, -3.46665E-008
4, 1020.00000, -0.105122, 3.3996E-008, -3.14224E-008, -3.47737E-008
4, 1080.00000, -0.105122, 3.47668E-008, -3.14223E-008, -3.47738E-008
4, 1140.00000, -0.105122, 3.47737E-008, -3.14223E-008, -3.47738E-008
4, 1200.00000, -0.105122, 3.47738E-008, -3.14223E-008, -3.47738E-008
4, 1260.00000, -0.105122, -7.44661E-007, 5.2234E-008, 1.29805E-008
4, 1320.00000, -0.105122, -1.19623E-008, 5.22137E-008, 1.30318E-008
4, 1380.00000, -0.105122, -1.30151E-008, 5.22136E-008, 1.30319E-008
4, 1440.00000, -0.105122, -1.30317E-008, 5.22136E-008, 1.30319E-008
4, 1500.00000, -0.105122, -1.30319E-008, 5.22136E-008, 1.30319E-008
4, 1560.00000, -0.105122, 1.48048E-008, 2.61262E-008, 6.16906E-009
4, 1620.00000, -0.105122, -6.36686E-009, 2.61272E-008, 6.16633E-009
4, 1680.00000, -0.105122, -6.16887E-009, 2.61272E-008, 6.16632E-009
4, 1740.00000, -0.105122, -6.16634E-009, 2.61272E-008, 6.16632E-009
4, 1800.00000, -0.105122, -6.16632E-009, 2.61272E-008, 6.16632E-009
4, 1860.00000, -0.105122, 1.07712E-008, 3.80879E-008, -3.75537E-008
4, 1920.00000, -0.105122, 3.74933E-008, 3.80876E-008, -3.75518E-008
4, 1980.00000, -0.105122, 4.30625E-008, 3.80742E-008, -3.75655E-008
4, 2040.00000, -0.105122, 3.20318E-008, 3.8088E-008, -3.75519E-008
4, 2100.00000, -0.105122, 4.21901E-008, 3.80764E-008, -3.75632E-008
4, 2160.00000, -0.105122, -5.99727E-008, -1.15235E-008, 4.33313E-008
4, 2220.00000, -0.105122, -3.18129E-008, -1.15396E-008, 4.33051E-008
4, 2280.00000, -0.105122, -3.95155E-008, -1.15441E-008, 4.32957E-008
4, 2340.00000, -0.105122, -4.07411E-008, -1.15473E-008, 4.32896E-008
4, 2400.00000, -0.105122, -1.4932E-008, -1.15832E-008, 4.32235E-008
4, 2460.00000, -0.105122, 7.00896E-008, 1.83703E-008, -1.90335E-008
4, 2520.00000, -0.105123, 5.59152E-008, 1.83066E-008, -1.91062E-008
4, 2580.00000, -0.105122, 1.89236E-008, 1.83088E-008, -1.91074E-008
4, 2640.00000, -0.105122, 1.91188E-008, 1.83088E-008, -1.91074E-008
4, 2700.00000, -0.105122, 1.91112E-008, 1.83088E-008, -1.91074E-008
4, 2760.00000, -0.105122, -3.89074E-008, -1.78834E-008, 1.70243E-008
4, 2820.00000, -0.105122, -2.73852E-009, -1.79076E-008, 1.6982E-008
4, 2880.00000, -0.105122, -1.35924E-008, -1.79129E-008, 1.69704E-008
4, 2940.00000, -0.105122, -8.19562E-009, -1.7928E-008, 1.69419E-008
4, 3000.00000, -0.105122, -8.20903E-009, -1.79427E-008, 1.69135E-008
4, 3060.00000, -0.105122, 1.64694E-008, 6.04932E-009, 2.26069E-008
4, 3120.00000, -0.105123, 3.95645E-009, 5.97444E-009, 2.24918E-008
4, 3180.00000, -0.105122, -2.84085E-008, 5.99367E-009, 2.25145E-008
4, 3240.00000, -0.105122, -3.93674E-009, 5.94175E-009, 2.24393E-008
