hour, t(sec), P1 (kW), Q1 (kvar), P2 (kW), Q2 (kvar)
0, 60.00000, -0.121449, 1.42672E-007, 5.90746E-008, 3.06611E-008
0, 120.00000, -0.121449, -3.02164E-008, 5.90728E-008, 3.06561E-008
0, 180.00000, -0.121449, -3.06545E-008, 5.90728E-008, 3.0656E-008
0, 240.00000, -0.121449, -3.0656E-008, 5.90728E-008, 3.0656E-008
0, 300.00000, -0.121449, -3.0656E-008, 5.90728E-008, 3.0656E-008
0, 360.00000, -0.121449, -8.06155E-007, -2.88165E-008, 4.10391E-008
0, 420.00000, -0.121449, -4.84175E-008, -2.87461E-008, 4.10742E-008
0, 480.00000, -0.121449, -4.11342E-008, -2.87456E-008, 4.10748E-008
0, 540.00000, -0.121449, -4.10752E-008, -2.87456E-008, 4.10748E-008
0, 600.00000, -0.121449, -4.10748E-008, -2.87456E-008, 4.10748E-008
0, 660.00000, -0.121447, 5.70129E-007, -2.82199E-008, 4.04105E-008
0, 720.00000, -0.121449, -3.3401E-008, -2.83077E-008, 4.04054E-008
0, 780.00000, -0.121449, -4.03396E-008, -2.83083E-008, 4.0405E-008
0, 840.00000, -0.121449, -4.04045E-008, -2.83083E-008, 4.0405E-008
0, 900.00000, -0.121449, -4.0405E-008, -2.83083E-008, 4.0405E-008
0, 960.00000, -0.121447, -2.43863E-007, -1.40389E-008, 2.04947E-008
0, 1020.00000, -0.121449, -2.00111E-008, -1.40724E-008, 2.05397E-008
0, 1080.00000, -0.121449, -2.05053E-008, -1.4073E-008, 2.05401E-008
0, 1140.00000, -0.121449, -2.05396E-008, -1.4073E-008, 2.05401E-008
0, 1200.00000, -0.121449, -2.054E-008, -1.4073E-008, 2.05401E-008
0, 1260.00000, -0.121451, -7.47134E-008, 7.07075E-009, -4.15572E-008
0, 1320.00000, -0.121449, 3.67507E-008, 7.16895E-009, -4.16174E-008
0, 1380.00000, -0.121449, 4.155E-008, 7.16989E-009, -4.16175E-008
0, 1440.00000, -0.121449, 4.16168E-008, 7.1699E-009, -4.16175E-008
0, 1500.00000, -0.121449, 4.16175E-008, 7.1699E-009, -4.16175E-008
0, 1560.00000, -0.12145, 4.42499E-007, 2.45143E-008, 6.21508E-009
0, 1620.00000, -0.121449, -4.42683E-009, 2.45331E-008, 6.14953E-009
0, 1680.00000, -0.121449, -6.15469E-009, 2.45334E-008, 6.14906E-009
0, 1740.00000, -0.121449, -6.14927E-009, 2.45335E-008, 6.14906E-009
0, 1800.00000, -0.121449, -6.14906E-009, 2.45335E-008, 6.14906E-009
0, 1860.00000, -0.121447, -5.38877E-007, 6.27678E-008, 9.64592E-008
0, 1920.00000, -0.121449, -9.80757E-008, 6.27446E-008, 9.65294E-008
0, 1980.00000, -0.121449, -9.65202E-008, 6.27441E-008, 9.65299E-008
0, 2040.00000, -0.121449, -9.65297E-008, 6.27441E-008, 9.65299E-008
0, 2100.00000, -0.121449, -9.65299E-008, 6.27441E-008, 9.65299E-008
0, 2160.00000, -0.121448, 2.25807E-007, 1.06668E-008, 2.48233E-008
0, 2220.00000, -0.121449, -2.05921E-008, 1.06012E-008, 2.48432E-008
0, 2280.00000, -0.121449, -2.47957E-008, 1.06006E-008, 2.48431E-008
0, 2340.00000, -0.121449, -2.48427E-008, 1.06006E-008, 2.48431E-008
0, 2400.00000, -0.121449, -2.48431E-008, 1.06006E-008, 2.48431E-008
0, 2460.00000, -0.121446, -3.15314E-007, -5.925E-008, -2.75149E-008
0, 2520.00000, -0.121449, 2.86429E-008, -5.93163E-008, -2.74231E-008
0, 2580.00000, -0.121449, 2.74682E-008, -5.93172E-008, -2.74226E-008
0, 2640.00000, -0.121449, 2.74232E-008, -5.93172E-008, -2.74226E-008
0, 2700.00000, -0.121449, 2.74226E-008, -5.93172E-008, -2.74226E-008
0, 2760.00000, -0.121449, -7.07731E-007, 2.61028E-008, 3.15912E-009
0, 2820.00000, -0.121449, -8.27226E-009, 2.61351E-008, 3.21729E-009
0, 2880.00000, -0.121449, -3.24568E-009, 2.61352E-008, 3.21784E-009
0, 2940.00000, -0.121449, -3.21791E-009, 2.61352E-008, 3.21785E-009
0, 3000.00000, -0.121449, -3.21785E-009, 2.61352E-008, 3.21785E-009
0, 3060.00000, -0.12145, 1.69519E-006, 1.21096E-008, -8.54062E-008
0, 3120.00000, -0.121449, 9.5472E-008, 1.20666E-008, -8.55642E-008
0, 3180.00000, -0.121449, 8.5604E-008, 1.20668E-008, -8.55656E-008
0, 3240.00000, -0.121449, 8.55655E-008, 1.20668E-008, -8.55656E-008
0, 3300.00000, -0.121449, 8.55656E-008, 1.20668E-008, -8.55656E-008
0, 3360.00000, -0.121451, 4.26516E-007, 7.40922E-008, 1.01742E-008
0, 3420.00000, -0.121449, -1.03531E-008, 7.41619E-008, 1.00695E-008
0, 3480.00000, -0.121449, -1.01067E-008, 7.41628E-008, 1.00688E-008
0, 3540.00000, -0.121449, -1.00694E-008, 7.41628E-008, 1.00688E-008
1, 0.00000, -0.121449, -1.00688E-008, 7.41628E-008, 1.00688E-008
1, 60.00000, -0.0970283, -1.67357E-007, 2.00489E-008, 4.19708E-009
1, 120.00000, -0.0970259, -1.92053E-009, 2.00298E-008, 4.19754E-009
1, 180.00000, -0.0970259, -4.15824E-009, 2.00295E-008, 4.19742E-009
1, 240.00000, -0.0970259, -4.19704E-009, 2.00295E-008, 4.19741E-009
1, 300.00000, -0.0970259, -4.19741E-009, 2.00295E-008, 4.19741E-009
1, 360.00000, -0.0970283, -1.24759E-006, 8.37334E-009, 1.81926E-008
1, 420.00000, -0.0970259, -4.03704E-008, 8.51088E-009, 1.82033E-008
1, 480.00000, -0.0970258, -1.84732E-008, 8.51221E-009, 1.82044E-008
1, 540.00000, -0.0970258, -1.82065E-008, 8.51222E-009, 1.82044E-008
1, 600.00000, -0.0970258, -1.82044E-008, 8.51222E-009, 1.82044E-008
1, 660.00000, -0.0970246, 5.21889E-007, 1.5737E-009, 8.26603E-010
1, 720.00000, -0.0970258, 9.35592E-009, 1.50832E-009, 8.27181E-010
1, 780.00000, -0.0970258, -6.9653E-010, 1.50764E-009, 8.26729E-010
1, 840.00000, -0.0970258, -8.25618E-010, 1.50764E-009, 8.26719E-010
1, 900.00000, -0.0970258, -8.26717E-010, 1.50764E-009, 8.26719E-010
1, 960.00000, -0.0970263, -1.60978E-006, -1.08614E-008, 1.63809E-008
1, 1020.00000, -0.0970258, -3.57495E-008, -1.07742E-008, 1.64726E-008
1, 1080.00000, -0.0970258, -1.66163E-008, -1.07739E-008, 1.64742E-008
1, 1140.00000, -0.0970258, -1.64741E-008, -1.07739E-008, 1.64743E-008
1, 1200.00000, -0.0970258, -1.64742E-008, -1.07739E-008, 1.64743E-008
1, 1260.00000, -0.0970241, 1.50406E-006, 8.48063E-009, 1.83157E-008
1, 1320.00000, -0.0970258, 5.44751E-009, 8.34338E-009, 1.82708E-008
1, 1380.00000, -0.0970258, -1.80221E-008, 8.34225E-009, 1.82694E-008
1, 1440.00000, -0.0970258, -1.8268E-008, 8.34225E-009, 1.82694E-008
1, 1500.00000, -0.0970258, -1.82694E-008, 8.34225E-009, 1.82694E-008
1, 1560.00000, -0.0970256, -1.0602E-006, 8.37898E-009, 1.96278E-008
1, 1620.00000, -0.0970258, -2.86806E-008, 8.40832E-009, 1.97079E-008
1, 1680.00000, -0.0970258, -1.97254E-008, 8.40807E-009, 1.9709E-008
1, 1740.00000, -0.0970258, -1.97079E-008, 8.40806E-009, 1.9709E-008
1, 1800.00000, -0.0970258, -1.9709E-008, 8.40806E-009, 1.9709E-008
1, 1860.00000, -0.0970273, -7.61815E-007, 1.94919E-008, 4.25683E-009
1, 1920.00000, -0.0970259, -1.83679E-008, 1.95757E-008, 4.26562E-009
1, 1980.00000, -0.0970259, -4.44126E-009, 1.95766E-008, 4.26633E-009
1, 2040.00000, -0.0970259, -4.26775E-009, 1.95766E-008, 4.26634E-009
1, 2100.00000, -0.0970259, -4.26634E-009, 1.95766E-008, 4.26634E-009
1, 2160.00000, -0.0970245, 9.01958E-007, 2.48524E-008, -3.09582E-008
1, 2220.00000, -0.0970259, 4.49965E-008, 2.4772E-008, -3.0981E-008
1, 2280.00000, -0.0970259, 3.11375E-008, 2.47713E-008, -3.09818E-008
1, 2340.00000, -0.0970259, 3.09828E-008, 2.47713E-008, -3.09818E-008
1, 2400.00000, -0.0970259, 3.09818E-008, 2.47713E-008, -3.09818E-008
1, 2460.00000, -0.0970175, 1.58603E-006, 3.97619E-008, 5.52331E-009
1, 2520.00000, -0.0970258, 6.20447E-008, 3.92876E-008, 5.70341E-009
1, 2580.00000, -0.0970259, -4.57606E-009, 3.9281E-008, 5.70187E-009
1, 2640.00000, -0.0970259, -5.68916E-009, 3.92809E-008, 5.70181E-009
1, 2700.00000, -0.0970259, -5.70172E-009, 3.92809E-008, 5.70181E-009
1, 2760.00000, -0.0970264, 1.51516E-008, -2.7512E-008, 6.79312E-008
1, 2820.00000, -0.0970258, -7.13482E-008, -2.74798E-008, 6.79E-008
1, 2880.00000, -0.0970258, -6.79851E-008, -2.74793E-008, 6.78999E-008
1, 2940.00000, -0.0970258, -6.79012E-008, -2.74793E-008, 6.78999E-008
1, 3000.00000, -0.0970258, -6.78999E-008, -2.74793E-008, 6.78999E-008
1, 3060.00000, -0.0970265, -7.62269E-007, -5.65925E-008, -5.04207E-009
1, 3120.00000, -0.0970258, -5.26947E-009, -5.65403E-008, -5.00752E-009
1, 3180.00000, -0.0970258, 4.91506E-009, -5.654E-008, -5.00675E-009
1, 3240.00000, -0.0970258, 5.00648E-009, -5.654E-008, -5.00674E-009
1, 3300.00000, -0.0970258, 5.00675E-009, -5.654E-008, -5.00674E-009
1, 3360.00000, -0.0970264, 2.04625E-006, -3.75354E-008, -3.4032E-009
1, 3420.00000, -0.0970258, 2.00163E-008, -3.75855E-008, -3.56791E-009
1, 3480.00000, -0.0970258, 3.57722E-009, -3.75848E-008, -3.57007E-009
1, 3540.00000, -0.0970258, 3.56752E-009, -3.75848E-008, -3.57009E-009
2, 0.00000, -0.0970258, 3.57003E-009, -3.75848E-008, -3.57009E-009
2, 60.00000, -0.0881343, -6.15736E-007, -9.82747E-009, 1.47852E-008
2, 120.00000, -0.0881339, -1.87654E-008, -9.8174E-009, 1.48306E-008
2, 180.00000, -0.0881339, -1.48225E-008, -9.81763E-009, 1.48312E-008
2, 240.00000, -0.0881339, -1.48304E-008, -9.81764E-009, 1.48312E-008
2, 300.00000, -0.0881339, -1.48311E-008, -9.81764E-009, 1.48312E-008
2, 360.00000, -0.0881333, -5.60194E-007, 1.7037E-008, 3.40081E-009
2, 420.00000, -0.088134, -5.42419E-009, 1.70311E-008, 3.45938E-009
2, 480.00000, -0.088134, -3.41117E-009, 1.70306E-008, 3.45994E-009
2, 540.00000, -0.088134, -3.45864E-009, 1.70306E-008, 3.45994E-009
2, 600.00000, -0.088134, -3.45992E-009, 1.70306E-008, 3.45994E-009
2, 660.00000, -0.0881265, -3.23951E-007, -9.55126E-009, 1.49052E-008
2, 720.00000, -0.0881338, 3.18652E-008, -9.93761E-009, 1.52061E-008
2, 780.00000, -0.0881339, -1.4247E-008, -9.9438E-009, 1.52063E-008
2, 840.00000, -0.0881339, -1.51941E-008, -9.94386E-009, 1.52063E-008
2, 900.00000, -0.0881339, -1.52062E-008, -9.94386E-009, 1.52063E-008
2, 960.00000, -0.0881358, 4.47434E-007, 7.72736E-009, 1.73824E-008
2, 1020.00000, -0.088134, -2.24231E-008, 7.79112E-009, 1.72896E-008
2, 1080.00000, -0.088134, -1.74657E-008, 7.79244E-009, 1.7289E-008
2, 1140.00000, -0.088134, -1.72919E-008, 7.79246E-009, 1.7289E-008
2, 1200.00000, -0.088134, -1.72891E-008, 7.79246E-009, 1.7289E-008
2, 1260.00000, -0.0881314, 2.16326E-006, -1.25888E-008, -3.18629E-008
2, 1320.00000, -0.0881339, 7.45983E-008, -1.28513E-008, -3.18888E-008
2, 1380.00000, -0.0881339, 3.23879E-008, -1.28538E-008, -3.18909E-008
2, 1440.00000, -0.0881339, 3.18945E-008, -1.28539E-008, -3.1891E-008
2, 1500.00000, -0.0881339, 3.18909E-008, -1.28539E-008, -3.1891E-008
2, 1560.00000, -0.0881336, -8.28343E-007, 6.89072E-009, 1.74594E-008
2, 1620.00000, -0.0881339, -2.23356E-008, 6.8994E-009, 1.75292E-008
2, 1680.00000, -0.088134, -1.75031E-008, 6.89899E-009, 1.753E-008
2, 1740.00000, -0.088134, -1.75287E-008, 6.89898E-009, 1.753E-008
2, 1800.00000, -0.088134, -1.753E-008, 6.89898E-009, 1.753E-008
2, 1860.00000, -0.0881321, 2.25701E-006, 5.16915E-009, -2.9694E-008
2, 1920.00000, -0.088134, 4.36743E-008, 5.13799E-009, -2.98752E-008
2, 1980.00000, -0.088134, 2.9823E-008, 5.13897E-009, -2.98771E-008
2, 2040.00000, -0.088134, 2.9874E-008, 5.13899E-009, -2.98772E-008
2, 2100.00000, -0.088134, 2.98771E-008, 5.13899E-009, -2.98772E-008
2, 2160.00000, -0.088136, -2.54904E-006, 3.85522E-008, -2.63938E-008
2, 2220.00000, -0.088134, -4.91262E-012, 3.86764E-008, -2.62509E-008
2, 2280.00000, -0.088134, 2.60928E-008, 3.86767E-008, -2.62487E-008
2, 2340.00000, -0.088134, 2.62495E-008, 3.86767E-008, -2.62487E-008
2, 2400.00000, -0.088134, 2.62487E-008, 3.86767E-008, -2.62487E-008
2, 2460.00000, -0.0881342, -6.71617E-007, -1.0082E-008, 1.46399E-008
2, 2520.00000, -0.0881339, -2.19592E-008, -1.00483E-008, 1.46771E-008
2, 2580.00000, -0.0881339, -1.47232E-008, -1.00482E-008, 1.46777E-008
2, 2640.00000, -0.0881339, -1.46775E-008, -1.00482E-008, 1.46777E-008
2, 2700.00000, -0.0881339, -1.46777E-008, -1.00482E-008, 1.46777E-008
2, 2760.00000, -0.0881343, 6.30713E-007, -6.05788E-009, -1.59434E-008
2, 2820.00000, -0.088134, 2.04342E-008, -6.06988E-009, -1.59944E-008
2, 2880.00000, -0.088134, 1.59875E-008, -6.06964E-009, -1.5995E-008
2, 2940.00000, -0.088134, 1.59942E-008, -6.06964E-009, -1.5995E-008
2, 3000.00000, -0.088134, 1.5995E-008, -6.06964E-009, -1.5995E-008
2, 3060.00000, -0.0881315, 1.05001E-006, 2.45683E-008, 1.90434E-008
2, 3120.00000, -0.088134, 1.75852E-009, 2.44319E-008, 1.90478E-008
2, 3180.00000, -0.088134, -1.87869E-008, 2.44304E-008, 1.9047E-008
2, 3240.00000, -0.088134, -1.90449E-008, 2.44304E-008, 1.9047E-008
2, 3300.00000, -0.088134, -1.9047E-008, 2.44304E-008, 1.9047E-008
2, 3360.00000, -0.0881369, -1.14727E-006, 2.82364E-008, -1.18034E-008
2, 3420.00000, -0.088134, -1.23154E-008, 2.83945E-008, -1.18145E-008
2, 3480.00000, -0.088134, 1.15004E-008, 2.83962E-008, -1.18135E-008
2, 3540.00000, -0.088134, 1.18108E-008, 2.83962E-008, -1.18134E-008
3, 0.00000, -0.088134, 1.18134E-008, 2.83962E-008, -1.18134E-008
3, 60.00000, -0.0837315, -9.35652E-008, 6.48793E-009, 1.63849E-008
3, 120.00000, -0.0837316, -1.77747E-008, 6.49846E-009, 1.63828E-008
3, 180.00000, -0.0837316, -1.64003E-008, 6.49857E-009, 1.63829E-008
3, 240.00000, -0.0837316, -1.6383E-008, 6.49857E-009, 1.63829E-008
3, 300.00000, -0.0837316, -1.63829E-008, 6.49857E-009, 1.63829E-008
3, 360.00000, -0.0837323, -1.17741E-006, -1.6031E-008, -1.13144E-009
3, 420.00000, -0.0837316, -1.15037E-008, -1.596E-008, -1.07182E-009
3, 480.00000, -0.0837316, 9.92313E-010, -1.59598E-008, -1.0708E-009
3, 540.00000, -0.0837316, 1.07094E-009, -1.59598E-008, -1.07079E-009
3, 600.00000, -0.0837316, 1.0708E-009, -1.59598E-008, -1.07079E-009
3, 660.00000, -0.0837268, 1.07308E-006, 1.76512E-008, 2.62073E-009
3, 720.00000, -0.0837316, 3.24457E-008, 1.73545E-008, 2.77105E-009
3, 780.00000, -0.0837316, -2.22564E-009, 1.73507E-008, 2.77061E-009
3, 840.00000, -0.0837316, -2.76513E-009, 1.73507E-008, 2.77058E-009
3, 900.00000, -0.0837316, -2.77055E-009, 1.73507E-008, 2.77058E-009
3, 960.00000, -0.083732, 5.07939E-007, 2.64421E-010, 6.53296E-010
3, 1020.00000, -0.0837316, 1.63452E-009, 2.6201E-010, 6.05197E-010
3, 1080.00000, -0.0837316, -6.29139E-010, 2.62315E-010, 6.04743E-010
3, 1140.00000, -0.0837316, -6.05453E-010, 2.6232E-010, 6.04741E-010
3, 1200.00000, -0.0837316, -6.04751E-010, 2.6232E-010, 6.04741E-010
3, 1260.00000, -0.0837323, -9.74539E-007, -1.6156E-008, -1.84945E-009
3, 1320.00000, -0.0837316, -9.29645E-009, -1.60908E-008, -1.80586E-009
3, 1380.00000, -0.0837316, 1.72659E-009, -1.60905E-008, -1.80503E-009
3, 1440.00000, -0.0837316, 1.80499E-009, -1.60905E-008, -1.80502E-009
3, 1500.00000, -0.0837316, 1.80503E-009, -1.60905E-008, -1.80502E-009
3, 1560.00000, -0.0837244, 1.72309E-006, 1.27579E-009, 1.46449E-009
3, 1620.00000, -0.0837316, 3.39538E-008, 1.0048E-009, 1.53136E-009
3, 1680.00000, -0.0837316, -1.06561E-009, 1.00182E-009, 1.53035E-009
3, 1740.00000, -0.0837316, -1.52623E-009, 1.0018E-009, 1.53032E-009
3, 1800.00000, -0.0837316, -1.5303E-009, 1.0018E-009, 1.53032E-009
3, 1860.00000, -0.0837314, 8.22313E-007, 7.08972E-009, 1.53099E-008
3, 1920.00000, -0.0837316, -7.11445E-009, 7.04444E-009, 1.52618E-008
3, 1980.00000, -0.0837316, -1.52221E-008, 7.04436E-009, 1.52611E-008
3, 2040.00000, -0.0837316, -1.52614E-008, 7.04437E-009, 1.52611E-008
3, 2100.00000, -0.0837316, -1.52611E-008, 7.04437E-009, 1.52611E-008
3, 2160.00000, -0.0837304, 9.72704E-008, -1.23763E-008, -3.05898E-008
3, 2220.00000, -0.0837316, 3.61975E-008, -1.24257E-008, -3.05562E-008
3, 2280.00000, -0.0837316, 3.06519E-008, -1.24264E-008, -3.05562E-008
3, 2340.00000, -0.0837316, 3.05572E-008, -1.24264E-008, -3.05562E-008
3, 2400.00000, -0.0837316, 3.05562E-008, -1.24264E-008, -3.05562E-008
3, 2460.00000, -0.083734, -2.17973E-007, 4.95227E-008, 6.63162E-009
3, 2520.00000, -0.0837317, -1.84142E-008, 4.96256E-008, 6.57157E-009
3, 2580.00000, -0.0837317, -6.76061E-009, 4.96269E-008, 6.57166E-009
3, 2640.00000, -0.0837317, -6.57361E-009, 4.96269E-008, 6.57167E-009
3, 2700.00000, -0.0837317, -6.57168E-009, 4.96269E-008, 6.57167E-009
3, 2760.00000, -0.0837317, -1.35749E-006, -2.60367E-008, 1.23164E-008
3, 2820.00000, -0.0837316, -2.36945E-008, -2.59869E-008, 1.24081E-008
3, 2880.00000, -0.0837316, -1.24421E-008, -2.5987E-008, 1.24093E-008
3, 2940.00000, -0.0837316, -1.24085E-008, -2.5987E-008, 1.24093E-008
3, 3000.00000, -0.0837316, -1.24093E-008, -2.5987E-008, 1.24093E-008
3, 3060.00000, -0.0837294, 4.58738E-007, 3.53873E-009, -2.82214E-008
3, 3120.00000, -0.0837316, 4.2027E-008, 3.43055E-009, -2.81797E-008
3, 3180.00000, -0.0837316, 2.83748E-008, 3.42928E-009, -2.81801E-008
3, 3240.00000, -0.0837316, 2.81819E-008, 3.42927E-009, -2.81801E-008
3, 3300.00000, -0.0837316, 2.81801E-008, 3.42927E-009, -2.81801E-008
3, 3360.00000, -0.0837329, -7.76428E-007, -1.98821E-008, 2.77805E-008
3, 3420.00000, -0.0837316, -3.99209E-008, -1.98004E-008, 2.77891E-008
3, 3480.00000, -0.0837316, -2.79154E-008, -1.97997E-008, 2.77897E-008
3, 3540.00000, -0.0837316, -2.77905E-008, -1.97997E-008, 2.77898E-008
4, 0.00000, -0.0837316, -2.77898E-008, -1.97997E-008, 2.77898E-008
4, 60.00000, -0.0846763, 4.34266E-007, -1.59925E-008, -1.11312E-009
4, 120.00000, -0.0846758, 3.47687E-009, -1.59937E-008, -1.16665E-009
4, 180.00000, -0.0846758, 1.14089E-009, -1.59934E-008, -1.16715E-009
4, 240.00000, -0.0846758, 1.16637E-009, -1.59933E-008, -1.16715E-009
4, 300.00000, -0.0846758, 1.16714E-009, -1.59933E-008, -1.16715E-009
4, 360.00000, -0.084678, -2.17855E-007, 2.69988E-008, -1.04695E-008
4, 420.00000, -0.0846758, -1.04065E-009, 2.70979E-008, -1.0524E-008
4, 480.00000, -0.0846758, 1.03406E-008, 2.70991E-008, -1.05239E-008
4, 540.00000, -0.0846758, 1.0522E-008, 2.70991E-008, -1.05239E-008
4, 600.00000, -0.0846758, 1.05239E-008, 2.70991E-008, -1.05239E-008
4, 660.00000, -0.084675, -4.71048E-007, 7.79965E-009, 1.64112E-008
4, 720.00000, -0.0846758, -1.68908E-008, 7.78615E-009, 1.64679E-008
4, 780.00000, -0.0846758, -1.64151E-008, 7.78565E-009, 1.64683E-008
4, 840.00000, -0.0846758, -1.64673E-008, 7.78564E-009, 1.64683E-008
4, 900.00000, -0.0846758, -1.64683E-008, 7.78564E-009, 1.64683E-008
4, 960.00000, -0.0846767, -7.37978E-007, 1.00804E-009, 8.29586E-010
4, 1020.00000, -0.0846758, -2.46347E-009, 9.80248E-010, 9.27069E-010
4, 1080.00000, -0.0846758, -8.38959E-010, 9.79355E-010, 9.27857E-010
4, 1140.00000, -0.0846758, -9.26096E-010, 9.79342E-010, 9.27858E-010
4, 1200.00000, -0.0846758, -9.27837E-010, 9.79342E-010, 9.27858E-010
4, 1260.00000, -0.0846717, 3.70602E-006, 1.11734E-008, -1.27393E-008
4, 1320.00000, -0.0846758, 5.51806E-008, 1.0929E-008, -1.29055E-008
4, 1380.00000, -0.0846758, 1.32031E-008, 1.09278E-008, -1.29087E-008
4, 1440.00000, -0.0846758, 1.29088E-008, 1.09278E-008, -1.29087E-008
4, 1500.00000, -0.0846758, 1.29087E-008, 1.09278E-008, -1.29087E-008
4, 1560.00000, -0.0846757, -6.22249E-007, -1.62894E-008, -4.5294E-010
4, 1620.00000, -0.0846758, -4.51067E-009, -1.62682E-008, -4.08662E-010
4, 1680.00000, -0.0846758, 3.97375E-010, -1.62683E-008, -4.08114E-010
4, 1740.00000, -0.0846758, 4.0854E-010, -1.62683E-008, -4.0811E-010
4, 1800.00000, -0.0846758, 4.08119E-010, -1.62683E-008, -4.0811E-010
4, 1860.00000, -0.084675, 1.2528E-007, -6.03358E-009, -1.48713E-008
4, 1920.00000, -0.0846758, 1.97481E-008, -6.07293E-009, -1.48521E-008
4, 1980.00000, -0.0846759, -9.26205E-009, -6.05619E-009, -1.48517E-008
4, 2040.00000, -0.0846756, 3.93269E-008, -6.07522E-009, -1.48532E-008
4, 2100.00000, -0.0846759, -5.64533E-009, -6.05905E-009, -1.48518E-008
4, 2160.00000, -0.0846762, -5.94629E-008, 1.69239E-008, 2.92397E-009
4, 2220.00000, -0.0846761, -4.42492E-008, 1.69628E-008, 2.91422E-009
4, 2280.00000, -0.0846759, -1.55877E-008, 1.69676E-008, 2.91207E-009
4, 2340.00000, -0.0846758, -1.15195E-008, 1.69717E-008, 2.91103E-009
4, 2400.00000, -0.0846764, -9.90664E-008, 1.70259E-008, 2.90496E-009
4, 2460.00000, -0.0846762, 4.13958E-007, 2.10173E-008, -2.67416E-008
4, 2520.00000, -0.0846767, -1.04963E-007, 2.10926E-008, -2.67801E-008
4, 2580.00000, -0.0846758, 2.80241E-008, 2.10842E-008, -2.67842E-008
4, 2640.00000, -0.0846758, 2.67564E-008, 2.10842E-008, -2.67843E-008
4, 2700.00000, -0.0846758, 2.6771E-008, 2.10842E-008, -2.67843E-008
4, 2760.00000, -0.0846764, 7.6645E-007, 4.9106E-009, -2.91941E-008
4, 2820.00000, -0.0846763, -4.90352E-008, 4.95125E-009, -2.92653E-008
4, 2880.00000, -0.0846759, 9.42181E-009, 4.95788E-009, -2.92669E-008
4, 2940.00000, -0.0846761, -2.15335E-008, 4.98169E-009, -2.92666E-008
4, 3000.00000, -0.0846761, -2.11678E-008, 5.00396E-009, -2.92668E-008
4, 3060.00000, -0.0846768, -1.31732E-006, 6.71445E-009, 1.63206E-008
