hour, t(sec), kWh,State,kWOut,kWIn,kvarOut,DCkW,kWTotalLosses,kWInvLosses,kWIdlingLosses,kWChDchLosses,kWh Chng,InvEff,InverterON,Vref,Vavg (DRC),VV Oper,VW Oper,DRC Oper,VV_DRC Oper,kWDesired,kW VW Limit,Limit kWOut Function,kVA Exceeded,kVA Exceeded,,kVA
0, 60.00000, 1.65333, 1, 0.336988, 0, -2.1426E-005, 0.336988, 0.052824, 0, 0.0333333, 0.0194906, -5.01333, 1, 1, 9999, 9999, 9999, 9999, 9999, 9999, 9999, 9999, 0.336985, 9999, 1.66667, 0
0, 120.00000, 1.64684, 1, 0.336985, 0, -2.63526E-008, 0.336985, 0.0528238, 0, 0.0333333, 0.0194904, -0.00649687, 1, 1, 9999, 9999, 9999, 9999, 9999, 9999, 9999, 9999, 0.336985, 9999, 1.66667, 0
0, 180.00000, 1.64034, 1, 0.336985, 0, 3.7654E-010, 0.336985, 0.0528238, 0, 0.0333333, 0.0194904, -0.00649681, 1, 1, 9999, 9999, 9999, 9999, 9999, 9999, 9999, 9999, 0.336985, 9999, 1.66667, 0
0, 240.00000, 1.63384, 1, 0.336985, 0, 1.6721E-012, 0.336985, 0.0528238, 0, 0.0333333, 0.0194904, -0.00649681, 1, 1, 9999, 9999, 9999, 9999, 9999, 9999, 9999, 9999, 0.336985, 9999, 1.66667, 0
0, 300.00000, 1.62735, 1, 0.336985, 0, -5.55639E-014, 0.336985, 0.0528238, 0, 0.0333333, 0.0194904, -0.00649681, 1, 1, 9999, 9999, 9999, 9999, 9999, 9999, 9999, 9999, 0.336985, 9999, 1.66667, 0
0, 360.00000, 1.62085, 1, 0.336984, 0, -2.84978E-006, 0.336984, 0.0528237, 0, 0.0333333, 0.0194904, -0.00649681, 1, 1, 9999, 9999, 9999, 9999, 9999, 9999, 9999, 9999, 0.336985, 9999, 1.66667, 0
0, 420.00000, 1.61435, 1, 0.336985, 0, -9.4598E-009, 0.336985, 0.0528238, 0, 0.0333333, 0.0194904, -0.0064968, 1, 1, 9999, 9999, 9999, 9999, 9999, 9999, 9999, 9999, 0.336985, 9999, 1.66667, 0
0, 480.00000, 1.60786, 1, 0.336985, 0, 3.76261E-011, 0.336985, 0.0528238, 0, 0.0333333, 0.0194904, -0.00649681, 1, 1, 9999, 9999, 9999, 9999, 9999, 9999, 9999, 9999, 0.336985, 9999, 1.66667, 0
0, 540.00000, 1.60136, 1, 0.336985, 0, 9.95042E-013, 0.336985, 0.0528238, 0, 0.0333333, 0.0194904, -0.00649681, 1, 1, 9999, 9999, 9999, 9999, 9999, 9999, 9999, 9999, 0.336985, 9999, 1.66667, 0
0, 600.00000, 1.59486, 1, 0.336985, 0, 8.32994E-015, 0.336985, 0.0528238, 0, 0.0333333, 0.0194904, -0.00649681, 1, 1, 9999, 9999, 9999, 9999, 9999, 9999, 9999, 9999, 0.336985, 9999, 1.66667, 0
0, 660.00000, 1.58837, 1, 0.336957, 0, -1.46747E-005, 0.336957, 0.0528223, 0, 0.0333333, 0.019489, -0.00649681, 1, 1, 9999, 9999, 9999, 9999, 9999, 9999, 9999, 9999, 0.336985, 9999, 1.66667, 0
0, 720.00000, 1.58187, 1, 0.336985, 0, -2.49254E-007, 0.336985, 0.0528238, 0, 0.0333333, 0.0194904, -0.00649632, 1, 1, 9999, 9999, 9999, 9999, 9999, 9999, 9999, 9999, 0.336985, 9999, 1.66667, 0
0, 780.00000, 1.57537, 1, 0.336985, 0, -4.78641E-010, 0.336985, 0.0528238, 0, 0.0333333, 0.0194904, -0.00649681, 1, 1, 9999, 9999, 9999, 9999, 9999, 9999, 9999, 9999, 0.336985, 9999, 1.66667, 0
0, 840.00000, 1.56888, 1, 0.336985, 0, 7.77802E-012, 0.336985, 0.0528238, 0, 0.0333333, 0.0194904, -0.00649681, 1, 1, 9999, 9999, 9999, 9999, 9999, 9999, 9999, 9999, 0.336985, 9999, 1.66667, 0
0, 900.00000, 1.56238, 1, 0.336985, 0, 9.70444E-014, 0.336985, 0.0528238, 0, 0.0333333, 0.0194904, -0.00649681, 1, 1, 9999, 9999, 9999, 9999, 9999, 9999, 9999, 9999, 0.336985, 9999, 1.66667, 0
0, 960.00000, 1.55588, 1, 0.336984, 0, -6.53184E-008, 0.336984, 0.0528237, 0, 0.0333333, 0.0194904, -0.00649681, 1, 1, 9999, 9999, 9999, 9999, 9999, 9999, 9999, 9999, 0.336985, 9999, 1.66667, 0
0, 1020.00000, 1.54938, 1, 0.336985, 0, -3.1358E-009, 0.336985, 0.0528238, 0, 0.0333333, 0.0194904, -0.0064968, 1, 1, 9999, 9999, 9999, 9999, 9999, 9999, 9999, 9999, 0.336985, 9999, 1.66667, 0
0, 1080.00000, 1.54289, 1, 0.336985, 0, -7.01806E-011, 0.336985, 0.0528238, 0, 0.0333333, 0.0194904, -0.00649681, 1, 1, 9999, 9999, 9999, 9999, 9999, 9999, 9999, 9999, 0.336985, 9999, 1.66667, 0
0, 1140.00000, 1.53639, 1, 0.336985, 0, 1.76494E-013, 0.336985, 0.0528238, 0, 0.0333333, 0.0194904, -0.00649681, 1, 1, 9999, 9999, 9999, 9999, 9999, 9999, 9999, 9999, 0.336985, 9999, 1.66667, 0
0, 1200.00000, 1.52989, 1, 0.336985, 0, 2.01838E-014, 0.336985, 0.0528238, 0, 0.0333333, 0.0194904, -0.00649681, 1, 1, 9999, 9999, 9999, 9999, 9999, 9999, 9999, 9999, 0.336985, 9999, 1.66667, 0
0, 1260.00000, 1.5234, 1, 0.336983, 0, -1.37507E-006, 0.336983, 0.0528237, 0, 0.0333333, 0.0194903, -0.00649681, 1, 1, 9999, 9999, 9999, 9999, 9999, 9999, 9999, 9999, 0.336985, 9999, 1.66667, 0
0, 1320.00000, 1.5169, 1, 0.336985, 0, -1.85206E-008, 0.336985, 0.0528238, 0, 0.0333333, 0.0194904, -0.00649677, 1, 1, 9999, 9999, 9999, 9999, 9999, 9999, 9999, 9999, 0.336985, 9999, 1.66667, 0
0, 1380.00000, 1.5104, 1, 0.336985, 0, 1.00457E-010, 0.336985, 0.0528238, 0, 0.0333333, 0.0194904, -0.00649681, 1, 1, 9999, 9999, 9999, 9999, 9999, 9999, 9999, 9999, 0.336985, 9999, 1.66667, 0
0, 1440.00000, 1.50391, 1, 0.336985, 0, 9.65418E-013, 0.336985, 0.0528238, 0, 0.0333333, 0.0194904, -0.00649681, 1, 1, 9999, 9999, 9999, 9999, 9999, 9999, 9999, 9999, 0.336985, 9999, 1.66667, 0
0, 1500.00000, 1.49741, 1, 0.336985, 0, -2.50105E-014, 0.336985, 0.0528238, 0, 0.0333333, 0.0194904, -0.00649681, 1, 1, 9999, 9999, 9999, 9999, 9999, 9999, 9999, 9999, 0.336985, 9999, 1.66667, 0
0, 1560.00000, 1.49091, 1, 0.336983, 0, 1.17056E-006, 0.336983, 0.0528237, 0, 0.0333333, 0.0194904, -0.00649681, 1, 1, 9999, 9999, 9999, 9999, 9999, 9999, 9999, 9999, 0.336985, 9999, 1.66667, 0
0, 1620.00000, 1.48442, 1, 0.336985, 0, -4.3887E-009, 0.336985, 0.0528238, 0, 0.0333333, 0.0194904, -0.00649678, 1, 1, 9999, 9999, 9999, 9999, 9999, 9999, 9999, 9999, 0.336985, 9999, 1.66667, 0
0, 1680.00000, 1.47792, 1, 0.336985, 0, -4.04729E-011, 0.336985, 0.0528238, 0, 0.0333333, 0.0194904, -0.00649681, 1, 1, 9999, 9999, 9999, 9999, 9999, 9999, 9999, 9999, 0.336985, 9999, 1.66667, 0
0, 1740.00000, 1.47142, 1, 0.336985, 0, -1.05314E-012, 0.336985, 0.0528238, 0, 0.0333333, 0.0194904, -0.00649681, 1, 1, 9999, 9999, 9999, 9999, 9999, 9999, 9999, 9999, 0.336985, 9999, 1.66667, 0
0, 1800.00000, 1.46493, 1, 0.336985, 0, -3.06768E-015, 0.336985, 0.0528238, 0, 0.0333333, 0.0194904, -0.00649681, 1, 1, 9999, 9999, 9999, 9999, 9999, 9999, 9999, 9999, 0.336985, 9999, 1.66667, 0
0, 1860.00000, 1.45843, 1, 0.336967, 0, 2.99283E-005, 0.336967, 0.0528228, 0, 0.0333333, 0.0194895, -0.00649681, 1, 1, 9999, 9999, 9999, 9999, 9999, 9999, 9999, 9999, 0.336985, 9999, 1.66667, 0
0, 1920.00000, 1.45193, 1, 0.336985, 0, -5.42065E-008, 0.336985, 0.0528238, 0, 0.0333333, 0.0194904, -0.00649649, 1, 1, 9999, 9999, 9999, 9999, 9999, 9999, 9999, 9999, 0.336985, 9999, 1.66667, 0
0, 1980.00000, 1.44544, 1, 0.336985, 0, -7.76251E-010, 0.336985, 0.0528238, 0, 0.0333333, 0.0194904, -0.00649681, 1, 1, 9999, 9999, 9999, 9999, 9999, 9999, 9999, 9999, 0.336985, 9999, 1.66667, 0
0, 2040.00000, 1.43894, 1, 0.336985, 0, 2.41634E-012, 0.336985, 0.0528238, 0, 0.0333333, 0.0194904, -0.00649681, 1, 1, 9999, 9999, 9999, 9999, 9999, 9999, 9999, 9999, 0.336985, 9999, 1.66667, 0
0, 2100.00000, 1.43244, 1, 0.336985, 0, 1.59716E-014, 0.336985, 0.0528238, 0, 0.0333333, 0.0194904, -0.00649681, 1, 1, 9999, 9999, 9999, 9999, 9999, 9999, 9999, 9999, 0.336985, 9999, 1.66667, 0
0, 2160.00000, 1.42595, 1, 0.336971, 0, -3.22072E-006, 0.336971, 0.052823, 0, 0.0333333, 0.0194897, -0.00649681, 1, 1, 9999, 9999, 9999, 9999, 9999, 9999, 9999, 9999, 0.336985, 9999, 1.66667, 0
0, 2220.00000, 1.41945, 1, 0.336985, 0, -1.19054E-007, 0.336985, 0.0528238, 0, 0.0333333, 0.0194904, -0.00649657, 1, 1, 9999, 9999, 9999, 9999, 9999, 9999, 9999, 9999, 0.336985, 9999, 1.66667, 0
0, 2280.00000, 1.41295, 1, 0.336985, 0, -3.29201E-010, 0.336985, 0.0528238, 0, 0.0333333, 0.0194904, -0.00649681, 1, 1, 9999, 9999, 9999, 9999, 9999, 9999, 9999, 9999, 0.336985, 9999, 1.66667, 0
0, 2340.00000, 1.40646, 1, 0.336985, 0, 1.05233E-012, 0.336985, 0.0528238, 0, 0.0333333, 0.0194904, -0.00649681, 1, 1, 9999, 9999, 9999, 9999, 9999, 9999, 9999, 9999, 0.336985, 9999, 1.66667, 0
0, 2400.00000, 1.39996, 1, 0.336985, 0, -1.07025E-014, 0.336985, 0.0528238, 0, 0.0333333, 0.0194904, -0.00649681, 1, 1, 9999, 9999, 9999, 9999, 9999, 9999, 9999, 9999, 0.336985, 9999, 1.66667, 0
0, 2460.00000, 1.39346, 1, 0.336987, 0, -1.72882E-007, 0.336987, 0.0528239, 0, 0.0333333, 0.0194906, -0.00649681, 1, 1, 9999, 9999, 9999, 9999, 9999, 9999, 9999, 9999, 0.336985, 9999, 1.66667, 0
0, 2520.00000, 1.38697, 1, 0.336985, 0, 1.72714E-008, 0.336985, 0.0528238, 0, 0.0333333, 0.0194904, -0.00649685, 1, 1, 9999, 9999, 9999, 9999, 9999, 9999, 9999, 9999, 0.336985, 9999, 1.66667, 0
0, 2580.00000, 1.38047, 1, 0.336985, 0, -1.63406E-011, 0.336985, 0.0528238, 0, 0.0333333, 0.0194904, -0.00649681, 1, 1, 9999, 9999, 9999, 9999, 9999, 9999, 9999, 9999, 0.336985, 9999, 1.66667, 0
0, 2640.00000, 1.37397, 1, 0.336985, 0, 1.16707E-013, 0.336985, 0.0528238, 0, 0.0333333, 0.0194904, -0.00649681, 1, 1, 9999, 9999, 9999, 9999, 9999, 9999, 9999, 9999, 0.336985, 9999, 1.66667, 0
0, 2700.00000, 1.36747, 1, 0.336985, 0, 1.59783E-014, 0.336985, 0.0528238, 0, 0.0333333, 0.0194904, -0.00649681, 1, 1, 9999, 9999, 9999, 9999, 9999, 9999, 9999, 9999, 0.336985, 9999, 1.66667, 0
0, 2760.00000, 1.36098, 1, 0.336985, 0, -1.886E-006, 0.336985, 0.0528238, 0, 0.0333333, 0.0194905, -0.00649681, 1, 1, 9999, 9999, 9999, 9999, 9999, 9999, 9999, 9999, 0.336985, 9999, 1.66667, 0
0, 2820.00000, 1.35448, 1, 0.336985, 0, 3.72999E-011, 0.336985, 0.0528238, 0, 0.0333333, 0.0194904, -0.00649682, 1, 1, 9999, 9999, 9999, 9999, 9999, 9999, 9999, 9999, 0.336985, 9999, 1.66667, 0
0, 2880.00000, 1.34798, 1, 0.336985, 0, 9.31395E-011, 0.336985, 0.0528238, 0, 0.0333333, 0.0194904, -0.00649681, 1, 1, 9999, 9999, 9999, 9999, 9999, 9999, 9999, 9999, 0.336985, 9999, 1.66667, 0
0, 2940.00000, 1.34149, 1, 0.336985, 0, 4.96634E-013, 0.336985, 0.0528238, 0, 0.0333333, 0.0194904, -0.00649681, 1, 1, 9999, 9999, 9999, 9999, 9999, 9999, 9999, 9999, 0.336985, 9999, 1.66667, 0
0, 3000.00000, 1.33499, 1, 0.336985, 0, -1.10758E-014, 0.336985, 0.0528238, 0, 0.0333333, 0.0194904, -0.00649681, 1, 1, 9999, 9999, 9999, 9999, 9999, 9999, 9999, 9999, 0.336985, 9999, 1.66667, 0
0, 3060.00000, 1.32849, 1, 0.336983, 0, 4.33413E-006, 0.336983, 0.0528236, 0, 0.0333333, 0.0194903, -0.00649681, 1, 1, 9999, 9999, 9999, 9999, 9999, 9999, 9999, 9999, 0.336985, 9999, 1.66667, 0
0, 3120.00000, 1.322, 1, 0.336985, 0, -5.3768E-009, 0.336985, 0.0528238, 0, 0.0333333, 0.0194904, -0.00649677, 1, 1, 9999, 9999, 9999, 9999, 9999, 9999, 9999, 9999, 0.336985, 9999, 1.66667, 0
0, 3180.00000, 1.3155, 1, 0.336985, 0, -1.03556E-010, 0.336985, 0.0528238, 0, 0.0333333, 0.0194904, -0.00649681, 1, 1, 9999, 9999, 9999, 9999, 9999, 9999, 9999, 9999, 0.336985, 9999, 1.66667, 0
0, 3240.00000, 1.309, 1, 0.336985, 0, -1.32047E-012, 0.336985, 0.0528238, 0, 0.0333333, 0.0194904, -0.00649681, 1, 1, 9999, 9999, 9999, 9999, 9999, 9999, 9999, 9999, 0.336985, 9999, 1.66667, 0
0, 3300.00000, 1.30251, 1, 0.336985, 0, -1.1317E-014, 0.336985, 0.0528238, 0, 0.0333333, 0.0194904, -0.00649681, 1, 1, 9999, 9999, 9999, 9999, 9999, 9999, 9999, 9999, 0.336985, 9999, 1.66667, 0
0, 3360.00000, 1.29601, 1, 0.336982, 0, 7.07514E-007, 0.336982, 0.0528236, 0, 0.0333333, 0.0194903, -0.00649681, 1, 1, 9999, 9999, 9999, 9999, 9999, 9999, 9999, 9999, 0.336985, 9999, 1.66667, 0
0, 3420.00000, 1.28951, 1, 0.336985, 0, -2.40395E-008, 0.336985, 0.0528238, 0, 0.0333333, 0.0194904, -0.00649675, 1, 1, 9999, 9999, 9999, 9999, 9999, 9999, 9999, 9999, 0.336985, 9999, 1.66667, 0
0, 3480.00000, 1.28302, 1, 0.336985, 0, -9.03256E-011, 0.336985, 0.0528238, 0, 0.0333333, 0.0194904, -0.00649681, 1, 1, 9999, 9999, 9999, 9999, 9999, 9999, 9999, 9999, 0.336985, 9999, 1.66667, 0
0, 3540.00000, 1.27652, 1, 0.336985, 0, 1.62297E-012, 0.336985, 0.0528238, 0, 0.0333333, 0.0194904, -0.00649681, 1, 1, 9999, 9999, 9999, 9999, 9999, 9999, 9999, 9999, 0.336985, 9999, 1.66667, 0
1, 0.00000, 1.27002, 1, 0.336985, 0, 1.52921E-014, 0.336985, 0.0528238, 0, 0.0333333, 0.0194904, -0.00649681, 1, 1, 9999, 9999, 9999, 9999, 9999, 9999, 9999, 9999, 0.336985, 9999, 1.66667, 0
1, 60.00000, 1.26353, 1, 0.297564, 0, -1.72051E-006, 0.297564, 0.050749, 0, 0.0333333, 0.0174156, -0.00649681, 1, 1, 9999, 9999, 9999, 9999, 9999, 9999, 9999, 9999, 0.297564, 9999, 1.66667, 0
1, 120.00000, 1.25772, 1, 0.297564, 0, -8.98814E-009, 0.297564, 0.050749, 0, 0.0333333, 0.0174157, -0.00580521, 1, 1, 9999, 9999, 9999, 9999, 9999, 9999, 9999, 9999, 0.297564, 9999, 1.66667, 0
1, 180.00000, 1.25192, 1, 0.297564, 0, -4.12815E-011, 0.297564, 0.050749, 0, 0.0333333, 0.0174157, -0.00580522, 1, 1, 9999, 9999, 9999, 9999, 9999, 9999, 9999, 9999, 0.297564, 9999, 1.66667, 0
1, 240.00000, 1.24611, 1, 0.297564, 0, -1.52598E-013, 0.297564, 0.050749, 0, 0.0333333, 0.0174157, -0.00580522, 1, 1, 9999, 9999, 9999, 9999, 9999, 9999, 9999, 9999, 0.297564, 9999, 1.66667, 0
1, 300.00000, 1.24031, 1, 0.297564, 0, -2.63721E-016, 0.297564, 0.050749, 0, 0.0333333, 0.0174157, -0.00580522, 1, 1, 9999, 9999, 9999, 9999, 9999, 9999, 9999, 9999, 0.297564, 9999, 1.66667, 0
1, 360.00000, 1.2345, 1, 0.297562, 0, 8.238E-007, 0.297562, 0.0507489, 0, 0.0333333, 0.0174155, -0.00580522, 1, 1, 9999, 9999, 9999, 9999, 9999, 9999, 9999, 9999, 0.297564, 9999, 1.66667, 0
1, 420.00000, 1.22869, 1, 0.297564, 0, 9.02998E-010, 0.297564, 0.050749, 0, 0.0333333, 0.0174157, -0.00580517, 1, 1, 9999, 9999, 9999, 9999, 9999, 9999, 9999, 9999, 0.297564, 9999, 1.66667, 0
1, 480.00000, 1.22289, 1, 0.297564, 0, -1.33638E-011, 0.297564, 0.050749, 0, 0.0333333, 0.0174157, -0.00580522, 1, 1, 9999, 9999, 9999, 9999, 9999, 9999, 9999, 9999, 0.297564, 9999, 1.66667, 0
1, 540.00000, 1.21708, 1, 0.297564, 0, -1.51633E-013, 0.297564, 0.050749, 0, 0.0333333, 0.0174157, -0.00580522, 1, 1, 9999, 9999, 9999, 9999, 9999, 9999, 9999, 9999, 0.297564, 9999, 1.66667, 0
1, 600.00000, 1.21128, 1, 0.297564, 0, -1.13718E-015, 0.297564, 0.050749, 0, 0.0333333, 0.0174157, -0.00580522, 1, 1, 9999, 9999, 9999, 9999, 9999, 9999, 9999, 9999, 0.297564, 9999, 1.66667, 0
1, 660.00000, 1.20547, 1, 0.297574, 0, -4.85857E-006, 0.297574, 0.0507495, 0, 0.0333333, 0.0174162, -0.00580522, 1, 1, 9999, 9999, 9999, 9999, 9999, 9999, 9999, 9999, 0.297564, 9999, 1.66667, 0
1, 720.00000, 1.19967, 1, 0.297564, 0, -1.57413E-008, 0.297564, 0.050749, 0, 0.0333333, 0.0174157, -0.00580539, 1, 1, 9999, 9999, 9999, 9999, 9999, 9999, 9999, 9999, 0.297564, 9999, 1.66667, 0
1, 780.00000, 1.19386, 1, 0.297564, 0, 1.90737E-011, 0.297564, 0.050749, 0, 0.0333333, 0.0174157, -0.00580522, 1, 1, 9999, 9999, 9999, 9999, 9999, 9999, 9999, 9999, 0.297564, 9999, 1.66667, 0
1, 840.00000, 1.18806, 1, 0.297564, 0, 6.44916E-013, 0.297564, 0.050749, 0, 0.0333333, 0.0174157, -0.00580522, 1, 1, 9999, 9999, 9999, 9999, 9999, 9999, 9999, 9999, 0.297564, 9999, 1.66667, 0
1, 900.00000, 1.18225, 1, 0.297564, 0, 5.66989E-015, 0.297564, 0.050749, 0, 0.0333333, 0.0174157, -0.00580522, 1, 1, 9999, 9999, 9999, 9999, 9999, 9999, 9999, 9999, 0.297564, 9999, 1.66667, 0
1, 960.00000, 1.17645, 1, 0.29756, 0, -4.89721E-007, 0.29756, 0.0507488, 0, 0.0333333, 0.0174154, -0.00580522, 1, 1, 9999, 9999, 9999, 9999, 9999, 9999, 9999, 9999, 0.297564, 9999, 1.66667, 0
1, 1020.00000, 1.17064, 1, 0.297564, 0, -6.76873E-009, 0.297564, 0.050749, 0, 0.0333333, 0.0174157, -0.00580515, 1, 1, 9999, 9999, 9999, 9999, 9999, 9999, 9999, 9999, 0.297564, 9999, 1.66667, 0
1, 1080.00000, 1.16484, 1, 0.297564, 0, -5.54973E-011, 0.297564, 0.050749, 0, 0.0333333, 0.0174157, -0.00580522, 1, 1, 9999, 9999, 9999, 9999, 9999, 9999, 9999, 9999, 0.297564, 9999, 1.66667, 0
1, 1140.00000, 1.15903, 1, 0.297564, 0, -3.63321E-013, 0.297564, 0.050749, 0, 0.0333333, 0.0174157, -0.00580522, 1, 1, 9999, 9999, 9999, 9999, 9999, 9999, 9999, 9999, 0.297564, 9999, 1.66667, 0
1, 1200.00000, 1.15323, 1, 0.297564, 0, -1.88751E-015, 0.297564, 0.050749, 0, 0.0333333, 0.0174157, -0.00580522, 1, 1, 9999, 9999, 9999, 9999, 9999, 9999, 9999, 9999, 0.297564, 9999, 1.66667, 0
1, 1260.00000, 1.14742, 1, 0.297568, 0, -4.8239E-007, 0.297568, 0.0507492, 0, 0.0333333, 0.0174159, -0.00580522, 1, 1, 9999, 9999, 9999, 9999, 9999, 9999, 9999, 9999, 0.297564, 9999, 1.66667, 0
1, 1320.00000, 1.14162, 1, 0.297564, 0, 1.37015E-009, 0.297564, 0.050749, 0, 0.0333333, 0.0174157, -0.00580528, 1, 1, 9999, 9999, 9999, 9999, 9999, 9999, 9999, 9999, 0.297564, 9999, 1.66667, 0
1, 1380.00000, 1.13581, 1, 0.297564, 0, 2.5722E-011, 0.297564, 0.050749, 0, 0.0333333, 0.0174157, -0.00580522, 1, 1, 9999, 9999, 9999, 9999, 9999, 9999, 9999, 9999, 0.297564, 9999, 1.66667, 0
1, 1440.00000, 1.13001, 1, 0.297564, 0, 2.06834E-013, 0.297564, 0.050749, 0, 0.0333333, 0.0174157, -0.00580522, 1, 1, 9999, 9999, 9999, 9999, 9999, 9999, 9999, 9999, 0.297564, 9999, 1.66667, 0
1, 1500.00000, 1.1242, 1, 0.297564, 0, 1.25234E-015, 0.297564, 0.050749, 0, 0.0333333, 0.0174157, -0.00580522, 1, 1, 9999, 9999, 9999, 9999, 9999, 9999, 9999, 9999, 0.297564, 9999, 1.66667, 0
1, 1560.00000, 1.1184, 1, 0.297562, 0, -7.59335E-007, 0.297562, 0.0507489, 0, 0.0333333, 0.0174156, -0.00580522, 1, 1, 9999, 9999, 9999, 9999, 9999, 9999, 9999, 9999, 0.297564, 9999, 1.66667, 0
1, 1620.00000, 1.11259, 1, 0.297564, 0, -5.38033E-009, 0.297564, 0.050749, 0, 0.0333333, 0.0174157, -0.00580518, 1, 1, 9999, 9999, 9999, 9999, 9999, 9999, 9999, 9999, 0.297564, 9999, 1.66667, 0
1, 1680.00000, 1.10678, 1, 0.297564, 0, -3.15145E-011, 0.297564, 0.050749, 0, 0.0333333, 0.0174157, -0.00580522, 1, 1, 9999, 9999, 9999, 9999, 9999, 9999, 9999, 9999, 0.297564, 9999, 1.66667, 0
1, 1740.00000, 1.10098, 1, 0.297564, 0, -1.57761E-013, 0.297564, 0.050749, 0, 0.0333333, 0.0174157, -0.00580522, 1, 1, 9999, 9999, 9999, 9999, 9999, 9999, 9999, 9999, 0.297564, 9999, 1.66667, 0
1, 1800.00000, 1.09517, 1, 0.297564, 0, -6.60806E-016, 0.297564, 0.050749, 0, 0.0333333, 0.0174157, -0.00580522, 1, 1, 9999, 9999, 9999, 9999, 9999, 9999, 9999, 9999, 0.297564, 9999, 1.66667, 0
1, 1860.00000, 1.08937, 1, 0.297562, 0, 6.44894E-007, 0.297562, 0.0507489, 0, 0.0333333, 0.0174155, -0.00580522, 1, 1, 9999, 9999, 9999, 9999, 9999, 9999, 9999, 9999, 0.297564, 9999, 1.66667, 0
1, 1920.00000, 1.08356, 1, 0.297564, 0, 5.85305E-010, 0.297564, 0.050749, 0, 0.0333333, 0.0174157, -0.00580518, 1, 1, 9999, 9999, 9999, 9999, 9999, 9999, 9999, 9999, 0.297564, 9999, 1.66667, 0
1, 1980.00000, 1.07776, 1, 0.297564, 0, -1.26916E-011, 0.297564, 0.050749, 0, 0.0333333, 0.0174157, -0.00580522, 1, 1, 9999, 9999, 9999, 9999, 9999, 9999, 9999, 9999, 0.297564, 9999, 1.66667, 0
1, 2040.00000, 1.07195, 1, 0.297564, 0, -1.40504E-013, 0.297564, 0.050749, 0, 0.0333333, 0.0174157, -0.00580522, 1, 1, 9999, 9999, 9999, 9999, 9999, 9999, 9999, 9999, 0.297564, 9999, 1.66667, 0
1, 2100.00000, 1.06615, 1, 0.297564, 0, -1.00864E-015, 0.297564, 0.050749, 0, 0.0333333, 0.0174157, -0.00580522, 1, 1, 9999, 9999, 9999, 9999, 9999, 9999, 9999, 9999, 0.297564, 9999, 1.66667, 0
1, 2160.00000, 1.06034, 1, 0.297566, 0, -4.79272E-007, 0.297566, 0.0507491, 0, 0.0333333, 0.0174157, -0.00580522, 1, 1, 9999, 9999, 9999, 9999, 9999, 9999, 9999, 9999, 0.297564, 9999, 1.66667, 0
1, 2220.00000, 1.05454, 1, 0.297564, 0, -5.57445E-010, 0.297564, 0.050749, 0, 0.0333333, 0.0174157, -0.00580525, 1, 1, 9999, 9999, 9999, 9999, 9999, 9999, 9999, 9999, 0.297564, 9999, 1.66667, 0
1, 2280.00000, 1.04873, 1, 0.297564, 0, 9.64524E-012, 0.297564, 0.050749, 0, 0.0333333, 0.0174157, -0.00580522, 1, 1, 9999, 9999, 9999, 9999, 9999, 9999, 9999, 9999, 0.297564, 9999, 1.66667, 0
1, 2340.00000, 1.04293, 1, 0.297564, 0, 1.12661E-013, 0.297564, 0.050749, 0, 0.0333333, 0.0174157, -0.00580522, 1, 1, 9999, 9999, 9999, 9999, 9999, 9999, 9999, 9999, 0.297564, 9999, 1.66667, 0
1, 2400.00000, 1.03712, 1, 0.297564, 0, 9.3384E-016, 0.297564, 0.050749, 0, 0.0333333, 0.0174157, -0.00580522, 1, 1, 9999, 9999, 9999, 9999, 9999, 9999, 9999, 9999, 0.297564, 9999, 1.66667, 0
1, 2460.00000, 1.03132, 1, 0.297583, 0, -7.27244E-006, 0.297583, 0.05075, 0, 0.0333333, 0.0174166, -0.00580522, 1, 1, 9999, 9999, 9999, 9999, 9999, 9999, 9999, 9999, 0.297564, 9999, 1.66667, 0
1, 2520.00000, 1.02551, 1, 0.297564, 0, -1.83493E-008, 0.297564, 0.050749, 0, 0.0333333, 0.0174157, -0.00580555, 1, 1, 9999, 9999, 9999, 9999, 9999, 9999, 9999, 9999, 0.297564, 9999, 1.66667, 0
