hour, t(sec), P1 (kW), Q1 (kvar), P2 (kW), Q2 (kvar)
0, 60.00000, -0.23761, 1.46769E-005, -6.86071E-008, 2.33662E-007
0, 120.00000, -0.237626, 6.2203E-008, -6.93074E-008, 2.34447E-007
0, 180.00000, -0.237626, -2.30969E-007, -6.93219E-008, 2.34438E-007
0, 240.00000, -0.237626, -2.34494E-007, -6.93218E-008, 2.34438E-007
0, 300.00000, -0.237626, -2.34439E-007, -6.93218E-008, 2.34438E-007
0, 360.00000, -0.237629, -3.52056E-006, -3.23768E-008, 3.63273E-007
0, 420.00000, -0.237626, -4.27166E-007, -3.21309E-008, 3.6336E-007
0, 480.00000, -0.237626, -3.62727E-007, -3.21319E-008, 3.63364E-007
0, 540.00000, -0.237626, -3.63345E-007, -3.2132E-008, 3.63364E-007
0, 600.00000, -0.237626, -3.63364E-007, -3.2132E-008, 3.63364E-007
0, 660.00000, -0.237647, -3.43771E-006, 3.17867E-007, 3.42941E-007
0, 720.00000, -0.237626, -7.97045E-007, 3.19314E-007, 3.42654E-007
0, 780.00000, -0.237627, -3.43395E-007, 3.19324E-007, 3.42676E-007
0, 840.00000, -0.237627, -3.42558E-007, 3.19323E-007, 3.42676E-007
0, 900.00000, -0.237627, -3.42676E-007, 3.19323E-007, 3.42676E-007
0, 960.00000, -0.237632, 5.69626E-007, 2.27028E-007, 4.35753E-007
0, 1020.00000, -0.237626, -5.4204E-007, 2.27335E-007, 4.35583E-007
0, 1080.00000, -0.237626, -4.36197E-007, 2.27339E-007, 4.35588E-007
0, 1140.00000, -0.237626, -4.35562E-007, 2.27339E-007, 4.35588E-007
0, 1200.00000, -0.237626, -4.35588E-007, 2.27339E-007, 4.35588E-007
0, 1260.00000, -0.237619, -4.84913E-006, 1.3435E-007, 5.29678E-007
0, 1320.00000, -0.237626, -3.98129E-007, 1.34017E-007, 5.30055E-007
0, 1380.00000, -0.237626, -5.28427E-007, 1.3401E-007, 5.3005E-007
0, 1440.00000, -0.237626, -5.3008E-007, 1.3401E-007, 5.3005E-007
0, 1500.00000, -0.237626, -5.30051E-007, 1.3401E-007, 5.3005E-007
0, 1560.00000, -0.237624, 6.11168E-006, -2.59699E-007, -6.40667E-008
0, 1620.00000, -0.237626, 1.18815E-007, -2.59953E-007, -6.43301E-008
0, 1680.00000, -0.237626, 6.28585E-008, -2.59949E-007, -6.43348E-008
0, 1740.00000, -0.237626, 6.43163E-008, -2.59949E-007, -6.43348E-008
0, 1800.00000, -0.237626, 6.43351E-008, -2.59949E-007, -6.43348E-008
0, 1860.00000, -0.237628, -1.83234E-005, 1.27097E-007, 4.15377E-008
0, 1920.00000, -0.237626, -6.5845E-008, 1.27359E-007, 4.23201E-008
0, 1980.00000, -0.237626, -3.82555E-008, 1.27346E-007, 4.23253E-008
0, 2040.00000, -0.237626, -4.23094E-008, 1.27346E-007, 4.23251E-008
0, 2100.00000, -0.237626, -4.23262E-008, 1.27346E-007, 4.23251E-008
0, 2160.00000, -0.237617, 6.64617E-006, -3.24821E-009, 5.06389E-009
0, 2220.00000, -0.237626, 1.68E-007, -3.84528E-009, 5.02283E-009
0, 2280.00000, -0.237626, -5.91723E-009, -3.84485E-009, 5.01307E-009
0, 2340.00000, -0.237626, -5.05982E-009, -3.84469E-009, 5.01306E-009
0, 2400.00000, -0.237626, -5.01296E-009, -3.84469E-009, 5.01306E-009
0, 2460.00000, -0.237631, -1.98211E-006, 2.89646E-008, 1.37832E-007
0, 2520.00000, -0.237626, -2.46512E-007, 2.93214E-008, 1.37807E-007
0, 2580.00000, -0.237626, -1.37667E-007, 2.93225E-008, 1.37813E-007
0, 2640.00000, -0.237626, -1.37784E-007, 2.93224E-008, 1.37813E-007
0, 2700.00000, -0.237626, -1.37813E-007, 2.93224E-008, 1.37813E-007
0, 2760.00000, -0.237624, -3.49305E-006, 2.96604E-008, 1.37438E-007
0, 2820.00000, -0.237626, -9.75634E-008, 2.95802E-008, 1.37636E-007
0, 2880.00000, -0.237626, -1.36726E-007, 2.95768E-008, 1.37635E-007
0, 2940.00000, -0.237626, -1.37643E-007, 2.95769E-008, 1.37635E-007
0, 3000.00000, -0.237626, -1.37635E-007, 2.95769E-008, 1.37635E-007
0, 3060.00000, -0.237621, 7.04987E-006, -3.93345E-008, -1.23963E-007
0, 3120.00000, -0.237626, 2.36785E-007, -3.97587E-008, -1.24168E-007
0, 3180.00000, -0.237626, 1.22863E-007, -3.9756E-008, -1.24176E-007
0, 3240.00000, -0.237626, 1.24143E-007, -3.97559E-008, -1.24176E-007
0, 3300.00000, -0.237626, 1.24176E-007, -3.97559E-008, -1.24176E-007
0, 3360.00000, -0.23763, -6.16895E-006, -1.61515E-007, 3.28503E-007
0, 3420.00000, -0.237626, -4.2465E-007, -1.61132E-007, 3.28676E-007
0, 3480.00000, -0.237626, -3.27509E-007, -1.61135E-007, 3.28683E-007
0, 3540.00000, -0.237626, -3.28654E-007, -1.61135E-007, 3.28683E-007
1, 0.00000, -0.237626, -3.28683E-007, -1.61135E-007, 3.28683E-007
1, 60.00000, 0.0019031, -4.61866E-009, -1.95062E-009, -5.95008E-010
1, 120.00000, 0.0019031, 5.93821E-010, -1.95098E-009, -5.95234E-010
1, 180.00000, 0.0019031, 5.95271E-010, -1.95098E-009, -5.95234E-010
1, 240.00000, 0.0019031, 5.95234E-010, -1.95098E-009, -5.95234E-010
1, 300.00000, 0.0019031, 5.95234E-010, -1.95098E-009, -5.95234E-010
1, 360.00000, 0.0019031, 7.70141E-009, 1.93511E-009, -5.244E-010
1, 420.00000, 0.00190309, 5.24904E-010, 1.9355E-009, -5.2402E-010
1, 480.00000, 0.00190309, 5.23984E-010, 1.9355E-009, -5.2402E-010
1, 540.00000, 0.00190309, 5.2402E-010, 1.9355E-009, -5.2402E-010
1, 600.00000, 0.00190309, 5.2402E-010, 1.9355E-009, -5.2402E-010
1, 660.00000, 0.00190307, 3.91529E-008, 3.83805E-010, 1.00917E-009
1, 720.00000, 0.0019031, -7.10978E-010, 3.85841E-010, 1.0121E-009
1, 780.00000, 0.0019031, -1.01215E-009, 3.85841E-010, 1.01213E-009
1, 840.00000, 0.0019031, -1.01213E-009, 3.85841E-010, 1.01213E-009
1, 900.00000, 0.0019031, -1.01213E-009, 3.85841E-010, 1.01213E-009
1, 960.00000, 0.0019031, 2.22518E-009, 2.14639E-009, -3.36769E-009
1, 1020.00000, 0.00190309, 3.37931E-009, 2.14674E-009, -3.36789E-009
1, 1080.00000, 0.00190309, 3.36791E-009, 2.14674E-009, -3.36789E-009
1, 1140.00000, 0.00190309, 3.36789E-009, 2.14674E-009, -3.36789E-009
1, 1200.00000, 0.00190309, 3.36789E-009, 2.14674E-009, -3.36789E-009
1, 1260.00000, 0.00190309, 4.60891E-009, 8.72139E-010, -7.95705E-010
1, 1320.00000, 0.0019031, 7.92715E-010, 8.72167E-010, -7.9542E-010
1, 1380.00000, 0.0019031, 7.95386E-010, 8.72166E-010, -7.9542E-010
1, 1440.00000, 0.0019031, 7.9542E-010, 8.72166E-010, -7.9542E-010
1, 1500.00000, 0.0019031, 7.9542E-010, 8.72166E-010, -7.9542E-010
1, 1560.00000, 0.00190309, -3.47725E-009, -3.56051E-010, 1.77455E-009
1, 1620.00000, 0.0019031, -1.78107E-009, -3.56319E-010, 1.77457E-009
1, 1680.00000, 0.0019031, -1.77456E-009, -3.56319E-010, 1.77457E-009
1, 1740.00000, 0.0019031, -1.77457E-009, -3.56319E-010, 1.77457E-009
1, 1800.00000, 0.0019031, -1.77457E-009, -3.56319E-010, 1.77457E-009
1, 1860.00000, 0.0019031, 1.85702E-009, -9.02375E-010, -3.24809E-010
1, 1920.00000, 0.0019031, 3.31388E-010, -9.02202E-010, -3.24832E-010
1, 1980.00000, 0.0019031, 3.24829E-010, -9.02202E-010, -3.24832E-010
1, 2040.00000, 0.0019031, 3.24832E-010, -9.02202E-010, -3.24832E-010
1, 2100.00000, 0.0019031, 3.24832E-010, -9.02202E-010, -3.24832E-010
1, 2160.00000, 0.0019031, 5.08634E-010, 2.20677E-009, 5.2458E-010
1, 2220.00000, 0.00190309, -5.19432E-010, 2.20696E-009, 5.24602E-010
1, 2280.00000, 0.00190309, -5.2461E-010, 2.20696E-009, 5.24602E-010
1, 2340.00000, 0.00190309, -5.24602E-010, 2.20696E-009, 5.24602E-010
1, 2400.00000, 0.00190309, -5.24602E-010, 2.20696E-009, 5.24602E-010
1, 2460.00000, 0.00190317, -3.19945E-008, -6.56595E-010, -3.17986E-009
1, 2520.00000, 0.0019031, 3.23916E-009, -6.53501E-010, -3.18503E-009
1, 2580.00000, 0.0019031, 3.18504E-009, -6.53495E-010, -3.18503E-009
1, 2640.00000, 0.0019031, 3.18503E-009, -6.53495E-010, -3.18503E-009
1, 2700.00000, 0.0019031, 3.18503E-009, -6.53495E-010, -3.18503E-009
1, 2760.00000, 0.00190303, 2.88987E-008, 1.19332E-009, 2.32451E-010
1, 2820.00000, 0.0019031, -1.5357E-010, 1.19176E-009, 2.36503E-010
1, 2880.00000, 0.0019031, -2.36334E-010, 1.19176E-009, 2.36509E-010
1, 2940.00000, 0.0019031, -2.3651E-010, 1.19176E-009, 2.36509E-010
1, 3000.00000, 0.0019031, -2.36509E-010, 1.19176E-009, 2.36509E-010
1, 3060.00000, 0.00190309, 5.1645E-008, 6.64777E-010, 2.05024E-009
1, 3120.00000, 0.0019031, -2.01272E-009, 6.66016E-010, 2.05289E-009
1, 3180.00000, 0.0019031, -2.05316E-009, 6.6601E-010, 2.05289E-009
1, 3240.00000, 0.0019031, -2.05289E-009, 6.6601E-010, 2.05289E-009
1, 3300.00000, 0.0019031, -2.05289E-009, 6.6601E-010, 2.05289E-009
1, 3360.00000, 0.0019031, 2.27923E-009, -4.01285E-010, -2.14206E-009
1, 3420.00000, 0.0019031, 2.14544E-009, -4.01144E-010, -2.14225E-009
1, 3480.00000, 0.0019031, 2.14224E-009, -4.01144E-010, -2.14225E-009
1, 3540.00000, 0.0019031, 2.14225E-009, -4.01144E-010, -2.14225E-009
2, 0.00000, 0.0019031, 2.14225E-009, -4.01144E-010, -2.14225E-009
2, 60.00000, 0.0184264, -1.26549E-008, 1.41111E-008, 1.25041E-008
2, 120.00000, 0.0184265, -1.27353E-008, 1.41065E-008, 1.2508E-008
2, 180.00000, 0.0184265, -1.25085E-008, 1.41064E-008, 1.2508E-008
2, 240.00000, 0.0184265, -1.2508E-008, 1.41064E-008, 1.2508E-008
2, 300.00000, 0.0184265, -1.2508E-008, 1.41064E-008, 1.2508E-008
2, 360.00000, 0.0184265, 2.14642E-009, 1.13089E-008, 2.28792E-009
2, 420.00000, 0.0184265, -2.02227E-009, 1.13153E-008, 2.28502E-009
2, 480.00000, 0.0184265, -2.28531E-009, 1.13153E-008, 2.28504E-009
2, 540.00000, 0.0184265, -2.28505E-009, 1.13153E-008, 2.28504E-009
2, 600.00000, 0.0184265, -2.28504E-009, 1.13153E-008, 2.28504E-009
2, 660.00000, 0.0184265, -7.64098E-008, -1.5107E-009, -1.05357E-008
2, 720.00000, 0.0184265, 1.10995E-008, -1.50166E-009, -1.05354E-008
2, 780.00000, 0.0184265, 1.05338E-008, -1.50164E-009, -1.05353E-008
2, 840.00000, 0.0184265, 1.05353E-008, -1.50164E-009, -1.05353E-008
2, 900.00000, 0.0184265, 1.05353E-008, -1.50164E-009, -1.05353E-008
2, 960.00000, 0.0184265, 6.60408E-010, 8.6216E-009, -7.85832E-009
2, 1020.00000, 0.0184265, 7.92969E-009, 8.62173E-009, -7.85943E-009
2, 1080.00000, 0.0184265, 7.86049E-009, 8.62174E-009, -7.85944E-009
2, 1140.00000, 0.0184265, 7.85945E-009, 8.62174E-009, -7.85944E-009
2, 1200.00000, 0.0184265, 7.85944E-009, 8.62174E-009, -7.85944E-009
2, 1260.00000, 0.0184264, -1.30259E-007, 1.0238E-009, -3.16076E-010
2, 1320.00000, 0.0184265, -3.82831E-010, 1.02009E-009, -3.10279E-010
2, 1380.00000, 0.0184265, 3.12431E-010, 1.02013E-009, -3.10328E-010
2, 1440.00000, 0.0184265, 3.10342E-010, 1.02013E-009, -3.10328E-010
2, 1500.00000, 0.0184265, 3.10328E-010, 1.02013E-009, -3.10328E-010
2, 1560.00000, 0.0184264, -6.07297E-008, 2.12526E-008, 5.148E-009
2, 1620.00000, 0.0184265, -5.28809E-009, 2.1249E-008, 5.14555E-009
2, 1680.00000, 0.0184265, -5.14558E-009, 2.1249E-008, 5.14554E-009
2, 1740.00000, 0.0184265, -5.14555E-009, 2.1249E-008, 5.14554E-009
2, 1800.00000, 0.0184265, -5.14554E-009, 2.1249E-008, 5.14554E-009
2, 1860.00000, 0.0184266, 2.72883E-007, -8.88456E-009, -3.12861E-009
2, 1920.00000, 0.0184265, 3.21213E-009, -8.86504E-009, -3.10903E-009
2, 1980.00000, 0.0184265, 3.10686E-009, -8.86509E-009, -3.10901E-009
2, 2040.00000, 0.0184265, 3.10902E-009, -8.86509E-009, -3.10901E-009
2, 2100.00000, 0.0184265, 3.10901E-009, -8.86509E-009, -3.10901E-009
2, 2160.00000, 0.0184258, -4.08255E-007, 1.27222E-009, -4.19304E-010
2, 2220.00000, 0.0184265, -2.39892E-009, 1.2007E-009, -4.27729E-010
2, 2280.00000, 0.0184265, 4.27112E-010, 1.20065E-009, -4.27914E-010
2, 2340.00000, 0.0184265, 4.27927E-010, 1.20065E-009, -4.27914E-010
2, 2400.00000, 0.0184265, 4.27914E-010, 1.20065E-009, -4.27914E-010
2, 2460.00000, 0.0184265, -1.30147E-008, 1.37612E-009, -3.55214E-010
2, 2520.00000, 0.0184265, 2.72945E-010, 1.37437E-009, -3.54974E-010
2, 2580.00000, 0.0184265, 3.5498E-010, 1.37438E-009, -3.54978E-010
2, 2640.00000, 0.0184265, 3.54975E-010, 1.37438E-009, -3.54978E-010
2, 2700.00000, 0.0184265, 3.54978E-010, 1.37438E-009, -3.54978E-010
2, 2760.00000, 0.0184265, 4.66498E-008, 1.40492E-009, -4.73327E-010
2, 2820.00000, 0.0184265, 4.53435E-010, 1.4058E-009, -4.70539E-010
2, 2880.00000, 0.0184265, 4.7038E-010, 1.40579E-009, -4.70541E-010
2, 2940.00000, 0.0184265, 4.70545E-010, 1.40579E-009, -4.70541E-010
2, 3000.00000, 0.0184265, 4.70541E-010, 1.40579E-009, -4.70541E-010
2, 3060.00000, 0.0184265, -6.13496E-008, 1.14268E-008, 2.42522E-009
2, 3120.00000, 0.0184265, -2.36655E-009, 1.14278E-008, 2.42095E-009
2, 3180.00000, 0.0184265, -2.42112E-009, 1.14278E-008, 2.42095E-009
2, 3240.00000, 0.0184265, -2.42096E-009, 1.14278E-008, 2.42095E-009
2, 3300.00000, 0.0184265, -2.42095E-009, 1.14278E-008, 2.42095E-009
2, 3360.00000, 0.0184265, 5.61713E-008, -1.11917E-008, -1.34936E-008
2, 3420.00000, 0.0184265, 1.35692E-008, -1.11909E-008, -1.34919E-008
2, 3480.00000, 0.0184265, 1.34923E-008, -1.11909E-008, -1.34919E-008
2, 3540.00000, 0.0184265, 1.34919E-008, -1.11909E-008, -1.34919E-008
3, 0.00000, 0.0184265, 1.34919E-008, -1.11909E-008, -1.34919E-008
3, 60.00000, 0.00827339, -2.11174E-009, 2.71407E-009, -8.1666E-009
3, 120.00000, 0.00827338, 8.1695E-009, 2.71471E-009, -8.16699E-009
3, 180.00000, 0.00827338, 8.16695E-009, 2.7147E-009, -8.16699E-009
3, 240.00000, 0.00827338, 8.16699E-009, 2.7147E-009, -8.16699E-009
3, 300.00000, 0.00827338, 8.16699E-009, 2.7147E-009, -8.16699E-009
3, 360.00000, 0.00827337, 2.02276E-009, 4.60165E-010, -1.72811E-010
3, 420.00000, 0.00827339, 9.03227E-011, 4.58516E-010, -1.72027E-010
3, 480.00000, 0.00827339, 1.71837E-010, 4.58514E-010, -1.7203E-010
3, 540.00000, 0.00827339, 1.72028E-010, 4.58514E-010, -1.7203E-010
3, 600.00000, 0.00827339, 1.7203E-010, 4.58514E-010, -1.7203E-010
3, 660.00000, 0.00827318, 2.97772E-007, 6.16157E-009, 5.62572E-009
3, 720.00000, 0.00827338, -5.03701E-009, 6.1685E-009, 5.65135E-009
3, 780.00000, 0.00827338, -5.6541E-009, 6.16845E-009, 5.65142E-009
3, 840.00000, 0.00827338, -5.65144E-009, 6.16845E-009, 5.65142E-009
3, 900.00000, 0.00827338, -5.65142E-009, 6.16845E-009, 5.65142E-009
3, 960.00000, 0.00827338, 2.01275E-008, 5.07838E-009, 1.06316E-009
3, 1020.00000, 0.00827338, -1.05569E-009, 5.07886E-009, 1.06428E-009
3, 1080.00000, 0.00827338, -1.06437E-009, 5.07886E-009, 1.06428E-009
3, 1140.00000, 0.00827338, -1.06428E-009, 5.07886E-009, 1.06428E-009
3, 1200.00000, 0.00827338, -1.06428E-009, 5.07886E-009, 1.06428E-009
3, 1260.00000, 0.00827339, 1.60412E-008, 8.42032E-009, -2.3097E-009
3, 1320.00000, 0.00827338, 2.34927E-009, 8.42141E-009, -2.30944E-009
3, 1380.00000, 0.00827338, 2.30936E-009, 8.42141E-009, -2.30943E-009
3, 1440.00000, 0.00827338, 2.30943E-009, 8.42141E-009, -2.30943E-009
3, 1500.00000, 0.00827338, 2.30943E-009, 8.42141E-009, -2.30943E-009
3, 1560.00000, 0.00827307, 3.79487E-007, 1.18112E-008, -5.64733E-009
3, 1620.00000, 0.00827337, 6.62546E-009, 1.18124E-008, -5.61668E-009
3, 1680.00000, 0.00827338, 5.61327E-009, 1.18123E-008, -5.61659E-009
3, 1740.00000, 0.00827338, 5.61657E-009, 1.18123E-008, -5.61659E-009
3, 1800.00000, 0.00827338, 5.61659E-009, 1.18123E-008, -5.61659E-009
3, 1860.00000, 0.00827339, 5.35818E-009, 2.87848E-009, 8.94376E-009
3, 1920.00000, 0.00827338, -8.9039E-009, 2.87943E-009, 8.94421E-009
3, 1980.00000, 0.00827338, -8.94426E-009, 2.87943E-009, 8.94421E-009
3, 2040.00000, 0.00827338, -8.94421E-009, 2.87943E-009, 8.94421E-009
3, 2100.00000, 0.00827338, -8.94421E-009, 2.87943E-009, 8.94421E-009
3, 2160.00000, 0.00827337, -9.3416E-009, 3.87709E-009, -3.52217E-009
3, 2220.00000, 0.00827338, 3.47522E-009, 3.87629E-009, -3.52244E-009
3, 2280.00000, 0.00827338, 3.52229E-009, 3.87629E-009, -3.52245E-009
3, 2340.00000, 0.00827338, 3.52245E-009, 3.87629E-009, -3.52245E-009
3, 2400.00000, 0.00827338, 3.52245E-009, 3.87629E-009, -3.52245E-009
3, 2460.00000, 0.00827337, 8.85233E-009, 9.63156E-009, 2.29994E-009
3, 2520.00000, 0.00827338, -2.31715E-009, 9.63113E-009, 2.30075E-009
3, 2580.00000, 0.00827338, -2.30046E-009, 9.63113E-009, 2.30074E-009
3, 2640.00000, 0.00827338, -2.30074E-009, 9.63113E-009, 2.30074E-009
3, 2700.00000, 0.00827338, -2.30074E-009, 9.63113E-009, 2.30074E-009
3, 2760.00000, 0.00827339, -2.12888E-008, -2.89611E-009, 3.22206E-009
3, 2820.00000, 0.00827339, -3.21094E-009, -2.89647E-009, 3.22095E-009
3, 2880.00000, 0.00827339, -3.22089E-009, -2.89647E-009, 3.22095E-009
3, 2940.00000, 0.00827339, -3.22096E-009, -2.89647E-009, 3.22095E-009
3, 3000.00000, 0.00827339, -3.22095E-009, -2.89647E-009, 3.22095E-009
3, 3060.00000, 0.00827338, -7.49219E-009, -1.70889E-009, 7.84198E-009
3, 3120.00000, 0.00827339, -7.89427E-009, -1.70954E-009, 7.84273E-009
3, 3180.00000, 0.00827339, -7.84312E-009, -1.70954E-009, 7.84273E-009
3, 3240.00000, 0.00827339, -7.84273E-009, -1.70954E-009, 7.84273E-009
3, 3300.00000, 0.00827339, -7.84273E-009, -1.70954E-009, 7.84273E-009
3, 3360.00000, 0.0082734, 1.38719E-008, 8.36048E-009, -2.23474E-009
3, 3420.00000, 0.00827338, 2.28469E-009, 8.36207E-009, -2.23499E-009
3, 3480.00000, 0.00827338, 2.23506E-009, 8.36207E-009, -2.23498E-009
3, 3540.00000, 0.00827338, -2.40789E-009, 8.36211E-009, -2.23501E-009
4, 0.00000, 0.00827338, 2.22495E-009, 8.36215E-009, -2.23501E-009
4, 60.00000, 0.0108731, 2.2021E-008, 1.10536E-008, -2.97915E-009
4, 120.00000, 0.0108731, 2.96955E-009, 1.10546E-008, -2.97784E-009
4, 180.00000, 0.0108731, 2.97777E-009, 1.10546E-008, -2.97784E-009
4, 240.00000, 0.0108731, 2.97786E-009, 1.10546E-008, -2.97784E-009
4, 300.00000, 0.0108731, 2.97784E-009, 1.10546E-008, -2.97784E-009
4, 360.00000, 0.0108731, 3.29085E-009, -6.74165E-009, -7.9403E-009
4, 420.00000, 0.0108732, 7.94733E-009, -6.74364E-009, -7.94065E-009
4, 480.00000, 0.0108732, 7.94206E-009, -6.74363E-009, -7.94066E-009
4, 540.00000, 0.0108732, 7.94067E-009, -6.74363E-009, -7.94066E-009
4, 600.00000, 0.0108732, 7.94066E-009, -6.74363E-009, -7.94066E-009
4, 660.00000, 0.0108732, -2.47088E-008, 3.63208E-009, -1.06811E-008
4, 720.00000, 0.0108732, 1.06721E-008, 3.63189E-009, -1.0683E-008
4, 780.00000, 0.0108732, 1.06826E-008, 3.6319E-009, -1.0683E-008
4, 840.00000, 0.0108732, 1.0683E-008, 3.6319E-009, -1.0683E-008
4, 900.00000, 0.0108732, 1.0683E-008, 3.6319E-009, -1.0683E-008
4, 960.00000, 0.0108733, -2.8365E-007, 5.15832E-009, -4.62296E-009
4, 1020.00000, 0.0108732, 4.01222E-009, 5.16017E-009, -4.64011E-009
4, 1080.00000, 0.0108732, 4.64233E-009, 5.16023E-009, -4.64016E-009
4, 1140.00000, 0.0108732, 4.64016E-009, 5.16023E-009, -4.64016E-009
4, 1200.00000, 0.0108732, 4.64016E-009, 5.16023E-009, -4.64016E-009
4, 1260.00000, 0.010873, 1.59147E-007, 2.25972E-009, 5.8263E-009
4, 1320.00000, 0.0108732, -6.03637E-009, 2.25093E-009, 5.83759E-009
4, 1380.00000, 0.0108732, -5.84084E-009, 2.25085E-009, 5.83759E-009
4, 1440.00000, 0.0108732, -5.83756E-009, 2.25085E-009, 5.83759E-009
4, 1500.00000, 0.0108732, -5.83759E-009, 2.25085E-009, 5.83759E-009
4, 1560.00000, 0.0108732, 1.60706E-008, -8.59226E-010, -6.25256E-009
4, 1620.00000, 0.0108732, 6.22222E-009, -8.59637E-010, -6.25181E-009
4, 1680.00000, 0.0108732, 6.25122E-009, -8.59641E-010, -6.25181E-009
4, 1740.00000, 0.0108732, 6.2518E-009, -8.59641E-010, -6.25181E-009
4, 1800.00000, 0.0108732, 6.25181E-009, -8.59641E-010, -6.25181E-009
4, 1860.00000, 0.0108732, -2.70046E-009, -1.72265E-008, -5.15597E-009
4, 1920.00000, 0.0108732, 5.2078E-009, -1.7225E-008, -5.1571E-009
4, 1980.00000, 0.0108732, 9.99605E-010, -1.72253E-008, -5.15644E-009
4, 2040.00000, 0.0108732, 9.29885E-009, -1.7225E-008, -5.15694E-009
4, 2100.00000, 0.0108732, 1.68828E-009, -1.72253E-008, -5.15655E-009
4, 2160.00000, 0.0108736, -1.16783E-007, -3.81245E-009, 4.2016E-009
4, 2220.00000, 0.0108732, -1.00558E-008, -3.78183E-009, 4.18546E-009
4, 2280.00000, 0.0108732, -6.722E-009, -3.78271E-009, 4.18541E-009
4, 2340.00000, 0.0108732, -5.88842E-009, -3.78335E-009, 4.1853E-009
4, 2400.00000, 0.0108732, -2.30028E-008, -3.78996E-009, 4.18397E-009
4, 2460.00000, 0.0108732, 4.74592E-008, 3.63498E-009, -1.06955E-008
4, 2520.00000, 0.0108732, -1.68445E-008, 3.62433E-009, -1.06876E-008
4, 2580.00000, 0.0108732, 1.06575E-008, 3.62324E-009, -1.0687E-008
4, 2640.00000, 0.0108732, 1.06784E-008, 3.62323E-009, -1.0687E-008
4, 2700.00000, 0.0108732, 1.06842E-008, 3.62323E-009, -1.0687E-008
4, 2760.00000, 0.0108731, -3.13585E-008, 1.11043E-008, -3.06343E-009
4, 2820.00000, 0.0108732, -1.25169E-008, 1.10934E-008, -3.06426E-009
4, 2880.00000, 0.0108731, -8.17424E-010, 1.10906E-008, -3.06391E-009
4, 2940.00000, 0.0108732, -6.69644E-009, 1.10848E-008, -3.06323E-009
4, 3000.00000, 0.0108732, -6.68552E-009, 1.10789E-008, -3.06252E-009
4, 3060.00000, 0.0108732, -7.83138E-009, -8.12658E-009, 8.48056E-009
4, 3120.00000, 0.0108732, -2.3577E-008, -8.13313E-009, 8.47462E-009
4, 3180.00000, 0.0108732, -5.29759E-009, -8.13227E-009, 8.47582E-009
