hour, t(sec), P1 (kW), Q1 (kvar), P2 (kW), Q2 (kvar)
0, 60.00000, -0.273815, 1.31912E-006, -4.25565E-006, 1.48512E-006
0, 120.00000, -0.273813, -1.47821E-006, -4.25786E-006, 1.48539E-006
0, 180.00000, -0.273813, -1.48529E-006, -4.25787E-006, 1.48537E-006
0, 240.00000, -0.273813, -1.48537E-006, -4.25787E-006, 1.48537E-006
0, 300.00000, -0.273813, -1.48537E-006, -4.25787E-006, 1.48537E-006
0, 360.00000, -0.273806, 8.01906E-007, -1.18185E-005, -5.32876E-007
0, 420.00000, -0.273806, 5.31234E-007, -1.18177E-005, -5.33148E-007
0, 480.00000, -0.273806, 5.33158E-007, -1.18177E-005, -5.33145E-007
0, 540.00000, -0.273806, 5.33146E-007, -1.18177E-005, -5.33145E-007
0, 600.00000, -0.273806, 5.33145E-007, -1.18177E-005, -5.33145E-007
0, 660.00000, -0.273817, -5.76627E-007, 1.85965E-006, 7.8299E-006
0, 720.00000, -0.27382, -7.81958E-006, 1.85365E-006, 7.81814E-006
0, 780.00000, -0.27382, -7.81818E-006, 1.85366E-006, 7.81815E-006
0, 840.00000, -0.27382, -7.81814E-006, 1.85366E-006, 7.81815E-006
0, 900.00000, -0.27382, -7.81815E-006, 1.85366E-006, 7.81815E-006
0, 960.00000, -0.273813, -1.13473E-006, -4.36196E-006, 1.31737E-006
0, 1020.00000, -0.273813, -1.31924E-006, -4.36187E-006, 1.31712E-006
0, 1080.00000, -0.273813, -1.31714E-006, -4.36187E-006, 1.31712E-006
0, 1140.00000, -0.273813, -1.31712E-006, -4.36187E-006, 1.31712E-006
0, 1200.00000, -0.273813, -1.31712E-006, -4.36187E-006, 1.31712E-006
0, 1260.00000, -0.273829, -1.70405E-005, 1.15558E-005, 1.71871E-005
0, 1320.00000, -0.273829, -1.71843E-005, 1.15558E-005, 1.71868E-005
0, 1380.00000, -0.273829, -1.71867E-005, 1.15558E-005, 1.71868E-005
0, 1440.00000, -0.273829, -1.71868E-005, 1.15558E-005, 1.71868E-005
0, 1500.00000, -0.273829, -1.71868E-005, 1.15558E-005, 1.71868E-005
0, 1560.00000, -0.273825, -2.37863E-006, 7.54226E-006, 2.2448E-006
0, 1620.00000, -0.273825, -2.24297E-006, 7.54149E-006, 2.24478E-006
0, 1680.00000, -0.273825, -2.24481E-006, 7.5415E-006, 2.24478E-006
0, 1740.00000, -0.273825, -2.24478E-006, 7.5415E-006, 2.24478E-006
0, 1800.00000, -0.273825, -2.24478E-006, 7.5415E-006, 2.24478E-006
0, 1860.00000, -0.27382, -3.06066E-006, 4.3107E-006, -8.4995E-007
0, 1920.00000, -0.273822, 8.43374E-007, 4.30682E-006, -8.45135E-007
0, 1980.00000, -0.273822, 8.45236E-007, 4.30679E-006, -8.45139E-007
0, 2040.00000, -0.273822, 8.4514E-007, 4.30679E-006, -8.4514E-007
0, 2100.00000, -0.273822, 8.4514E-007, 4.30679E-006, -8.4514E-007
0, 2160.00000, -0.273816, -1.70796E-005, 6.31105E-006, 6.64901E-006
0, 2220.00000, -0.273824, -6.65049E-006, 6.28654E-006, 6.66631E-006
0, 2280.00000, -0.273824, -6.66623E-006, 6.2865E-006, 6.66626E-006
0, 2340.00000, -0.273824, -6.66626E-006, 6.2865E-006, 6.66626E-006
0, 2400.00000, -0.273824, -6.66626E-006, 6.2865E-006, 6.66626E-006
0, 2460.00000, -0.273819, 4.05417E-006, 1.32228E-006, -4.04424E-006
0, 2520.00000, -0.273819, 4.04304E-006, 1.32148E-006, -4.04433E-006
0, 2580.00000, -0.273819, 4.04433E-006, 1.32147E-006, -4.04432E-006
0, 2640.00000, -0.273819, 4.04432E-006, 1.32147E-006, -4.04432E-006
0, 2700.00000, -0.273819, 4.04432E-006, 1.32147E-006, -4.04432E-006
0, 2760.00000, -0.273819, 3.82322E-006, 1.22617E-006, -4.02744E-006
0, 2820.00000, -0.273819, 4.02813E-006, 1.22596E-006, -4.02724E-006
0, 2880.00000, -0.273819, 4.02727E-006, 1.22595E-006, -4.02724E-006
0, 2940.00000, -0.273819, 4.02724E-006, 1.22595E-006, -4.02724E-006
0, 3000.00000, -0.273819, 4.02724E-006, 1.22595E-006, -4.02724E-006
0, 3060.00000, -0.27382, 8.76738E-006, 2.45472E-006, -8.46139E-006
0, 3120.00000, -0.27382, 8.46447E-006, 2.45469E-006, -8.46189E-006
0, 3180.00000, -0.27382, 8.46186E-006, 2.4547E-006, -8.4619E-006
0, 3240.00000, -0.27382, 8.46189E-006, 2.4547E-006, -8.4619E-006
0, 3300.00000, -0.27382, 8.4619E-006, 2.4547E-006, -8.4619E-006
0, 3360.00000, -0.273801, -8.0508E-007, -1.62346E-005, 5.40098E-007
0, 3420.00000, -0.273802, -5.43308E-007, -1.62346E-005, 5.40719E-007
0, 3480.00000, -0.273802, -5.40696E-007, -1.62346E-005, 5.40722E-007
0, 3540.00000, -0.273802, -5.40721E-007, -1.62346E-005, 5.40722E-007
1, 0.00000, -0.273802, -5.40722E-007, -1.62346E-005, 5.40722E-007
1, 60.00000, -0.288591, -8.19134E-006, 2.20771E-006, 8.22706E-006
1, 120.00000, -0.288591, -8.22688E-006, 2.20775E-006, 8.22705E-006
1, 180.00000, -0.288591, -8.22705E-006, 2.20775E-006, 8.22705E-006
1, 240.00000, -0.288591, -8.22705E-006, 2.20775E-006, 8.22705E-006
1, 300.00000, -0.288591, -8.22705E-006, 2.20775E-006, 8.22705E-006
1, 360.00000, -0.288593, -1.61398E-005, 4.27763E-006, 1.60993E-005
1, 420.00000, -0.288593, -1.60995E-005, 4.27791E-006, 1.60993E-005
1, 480.00000, -0.288593, -1.60993E-005, 4.27791E-006, 1.60993E-005
1, 540.00000, -0.288593, -1.60993E-005, 4.27791E-006, 1.60993E-005
1, 600.00000, -0.288593, -1.60993E-005, 4.27791E-006, 1.60993E-005
1, 660.00000, -0.288595, 1.46021E-005, 2.73039E-006, -8.75357E-006
1, 720.00000, -0.288591, 8.75874E-006, 2.74277E-006, -8.75948E-006
1, 780.00000, -0.288591, 8.75947E-006, 2.74277E-006, -8.75947E-006
1, 840.00000, -0.288591, 8.75947E-006, 2.74277E-006, -8.75947E-006
1, 900.00000, -0.288591, 8.75947E-006, 2.74277E-006, -8.75947E-006
1, 960.00000, -0.288585, 2.96185E-006, -3.04142E-006, -2.96636E-006
1, 1020.00000, -0.288585, 2.96608E-006, -3.04117E-006, -2.96622E-006
1, 1080.00000, -0.288585, 2.96622E-006, -3.04117E-006, -2.96622E-006
1, 1140.00000, -0.288585, 2.96622E-006, -3.04117E-006, -2.96622E-006
1, 1200.00000, -0.288585, 2.96622E-006, -3.04117E-006, -2.96622E-006
1, 1260.00000, -0.288587, -4.88302E-006, -1.07194E-006, 4.9328E-006
1, 1320.00000, -0.288587, -4.93246E-006, -1.07211E-006, 4.93268E-006
1, 1380.00000, -0.288587, -4.93268E-006, -1.07211E-006, 4.93268E-006
1, 1440.00000, -0.288587, -4.93268E-006, -1.07211E-006, 4.93268E-006
1, 1500.00000, -0.288587, -4.93268E-006, -1.07211E-006, 4.93268E-006
1, 1560.00000, -0.288593, 8.81853E-007, 4.78288E-006, -8.54489E-007
1, 1620.00000, -0.288593, 8.54547E-007, 4.78281E-006, -8.54466E-007
1, 1680.00000, -0.288593, 8.54466E-007, 4.78281E-006, -8.54466E-007
1, 1740.00000, -0.288593, 8.54466E-007, 4.78281E-006, -8.54466E-007
1, 1800.00000, -0.288593, 8.54466E-007, 4.78281E-006, -8.54466E-007
1, 1860.00000, -0.288587, 7.36767E-006, -1.76349E-006, -7.45202E-006
1, 1920.00000, -0.288587, 7.45174E-006, -1.76356E-006, -7.45191E-006
1, 1980.00000, -0.288587, 7.45191E-006, -1.76356E-006, -7.45191E-006
1, 2040.00000, -0.288587, 7.45191E-006, -1.76356E-006, -7.45191E-006
1, 2100.00000, -0.288587, 7.45191E-006, -1.76356E-006, -7.45191E-006
1, 2160.00000, -0.288588, -3.14662E-007, 1.05102E-007, 3.32803E-007
1, 2220.00000, -0.288588, -3.32757E-007, 1.05252E-007, 3.32832E-007
1, 2280.00000, -0.288588, -3.32831E-007, 1.05251E-007, 3.32832E-007
1, 2340.00000, -0.288588, -3.32832E-007, 1.05251E-007, 3.32832E-007
1, 2400.00000, -0.288588, -3.32832E-007, 1.05251E-007, 3.32832E-007
1, 2460.00000, -0.28858, -1.39705E-006, -8.91169E-006, 2.80082E-006
1, 2520.00000, -0.288579, -2.79984E-006, -8.90936E-006, 2.8005E-006
1, 2580.00000, -0.288579, -2.80049E-006, -8.90937E-006, 2.8005E-006
1, 2640.00000, -0.288579, -2.8005E-006, -8.90937E-006, 2.8005E-006
1, 2700.00000, -0.288579, -2.8005E-006, -8.90937E-006, 2.8005E-006
1, 2760.00000, -0.288581, -9.00801E-006, -5.68519E-006, 6.14772E-006
1, 2820.00000, -0.288583, -6.15287E-006, -5.68827E-006, 6.15192E-006
1, 2880.00000, -0.288583, -6.15193E-006, -5.68827E-006, 6.15192E-006
1, 2940.00000, -0.288583, -6.15192E-006, -5.68827E-006, 6.15192E-006
1, 3000.00000, -0.288583, -6.15192E-006, -5.68827E-006, 6.15192E-006
1, 3060.00000, -0.288585, 7.18125E-006, -6.36289E-006, -6.26276E-006
1, 3120.00000, -0.288582, 6.25998E-006, -6.35591E-006, -6.26277E-006
1, 3180.00000, -0.288582, 6.26276E-006, -6.35591E-006, -6.26276E-006
1, 3240.00000, -0.288582, 6.26276E-006, -6.35591E-006, -6.26276E-006
1, 3300.00000, -0.288582, 6.26276E-006, -6.35591E-006, -6.26276E-006
1, 3360.00000, -0.288588, -3.82133E-007, 1.011E-007, 3.5287E-007
1, 3420.00000, -0.288588, -3.52841E-007, 1.01046E-007, 3.52771E-007
1, 3480.00000, -0.288588, -3.52772E-007, 1.01047E-007, 3.52771E-007
1, 3540.00000, -0.288588, -3.52771E-007, 1.01047E-007, 3.52771E-007
2, 0.00000, -0.288588, -3.52771E-007, 1.01047E-007, 3.52771E-007
2, 60.00000, -0.277713, 5.16493E-006, 5.80561E-006, -5.23908E-006
2, 120.00000, -0.277713, 5.23905E-006, 5.80549E-006, -5.23895E-006
2, 180.00000, -0.277713, 5.23895E-006, 5.80549E-006, -5.23895E-006
2, 240.00000, -0.277713, 5.23895E-006, 5.80549E-006, -5.23895E-006
2, 300.00000, -0.277713, 5.23895E-006, 5.80549E-006, -5.23895E-006
2, 360.00000, -0.277709, -7.69443E-006, 2.16312E-006, 7.87043E-006
2, 420.00000, -0.277709, -7.87001E-006, 2.16331E-006, 7.87027E-006
2, 480.00000, -0.277709, -7.87026E-006, 2.16331E-006, 7.87027E-006
2, 540.00000, -0.277709, -7.87027E-006, 2.16331E-006, 7.87027E-006
2, 600.00000, -0.277709, -7.87027E-006, 2.16331E-006, 7.87027E-006
2, 660.00000, -0.277713, -3.36112E-006, 5.41783E-006, 1.10718E-005
2, 720.00000, -0.277713, -1.10488E-005, 5.41456E-006, 1.10575E-005
2, 780.00000, -0.277713, -1.10575E-005, 5.41456E-006, 1.10575E-005
2, 840.00000, -0.277713, -1.10575E-005, 5.41456E-006, 1.10575E-005
2, 900.00000, -0.277713, -1.10575E-005, 5.41456E-006, 1.10575E-005
2, 960.00000, -0.277709, -7.91234E-006, 2.19369E-006, 7.95726E-006
2, 1020.00000, -0.277709, -7.95817E-006, 2.19396E-006, 7.95705E-006
2, 1080.00000, -0.277709, -7.95707E-006, 2.19397E-006, 7.95705E-006
2, 1140.00000, -0.277709, -7.95705E-006, 2.19397E-006, 7.95705E-006
2, 1200.00000, -0.277709, -7.95705E-006, 2.19397E-006, 7.95705E-006
2, 1260.00000, -0.277721, -5.98022E-007, 1.21514E-005, 1.12967E-006
2, 1320.00000, -0.277719, -1.12869E-006, 1.21561E-005, 1.12992E-006
2, 1380.00000, -0.277719, -1.1299E-006, 1.21561E-005, 1.12991E-006
2, 1440.00000, -0.277719, -1.12992E-006, 1.21561E-005, 1.12991E-006
2, 1500.00000, -0.277719, -1.12991E-006, 1.21561E-005, 1.12991E-006
2, 1560.00000, -0.27771, -8.04017E-006, 2.30824E-006, 7.9583E-006
2, 1620.00000, -0.277709, -7.95819E-006, 2.3081E-006, 7.95851E-006
2, 1680.00000, -0.277709, -7.95851E-006, 2.3081E-006, 7.95851E-006
2, 1740.00000, -0.277709, -7.95851E-006, 2.3081E-006, 7.95851E-006
2, 1800.00000, -0.277709, -7.95851E-006, 2.3081E-006, 7.95851E-006
2, 1860.00000, -0.277701, -3.03921E-006, -2.91995E-006, -2.90686E-006
2, 1920.00000, -0.277704, 2.89448E-006, -2.9275E-006, -2.8952E-006
2, 1980.00000, -0.277704, 2.89519E-006, -2.9275E-006, -2.8952E-006
2, 2040.00000, -0.277704, 2.8952E-006, -2.9275E-006, -2.8952E-006
2, 2100.00000, -0.277704, 2.8952E-006, -2.9275E-006, -2.8952E-006
2, 2160.00000, -0.277703, -2.75333E-006, -5.47463E-006, 5.88058E-006
2, 2220.00000, -0.277702, -5.87333E-006, -5.4724E-006, 5.87454E-006
2, 2280.00000, -0.277702, -5.87453E-006, -5.47239E-006, 5.87454E-006
2, 2340.00000, -0.277702, -5.87454E-006, -5.47239E-006, 5.87454E-006
2, 2400.00000, -0.277702, -5.87454E-006, -5.47239E-006, 5.87454E-006
2, 2460.00000, -0.277707, -3.53148E-007, 2.26112E-007, 3.38123E-007
2, 2520.00000, -0.277707, -3.38251E-007, 2.26113E-007, 3.38164E-007
2, 2580.00000, -0.277707, -3.38163E-007, 2.26112E-007, 3.38165E-007
2, 2640.00000, -0.277707, -3.38165E-007, 2.26112E-007, 3.38165E-007
2, 2700.00000, -0.277707, -3.38165E-007, 2.26112E-007, 3.38165E-007
2, 2760.00000, -0.277708, -1.23231E-005, 1.02015E-006, 1.22594E-005
2, 2820.00000, -0.277708, -1.22596E-005, 1.02012E-006, 1.22594E-005
2, 2880.00000, -0.277708, -1.22594E-005, 1.02012E-006, 1.22594E-005
2, 2940.00000, -0.277708, -1.22594E-005, 1.02012E-006, 1.22594E-005
2, 3000.00000, -0.277708, -1.22594E-005, 1.02012E-006, 1.22594E-005
2, 3060.00000, -0.277709, -7.66248E-006, 2.08709E-006, 7.87364E-006
2, 3120.00000, -0.277709, -7.87198E-006, 2.08693E-006, 7.87344E-006
2, 3180.00000, -0.277709, -7.87343E-006, 2.08693E-006, 7.87344E-006
2, 3240.00000, -0.277709, -7.87344E-006, 2.08693E-006, 7.87344E-006
2, 3300.00000, -0.277709, -7.87344E-006, 2.08693E-006, 7.87344E-006
2, 3360.00000, -0.277704, 2.66248E-006, -2.99035E-006, -2.87117E-006
2, 3420.00000, -0.277704, 2.86927E-006, -2.99008E-006, -2.87093E-006
2, 3480.00000, -0.277704, 2.87091E-006, -2.99008E-006, -2.87092E-006
2, 3540.00000, -0.277704, 2.87092E-006, -2.99008E-006, -2.87092E-006
3, 0.00000, -0.277704, 2.87092E-006, -2.99008E-006, -2.87092E-006
3, 60.00000, -0.237247, 6.36091E-006, -1.61053E-006, -6.24322E-006
3, 120.00000, -0.237247, 6.24404E-006, -1.61065E-006, -6.24332E-006
3, 180.00000, -0.237247, 6.24333E-006, -1.61065E-006, -6.24332E-006
3, 240.00000, -0.237247, 6.24332E-006, -1.61065E-006, -6.24332E-006
3, 300.00000, -0.237247, 6.24332E-006, -1.61065E-006, -6.24332E-006
3, 360.00000, -0.237259, -9.60875E-007, 1.03553E-005, 9.46346E-007
3, 420.00000, -0.237259, -9.46716E-007, 1.03554E-005, 9.46373E-007
3, 480.00000, -0.237259, -9.46372E-007, 1.03554E-005, 9.46375E-007
3, 540.00000, -0.237259, -9.46375E-007, 1.03554E-005, 9.46375E-007
3, 600.00000, -0.237259, -9.46375E-007, 1.03554E-005, 9.46375E-007
3, 660.00000, -0.23724, 1.48607E-006, -6.42153E-006, -1.54449E-006
3, 720.00000, -0.237242, 1.54681E-006, -6.42413E-006, -1.54443E-006
3, 780.00000, -0.237242, 1.54447E-006, -6.42414E-006, -1.54444E-006
3, 840.00000, -0.237242, 1.54444E-006, -6.42414E-006, -1.54444E-006
3, 900.00000, -0.237242, 1.54444E-006, -6.42414E-006, -1.54444E-006
3, 960.00000, -0.237248, -1.85085E-007, 1.16514E-007, 2.57267E-007
3, 1020.00000, -0.237248, -2.5718E-007, 1.1636E-007, 2.57019E-007
3, 1080.00000, -0.237248, -2.57023E-007, 1.16361E-007, 2.57019E-007
3, 1140.00000, -0.237248, -2.57019E-007, 1.16361E-007, 2.57019E-007
3, 1200.00000, -0.237248, -2.57019E-007, 1.16361E-007, 2.57019E-007
3, 1260.00000, -0.237247, -4.1466E-006, -9.70824E-007, 3.94706E-006
3, 1320.00000, -0.237247, -3.94801E-006, -9.70574E-007, 3.94749E-006
3, 1380.00000, -0.237247, -3.94749E-006, -9.70574E-007, 3.94749E-006
3, 1440.00000, -0.237247, -3.94749E-006, -9.70574E-007, 3.94749E-006
3, 1500.00000, -0.237247, -3.94749E-006, -9.70574E-007, 3.94749E-006
3, 1560.00000, -0.237246, -6.89625E-007, -3.69295E-006, 1.21085E-006
3, 1620.00000, -0.237245, -1.21439E-006, -3.68631E-006, 1.21417E-006
3, 1680.00000, -0.237245, -1.21415E-006, -3.68632E-006, 1.21417E-006
3, 1740.00000, -0.237245, -1.21417E-006, -3.68632E-006, 1.21417E-006
3, 1800.00000, -0.237245, -1.21417E-006, -3.68632E-006, 1.21417E-006
3, 1860.00000, -0.237254, -5.69018E-006, 5.54614E-006, 5.70871E-006
3, 1920.00000, -0.237254, -5.70856E-006, 5.5462E-006, 5.70863E-006
3, 1980.00000, -0.237254, -5.70863E-006, 5.5462E-006, 5.70863E-006
3, 2040.00000, -0.237254, -5.70863E-006, 5.5462E-006, 5.70863E-006
3, 2100.00000, -0.237254, -5.70863E-006, 5.5462E-006, 5.70863E-006
3, 2160.00000, -0.237247, 6.30955E-006, -1.63633E-006, -6.29706E-006
3, 2220.00000, -0.237247, 6.2977E-006, -1.63652E-006, -6.29698E-006
3, 2280.00000, -0.237247, 6.29699E-006, -1.63652E-006, -6.29698E-006
3, 2340.00000, -0.237247, 6.29698E-006, -1.63652E-006, -6.29698E-006
3, 2400.00000, -0.237247, 6.29698E-006, -1.63652E-006, -6.29698E-006
3, 2460.00000, -0.237249, 3.44997E-006, 1.15533E-006, -3.49404E-006
3, 2520.00000, -0.237249, 3.49293E-006, 1.1555E-006, -3.49414E-006
3, 2580.00000, -0.237249, 3.49413E-006, 1.1555E-006, -3.49414E-006
3, 2640.00000, -0.237249, 3.49414E-006, 1.1555E-006, -3.49414E-006
3, 2700.00000, -0.237249, 3.49414E-006, 1.1555E-006, -3.49414E-006
3, 2760.00000, -0.237244, -5.05338E-006, -4.73074E-006, 5.0097E-006
3, 2820.00000, -0.237244, -5.00997E-006, -4.73062E-006, 5.0099E-006
3, 2880.00000, -0.237244, -5.00989E-006, -4.73062E-006, 5.0099E-006
3, 2940.00000, -0.237244, -5.0099E-006, -4.73062E-006, 5.0099E-006
3, 3000.00000, -0.237244, -5.0099E-006, -4.73062E-006, 5.0099E-006
3, 3060.00000, -0.237252, 8.40053E-007, 3.90991E-006, -7.83745E-007
3, 3120.00000, -0.237252, 7.84875E-007, 3.9097E-006, -7.83725E-007
3, 3180.00000, -0.237252, 7.83737E-007, 3.9097E-006, -7.83727E-007
3, 3240.00000, -0.237252, 7.83727E-007, 3.9097E-006, -7.83727E-007
3, 3300.00000, -0.237252, 7.83727E-007, 3.9097E-006, -7.83727E-007
3, 3360.00000, -0.237247, -3.94851E-006, -1.02095E-006, 3.92922E-006
3, 3420.00000, -0.237247, -3.92988E-006, -1.0209E-006, 3.92922E-006
3, 3480.00000, -0.237247, -3.92922E-006, -1.0209E-006, 3.92922E-006
3, 3540.00000, -0.237247, -3.78099E-006, -1.02091E-006, 3.92923E-006
4, 0.00000, -0.237247, -3.92893E-006, -1.0209E-006, 3.92926E-006
4, 60.00000, -0.192529, -3.5476E-006, 7.479E-006, 3.7584E-006
4, 120.00000, -0.192529, -3.75695E-006, 7.47907E-006, 3.75804E-006
4, 180.00000, -0.192529, -3.75805E-006, 7.47907E-006, 3.75804E-006
4, 240.00000, -0.192529, -3.75804E-006, 7.47907E-006, 3.75804E-006
4, 300.00000, -0.192529, -3.75804E-006, 7.47907E-006, 3.75804E-006
4, 360.00000, -0.192523, 2.74508E-006, 8.37172E-007, -2.9223E-006
4, 420.00000, -0.192522, 2.92023E-006, 8.37262E-007, -2.92212E-006
4, 480.00000, -0.192522, 2.92209E-006, 8.37265E-007, -2.92212E-006
4, 540.00000, -0.192522, 2.92212E-006, 8.37265E-007, -2.92212E-006
4, 600.00000, -0.192522, 2.92212E-006, 8.37265E-007, -2.92212E-006
4, 660.00000, -0.192526, -4.62801E-006, 4.34462E-006, 4.60486E-006
4, 720.00000, -0.192526, -4.60437E-006, 4.34454E-006, 4.60502E-006
4, 780.00000, -0.192526, -4.60501E-006, 4.34454E-006, 4.60502E-006
4, 840.00000, -0.192526, -4.60502E-006, 4.34454E-006, 4.60502E-006
4, 900.00000, -0.192526, -4.60502E-006, 4.34454E-006, 4.60502E-006
4, 960.00000, -0.192521, -6.11472E-006, -7.96394E-007, 3.19524E-006
4, 1020.00000, -0.192521, -3.20358E-006, -7.93937E-007, 3.20169E-006
4, 1080.00000, -0.192521, -3.20168E-006, -7.93941E-007, 3.2017E-006
4, 1140.00000, -0.192521, -3.2017E-006, -7.93941E-007, 3.2017E-006
4, 1200.00000, -0.192521, -3.2017E-006, -7.93941E-007, 3.2017E-006
4, 1260.00000, -0.192518, 3.71443E-007, -3.02636E-006, 9.16565E-007
4, 1320.00000, -0.192519, -9.10056E-007, -3.02749E-006, 9.1351E-007
4, 1380.00000, -0.192519, -9.13504E-007, -3.02749E-006, 9.13501E-007
4, 1440.00000, -0.192519, -9.13501E-007, -3.02749E-006, 9.135E-007
4, 1500.00000, -0.192519, -9.135E-007, -3.02749E-006, 9.135E-007
4, 1560.00000, -0.192525, 5.59059E-007, 3.12392E-006, -6.52107E-007
4, 1620.00000, -0.192525, 6.51874E-007, 3.12391E-006, -6.51883E-007
4, 1680.00000, -0.192525, 6.51891E-007, 3.12391E-006, -6.51882E-007
4, 1740.00000, -0.192525, 6.51882E-007, 3.12391E-006, -6.51882E-007
4, 1800.00000, -0.192525, 6.51882E-007, 3.12391E-006, -6.51882E-007
4, 1860.00000, -0.192519, -9.18707E-007, -3.05519E-006, 9.92359E-007
4, 1920.00000, -0.192519, -9.91558E-007, -3.05524E-006, 9.9226E-007
4, 1980.00000, -0.192519, -9.76333E-007, -3.0539E-006, 9.92837E-007
4, 2040.00000, -0.192519, -1.00865E-006, -3.05526E-006, 9.92266E-007
4, 2100.00000, -0.192519, -9.78925E-007, -3.05412E-006, 9.92742E-007
4, 2160.00000, -0.192518, -1.29034E-006, -2.30406E-006, -2.1043E-006
4, 2220.00000, -0.192519, 2.11653E-006, -2.30275E-006, -2.09774E-006
4, 2280.00000, -0.192519, 2.10509E-006, -2.30213E-006, -2.09735E-006
4, 2340.00000, -0.192519, 2.10235E-006, -2.30171E-006, -2.0971E-006
4, 2400.00000, -0.19252, 2.15475E-006, -2.29714E-006, -2.09447E-006
4, 2460.00000, -0.192524, -2.4095E-006, 2.28611E-006, 2.34427E-006
4, 2520.00000, -0.192524, -2.26269E-006, 2.29142E-006, 2.34661E-006
4, 2580.00000, -0.192524, -2.34702E-006, 2.2913E-006, 2.34671E-006
4, 2640.00000, -0.192524, -2.34669E-006, 2.2913E-006, 2.34671E-006
4, 2700.00000, -0.192524, -2.3467E-006, 2.2913E-006, 2.34671E-006
4, 2760.00000, -0.192516, 1.34006E-006, -5.27982E-006, -1.26699E-006
4, 2820.00000, -0.192516, 1.32528E-006, -5.27613E-006, -1.26529E-006
4, 2880.00000, -0.192516, 1.27976E-006, -5.27521E-006, -1.2648E-006
4, 2940.00000, -0.192516, 1.30204E-006, -5.27287E-006, -1.26358E-006
4, 3000.00000, -0.192516, 1.30107E-006, -5.27055E-006, -1.26237E-006
4, 3060.00000, -0.192522, -8.64018E-006, 5.36447E-007, 8.41921E-006
4, 3120.00000, -0.192522, -8.31586E-006, 5.44011E-007, 8.42067E-006
4, 3180.00000, -0.192522, -8.44284E-006, 5.42226E-007, 8.42048E-006
4, 3240.00000, -0.192522, -8.34656E-006, 5.47338E-007, 8.42118E-006
