hour, t(sec), P1 (kW), Q1 (kvar), P2 (kW), Q2 (kvar)
0, 60.00000, -0.432882, 4.7182E-006, -1.24802E-007, -5.15038E-008
0, 120.00000, -0.432878, 4.0973E-008, -1.24707E-007, -5.14743E-008
0, 180.00000, -0.432878, 5.15335E-008, -1.24707E-007, -5.14735E-008
0, 240.00000, -0.432878, 5.14765E-008, -1.24707E-007, -5.14735E-008
0, 300.00000, -0.432878, 5.14735E-008, -1.24707E-007, -5.14735E-008
0, 360.00000, -0.432878, 3.01754E-007, -2.0376E-008, 1.95936E-007
0, 420.00000, -0.432878, -1.95051E-007, -2.04091E-008, 1.95933E-007
0, 480.00000, -0.432878, -1.9598E-007, -2.0409E-008, 1.95933E-007
0, 540.00000, -0.432878, -1.95933E-007, -2.0409E-008, 1.95933E-007
0, 600.00000, -0.432878, -1.95933E-007, -2.0409E-008, 1.95933E-007
0, 660.00000, -0.432875, -7.28185E-006, 2.76623E-007, -1.81953E-007
0, 720.00000, -0.432878, 1.97784E-007, 2.7662E-007, -1.81412E-007
0, 780.00000, -0.432878, 1.81202E-007, 2.7662E-007, -1.81413E-007
0, 840.00000, -0.432878, 1.8141E-007, 2.7662E-007, -1.81413E-007
0, 900.00000, -0.432878, 1.81413E-007, 2.7662E-007, -1.81413E-007
0, 960.00000, -0.432878, -9.56275E-008, -1.15511E-008, -3.64293E-008
0, 1020.00000, -0.432878, 3.92952E-008, -1.15584E-008, -3.64215E-008
0, 1080.00000, -0.432878, 3.63792E-008, -1.15583E-008, -3.64217E-008
0, 1140.00000, -0.432878, 3.64209E-008, -1.15583E-008, -3.64217E-008
0, 1200.00000, -0.432878, 3.64217E-008, -1.15583E-008, -3.64217E-008
0, 1260.00000, -0.432878, 7.12895E-008, -1.37748E-008, -2.47124E-008
0, 1320.00000, -0.432878, 2.05603E-008, -1.37818E-008, -2.46986E-008
0, 1380.00000, -0.432878, 2.47289E-008, -1.37818E-008, -2.46982E-008
0, 1440.00000, -0.432878, 2.46997E-008, -1.37818E-008, -2.46982E-008
0, 1500.00000, -0.432878, 2.46982E-008, -1.37818E-008, -2.46982E-008
0, 1560.00000, -0.432878, -5.81676E-007, 1.33678E-007, -1.02349E-007
0, 1620.00000, -0.432878, 1.03457E-007, 1.33708E-007, -1.02334E-007
0, 1680.00000, -0.432878, 1.02394E-007, 1.33707E-007, -1.02334E-007
0, 1740.00000, -0.432878, 1.02334E-007, 1.33707E-007, -1.02334E-007
0, 1800.00000, -0.432878, 1.02334E-007, 1.33707E-007, -1.02334E-007
0, 1860.00000, -0.432881, -3.07186E-006, 7.44047E-008, -2.29786E-008
0, 1920.00000, -0.432878, 7.71034E-009, 7.46234E-008, -2.31074E-008
0, 1980.00000, -0.432878, 2.30069E-008, 7.46243E-008, -2.31068E-008
0, 2040.00000, -0.432878, 2.31086E-008, 7.46242E-008, -2.31068E-008
0, 2100.00000, -0.432878, 2.31068E-008, 7.46242E-008, -2.31068E-008
0, 2160.00000, -0.432895, -8.77293E-006, -1.55227E-007, -1.30821E-007
0, 2220.00000, -0.432878, 8.47573E-008, -1.53937E-007, -1.30953E-007
0, 2280.00000, -0.432878, 1.31036E-007, -1.53937E-007, -1.30951E-007
0, 2340.00000, -0.432878, 1.30951E-007, -1.53937E-007, -1.30951E-007
0, 2400.00000, -0.432878, 1.30951E-007, -1.53937E-007, -1.30951E-007
0, 2460.00000, -0.432878, -5.7696E-007, -2.96908E-007, -9.03697E-008
0, 2520.00000, -0.432878, 9.07099E-008, -2.96879E-007, -9.03518E-008
0, 2580.00000, -0.432878, 9.02962E-008, -2.96879E-007, -9.03518E-008
0, 2640.00000, -0.432878, 9.03513E-008, -2.96879E-007, -9.03518E-008
0, 2700.00000, -0.432878, 9.03518E-008, -2.96879E-007, -9.03518E-008
0, 2760.00000, -0.432878, 8.56377E-008, 2.73093E-008, -1.19377E-007
0, 2820.00000, -0.432878, 1.16615E-007, 2.73207E-008, -1.1938E-007
0, 2880.00000, -0.432878, 1.19382E-007, 2.73207E-008, -1.1938E-007
0, 2940.00000, -0.432878, 1.1938E-007, 2.73207E-008, -1.1938E-007
0, 3000.00000, -0.432878, 1.1938E-007, 2.73207E-008, -1.1938E-007
0, 3060.00000, -0.432878, -2.58726E-007, -7.15468E-008, 2.50235E-008
0, 3120.00000, -0.432878, -2.32934E-008, -7.15539E-008, 2.5043E-008
0, 3180.00000, -0.432878, -2.49558E-008, -7.15542E-008, 2.5043E-008
0, 3240.00000, -0.432878, -2.5043E-008, -7.15542E-008, 2.5043E-008
0, 3300.00000, -0.432878, -2.5043E-008, -7.15542E-008, 2.5043E-008
0, 3360.00000, -0.432878, 5.59982E-007, -1.99282E-007, -2.35053E-007
0, 3420.00000, -0.432878, 2.34144E-007, -1.99271E-007, -2.35077E-007
0, 3480.00000, -0.432878, 2.35E-007, -1.99271E-007, -2.35077E-007
0, 3540.00000, -0.432878, 2.35077E-007, -1.99271E-007, -2.35077E-007
1, 0.00000, -0.432878, 2.35077E-007, -1.99271E-007, -2.35077E-007
1, 60.00000, -0.395003, -8.90368E-008, 5.23347E-008, -3.07006E-008
1, 120.00000, -0.395002, 3.04337E-008, 5.2334E-008, -3.07029E-008
1, 180.00000, -0.395002, 3.07016E-008, 5.2334E-008, -3.07029E-008
1, 240.00000, -0.395002, 3.07029E-008, 5.2334E-008, -3.07029E-008
1, 300.00000, -0.395002, 3.07029E-008, 5.2334E-008, -3.07029E-008
1, 360.00000, -0.395002, 1.962E-007, -1.10435E-007, -5.00379E-008
1, 420.00000, -0.395002, 5.00443E-008, -1.10445E-007, -5.0042E-008
1, 480.00000, -0.395002, 5.00411E-008, -1.10445E-007, -5.0042E-008
1, 540.00000, -0.395002, 5.0042E-008, -1.10445E-007, -5.0042E-008
1, 600.00000, -0.395002, 5.0042E-008, -1.10445E-007, -5.0042E-008
1, 660.00000, -0.394999, 5.28049E-006, -3.37767E-008, -2.58012E-007
1, 720.00000, -0.395002, 2.64911E-007, -3.42443E-008, -2.58132E-007
1, 780.00000, -0.395002, 2.5813E-007, -3.42443E-008, -2.58132E-007
1, 840.00000, -0.395002, 2.58132E-007, -3.42443E-008, -2.58132E-007
1, 900.00000, -0.395002, 2.58132E-007, -3.42443E-008, -2.58132E-007
1, 960.00000, -0.395002, 1.79738E-007, -1.08857E-007, -5.23212E-008
1, 1020.00000, -0.395002, 5.21869E-008, -1.08864E-007, -5.23293E-008
1, 1080.00000, -0.395002, 5.2327E-008, -1.08864E-007, -5.23293E-008
1, 1140.00000, -0.395002, 5.23293E-008, -1.08864E-007, -5.23293E-008
1, 1200.00000, -0.395002, 5.23293E-008, -1.08864E-007, -5.23293E-008
1, 1260.00000, -0.395002, 5.8698E-008, -2.32992E-007, -1.3438E-007
1, 1320.00000, -0.395002, 1.34392E-007, -2.32986E-007, -1.34373E-007
1, 1380.00000, -0.395002, 1.34374E-007, -2.32986E-007, -1.34373E-007
1, 1440.00000, -0.395002, 1.34373E-007, -2.32986E-007, -1.34373E-007
1, 1500.00000, -0.395002, 1.34373E-007, -2.32986E-007, -1.34373E-007
1, 1560.00000, -0.395003, 1.49896E-007, 1.21706E-007, -2.37048E-007
1, 1620.00000, -0.395003, 2.36831E-007, 1.21708E-007, -2.37049E-007
1, 1680.00000, -0.395003, 2.37048E-007, 1.21708E-007, -2.37049E-007
1, 1740.00000, -0.395003, 2.37049E-007, 1.21708E-007, -2.37049E-007
1, 1800.00000, -0.395003, 2.37049E-007, 1.21708E-007, -2.37049E-007
1, 1860.00000, -0.395002, 6.54632E-009, -1.09573E-007, -5.70195E-008
1, 1920.00000, -0.395002, 5.69921E-008, -1.09571E-007, -5.70218E-008
1, 1980.00000, -0.395002, 5.70212E-008, -1.09571E-007, -5.70218E-008
1, 2040.00000, -0.395002, 5.70218E-008, -1.09571E-007, -5.70218E-008
1, 2100.00000, -0.395002, 5.70218E-008, -1.09571E-007, -5.70218E-008
1, 2160.00000, -0.395002, 2.64308E-007, -1.43911E-007, -1.22681E-007
1, 2220.00000, -0.395002, 1.22743E-007, -1.43914E-007, -1.22683E-007
1, 2280.00000, -0.395002, 1.22684E-007, -1.43914E-007, -1.22683E-007
1, 2340.00000, -0.395002, 1.22683E-007, -1.43914E-007, -1.22683E-007
1, 2400.00000, -0.395002, 1.22683E-007, -1.43914E-007, -1.22683E-007
1, 2460.00000, -0.395004, 2.42156E-006, 8.6967E-008, -1.75263E-007
1, 2520.00000, -0.395002, 1.76874E-007, 8.69204E-008, -1.75323E-007
1, 2580.00000, -0.395002, 1.75324E-007, 8.69205E-008, -1.75323E-007
1, 2640.00000, -0.395002, 1.75323E-007, 8.69205E-008, -1.75323E-007
1, 2700.00000, -0.395002, 1.75323E-007, 8.69205E-008, -1.75323E-007
1, 2760.00000, -0.395003, -6.39755E-008, -7.20933E-008, 2.57683E-007
1, 2820.00000, -0.395002, -2.57154E-007, -7.19279E-008, 2.57644E-007
1, 2880.00000, -0.395002, -2.57639E-007, -7.19279E-008, 2.57644E-007
1, 2940.00000, -0.395002, -2.57644E-007, -7.19279E-008, 2.57644E-007
1, 3000.00000, -0.395002, -2.57644E-007, -7.19279E-008, 2.57644E-007
1, 3060.00000, -0.395002, 3.82248E-006, -1.95332E-007, -5.28731E-008
1, 3120.00000, -0.395002, 5.42553E-008, -1.95526E-007, -5.30376E-008
1, 3180.00000, -0.395002, 5.30285E-008, -1.95526E-007, -5.30378E-008
1, 3240.00000, -0.395002, 5.30378E-008, -1.95526E-007, -5.30378E-008
1, 3300.00000, -0.395002, 5.30378E-008, -1.95526E-007, -5.30378E-008
1, 3360.00000, -0.395002, 1.03887E-007, 8.006E-008, -2.96867E-008
1, 3420.00000, -0.395002, 3.01603E-008, 8.00611E-008, -2.96812E-008
1, 3480.00000, -0.395002, 2.9684E-008, 8.00611E-008, -2.96812E-008
1, 3540.00000, -0.395002, 2.96812E-008, 8.00611E-008, -2.96812E-008
2, 0.00000, -0.395002, 2.96812E-008, 8.00611E-008, -2.96812E-008
2, 60.00000, -0.275003, -1.73938E-007, 1.06219E-007, 9.84878E-008
2, 120.00000, -0.275003, -9.9259E-008, 1.06222E-007, 9.84855E-008
2, 180.00000, -0.275003, -9.84919E-008, 1.06222E-007, 9.84855E-008
2, 240.00000, -0.275003, -9.84856E-008, 1.06222E-007, 9.84855E-008
2, 300.00000, -0.275003, -9.84855E-008, 1.06222E-007, 9.84855E-008
2, 360.00000, -0.275003, -8.10603E-008, -8.78016E-008, 8.20912E-008
2, 420.00000, -0.275003, -8.25265E-008, -8.78072E-008, 8.20925E-008
2, 480.00000, -0.275003, -8.20985E-008, -8.78072E-008, 8.20925E-008
2, 540.00000, -0.275003, -8.20925E-008, -8.78072E-008, 8.20925E-008
2, 600.00000, -0.275003, -8.20925E-008, -8.78072E-008, 8.20925E-008
2, 660.00000, -0.274999, -6.02485E-006, -1.65985E-007, 4.52547E-009
2, 720.00000, -0.275003, -6.97959E-009, -1.66137E-007, 4.88098E-009
2, 780.00000, -0.275003, -4.88E-009, -1.66137E-007, 4.88123E-009
2, 840.00000, -0.275003, -4.88084E-009, -1.66137E-007, 4.88123E-009
2, 900.00000, -0.275003, -4.88122E-009, -1.66137E-007, 4.88123E-009
2, 960.00000, -0.275003, 9.31792E-008, 6.89508E-008, 4.52251E-008
2, 1020.00000, -0.275003, -4.40332E-008, 6.89424E-008, 4.52278E-008
2, 1080.00000, -0.275003, -4.5222E-008, 6.89423E-008, 4.52278E-008
2, 1140.00000, -0.275003, -4.52278E-008, 6.89423E-008, 4.52278E-008
2, 1200.00000, -0.275003, -4.52278E-008, 6.89423E-008, 4.52278E-008
2, 1260.00000, -0.275004, 2.1349E-006, -2.89452E-008, -7.45954E-008
2, 1320.00000, -0.275003, 7.5537E-008, -2.90293E-008, -7.46608E-008
2, 1380.00000, -0.275003, 7.46841E-008, -2.90293E-008, -7.46607E-008
2, 1440.00000, -0.275003, 7.46611E-008, -2.90293E-008, -7.46607E-008
2, 1500.00000, -0.275003, 7.46607E-008, -2.90293E-008, -7.46607E-008
2, 1560.00000, -0.275003, -1.41629E-007, 8.76093E-008, 5.06689E-008
2, 1620.00000, -0.275003, -5.1465E-008, 8.76146E-008, 5.06652E-008
2, 1680.00000, -0.275003, -5.06722E-008, 8.76146E-008, 5.06652E-008
2, 1740.00000, -0.275003, -5.06652E-008, 8.76146E-008, 5.06652E-008
2, 1800.00000, -0.275003, -5.06652E-008, 8.76146E-008, 5.06652E-008
2, 1860.00000, -0.275007, 1.52295E-006, -1.4923E-007, 6.54738E-008
2, 1920.00000, -0.275003, -6.63305E-008, -1.4889E-007, 6.53174E-008
2, 1980.00000, -0.275003, -6.52968E-008, -1.4889E-007, 6.53176E-008
2, 2040.00000, -0.275003, -6.53175E-008, -1.4889E-007, 6.53176E-008
2, 2100.00000, -0.275003, -6.53176E-008, -1.4889E-007, 6.53176E-008
2, 2160.00000, -0.275001, -1.49695E-006, -2.63558E-008, -6.69268E-008
2, 2220.00000, -0.275003, 6.55817E-008, -2.65022E-008, -6.68435E-008
2, 2280.00000, -0.275003, 6.68223E-008, -2.65022E-008, -6.68436E-008
2, 2340.00000, -0.275003, 6.68433E-008, -2.65022E-008, -6.68436E-008
2, 2400.00000, -0.275003, 6.68436E-008, -2.65022E-008, -6.68436E-008
2, 2460.00000, -0.275003, -1.95245E-008, -6.04214E-008, -2.335E-008
2, 2520.00000, -0.275003, 2.29189E-008, -6.04212E-008, -2.33512E-008
2, 2580.00000, -0.275003, 2.33449E-008, -6.04212E-008, -2.33513E-008
2, 2640.00000, -0.275003, 2.33512E-008, -6.04212E-008, -2.33513E-008
2, 2700.00000, -0.275003, 2.33513E-008, -6.04212E-008, -2.33513E-008
2, 2760.00000, -0.275003, 9.41919E-008, 3.98649E-008, -6.26117E-008
2, 2820.00000, -0.275003, 6.30646E-008, 3.98657E-008, -6.26112E-008
2, 2880.00000, -0.275003, 6.26169E-008, 3.98657E-008, -6.26112E-008
2, 2940.00000, -0.275003, 6.26112E-008, 3.98657E-008, -6.26112E-008
2, 3000.00000, -0.275003, 6.26112E-008, 3.98657E-008, -6.26112E-008
2, 3060.00000, -0.275003, -1.97717E-007, -5.80999E-008, 1.37783E-007
2, 3120.00000, -0.275003, -1.37707E-007, -5.80973E-008, 1.37789E-007
2, 3180.00000, -0.275003, -1.3778E-007, -5.80973E-008, 1.37789E-007
2, 3240.00000, -0.275003, -1.37788E-007, -5.80973E-008, 1.37789E-007
2, 3300.00000, -0.275003, -1.37789E-007, -5.80973E-008, 1.37789E-007
2, 3360.00000, -0.275003, 1.07193E-007, 1.28322E-008, 3.36095E-008
2, 3420.00000, -0.275003, -3.35182E-008, 1.28272E-008, 3.36019E-008
2, 3480.00000, -0.275003, -3.36131E-008, 1.28271E-008, 3.36018E-008
2, 3540.00000, -0.275003, -3.3602E-008, 1.28271E-008, 3.36018E-008
3, 0.00000, -0.275003, -3.36018E-008, 1.28271E-008, 3.36018E-008
3, 60.00000, -0.0588152, 9.85756E-009, -9.83208E-009, -9.42775E-010
3, 120.00000, -0.0588151, 1.04734E-009, -9.83161E-009, -9.41891E-010
3, 180.00000, -0.0588151, 9.44241E-010, -9.83161E-009, -9.41879E-010
3, 240.00000, -0.0588151, 9.4191E-010, -9.83161E-009, -9.41879E-010
3, 300.00000, -0.0588151, 9.41879E-010, -9.83161E-009, -9.41879E-010
3, 360.00000, -0.0588151, 1.99348E-008, 4.6338E-009, -2.29869E-008
3, 420.00000, -0.0588152, 2.28219E-008, 4.6332E-009, -2.29874E-008
3, 480.00000, -0.0588152, 2.29847E-008, 4.6332E-009, -2.29874E-008
3, 540.00000, -0.0588152, 2.29874E-008, 4.6332E-009, -2.29874E-008
3, 600.00000, -0.0588152, 2.29874E-008, 4.6332E-009, -2.29874E-008
3, 660.00000, -0.0588155, -2.24895E-007, 2.11656E-009, 4.57406E-010
3, 720.00000, -0.0588152, -1.03057E-009, 2.12943E-009, 4.5997E-010
3, 780.00000, -0.0588152, -4.59842E-010, 2.12946E-009, 4.6001E-010
3, 840.00000, -0.0588152, -4.59944E-010, 2.12946E-009, 4.60011E-010
3, 900.00000, -0.0588152, -4.60009E-010, 2.12946E-009, 4.60011E-010
3, 960.00000, -0.0588151, -2.29463E-008, 1.41896E-008, 2.92646E-009
3, 1020.00000, -0.0588152, -2.818E-009, 1.41899E-008, 2.92821E-009
3, 1080.00000, -0.0588152, -2.92712E-009, 1.41898E-008, 2.92821E-009
3, 1140.00000, -0.0588152, -2.9282E-009, 1.41898E-008, 2.92821E-009
3, 1200.00000, -0.0588152, -2.92821E-009, 1.41898E-008, 2.92821E-009
3, 1260.00000, -0.0588152, 4.36828E-008, 1.35712E-008, 1.61097E-009
3, 1320.00000, -0.0588152, -1.71358E-009, 1.35708E-008, 1.6079E-009
3, 1380.00000, -0.0588152, -1.61013E-009, 1.35708E-008, 1.60789E-009
3, 1440.00000, -0.0588152, -1.60792E-009, 1.35708E-008, 1.60789E-009
3, 1500.00000, -0.0588152, -1.6079E-009, 1.35708E-008, 1.60789E-009
3, 1560.00000, -0.0588157, 1.16953E-006, 2.42428E-008, 2.5995E-008
3, 1620.00000, -0.0588152, -2.5273E-008, 2.42155E-008, 2.59529E-008
3, 1680.00000, -0.0588152, -2.59509E-008, 2.42155E-008, 2.59529E-008
3, 1740.00000, -0.0588152, -2.59528E-008, 2.42155E-008, 2.59529E-008
3, 1800.00000, -0.0588152, -2.59529E-008, 2.42155E-008, 2.59529E-008
3, 1860.00000, -0.0588152, 2.63907E-008, 9.61615E-009, -1.15721E-008
3, 1920.00000, -0.0588152, 1.16964E-008, 9.61555E-009, -1.15718E-008
3, 1980.00000, -0.0588152, 1.15736E-008, 9.61554E-009, -1.15718E-008
3, 2040.00000, -0.0588152, 1.15718E-008, 9.61554E-009, -1.15718E-008
3, 2100.00000, -0.0588152, 1.15718E-008, 9.61554E-009, -1.15718E-008
3, 2160.00000, -0.0588152, -1.85759E-008, 2.70069E-008, 3.17859E-009
3, 2220.00000, -0.0588152, -3.26949E-009, 2.70082E-008, 3.17865E-009
3, 2280.00000, -0.0588152, -3.1786E-009, 2.70082E-008, 3.17865E-009
3, 2340.00000, -0.0588152, -3.17864E-009, 2.70082E-008, 3.17865E-009
3, 2400.00000, -0.0588152, -3.17865E-009, 2.70082E-008, 3.17865E-009
3, 2460.00000, -0.0588151, 1.58785E-008, 1.50433E-009, -1.47976E-009
3, 2520.00000, -0.0588152, 1.64236E-009, 1.50314E-009, -1.47962E-009
3, 2580.00000, -0.0588152, 1.47939E-009, 1.50313E-009, -1.47963E-009
3, 2640.00000, -0.0588152, 1.47961E-009, 1.50313E-009, -1.47963E-009
3, 2700.00000, -0.0588152, 1.47963E-009, 1.50313E-009, -1.47963E-009
3, 2760.00000, -0.0588152, -1.14586E-008, 4.64542E-009, 1.05045E-008
3, 2820.00000, -0.0588152, -1.07397E-008, 4.64531E-009, 1.05031E-008
3, 2880.00000, -0.0588152, -1.05064E-008, 4.64533E-009, 1.05031E-008
3, 2940.00000, -0.0588152, -1.05031E-008, 4.64533E-009, 1.05031E-008
3, 3000.00000, -0.0588152, -1.05031E-008, 4.64533E-009, 1.05031E-008
3, 3060.00000, -0.0588152, -1.97226E-008, 1.50426E-008, -7.2648E-010
3, 3120.00000, -0.0588152, 6.1009E-010, 1.50438E-008, -7.26076E-010
3, 3180.00000, -0.0588152, 7.26774E-010, 1.50438E-008, -7.26061E-010
3, 3240.00000, -0.0588152, 7.26086E-010, 1.50438E-008, -7.26061E-010
3, 3300.00000, -0.0588152, 7.26062E-010, 1.50438E-008, -7.26061E-010
3, 3360.00000, -0.0588151, -2.19348E-008, -1.65909E-008, 1.9935E-008
3, 3420.00000, -0.0588151, -1.99458E-008, -1.65913E-008, 1.99349E-008
3, 3480.00000, -0.0588151, -1.99365E-008, -1.65913E-008, 1.99349E-008
3, 3540.00000, -0.0588151, 1.8424E-008, -1.65914E-008, 1.99352E-008
4, 0.00000, -0.0588151, -1.98274E-008, -1.65914E-008, 1.99351E-008
4, 60.00000, -0.0379795, 1.48929E-008, -8.32759E-009, -9.63146E-010
4, 120.00000, -0.0379795, 1.23202E-009, -8.3286E-009, -9.61646E-010
4, 180.00000, -0.0379795, 9.6832E-010, -8.32862E-009, -9.6163E-010
4, 240.00000, -0.0379795, 9.61733E-010, -8.32862E-009, -9.6163E-010
4, 300.00000, -0.0379795, 9.61631E-010, -8.32862E-009, -9.6163E-010
4, 360.00000, -0.0379795, 3.06323E-008, -2.73289E-009, -7.83974E-009
4, 420.00000, -0.0379795, 8.03076E-009, -2.73299E-009, -7.84074E-009
4, 480.00000, -0.0379795, 7.83984E-009, -2.733E-009, -7.84076E-009
4, 540.00000, -0.0379795, 7.84068E-009, -2.733E-009, -7.84076E-009
4, 600.00000, -0.0379795, 7.84076E-009, -2.733E-009, -7.84076E-009
4, 660.00000, -0.0379796, -1.66844E-008, 1.27283E-008, 8.59951E-009
4, 720.00000, -0.0379796, -8.78907E-009, 1.2729E-008, 8.59893E-009
4, 780.00000, -0.0379796, -8.60108E-009, 1.2729E-008, 8.59893E-009
4, 840.00000, -0.0379796, -8.59894E-009, 1.2729E-008, 8.59893E-009
4, 900.00000, -0.0379796, -8.59893E-009, 1.2729E-008, 8.59893E-009
4, 960.00000, -0.0379802, 6.00782E-007, 1.71098E-008, -1.93263E-008
4, 1020.00000, -0.0379796, 1.89361E-008, 1.71183E-008, -1.93613E-008
4, 1080.00000, -0.0379796, 1.93582E-008, 1.71183E-008, -1.93613E-008
4, 1140.00000, -0.0379796, 1.93613E-008, 1.71183E-008, -1.93613E-008
4, 1200.00000, -0.0379796, 1.93613E-008, 1.71183E-008, -1.93613E-008
4, 1260.00000, -0.0379793, -2.46689E-007, 3.91545E-009, 7.78626E-009
4, 1320.00000, -0.0379795, -7.33601E-009, 3.9126E-009, 7.80084E-009
4, 1380.00000, -0.0379795, -7.7885E-009, 3.91257E-009, 7.80087E-009
4, 1440.00000, -0.0379795, -7.80067E-009, 3.91257E-009, 7.80087E-009
4, 1500.00000, -0.0379795, -7.80087E-009, 3.91257E-009, 7.80087E-009
4, 1560.00000, -0.0379795, 2.27328E-008, -3.19703E-009, -1.66435E-008
4, 1620.00000, -0.0379795, 1.64928E-008, -3.19656E-009, -1.66445E-008
4, 1680.00000, -0.0379795, 1.66418E-008, -3.19655E-009, -1.66445E-008
4, 1740.00000, -0.0379795, 1.66444E-008, -3.19655E-009, -1.66445E-008
4, 1800.00000, -0.0379795, 1.66445E-008, -3.19655E-009, -1.66445E-008
4, 1860.00000, -0.0379796, -1.57795E-008, 1.02279E-008, 1.63057E-009
4, 1920.00000, -0.0379796, -1.69242E-009, 1.02279E-008, 1.63113E-009
4, 1980.00000, -0.0379796, 3.47326E-009, 1.02214E-008, 1.62557E-009
4, 2040.00000, -0.0379795, -6.69633E-009, 1.0228E-008, 1.63117E-009
4, 2100.00000, -0.0379796, 2.64018E-009, 1.02225E-008, 1.62649E-009
4, 2160.00000, -0.0379799, 3.24695E-007, 3.19539E-010, -2.05047E-008
4, 2220.00000, -0.0379796, 3.0875E-008, 3.29959E-010, -2.05329E-008
4, 2280.00000, -0.0379795, 2.38631E-008, 3.27246E-010, -2.0535E-008
4, 2340.00000, -0.0379795, 2.27743E-008, 3.25392E-010, -2.05364E-008
4, 2400.00000, -0.0379796, 4.5787E-008, 3.0473E-010, -2.05509E-008
4, 2460.00000, -0.0379795, 1.77872E-008, -1.26803E-008, 5.19781E-009
4, 2520.00000, -0.0379796, 2.60236E-008, -1.27066E-008, 5.16979E-009
4, 2580.00000, -0.0379795, -5.24772E-009, -1.27057E-008, 5.16951E-009
4, 2640.00000, -0.0379795, -5.15981E-009, -1.27057E-008, 5.1695E-009
4, 2700.00000, -0.0379795, -5.16632E-009, -1.27057E-008, 5.1695E-009
4, 2760.00000, -0.0379795, 7.4947E-009, -5.24566E-009, -1.5064E-008
4, 2820.00000, -0.0379796, 3.26572E-008, -5.25998E-009, -1.50748E-008
4, 2880.00000, -0.0379795, 1.93835E-008, -5.26333E-009, -1.50778E-008
4, 2940.00000, -0.0379796, 2.61139E-008, -5.27212E-009, -1.50853E-008
4, 3000.00000, -0.0379796, 2.61833E-008, -5.28078E-009, -1.50928E-008
4, 3060.00000, -0.0379795, 5.83237E-009, -1.78406E-008, 1.13022E-008
4, 3120.00000, -0.0379796, 1.71396E-008, -1.78717E-008, 1.12615E-008
