hour, t(sec), P1 (kW), Q1 (kvar), P2 (kW), Q2 (kvar)
0, 60.00000, -0.147474, 2.94113E-006, 1.57818E-007, -2.03264E-007
0, 120.00000, -0.147472, 2.05031E-007, 1.57808E-007, -2.03283E-007
0, 180.00000, -0.147472, 2.03214E-007, 1.57808E-007, -2.03283E-007
0, 240.00000, -0.147472, 2.03283E-007, 1.57808E-007, -2.03283E-007
0, 300.00000, -0.147472, 2.03283E-007, 1.57808E-007, -2.03283E-007
0, 360.00000, -0.147472, -2.3288E-007, -2.13845E-009, -1.07304E-008
0, 420.00000, -0.147472, 1.15269E-008, -2.13402E-009, -1.07205E-008
0, 480.00000, -0.147472, 1.07297E-008, -2.13406E-009, -1.07206E-008
0, 540.00000, -0.147472, 1.07203E-008, -2.13406E-009, -1.07206E-008
0, 600.00000, -0.147472, 1.07206E-008, -2.13406E-009, -1.07206E-008
0, 660.00000, -0.147475, 4.9427E-007, 5.0842E-008, -7.57616E-008
0, 720.00000, -0.147472, 7.23363E-008, 5.10038E-008, -7.58457E-008
0, 780.00000, -0.147472, 7.5935E-008, 5.10038E-008, -7.58455E-008
0, 840.00000, -0.147472, 7.5845E-008, 5.10038E-008, -7.58455E-008
0, 900.00000, -0.147472, 7.58455E-008, 5.10038E-008, -7.58455E-008
0, 960.00000, -0.147472, 4.81984E-008, -1.14115E-007, -1.05026E-007
0, 1020.00000, -0.147472, 1.05224E-007, -1.14111E-007, -1.05026E-007
0, 1080.00000, -0.147472, 1.05049E-007, -1.14111E-007, -1.05026E-007
0, 1140.00000, -0.147472, 1.05025E-007, -1.14111E-007, -1.05026E-007
0, 1200.00000, -0.147472, 1.05026E-007, -1.14111E-007, -1.05026E-007
0, 1260.00000, -0.147472, 3.65402E-008, -3.14945E-008, -9.12192E-008
0, 1320.00000, -0.147472, 9.13988E-008, -3.149E-008, -9.12181E-008
0, 1380.00000, -0.147472, 9.11859E-008, -3.14899E-008, -9.12181E-008
0, 1440.00000, -0.147472, 9.1218E-008, -3.14899E-008, -9.12181E-008
0, 1500.00000, -0.147472, 9.12181E-008, -3.14899E-008, -9.12181E-008
0, 1560.00000, -0.147472, 3.86942E-007, -6.0625E-008, -1.70073E-007
0, 1620.00000, -0.147472, 1.68714E-007, -6.06254E-008, -1.70084E-007
0, 1680.00000, -0.147472, 1.70081E-007, -6.06254E-008, -1.70084E-007
0, 1740.00000, -0.147472, 1.70084E-007, -6.06254E-008, -1.70084E-007
0, 1800.00000, -0.147472, 1.70084E-007, -6.06254E-008, -1.70084E-007
0, 1860.00000, -0.147471, 8.24029E-007, -3.1361E-008, -9.16629E-008
0, 1920.00000, -0.147472, 9.62532E-008, -3.14335E-008, -9.1708E-008
0, 1980.00000, -0.147472, 9.16922E-008, -3.14335E-008, -9.17083E-008
0, 2040.00000, -0.147472, 9.17075E-008, -3.14335E-008, -9.17083E-008
0, 2100.00000, -0.147472, 9.17083E-008, -3.14335E-008, -9.17083E-008
0, 2160.00000, -0.147471, 9.68825E-006, -1.90822E-007, 1.03141E-007
0, 2220.00000, -0.147472, -9.65441E-008, -1.91066E-007, 1.02811E-007
0, 2280.00000, -0.147472, -1.02856E-007, -1.91066E-007, 1.02811E-007
0, 2340.00000, -0.147472, -1.02811E-007, -1.91066E-007, 1.02811E-007
0, 2400.00000, -0.147472, -1.02811E-007, -1.91066E-007, 1.02811E-007
0, 2460.00000, -0.147472, 2.96177E-007, 1.33855E-007, -5.97525E-008
0, 2520.00000, -0.147472, 6.03641E-008, 1.33856E-007, -5.97634E-008
0, 2580.00000, -0.147472, 5.97813E-008, 1.33856E-007, -5.97634E-008
0, 2640.00000, -0.147472, 5.97632E-008, 1.33856E-007, -5.97634E-008
0, 2700.00000, -0.147472, 5.97634E-008, 1.33856E-007, -5.97634E-008
0, 2760.00000, -0.147472, 7.10216E-008, -8.45751E-008, -2.44167E-008
0, 2820.00000, -0.147472, 2.4851E-008, -8.45779E-008, -2.44189E-008
0, 2880.00000, -0.147472, 2.44057E-008, -8.45779E-008, -2.44189E-008
0, 2940.00000, -0.147472, 2.44188E-008, -8.45779E-008, -2.44189E-008
0, 3000.00000, -0.147472, 2.44189E-008, -8.45779E-008, -2.44189E-008
0, 3060.00000, -0.147472, -4.93583E-008, 2.76188E-008, 6.75176E-008
0, 3120.00000, -0.147472, -6.93282E-008, 2.76249E-008, 6.75165E-008
0, 3180.00000, -0.147472, -6.75299E-008, 2.76249E-008, 6.75166E-008
0, 3240.00000, -0.147472, -6.75162E-008, 2.76249E-008, 6.75166E-008
0, 3300.00000, -0.147472, -6.75166E-008, 2.76249E-008, 6.75166E-008
0, 3360.00000, -0.147472, -2.84048E-007, -4.93941E-008, 2.75301E-007
0, 3420.00000, -0.147472, -2.73601E-007, -4.94015E-008, 2.75302E-007
0, 3480.00000, -0.147472, -2.7529E-007, -4.94016E-008, 2.75302E-007
0, 3540.00000, -0.147472, -2.75302E-007, -4.94016E-008, 2.75302E-007
1, 0.00000, -0.147472, -2.75302E-007, -4.94016E-008, 2.75302E-007
1, 60.00000, 0.0156121, 1.1222E-008, -3.17879E-009, -6.7838E-009
1, 120.00000, 0.0156121, 6.78493E-009, -3.17886E-009, -6.78375E-009
1, 180.00000, 0.0156121, 6.78375E-009, -3.17886E-009, -6.78375E-009
1, 240.00000, 0.0156121, 6.78375E-009, -3.17886E-009, -6.78375E-009
1, 300.00000, 0.0156121, 6.78375E-009, -3.17886E-009, -6.78375E-009
1, 360.00000, 0.0156122, 2.56103E-008, -9.3604E-009, -2.35481E-008
1, 420.00000, 0.0156122, 2.35334E-008, -9.36032E-009, -2.35477E-008
1, 480.00000, 0.0156122, 2.35477E-008, -9.36032E-009, -2.35477E-008
1, 540.00000, 0.0156122, 2.35477E-008, -9.36032E-009, -2.35477E-008
1, 600.00000, 0.0156122, 2.35477E-008, -9.36032E-009, -2.35477E-008
1, 660.00000, 0.0156119, 3.42264E-007, -7.45646E-011, 1.7178E-009
1, 720.00000, 0.0156121, -1.60814E-009, -7.29094E-011, 1.73952E-009
1, 780.00000, 0.0156121, -1.73946E-009, -7.29197E-011, 1.73953E-009
1, 840.00000, 0.0156121, -1.73952E-009, -7.29197E-011, 1.73953E-009
1, 900.00000, 0.0156121, -1.73953E-009, -7.29197E-011, 1.73953E-009
1, 960.00000, 0.0156121, 9.35447E-009, 1.99221E-008, -1.02509E-008
1, 1020.00000, 0.0156121, 1.023E-008, 1.9922E-008, -1.02505E-008
1, 1080.00000, 0.0156121, 1.02504E-008, 1.9922E-008, -1.02505E-008
1, 1140.00000, 0.0156121, 1.02505E-008, 1.9922E-008, -1.02505E-008
1, 1200.00000, 0.0156121, 1.02505E-008, 1.9922E-008, -1.02505E-008
1, 1260.00000, 0.0156121, 1.23556E-009, -6.06092E-011, 1.9432E-009
1, 1320.00000, 0.0156121, -1.92845E-009, -6.05516E-011, 1.94283E-009
1, 1380.00000, 0.0156121, -1.94274E-009, -6.05507E-011, 1.94283E-009
1, 1440.00000, 0.0156121, -1.94283E-009, -6.05507E-011, 1.94283E-009
1, 1500.00000, 0.0156121, -1.94283E-009, -6.05507E-011, 1.94283E-009
1, 1560.00000, 0.0156121, -1.16511E-008, -5.68625E-009, 8.30805E-009
1, 1620.00000, 0.0156121, -8.31611E-009, -5.68636E-009, 8.30798E-009
1, 1680.00000, 0.0156121, -8.30801E-009, -5.68636E-009, 8.30798E-009
1, 1740.00000, 0.0156121, -8.30798E-009, -5.68636E-009, 8.30798E-009
1, 1800.00000, 0.0156121, -8.30798E-009, -5.68636E-009, 8.30798E-009
1, 1860.00000, 0.0156121, -2.85207E-008, -8.23725E-009, 2.34733E-008
1, 1920.00000, 0.0156121, -2.34849E-008, -8.23742E-009, 2.34733E-008
1, 1980.00000, 0.0156121, -2.34734E-008, -8.23742E-009, 2.34733E-008
1, 2040.00000, 0.0156121, -2.34733E-008, -8.23742E-009, 2.34733E-008
1, 2100.00000, 0.0156121, -2.34733E-008, -8.23742E-009, 2.34733E-008
1, 2160.00000, 0.0156121, 7.51215E-009, 2.29888E-008, -1.99423E-009
1, 2220.00000, 0.0156121, 2.00038E-009, 2.29888E-008, -1.99408E-009
1, 2280.00000, 0.0156121, 1.99413E-009, 2.29888E-008, -1.99408E-009
1, 2340.00000, 0.0156121, 1.99408E-009, 2.29888E-008, -1.99408E-009
1, 2400.00000, 0.0156121, 1.99408E-009, 2.29888E-008, -1.99408E-009
1, 2460.00000, 0.0156121, 7.52544E-008, -8.63231E-011, 1.73674E-009
1, 2520.00000, 0.0156121, -1.64458E-009, -8.98865E-011, 1.73927E-009
1, 2580.00000, 0.0156121, -1.73883E-009, -8.98884E-011, 1.73927E-009
1, 2640.00000, 0.0156121, -1.73926E-009, -8.98884E-011, 1.73927E-009
1, 2700.00000, 0.0156121, -1.73927E-009, -8.98884E-011, 1.73927E-009
1, 2760.00000, 0.0156122, -1.44724E-007, -2.56097E-009, 1.68149E-008
1, 2820.00000, 0.0156121, -1.69077E-008, -2.56419E-009, 1.68092E-008
1, 2880.00000, 0.0156121, -1.68095E-008, -2.56419E-009, 1.68092E-008
1, 2940.00000, 0.0156121, -1.68092E-008, -2.56419E-009, 1.68092E-008
1, 3000.00000, 0.0156121, -1.68092E-008, -2.56419E-009, 1.68092E-008
1, 3060.00000, 0.015612, 1.36422E-007, 5.51355E-009, -5.11069E-009
1, 3120.00000, 0.0156121, 5.02661E-009, 5.51058E-009, -5.10106E-009
1, 3180.00000, 0.0156121, 5.10056E-009, 5.51057E-009, -5.10106E-009
1, 3240.00000, 0.0156121, 5.10106E-009, 5.51057E-009, -5.10106E-009
1, 3300.00000, 0.0156121, 5.10106E-009, 5.51057E-009, -5.10106E-009
1, 3360.00000, 0.0156122, -1.32702E-008, -1.13553E-008, 1.5196E-008
1, 3420.00000, 0.0156122, -1.51815E-008, -1.13551E-008, 1.51959E-008
1, 3480.00000, 0.0156122, -1.51958E-008, -1.13551E-008, 1.51959E-008
1, 3540.00000, 0.0156122, -1.51959E-008, -1.13551E-008, 1.51959E-008
2, 0.00000, 0.0156122, -1.51959E-008, -1.13551E-008, 1.51959E-008
2, 60.00000, 0.0237069, -4.2683E-008, -1.25318E-008, 3.57411E-008
2, 120.00000, 0.0237069, -3.57712E-008, -1.25321E-008, 3.5741E-008
2, 180.00000, 0.0237069, -3.57411E-008, -1.25321E-008, 3.5741E-008
2, 240.00000, 0.0237069, -3.5741E-008, -1.25321E-008, 3.5741E-008
2, 300.00000, 0.0237069, -3.5741E-008, -1.25321E-008, 3.5741E-008
2, 360.00000, 0.0237069, -4.94333E-009, 4.56002E-009, 1.48271E-008
2, 420.00000, 0.0237069, -1.48531E-008, 4.56031E-009, 1.48274E-008
2, 480.00000, 0.0237069, -1.48273E-008, 4.56031E-009, 1.48273E-008
2, 540.00000, 0.0237069, -1.48273E-008, 4.56031E-009, 1.48273E-008
2, 600.00000, 0.0237069, -1.48273E-008, 4.56031E-009, 1.48273E-008
2, 660.00000, 0.0237071, 1.29559E-007, 7.542E-010, 3.7835E-008
2, 720.00000, 0.0237069, -3.72708E-008, 7.8343E-010, 3.78379E-008
2, 780.00000, 0.0237069, -3.7833E-008, 7.8345E-010, 3.78379E-008
2, 840.00000, 0.0237069, -3.78378E-008, 7.8345E-010, 3.78379E-008
2, 900.00000, 0.0237069, -3.78379E-008, 7.8345E-010, 3.78379E-008
2, 960.00000, 0.0237069, -1.08276E-008, 1.78364E-008, 1.74207E-008
2, 1020.00000, 0.0237069, -1.74201E-008, 1.78371E-008, 1.74212E-008
2, 1080.00000, 0.0237069, -1.74219E-008, 1.78371E-008, 1.74212E-008
2, 1140.00000, 0.0237069, -1.74212E-008, 1.78371E-008, 1.74212E-008
2, 1200.00000, 0.0237069, -1.74212E-008, 1.78371E-008, 1.74212E-008
2, 1260.00000, 0.0237069, 1.47613E-007, 4.54311E-009, 1.52226E-008
2, 1320.00000, 0.0237069, -1.48962E-008, 4.54001E-009, 1.52305E-008
2, 1380.00000, 0.0237069, -1.52273E-008, 4.54002E-009, 1.52305E-008
2, 1440.00000, 0.0237069, -1.52304E-008, 4.54002E-009, 1.52305E-008
2, 1500.00000, 0.0237069, -1.52305E-008, 4.54002E-009, 1.52305E-008
2, 1560.00000, 0.0237069, -2.29749E-008, -8.72155E-009, 1.2783E-008
2, 1620.00000, 0.0237069, -1.28226E-008, -8.72211E-009, 1.27829E-008
2, 1680.00000, 0.0237069, -1.27829E-008, -8.72212E-009, 1.27829E-008
2, 1740.00000, 0.0237069, -1.27829E-008, -8.72212E-009, 1.27829E-008
2, 1800.00000, 0.0237069, -1.27829E-008, -8.72212E-009, 1.27829E-008
2, 1860.00000, 0.0237071, -5.5441E-007, -1.33196E-008, -2.56538E-010
2, 1920.00000, 0.0237069, -6.55992E-011, -1.33375E-008, -2.78769E-010
2, 1980.00000, 0.0237069, 2.78733E-010, -1.33375E-008, -2.78783E-010
2, 2040.00000, 0.0237069, 2.78771E-010, -1.33375E-008, -2.78783E-010
2, 2100.00000, 0.0237069, 2.78783E-010, -1.33375E-008, -2.78783E-010
2, 2160.00000, 0.0237069, 2.12246E-007, -1.33713E-008, -2.23267E-010
2, 2220.00000, 0.0237069, 2.5152E-010, -1.33619E-008, -2.13825E-010
2, 2280.00000, 0.0237069, 2.12841E-010, -1.33619E-008, -2.13816E-010
2, 2340.00000, 0.0237069, 2.13814E-010, -1.33619E-008, -2.13816E-010
2, 2400.00000, 0.0237069, 2.13816E-010, -1.33619E-008, -2.13816E-010
2, 2460.00000, 0.0237069, 5.4177E-009, -4.85045E-009, -1.02281E-008
2, 2520.00000, 0.0237069, 1.01803E-008, -4.85056E-009, -1.02281E-008
2, 2580.00000, 0.0237069, 1.02277E-008, -4.85057E-009, -1.02281E-008
2, 2640.00000, 0.0237069, 1.02281E-008, -4.85057E-009, -1.02281E-008
2, 2700.00000, 0.0237069, 1.02281E-008, -4.85057E-009, -1.02281E-008
2, 2760.00000, 0.0237069, 1.00957E-008, 8.40248E-009, -8.01477E-009
2, 2820.00000, 0.0237069, 8.04808E-009, 8.4025E-009, -8.01483E-009
2, 2880.00000, 0.0237069, 8.01497E-009, 8.4025E-009, -8.01483E-009
2, 2940.00000, 0.0237069, 8.01483E-009, 8.4025E-009, -8.01483E-009
2, 3000.00000, 0.0237069, 8.01483E-009, 8.4025E-009, -8.01483E-009
2, 3060.00000, 0.0237069, 1.5118E-008, 8.35792E-009, -7.68454E-009
2, 3120.00000, 0.0237069, 7.78786E-009, 8.35821E-009, -7.68512E-009
2, 3180.00000, 0.0237069, 7.68651E-009, 8.35822E-009, -7.68513E-009
2, 3240.00000, 0.0237069, 7.68514E-009, 8.35822E-009, -7.68513E-009
2, 3300.00000, 0.0237069, 7.68513E-009, 8.35822E-009, -7.68513E-009
2, 3360.00000, 0.0237069, -1.06274E-008, 1.31421E-008, 4.51813E-009
2, 3420.00000, 0.0237069, -4.64889E-009, 1.31418E-008, 4.51893E-009
2, 3480.00000, 0.0237069, -4.52072E-009, 1.31418E-008, 4.51894E-009
2, 3540.00000, 0.0237069, -4.51895E-009, 1.31418E-008, 4.51894E-009
3, 0.00000, 0.0237069, -4.51894E-009, 1.31418E-008, 4.51894E-009
3, 60.00000, 0.0225365, -2.18891E-009, -1.09941E-010, 2.24168E-009
3, 120.00000, 0.0225365, -2.15441E-009, -1.09758E-010, 2.24124E-009
3, 180.00000, 0.0225365, -2.2403E-009, -1.09753E-010, 2.24124E-009
3, 240.00000, 0.0225365, -2.24123E-009, -1.09753E-010, 2.24124E-009
3, 300.00000, 0.0225365, -2.24124E-009, -1.09753E-010, 2.24124E-009
3, 360.00000, 0.0225365, -1.059E-008, 2.51192E-008, 6.69326E-009
3, 420.00000, 0.0225365, -6.79151E-009, 2.51191E-008, 6.69363E-009
3, 480.00000, 0.0225365, -6.69447E-009, 2.51191E-008, 6.69363E-009
3, 540.00000, 0.0225365, -6.69363E-009, 2.51191E-008, 6.69363E-009
3, 600.00000, 0.0225365, -6.69363E-009, 2.51191E-008, 6.69363E-009
3, 660.00000, 0.0225365, -8.58485E-011, 1.25125E-008, 4.29804E-009
3, 720.00000, 0.0225365, -4.12298E-009, 1.251E-008, 4.29224E-009
3, 780.00000, 0.0225365, -4.28904E-009, 1.251E-008, 4.29222E-009
3, 840.00000, 0.0225365, -4.29217E-009, 1.251E-008, 4.29222E-009
3, 900.00000, 0.0225365, -4.29222E-009, 1.251E-008, 4.29222E-009
3, 960.00000, 0.0225365, 2.0996E-008, -9.15468E-009, -2.17928E-008
3, 1020.00000, 0.0225365, 2.18225E-008, -9.15418E-009, -2.17933E-008
3, 1080.00000, 0.0225365, 2.17933E-008, -9.15417E-009, -2.17933E-008
3, 1140.00000, 0.0225365, 2.17933E-008, -9.15417E-009, -2.17933E-008
3, 1200.00000, 0.0225365, 2.17933E-008, -9.15417E-009, -2.17933E-008
3, 1260.00000, 0.0225365, -1.30529E-008, -2.07905E-008, 9.69222E-009
3, 1320.00000, 0.0225365, -9.78759E-009, -2.07913E-008, 9.69313E-009
3, 1380.00000, 0.0225365, -9.69392E-009, -2.07913E-008, 9.69313E-009
3, 1440.00000, 0.0225365, -9.69313E-009, -2.07913E-008, 9.69313E-009
3, 1500.00000, 0.0225365, -9.69313E-009, -2.07913E-008, 9.69313E-009
3, 1560.00000, 0.0225362, 1.83874E-007, 1.24847E-008, 4.29281E-009
3, 1620.00000, 0.0225365, -4.28679E-009, 1.24714E-008, 4.30518E-009
3, 1680.00000, 0.0225365, -4.30278E-009, 1.24714E-008, 4.30516E-009
3, 1740.00000, 0.0225365, -4.30512E-009, 1.24714E-008, 4.30516E-009
3, 1800.00000, 0.0225365, -4.30516E-009, 1.24714E-008, 4.30516E-009
3, 1860.00000, 0.0225365, 2.10334E-008, -4.5893E-009, -1.00957E-008
3, 1920.00000, 0.0225365, 1.01594E-008, -4.58904E-009, -1.00957E-008
3, 1980.00000, 0.0225365, 1.00961E-008, -4.58903E-009, -1.00957E-008
3, 2040.00000, 0.0225365, 1.00957E-008, -4.58903E-009, -1.00957E-008
3, 2100.00000, 0.0225365, 1.00957E-008, -4.58903E-009, -1.00957E-008
3, 2160.00000, 0.0225365, 1.01151E-009, 7.96986E-009, -7.30396E-009
3, 2220.00000, 0.0225365, 7.32095E-009, 7.96953E-009, -7.30442E-009
3, 2280.00000, 0.0225365, 7.30495E-009, 7.96953E-009, -7.30442E-009
3, 2340.00000, 0.0225365, 7.30443E-009, 7.96953E-009, -7.30442E-009
3, 2400.00000, 0.0225365, 7.30442E-009, 7.96953E-009, -7.30442E-009
3, 2460.00000, 0.0225365, 7.76629E-009, -4.63565E-009, -9.73639E-009
3, 2520.00000, 0.0225365, 9.68623E-009, -4.63524E-009, -9.73592E-009
3, 2580.00000, 0.0225365, 9.7348E-009, -4.63524E-009, -9.73591E-009
3, 2640.00000, 0.0225365, 9.7359E-009, -4.63524E-009, -9.73591E-009
3, 2700.00000, 0.0225365, 9.73591E-009, -4.63524E-009, -9.73591E-009
3, 2760.00000, 0.0225365, 5.46919E-009, -4.58935E-009, -1.008E-008
3, 2820.00000, 0.0225365, 9.98241E-009, -4.58985E-009, -1.00796E-008
3, 2880.00000, 0.0225365, 1.00789E-008, -4.58986E-009, -1.00796E-008
3, 2940.00000, 0.0225365, 1.00796E-008, -4.58986E-009, -1.00796E-008
3, 3000.00000, 0.0225365, 1.00796E-008, -4.58986E-009, -1.00796E-008
3, 3060.00000, 0.0225365, -8.69669E-009, -2.08466E-008, 9.70376E-009
3, 3120.00000, 0.0225365, -9.63576E-009, -2.08469E-008, 9.70318E-009
3, 3180.00000, 0.0225365, -9.70192E-009, -2.08469E-008, 9.70317E-009
3, 3240.00000, 0.0225365, -9.70315E-009, -2.08469E-008, 9.70317E-009
3, 3300.00000, 0.0225365, -9.70317E-009, -2.08469E-008, 9.70317E-009
3, 3360.00000, 0.0225365, 1.14709E-009, 7.98223E-009, -7.65623E-009
3, 3420.00000, 0.0225365, 7.57344E-009, 7.98229E-009, -7.65599E-009
3, 3480.00000, 0.0225365, 7.65495E-009, 7.98229E-009, -7.65599E-009
3, 3540.00000, 0.0225365, -8.64045E-009, 7.9824E-009, -7.65609E-009
4, 0.00000, 0.0225365, 7.58061E-009, 7.98237E-009, -7.65605E-009
4, 60.00000, 0.0268479, 5.38221E-008, -1.08389E-008, -2.63211E-008
4, 120.00000, 0.0268479, 2.66411E-008, -1.08376E-008, -2.63214E-008
4, 180.00000, 0.0268479, 2.63255E-008, -1.08376E-008, -2.63214E-008
4, 240.00000, 0.0268479, 2.63215E-008, -1.08376E-008, -2.63214E-008
4, 300.00000, 0.0268479, 2.63214E-008, -1.08376E-008, -2.63214E-008
4, 360.00000, 0.0268479, -4.26735E-008, 1.05882E-008, 3.11877E-008
4, 420.00000, 0.0268479, -3.13197E-008, 1.05879E-008, 3.11883E-008
4, 480.00000, 0.0268479, -3.11923E-008, 1.05879E-008, 3.11883E-008
4, 540.00000, 0.0268479, -3.11884E-008, 1.05879E-008, 3.11883E-008
4, 600.00000, 0.0268479, -3.11883E-008, 1.05879E-008, 3.11883E-008
4, 660.00000, 0.0268479, -2.36175E-008, -9.82234E-009, 1.41032E-008
4, 720.00000, 0.0268479, -1.41591E-008, -9.82307E-009, 1.41031E-008
4, 780.00000, 0.0268479, -1.41025E-008, -9.82307E-009, 1.41031E-008
4, 840.00000, 0.0268479, -1.4103E-008, -9.82307E-009, 1.41031E-008
4, 900.00000, 0.0268479, -1.41031E-008, -9.82307E-009, 1.41031E-008
4, 960.00000, 0.0268477, 1.33156E-008, 1.48411E-008, 5.55975E-009
4, 1020.00000, 0.0268479, -5.61256E-009, 1.48155E-008, 5.55868E-009
4, 1080.00000, 0.0268479, -5.55658E-009, 1.48155E-008, 5.55866E-009
4, 1140.00000, 0.0268479, -5.55861E-009, 1.48155E-008, 5.55866E-009
4, 1200.00000, 0.0268479, -5.55866E-009, 1.48155E-008, 5.55866E-009
4, 1260.00000, 0.0268479, 1.65215E-008, -4.53848E-009, 2.87458E-008
4, 1320.00000, 0.0268479, -2.82204E-008, -4.52883E-009, 2.87446E-008
4, 1380.00000, 0.0268479, -2.87373E-008, -4.52879E-009, 2.87446E-008
4, 1440.00000, 0.0268479, -2.87445E-008, -4.52879E-009, 2.87446E-008
4, 1500.00000, 0.0268479, -2.87446E-008, -4.52879E-009, 2.87446E-008
4, 1560.00000, 0.0268478, -1.65498E-008, 1.49219E-008, 5.62943E-009
4, 1620.00000, 0.0268479, -5.75378E-009, 1.49212E-008, 5.62968E-009
4, 1680.00000, 0.0268479, -5.63053E-009, 1.49212E-008, 5.62967E-009
4, 1740.00000, 0.0268479, -5.62967E-009, 1.49212E-008, 5.62967E-009
4, 1800.00000, 0.0268479, -5.62967E-009, 1.49212E-008, 5.62967E-009
4, 1860.00000, 0.0268479, 3.06968E-008, 4.17323E-009, -2.37356E-008
4, 1920.00000, 0.0268479, 2.3806E-008, 4.17344E-009, -2.37359E-008
4, 1980.00000, 0.0268479, 1.96503E-008, 4.17699E-009, -2.37452E-008
4, 2040.00000, 0.0268479, 2.78146E-008, 4.17341E-009, -2.3736E-008
4, 2100.00000, 0.0268479, 2.03106E-008, 4.1764E-009, -2.37437E-008
4, 2160.00000, 0.0268479, -1.10912E-007, -1.51541E-008, -2.76532E-010
4, 2220.00000, 0.0268479, -5.42426E-009, -1.51633E-008, -3.01363E-010
4, 2280.00000, 0.0268479, -1.55909E-009, -1.5161E-008, -3.06665E-010
4, 2340.00000, 0.0268479, -9.46874E-010, -1.51594E-008, -3.10204E-010
4, 2400.00000, 0.0268479, -1.39628E-008, -1.5142E-008, -3.48786E-010
4, 2460.00000, 0.0268479, 2.51548E-009, -7.10707E-011, 2.56806E-009
4, 2520.00000, 0.0268479, -2.68581E-008, -5.29203E-011, 2.51403E-009
4, 2580.00000, 0.0268479, -2.4425E-009, -5.33412E-011, 2.5135E-009
4, 2640.00000, 0.0268479, -2.5205E-009, -5.33343E-011, 2.51349E-009
4, 2700.00000, 0.0268479, -2.51597E-009, -5.33325E-011, 2.51348E-009
4, 2760.00000, 0.0268479, -1.1206E-008, -2.48445E-008, 1.17471E-008
4, 2820.00000, 0.0268479, -2.25249E-008, -2.48288E-008, 1.17164E-008
4, 2880.00000, 0.0268479, -1.44088E-008, -2.4825E-008, 1.17086E-008
4, 2940.00000, 0.0268479, -1.86358E-008, -2.48156E-008, 1.16897E-008
4, 3000.00000, 0.0268479, -1.8664E-008, -2.48064E-008, 1.16707E-008
4, 3060.00000, 0.0268479, -2.31484E-008, -9.69051E-009, 1.37705E-008
4, 3120.00000, 0.0268479, -4.1769E-008, -9.66406E-009, 1.36972E-008
4, 3180.00000, 0.0268479, -7.78242E-009, -9.67006E-009, 1.37119E-008
