hour, t(sec), P1 (kW), Q1 (kvar), P2 (kW), Q2 (kvar)
0, 60.00000, 0.120555, 0.0396245, -4.27216E-008, -4.89397E-008
0, 120.00000, 0.120555, 0.0396246, -4.27207E-008, -4.89403E-008
0, 180.00000, 0.120555, 0.0396246, -4.27207E-008, -4.89402E-008
0, 240.00000, 0.120555, 0.0396246, -4.27207E-008, -4.89402E-008
0, 300.00000, 0.120555, 0.0396246, -4.27207E-008, -4.89402E-008
0, 360.00000, 0.0937654, 0.0308199, 3.76932E-008, -2.36612E-008
0, 420.00000, 0.093765, 0.0308191, 3.76994E-008, -2.36584E-008
0, 480.00000, 0.093765, 0.0308191, 3.76995E-008, -2.36584E-008
0, 540.00000, 0.093765, 0.0308191, 3.76995E-008, -2.36584E-008
0, 600.00000, 0.093765, 0.0308191, 3.76995E-008, -2.36584E-008
0, 660.00000, 0.0937639, 0.0308183, 3.68921E-008, -2.32458E-008
0, 720.00000, 0.093765, 0.0308191, 3.68852E-008, -2.3246E-008
0, 780.00000, 0.093765, 0.0308191, 3.68851E-008, -2.3246E-008
0, 840.00000, 0.093765, 0.0308191, 3.68851E-008, -2.3246E-008
0, 900.00000, 0.093765, 0.0308191, 3.68851E-008, -2.3246E-008
0, 960.00000, 0.0937648, 0.030819, 2.07849E-008, -1.14529E-008
0, 1020.00000, 0.093765, 0.0308191, 2.0784E-008, -1.14524E-008
0, 1080.00000, 0.093765, 0.0308191, 2.0784E-008, -1.14524E-008
0, 1140.00000, 0.093765, 0.0308191, 2.0784E-008, -1.14524E-008
0, 1200.00000, 0.093765, 0.0308191, 2.0784E-008, -1.14524E-008
0, 1260.00000, 0.120558, 0.0396254, -1.4423E-008, 3.98405E-008
0, 1320.00000, 0.120555, 0.0396245, -1.44111E-008, 3.98311E-008
0, 1380.00000, 0.120555, 0.0396245, -1.4411E-008, 3.9831E-008
0, 1440.00000, 0.120555, 0.0396245, -1.4411E-008, 3.9831E-008
0, 1500.00000, 0.120555, 0.0396245, -1.4411E-008, 3.9831E-008
0, 1560.00000, 0.120556, 0.0396244, -1.60187E-008, -1.36784E-008
0, 1620.00000, 0.120555, 0.0396245, -1.60169E-008, -1.3686E-008
0, 1680.00000, 0.120555, 0.0396245, -1.60168E-008, -1.3686E-008
0, 1740.00000, 0.120555, 0.0396245, -1.60168E-008, -1.36861E-008
0, 1800.00000, 0.120555, 0.0396245, -1.60168E-008, -1.36861E-008
0, 1860.00000, 0.107159, 0.0352218, -2.17818E-008, -1.02985E-007
0, 1920.00000, 0.10716, 0.0352219, -2.1784E-008, -1.02978E-007
0, 1980.00000, 0.10716, 0.0352219, -2.1784E-008, -1.02978E-007
0, 2040.00000, 0.10716, 0.0352219, -2.1784E-008, -1.02978E-007
0, 2100.00000, 0.10716, 0.0352219, -2.1784E-008, -1.02978E-007
0, 2160.00000, 0.0937642, 0.0308186, 2.85242E-009, -2.12229E-008
0, 2220.00000, 0.093765, 0.0308191, 2.84731E-009, -2.12205E-008
0, 2280.00000, 0.093765, 0.0308191, 2.84727E-009, -2.12205E-008
0, 2340.00000, 0.093765, 0.0308191, 2.84727E-009, -2.12205E-008
0, 2400.00000, 0.093765, 0.0308191, 2.84727E-009, -2.12205E-008
0, 2460.00000, 0.093763, 0.0308188, 4.35913E-008, 3.74379E-008
0, 2520.00000, 0.0937649, 0.030819, 4.35879E-008, 3.74469E-008
0, 2580.00000, 0.093765, 0.030819, 4.35878E-008, 3.7447E-008
0, 2640.00000, 0.093765, 0.030819, 4.35878E-008, 3.7447E-008
0, 2700.00000, 0.093765, 0.030819, 4.35878E-008, 3.7447E-008
0, 2760.00000, 0.10716, 0.0352224, -1.67588E-008, -9.03314E-009
0, 2820.00000, 0.10716, 0.0352218, -1.67556E-008, -9.0282E-009
0, 2880.00000, 0.10716, 0.0352218, -1.67556E-008, -9.02816E-009
0, 2940.00000, 0.10716, 0.0352218, -1.67556E-008, -9.02815E-009
0, 3000.00000, 0.10716, 0.0352218, -1.67556E-008, -9.02815E-009
0, 3060.00000, 0.133951, 0.0440257, -3.80526E-008, 9.13503E-008
0, 3120.00000, 0.13395, 0.0440271, -3.80607E-008, 9.1333E-008
0, 3180.00000, 0.13395, 0.0440271, -3.80607E-008, 9.13329E-008
0, 3240.00000, 0.13395, 0.0440271, -3.80607E-008, 9.13329E-008
0, 3300.00000, 0.13395, 0.0440271, -3.80607E-008, 9.13329E-008
0, 3360.00000, 0.120558, 0.0396249, -6.46498E-008, -3.38334E-008
0, 3420.00000, 0.120555, 0.0396246, -6.46411E-008, -3.38482E-008
0, 3480.00000, 0.120555, 0.0396245, -6.4641E-008, -3.38483E-008
0, 3540.00000, 0.120555, 0.0396245, -6.4641E-008, -3.38483E-008
1, 0.00000, 0.120555, 0.0396245, -6.4641E-008, -3.38483E-008
1, 60.00000, 0.0937646, 0.0308194, -1.44958E-008, -9.87115E-009
1, 120.00000, 0.093765, 0.0308191, -1.44978E-008, -9.86328E-009
1, 180.00000, 0.093765, 0.0308191, -1.44978E-008, -9.86324E-009
1, 240.00000, 0.093765, 0.0308191, -1.44978E-008, -9.86324E-009
1, 300.00000, 0.093765, 0.0308191, -1.44978E-008, -9.86324E-009
1, 360.00000, 0.0803711, 0.026417, 1.13485E-009, -1.70097E-008
1, 420.00000, 0.08037, 0.0264164, 1.14043E-009, -1.70112E-008
1, 480.00000, 0.08037, 0.0264164, 1.14046E-009, -1.70112E-008
1, 540.00000, 0.08037, 0.0264164, 1.14046E-009, -1.70112E-008
1, 600.00000, 0.08037, 0.0264164, 1.14046E-009, -1.70112E-008
1, 660.00000, 0.0803694, 0.026416, 2.14642E-009, -6.56728E-010
1, 720.00000, 0.08037, 0.0264163, 2.14388E-009, -6.55596E-010
1, 780.00000, 0.08037, 0.0264163, 2.14386E-009, -6.55593E-010
1, 840.00000, 0.08037, 0.0264163, 2.14386E-009, -6.55593E-010
1, 900.00000, 0.08037, 0.0264163, 2.14386E-009, -6.55593E-010
1, 960.00000, 0.0803701, 0.026417, 1.67625E-008, -1.01851E-008
1, 1020.00000, 0.08037, 0.0264164, 1.67672E-008, -1.01822E-008
1, 1080.00000, 0.08037, 0.0264164, 1.67672E-008, -1.01821E-008
1, 1140.00000, 0.08037, 0.0264164, 1.67672E-008, -1.01821E-008
1, 1200.00000, 0.08037, 0.0264164, 1.67672E-008, -1.01821E-008
1, 1260.00000, 0.0803692, 0.0264156, 1.16441E-009, -1.68844E-008
1, 1320.00000, 0.08037, 0.0264164, 1.15844E-009, -1.68848E-008
1, 1380.00000, 0.08037, 0.0264164, 1.15841E-009, -1.68848E-008
1, 1440.00000, 0.08037, 0.0264164, 1.15841E-009, -1.68848E-008
1, 1500.00000, 0.08037, 0.0264164, 1.15841E-009, -1.68848E-008
1, 1560.00000, 0.0803698, 0.0264167, 1.62104E-009, -1.79753E-008
1, 1620.00000, 0.08037, 0.0264164, 1.62294E-009, -1.79718E-008
1, 1680.00000, 0.08037, 0.0264164, 1.62295E-009, -1.79717E-008
1, 1740.00000, 0.08037, 0.0264164, 1.62295E-009, -1.79717E-008
1, 1800.00000, 0.08037, 0.0264164, 1.62295E-009, -1.79717E-008
1, 1860.00000, 0.0937658, 0.0308196, -1.36831E-008, -9.62436E-009
1, 1920.00000, 0.093765, 0.0308191, -1.36783E-008, -9.62556E-009
1, 1980.00000, 0.093765, 0.0308191, -1.36782E-008, -9.62556E-009
1, 2040.00000, 0.093765, 0.0308191, -1.36782E-008, -9.62556E-009
1, 2100.00000, 0.093765, 0.0308191, -1.36782E-008, -9.62556E-009
1, 2160.00000, 0.107159, 0.0352212, -3.43896E-008, 2.60872E-008
1, 2220.00000, 0.10716, 0.0352218, -3.43952E-008, 2.60883E-008
1, 2280.00000, 0.10716, 0.0352218, -3.43952E-008, 2.60883E-008
1, 2340.00000, 0.10716, 0.0352218, -3.43952E-008, 2.60883E-008
1, 2400.00000, 0.10716, 0.0352218, -3.43952E-008, 2.60883E-008
1, 2460.00000, 0.093759, 0.030816, -3.2515E-008, -1.7241E-008
1, 2520.00000, 0.093765, 0.0308191, -3.25506E-008, -1.72204E-008
1, 2580.00000, 0.093765, 0.0308191, -3.25509E-008, -1.72204E-008
1, 2640.00000, 0.093765, 0.0308191, -3.25509E-008, -1.72204E-008
1, 2700.00000, 0.093765, 0.0308191, -3.25509E-008, -1.72204E-008
1, 2760.00000, 0.0535807, 0.0176103, 2.9641E-008, -3.21197E-008
1, 2820.00000, 0.05358, 0.0176109, 2.96458E-008, -3.2136E-008
1, 2880.00000, 0.05358, 0.0176109, 2.96458E-008, -3.21361E-008
1, 2940.00000, 0.05358, 0.0176109, 2.96458E-008, -3.21361E-008
1, 3000.00000, 0.05358, 0.0176109, 2.96458E-008, -3.21361E-008
1, 3060.00000, 0.0669794, 0.0220171, 4.06376E-008, 1.68356E-008
1, 3120.00000, 0.066975, 0.0220136, 4.06622E-008, 1.68386E-008
1, 3180.00000, 0.066975, 0.0220136, 4.06623E-008, 1.68387E-008
1, 3240.00000, 0.066975, 0.0220136, 4.06623E-008, 1.68387E-008
1, 3300.00000, 0.066975, 0.0220136, 4.06623E-008, 1.68387E-008
1, 3360.00000, 0.0803703, 0.0264156, 3.32602E-008, 1.36227E-008
1, 3420.00000, 0.08037, 0.0264163, 3.32555E-008, 1.36162E-008
1, 3480.00000, 0.08037, 0.0264163, 3.32555E-008, 1.36161E-008
1, 3540.00000, 0.08037, 0.0264163, 3.32555E-008, 1.36161E-008
2, 0.00000, 0.08037, 0.0264163, 3.32555E-008, 1.36161E-008
2, 60.00000, 0.0669752, 0.0220139, 1.35283E-008, -8.47474E-009
2, 120.00000, 0.066975, 0.0220136, 1.35294E-008, -8.47273E-009
2, 180.00000, 0.066975, 0.0220136, 1.35294E-008, -8.47272E-009
2, 240.00000, 0.066975, 0.0220136, 1.35294E-008, -8.47271E-009
2, 300.00000, 0.066975, 0.0220136, 1.35294E-008, -8.47271E-009
2, 360.00000, 0.0937646, 0.0308192, -1.36216E-008, -9.02433E-009
2, 420.00000, 0.093765, 0.0308191, -1.36219E-008, -9.02104E-009
2, 480.00000, 0.093765, 0.0308191, -1.36219E-008, -9.02102E-009
2, 540.00000, 0.093765, 0.0308191, -1.36219E-008, -9.02102E-009
2, 600.00000, 0.093765, 0.0308191, -1.36219E-008, -9.02102E-009
2, 660.00000, 0.0535771, 0.0176104, 1.09534E-008, -6.88703E-009
2, 720.00000, 0.05358, 0.0176109, 1.09424E-008, -6.87364E-009
2, 780.00000, 0.05358, 0.0176109, 1.09423E-008, -6.87359E-009
2, 840.00000, 0.05358, 0.0176109, 1.09423E-008, -6.87359E-009
2, 900.00000, 0.05358, 0.0176109, 1.09423E-008, -6.87359E-009
2, 960.00000, 0.0669757, 0.0220136, 7.27781E-010, -1.47586E-008
2, 1020.00000, 0.066975, 0.0220136, 7.28979E-010, -1.47627E-008
2, 1080.00000, 0.066975, 0.0220136, 7.28994E-010, -1.47627E-008
2, 1140.00000, 0.066975, 0.0220136, 7.28994E-010, -1.47627E-008
2, 1200.00000, 0.066975, 0.0220136, 7.28994E-010, -1.47627E-008
2, 1260.00000, 0.0937634, 0.0308171, 5.74644E-009, 3.89503E-008
2, 1320.00000, 0.093765, 0.030819, 5.72485E-009, 3.89535E-008
2, 1380.00000, 0.093765, 0.030819, 5.72473E-009, 3.89535E-008
2, 1440.00000, 0.093765, 0.030819, 5.72473E-009, 3.89535E-008
2, 1500.00000, 0.093765, 0.030819, 5.72473E-009, 3.89535E-008
2, 1560.00000, 0.0803698, 0.0264166, 1.78093E-009, -1.75586E-008
2, 1620.00000, 0.08037, 0.0264164, 1.78193E-009, -1.75554E-008
2, 1680.00000, 0.08037, 0.0264164, 1.78193E-009, -1.75554E-008
2, 1740.00000, 0.08037, 0.0264164, 1.78193E-009, -1.75554E-008
2, 1800.00000, 0.08037, 0.0264164, 1.78193E-009, -1.75554E-008
2, 1860.00000, 0.0803681, 0.0264149, -1.08473E-008, 2.62255E-008
2, 1920.00000, 0.08037, 0.0264163, -1.08532E-008, 2.62211E-008
2, 1980.00000, 0.08037, 0.0264163, -1.08532E-008, 2.62211E-008
2, 2040.00000, 0.08037, 0.0264163, -1.08532E-008, 2.62211E-008
2, 2100.00000, 0.08037, 0.0264163, -1.08532E-008, 2.62211E-008
2, 2160.00000, 0.0937672, 0.0308211, -4.71026E-008, 1.50082E-008
2, 2220.00000, 0.0937651, 0.0308191, -4.70884E-008, 1.50102E-008
2, 2280.00000, 0.0937651, 0.0308191, -4.70884E-008, 1.50102E-008
2, 2340.00000, 0.0937651, 0.0308191, -4.70884E-008, 1.50102E-008
2, 2400.00000, 0.0937651, 0.0308191, -4.70884E-008, 1.50102E-008
2, 2460.00000, 0.0669776, 0.0220171, 1.37136E-008, -8.20916E-009
2, 2520.00000, 0.066975, 0.0220136, 1.37373E-008, -8.19937E-009
2, 2580.00000, 0.066975, 0.0220136, 1.37374E-008, -8.19925E-009
2, 2640.00000, 0.066975, 0.0220136, 1.37374E-008, -8.19925E-009
2, 2700.00000, 0.066975, 0.0220136, 1.37374E-008, -8.19925E-009
2, 2760.00000, 0.0803702, 0.0264161, 3.5992E-009, 1.6886E-008
2, 2820.00000, 0.08037, 0.0264163, 3.59811E-009, 1.68839E-008
2, 2880.00000, 0.08037, 0.0264163, 3.59811E-009, 1.68839E-008
2, 2940.00000, 0.08037, 0.0264163, 3.59811E-009, 1.68839E-008
2, 3000.00000, 0.08037, 0.0264163, 3.59811E-009, 1.68839E-008
2, 3060.00000, 0.0803687, 0.0264156, -1.39222E-008, -2.41509E-008
2, 3120.00000, 0.08037, 0.0264164, -1.39284E-008, -2.41488E-008
2, 3180.00000, 0.08037, 0.0264164, -1.39285E-008, -2.41488E-008
2, 3240.00000, 0.08037, 0.0264164, -1.39285E-008, -2.41488E-008
2, 3300.00000, 0.08037, 0.0264164, -1.39285E-008, -2.41488E-008
2, 3360.00000, 0.0937667, 0.03082, -3.10425E-008, 3.14799E-009
2, 3420.00000, 0.093765, 0.0308191, -3.10336E-008, 3.14395E-009
2, 3480.00000, 0.093765, 0.0308191, -3.10335E-008, 3.14394E-009
2, 3540.00000, 0.093765, 0.0308191, -3.10335E-008, 3.14394E-009
3, 0.00000, 0.093765, 0.0308191, -3.10335E-008, 3.14394E-009
3, 60.00000, 0.0669745, 0.0220131, 1.23668E-009, -1.44872E-008
3, 120.00000, 0.066975, 0.0220136, 1.23258E-009, -1.44878E-008
3, 180.00000, 0.066975, 0.0220136, 1.23256E-009, -1.44878E-008
3, 240.00000, 0.066975, 0.0220136, 1.23256E-009, -1.44878E-008
3, 300.00000, 0.066975, 0.0220136, 1.23256E-009, -1.44878E-008
3, 360.00000, 0.0669753, 0.0220141, 1.47517E-008, 5.43487E-009
3, 420.00000, 0.066975, 0.0220136, 1.47553E-008, 5.43623E-009
3, 480.00000, 0.066975, 0.0220136, 1.47553E-008, 5.43624E-009
3, 540.00000, 0.066975, 0.0220136, 1.47553E-008, 5.43624E-009
3, 600.00000, 0.066975, 0.0220136, 1.47553E-008, 5.43624E-009
3, 660.00000, 0.0803663, 0.0264148, -1.31197E-008, -7.66812E-009
3, 720.00000, 0.08037, 0.0264163, -1.3138E-008, -7.64928E-009
3, 780.00000, 0.08037, 0.0264163, -1.31382E-008, -7.64921E-009
3, 840.00000, 0.08037, 0.0264163, -1.31382E-008, -7.64921E-009
3, 900.00000, 0.08037, 0.0264163, -1.31382E-008, -7.64921E-009
3, 960.00000, 0.0803702, 0.0264161, 2.56401E-009, -2.42272E-010
3, 1020.00000, 0.08037, 0.0264163, 2.56318E-009, -2.44766E-010
3, 1080.00000, 0.08037, 0.0264163, 2.56319E-009, -2.44781E-010
3, 1140.00000, 0.08037, 0.0264163, 2.56319E-009, -2.44782E-010
3, 1200.00000, 0.08037, 0.0264163, 2.56319E-009, -2.44782E-010
3, 1260.00000, 0.0669753, 0.0220141, 1.46989E-008, 6.04092E-009
3, 1320.00000, 0.066975, 0.0220136, 1.47022E-008, 6.04156E-009
3, 1380.00000, 0.066975, 0.0220136, 1.47022E-008, 6.04157E-009
3, 1440.00000, 0.066975, 0.0220136, 1.47022E-008, 6.04157E-009
3, 1500.00000, 0.066975, 0.0220136, 1.47022E-008, 6.04157E-009
3, 1560.00000, 0.0669747, 0.0220134, 1.87438E-009, -1.10707E-009
3, 1620.00000, 0.066975, 0.0220136, 1.87301E-009, -1.10643E-009
3, 1680.00000, 0.066975, 0.0220136, 1.873E-009, -1.10643E-009
3, 1740.00000, 0.066975, 0.0220136, 1.873E-009, -1.10643E-009
3, 1800.00000, 0.066975, 0.0220136, 1.873E-009, -1.10643E-009
3, 1860.00000, 0.066975, 0.0220133, 5.34109E-010, -1.37384E-008
3, 1920.00000, 0.066975, 0.0220136, 5.3204E-010, -1.37403E-008
3, 1980.00000, 0.066975, 0.0220136, 5.32032E-010, -1.37403E-008
3, 2040.00000, 0.066975, 0.0220136, 5.32032E-010, -1.37403E-008
3, 2100.00000, 0.066975, 0.0220136, 5.32032E-010, -1.37403E-008
3, 2160.00000, 0.0803692, 0.0264161, 4.83947E-009, 3.37945E-008
3, 2220.00000, 0.08037, 0.0264163, 4.83719E-009, 3.37975E-008
3, 2280.00000, 0.08037, 0.0264163, 4.83717E-009, 3.37975E-008
3, 2340.00000, 0.08037, 0.0264163, 4.83717E-009, 3.37975E-008
3, 2400.00000, 0.08037, 0.0264163, 4.83717E-009, 3.37975E-008
3, 2460.00000, 0.0803714, 0.0264167, -4.29357E-008, -2.16563E-008
3, 2520.00000, 0.0803701, 0.0264164, -4.29305E-008, -2.16615E-008
3, 2580.00000, 0.08037, 0.0264164, -4.29304E-008, -2.16615E-008
3, 2640.00000, 0.08037, 0.0264164, -4.29304E-008, -2.16615E-008
3, 2700.00000, 0.08037, 0.0264164, -4.29304E-008, -2.16615E-008
3, 2760.00000, 0.066975, 0.0220142, 2.64261E-008, -2.73042E-009
3, 2820.00000, 0.066975, 0.0220136, 2.64293E-008, -2.72711E-009
3, 2880.00000, 0.066975, 0.0220136, 2.64293E-008, -2.72709E-009
3, 2940.00000, 0.066975, 0.0220136, 2.64293E-008, -2.72709E-009
3, 3000.00000, 0.066975, 0.0220136, 2.64293E-008, -2.72709E-009
3, 3060.00000, 0.0937636, 0.0308185, -1.10882E-008, 3.10336E-008
3, 3120.00000, 0.093765, 0.030819, -1.10944E-008, 3.1039E-008
3, 3180.00000, 0.093765, 0.030819, -1.10945E-008, 3.1039E-008
3, 3240.00000, 0.093765, 0.030819, -1.10945E-008, 3.1039E-008
3, 3300.00000, 0.093765, 0.030819, -1.10945E-008, 3.1039E-008
3, 3360.00000, 0.0535805, 0.0176113, 2.0413E-008, -1.3254E-008
3, 3420.00000, 0.05358, 0.0176109, 2.04156E-008, -1.32544E-008
3, 3480.00000, 0.05358, 0.0176109, 2.04156E-008, -1.32544E-008
3, 3540.00000, 0.05358, 0.0176109, 2.04156E-008, -1.32544E-008
4, 0.00000, 0.05358, 0.0176109, 2.04156E-008, -1.32544E-008
4, 60.00000, 0.0669743, 0.0220127, 1.45427E-008, 5.51136E-009
4, 120.00000, 0.066975, 0.0220136, 1.45367E-008, 5.50965E-009
4, 180.00000, 0.066975, 0.0220136, 1.45367E-008, 5.50963E-009
4, 240.00000, 0.066975, 0.0220136, 1.45367E-008, 5.50963E-009
4, 300.00000, 0.066975, 0.0220136, 1.45367E-008, 5.50963E-009
4, 360.00000, 0.107162, 0.0352222, -3.5089E-008, 2.49741E-009
4, 420.00000, 0.10716, 0.0352218, -3.50821E-008, 2.49016E-009
4, 480.00000, 0.10716, 0.0352218, -3.50821E-008, 2.49013E-009
4, 540.00000, 0.10716, 0.0352218, -3.50821E-008, 2.49013E-009
4, 600.00000, 0.10716, 0.0352218, -3.50821E-008, 2.49013E-009
4, 660.00000, 0.0669746, 0.0220138, 4.18809E-010, -1.46998E-008
4, 720.00000, 0.066975, 0.0220136, 4.18866E-010, -1.4697E-008
4, 780.00000, 0.066975, 0.0220136, 4.18861E-010, -1.4697E-008
4, 840.00000, 0.066975, 0.0220136, 4.18861E-010, -1.4697E-008
4, 900.00000, 0.066975, 0.0220136, 4.18861E-010, -1.4697E-008
4, 960.00000, 0.0803702, 0.0264167, 2.11816E-009, -7.24619E-010
4, 1020.00000, 0.08037, 0.0264163, 2.11586E-009, -7.14672E-010
4, 1080.00000, 0.08037, 0.0264163, 2.11582E-009, -7.14619E-010
4, 1140.00000, 0.08037, 0.0264163, 2.11582E-009, -7.14619E-010
4, 1200.00000, 0.08037, 0.0264163, 2.11582E-009, -7.14619E-010
4, 1260.00000, 0.0803676, 0.0264135, -1.17005E-008, 9.31482E-009
4, 1320.00000, 0.08037, 0.0264163, -1.1718E-008, 9.30726E-009
4, 1380.00000, 0.08037, 0.0264163, -1.1718E-008, 9.30718E-009
4, 1440.00000, 0.08037, 0.0264163, -1.1718E-008, 9.30718E-009
4, 1500.00000, 0.08037, 0.0264163, -1.1718E-008, 9.30718E-009
4, 1560.00000, 0.0803706, 0.0264206, 1.80805E-008, 5.94756E-009
4, 1620.00000, 0.08037, 0.0264164, 1.81088E-008, 5.96479E-009
4, 1680.00000, 0.08037, 0.0264163, 1.81089E-008, 5.96494E-009
4, 1740.00000, 0.08037, 0.0264163, 1.81089E-008, 5.96494E-009
4, 1800.00000, 0.08037, 0.0264163, 1.81089E-008, 5.96494E-009
4, 1860.00000, 0.0803695, 0.0264162, 3.85043E-009, 1.65767E-008
4, 1920.00000, 0.08037, 0.0264163, 3.84856E-009, 1.65785E-008
4, 1980.00000, 0.0803701, 0.0264164, 3.83298E-009, 1.65741E-008
4, 2040.00000, 0.0803699, 0.0264163, 3.84841E-009, 1.65785E-008
4, 2100.00000, 0.0803701, 0.0264164, 3.83554E-009, 1.65748E-008
4, 2160.00000, 0.0803702, 0.0264164, -1.24481E-008, -7.52345E-009
4, 2220.00000, 0.0803702, 0.0264164, -1.24683E-008, -7.52687E-009
4, 2280.00000, 0.0803701, 0.0264164, -1.24754E-008, -7.52774E-009
4, 2340.00000, 0.0803701, 0.0264164, -1.24801E-008, -7.52836E-009
4, 2400.00000, 0.0803705, 0.0264165, -1.25313E-008, -7.53534E-009
4, 2460.00000, 0.10716, 0.0352216, -3.41992E-008, 2.5787E-008
4, 2520.00000, 0.107161, 0.0352221, -3.42832E-008, 2.57566E-008
4, 2580.00000, 0.10716, 0.0352218, -3.42832E-008, 2.57564E-008
4, 2640.00000, 0.10716, 0.0352218, -3.42832E-008, 2.57564E-008
4, 2700.00000, 0.10716, 0.0352218, -3.42832E-008, 2.57564E-008
4, 2760.00000, 0.0803703, 0.0264159, -1.11685E-008, 2.66186E-008
4, 2820.00000, 0.0803704, 0.0264165, -1.12062E-008, 2.66041E-008
4, 2880.00000, 0.0803701, 0.0264164, -1.12153E-008, 2.66012E-008
4, 2940.00000, 0.0803702, 0.0264164, -1.1238E-008, 2.65942E-008
4, 3000.00000, 0.0803702, 0.0264164, -1.12605E-008, 2.65871E-008
4, 3060.00000, 0.0803706, 0.0264171, 1.46772E-009, -1.73223E-008
4, 3120.00000, 0.0803708, 0.0264167, 1.37252E-009, -1.7321E-008
4, 3180.00000, 0.0803698, 0.0264163, 1.39292E-009, -1.732E-008
4, 3240.00000, 0.0803705, 0.0264166, 1.325E-009, -1.73203E-008
4, 3300.00000, 0.0803701, 0.0264164, 1.31416E-009, -1.73198E-008
4, 3360.00000, 0.0803665, 0.0264159, 3.13047E-009, 1.65166E-008
4, 3420.00000, 0.0803704, 0.0264165, 3.06486E-009, 1.65166E-008
4, 3480.00000, 0.0803708, 0.0264166, 2.95915E-009, 1.64934E-008
4, 3540.00000, 0.0803703, 0.0264165, 2.91652E-009, 1.64842E-008
5, 0.00000, 0.08037, 0.0264163, 2.91884E-009, 1.64849E-008
5, 60.00000, 0.0803682, 0.0264156, 1.82551E-008, 2.35296E-008
5, 120.00000, 0.0803702, 0.0264164, 1.82216E-008, 2.35252E-008
5, 180.00000, 0.0803706, 0.0264165, 1.81507E-008, 2.3503E-008
5, 240.00000, 0.0803704, 0.0264165, 1.80987E-008, 2.34866E-008
5, 300.00000, 0.0803713, 0.0264167, 1.79495E-008, 2.34399E-008
5, 360.00000, 0.0669759, 0.0220142, 1.24721E-008, -2.249E-008
5, 420.00000, 0.0669753, 0.0220138, 1.24294E-008, -2.24901E-008
5, 480.00000, 0.0669753, 0.0220137, 1.23922E-008, -2.24891E-008
5, 540.00000, 0.0669759, 0.022014, 1.22668E-008, -2.24866E-008
5, 600.00000, 0.0669759, 0.022014, 1.21413E-008, -2.24832E-008
5, 660.00000, 0.0803769, 0.0264177, 3.17015E-008, -3.33494E-009
5, 720.00000, 0.0803713, 0.0264168, 3.15139E-008, -3.37833E-009
5, 780.00000, 0.0803706, 0.0264166, 3.14185E-008, -3.38562E-009
5, 840.00000, 0.0803708, 0.0264167, 3.12783E-008, -3.39723E-009
5, 900.00000, 0.0803712, 0.0264168, 3.10818E-008, -3.41344E-009
