hour, t(sec), P1 (kW), Q1 (kvar), P2 (kW), Q2 (kvar)
0, 60.00000, 0.284999, 0.0936752, 2.02935E-007, -2.54554E-007
0, 120.00000, 0.285, 0.0936752, 2.02948E-007, -2.54558E-007
0, 180.00000, 0.285, 0.0936752, 2.02948E-007, -2.54558E-007
0, 240.00000, 0.285, 0.0936752, 2.02948E-007, -2.54558E-007
0, 300.00000, 0.285, 0.0936752, 2.02948E-007, -2.54558E-007
0, 360.00000, 0.249377, 0.0819661, 1.83449E-007, -3.75236E-007
0, 420.00000, 0.249375, 0.081966, 1.83464E-007, -3.75261E-007
0, 480.00000, 0.249375, 0.081966, 1.83464E-007, -3.75261E-007
0, 540.00000, 0.249375, 0.081966, 1.83464E-007, -3.75261E-007
0, 600.00000, 0.249375, 0.081966, 1.83464E-007, -3.75261E-007
0, 660.00000, 0.320624, 0.105385, -2.59452E-007, -6.12958E-007
0, 720.00000, 0.320625, 0.105385, -2.59469E-007, -6.12929E-007
0, 780.00000, 0.320625, 0.105385, -2.59469E-007, -6.12929E-007
0, 840.00000, 0.320625, 0.105385, -2.59469E-007, -6.12929E-007
0, 900.00000, 0.320625, 0.105385, -2.59469E-007, -6.12929E-007
0, 960.00000, 0.249375, 0.0819648, -7.11604E-008, -5.45073E-007
0, 1020.00000, 0.249375, 0.0819661, -7.11708E-008, -5.45117E-007
0, 1080.00000, 0.249375, 0.0819661, -7.11708E-008, -5.45117E-007
0, 1140.00000, 0.249375, 0.0819661, -7.11708E-008, -5.45117E-007
0, 1200.00000, 0.249375, 0.0819661, -7.11708E-008, -5.45117E-007
0, 1260.00000, 0.21375, 0.0702587, 5.45814E-008, -5.24883E-007
0, 1320.00000, 0.21375, 0.0702568, 5.4605E-008, -5.24838E-007
0, 1380.00000, 0.21375, 0.0702568, 5.4605E-008, -5.24838E-007
0, 1440.00000, 0.21375, 0.0702568, 5.4605E-008, -5.24838E-007
0, 1500.00000, 0.21375, 0.0702568, 5.4605E-008, -5.24838E-007
0, 1560.00000, 0.249373, 0.0819647, 2.76743E-007, 1.6618E-007
0, 1620.00000, 0.249375, 0.0819654, 2.76714E-007, 1.66197E-007
0, 1680.00000, 0.249375, 0.0819654, 2.76714E-007, 1.66197E-007
0, 1740.00000, 0.249375, 0.0819654, 2.76714E-007, 1.66197E-007
0, 1800.00000, 0.249375, 0.0819654, 2.76714E-007, 1.66197E-007
0, 1860.00000, 0.285, 0.0936746, -1.16622E-007, -9.73805E-008
0, 1920.00000, 0.285, 0.0936751, -1.16628E-007, -9.73812E-008
0, 1980.00000, 0.285, 0.0936751, -1.16628E-007, -9.73812E-008
0, 2040.00000, 0.285, 0.0936751, -1.16628E-007, -9.73812E-008
0, 2100.00000, 0.285, 0.0936751, -1.16628E-007, -9.73812E-008
0, 2160.00000, 0.285, 0.0936749, 2.93609E-008, 1.10636E-009
0, 2220.00000, 0.285, 0.093675, 2.93609E-008, 1.10306E-009
0, 2280.00000, 0.285, 0.093675, 2.93609E-008, 1.10305E-009
0, 2340.00000, 0.285, 0.093675, 2.93609E-008, 1.10305E-009
0, 2400.00000, 0.285, 0.093675, 2.93609E-008, 1.10305E-009
0, 2460.00000, 0.285002, 0.0936745, 4.24102E-008, -1.76697E-007
0, 2520.00000, 0.285, 0.0936751, 4.24229E-008, -1.76744E-007
0, 2580.00000, 0.285, 0.0936751, 4.24231E-008, -1.76744E-007
0, 2640.00000, 0.285, 0.0936751, 4.24231E-008, -1.76744E-007
0, 2700.00000, 0.285, 0.0936751, 4.24231E-008, -1.76744E-007
0, 2760.00000, 0.285001, 0.0936766, 4.27561E-008, -1.76348E-007
0, 2820.00000, 0.285, 0.0936752, 4.27815E-008, -1.76326E-007
0, 2880.00000, 0.285, 0.0936751, 4.27816E-008, -1.76326E-007
0, 2940.00000, 0.285, 0.0936751, 4.27816E-008, -1.76326E-007
0, 3000.00000, 0.285, 0.0936751, 4.27816E-008, -1.76326E-007
0, 3060.00000, 0.32062, 0.105383, 2.43422E-008, 1.97224E-007
0, 3120.00000, 0.320625, 0.105384, 2.42956E-008, 1.97279E-007
0, 3180.00000, 0.320625, 0.105384, 2.42953E-008, 1.97279E-007
0, 3240.00000, 0.320625, 0.105384, 2.42952E-008, 1.97279E-007
0, 3300.00000, 0.320625, 0.105384, 2.42952E-008, 1.97279E-007
0, 3360.00000, 0.249377, 0.081966, 3.0948E-007, -2.9175E-007
0, 3420.00000, 0.249375, 0.0819659, 3.09493E-007, -2.91792E-007
0, 3480.00000, 0.249375, 0.0819659, 3.09493E-007, -2.91792E-007
0, 3540.00000, 0.249375, 0.0819659, 3.09493E-007, -2.91792E-007
1, 0.00000, 0.249375, 0.0819659, 3.09493E-007, -2.91792E-007
1, 60.00000, 0.249373, 0.0819645, -2.33165E-007, -1.65527E-007
1, 120.00000, 0.249375, 0.0819658, -2.33218E-007, -1.65511E-007
1, 180.00000, 0.249375, 0.0819658, -2.33218E-007, -1.65511E-007
1, 240.00000, 0.249375, 0.0819658, -2.33218E-007, -1.65511E-007
1, 300.00000, 0.249375, 0.0819658, -2.33218E-007, -1.65511E-007
1, 360.00000, 0.178127, 0.0585485, 2.01501E-007, 1.02936E-008
1, 420.00000, 0.178125, 0.0585469, 2.01538E-007, 1.02974E-008
1, 480.00000, 0.178125, 0.0585468, 2.01538E-007, 1.02975E-008
1, 540.00000, 0.178125, 0.0585468, 2.01538E-007, 1.02975E-008
1, 600.00000, 0.178125, 0.0585468, 2.01538E-007, 1.02975E-008
1, 660.00000, 0.213747, 0.0702553, 7.03886E-009, 1.29684E-007
1, 720.00000, 0.21375, 0.0702561, 7.00659E-009, 1.29707E-007
1, 780.00000, 0.21375, 0.0702561, 7.0064E-009, 1.29707E-007
1, 840.00000, 0.21375, 0.0702561, 7.0064E-009, 1.29707E-007
1, 900.00000, 0.21375, 0.0702561, 7.0064E-009, 1.29707E-007
1, 960.00000, 0.106875, 0.0351281, 1.86284E-007, -1.52354E-007
1, 1020.00000, 0.106875, 0.0351283, 1.86286E-007, -1.52365E-007
1, 1080.00000, 0.106875, 0.0351283, 1.86286E-007, -1.52365E-007
1, 1140.00000, 0.106875, 0.0351283, 1.86286E-007, -1.52365E-007
1, 1200.00000, 0.106875, 0.0351283, 1.86286E-007, -1.52365E-007
1, 1260.00000, 0.178125, 0.0585475, 1.08661E-007, -4.88677E-008
1, 1320.00000, 0.178125, 0.0585469, 1.0867E-007, -4.88586E-008
1, 1380.00000, 0.178125, 0.0585469, 1.0867E-007, -4.88586E-008
1, 1440.00000, 0.178125, 0.0585469, 1.0867E-007, -4.88586E-008
1, 1500.00000, 0.178125, 0.0585469, 1.0867E-007, -4.88586E-008
1, 1560.00000, 0.284999, 0.0936744, -1.41707E-007, 2.51914E-007
1, 1620.00000, 0.285, 0.0936747, -1.41723E-007, 2.51931E-007
1, 1680.00000, 0.285, 0.0936747, -1.41723E-007, 2.51931E-007
1, 1740.00000, 0.285, 0.0936747, -1.41723E-007, 2.51931E-007
1, 1800.00000, 0.285, 0.0936747, -1.41723E-007, 2.51931E-007
1, 1860.00000, 0.249376, 0.0819657, -1.05047E-007, -8.34534E-008
1, 1920.00000, 0.249375, 0.0819657, -1.0504E-007, -8.347E-008
1, 1980.00000, 0.249375, 0.0819657, -1.0504E-007, -8.34701E-008
1, 2040.00000, 0.249375, 0.0819657, -1.0504E-007, -8.34701E-008
1, 2100.00000, 0.249375, 0.0819657, -1.0504E-007, -8.34701E-008
1, 2160.00000, 0.21375, 0.0702562, 2.33639E-007, 1.42431E-007
1, 2220.00000, 0.21375, 0.0702561, 2.33644E-007, 1.42425E-007
1, 2280.00000, 0.21375, 0.0702561, 2.33644E-007, 1.42425E-007
1, 2340.00000, 0.21375, 0.0702561, 2.33644E-007, 1.42425E-007
1, 2400.00000, 0.21375, 0.0702561, 2.33644E-007, 1.42425E-007
1, 2460.00000, 0.213762, 0.0702579, 4.56143E-008, -3.89015E-007
1, 2520.00000, 0.21375, 0.0702566, 4.56892E-008, -3.89113E-007
1, 2580.00000, 0.21375, 0.0702566, 4.56895E-008, -3.89113E-007
1, 2640.00000, 0.21375, 0.0702566, 4.56895E-008, -3.89113E-007
1, 2700.00000, 0.21375, 0.0702566, 4.56895E-008, -3.89113E-007
1, 2760.00000, 0.249347, 0.0819642, 1.50009E-007, 8.28949E-008
1, 2820.00000, 0.249375, 0.0819655, 1.49868E-007, 8.32438E-008
1, 2880.00000, 0.249375, 0.0819655, 1.49867E-007, 8.3245E-008
1, 2940.00000, 0.249375, 0.0819655, 1.49867E-007, 8.3245E-008
1, 3000.00000, 0.249375, 0.0819655, 1.49867E-007, 8.3245E-008
1, 3060.00000, 0.249364, 0.0819572, 2.76702E-010, 3.0243E-007
1, 3120.00000, 0.249375, 0.0819653, 9.63472E-011, 3.02392E-007
1, 3180.00000, 0.249375, 0.0819653, 9.57299E-011, 3.02391E-007
1, 3240.00000, 0.249375, 0.0819653, 9.57285E-011, 3.02391E-007
1, 3300.00000, 0.249375, 0.0819653, 9.57286E-011, 3.02391E-007
1, 3360.00000, 0.213751, 0.0702562, 3.53866E-008, -2.60426E-007
1, 3420.00000, 0.21375, 0.0702565, 3.53923E-008, -2.60452E-007
1, 3480.00000, 0.21375, 0.0702565, 3.53923E-008, -2.60452E-007
1, 3540.00000, 0.21375, 0.0702565, 3.53923E-008, -2.60452E-007
2, 0.00000, 0.21375, 0.0702565, 3.53923E-008, -2.60452E-007
2, 60.00000, 0.213748, 0.070257, 1.16752E-007, 2.00327E-007
2, 120.00000, 0.21375, 0.070256, 1.16751E-007, 2.00368E-007
2, 180.00000, 0.21375, 0.070256, 1.16751E-007, 2.00368E-007
2, 240.00000, 0.21375, 0.070256, 1.16751E-007, 2.00368E-007
2, 300.00000, 0.21375, 0.070256, 1.16751E-007, 2.00368E-007
2, 360.00000, 0.213752, 0.0702553, 1.2334E-007, 6.98961E-008
2, 420.00000, 0.21375, 0.0702562, 1.23344E-007, 6.98442E-008
2, 480.00000, 0.21375, 0.0702562, 1.23344E-007, 6.9844E-008
2, 540.00000, 0.21375, 0.0702562, 1.23344E-007, 6.9844E-008
2, 600.00000, 0.21375, 0.0702562, 1.23344E-007, 6.9844E-008
2, 660.00000, 0.178122, 0.0585502, 1.85996E-008, -1.08416E-007
2, 720.00000, 0.178125, 0.058547, 1.85777E-008, -1.08295E-007
2, 780.00000, 0.178125, 0.058547, 1.85775E-008, -1.08295E-007
2, 840.00000, 0.178125, 0.058547, 1.85775E-008, -1.08295E-007
2, 900.00000, 0.178125, 0.058547, 1.85775E-008, -1.08295E-007
2, 960.00000, 0.178125, 0.0585467, 1.08986E-007, -4.95967E-008
2, 1020.00000, 0.178125, 0.0585469, 1.08984E-007, -4.96015E-008
2, 1080.00000, 0.178125, 0.0585469, 1.08984E-007, -4.96016E-008
2, 1140.00000, 0.178125, 0.0585469, 1.08984E-007, -4.96016E-008
2, 1200.00000, 0.178125, 0.0585469, 1.08984E-007, -4.96016E-008
2, 1260.00000, 0.178125, 0.058554, 1.02964E-008, -4.17403E-010
2, 1320.00000, 0.178125, 0.0585469, 1.04066E-008, -2.95394E-010
2, 1380.00000, 0.178125, 0.0585469, 1.04068E-008, -2.94708E-010
2, 1440.00000, 0.178125, 0.0585469, 1.04068E-008, -2.94704E-010
2, 1500.00000, 0.178125, 0.0585469, 1.04068E-008, -2.94704E-010
2, 1560.00000, 0.178124, 0.0585462, 1.90749E-007, 1.18042E-007
2, 1620.00000, 0.178125, 0.0585467, 1.90734E-007, 1.18049E-007
2, 1680.00000, 0.178125, 0.0585467, 1.90734E-007, 1.18049E-007
2, 1740.00000, 0.178125, 0.0585467, 1.90734E-007, 1.18049E-007
2, 1800.00000, 0.178125, 0.0585467, 1.90734E-007, 1.18049E-007
2, 1860.00000, 0.213753, 0.0702576, -9.26907E-008, -7.12832E-008
2, 1920.00000, 0.21375, 0.0702563, -9.26368E-008, -7.13002E-008
2, 1980.00000, 0.21375, 0.0702563, -9.26366E-008, -7.13003E-008
2, 2040.00000, 0.21375, 0.0702563, -9.26366E-008, -7.13003E-008
2, 2100.00000, 0.21375, 0.0702563, -9.26366E-008, -7.13003E-008
2, 2160.00000, 0.213757, 0.0702536, 1.51181E-008, -8.24739E-010
2, 2220.00000, 0.21375, 0.0702562, 1.51522E-008, -1.0085E-009
2, 2280.00000, 0.21375, 0.0702562, 1.51528E-008, -1.00925E-009
2, 2340.00000, 0.21375, 0.0702562, 1.51528E-008, -1.00925E-009
2, 2400.00000, 0.21375, 0.0702562, 1.51528E-008, -1.00925E-009
2, 2460.00000, 0.21374, 0.0702619, 1.6916E-008, 2.09335E-010
2, 2520.00000, 0.21375, 0.0702562, 1.6916E-008, 4.70308E-010
2, 2580.00000, 0.21375, 0.0702562, 1.69156E-008, 4.71447E-010
2, 2640.00000, 0.21375, 0.0702562, 1.69156E-008, 4.71451E-010
2, 2700.00000, 0.21375, 0.0702562, 1.69156E-008, 4.71451E-010
2, 2760.00000, 0.213751, 0.0702573, 1.76447E-008, -7.98091E-010
2, 2820.00000, 0.21375, 0.0702562, 1.76661E-008, -7.90079E-010
2, 2880.00000, 0.21375, 0.0702562, 1.76662E-008, -7.90014E-010
2, 2940.00000, 0.21375, 0.0702562, 1.76662E-008, -7.90013E-010
2, 3000.00000, 0.21375, 0.0702562, 1.76662E-008, -7.90013E-010
2, 3060.00000, 0.213749, 0.0702544, 1.24206E-007, 7.18658E-008
2, 3120.00000, 0.21375, 0.0702562, 1.2418E-007, 7.18394E-008
2, 3180.00000, 0.21375, 0.0702562, 1.24179E-007, 7.18393E-008
2, 3240.00000, 0.21375, 0.0702562, 1.24179E-007, 7.18393E-008
2, 3300.00000, 0.21375, 0.0702562, 1.24179E-007, 7.18393E-008
2, 3360.00000, 0.249376, 0.0819666, -9.3191E-008, -2.35651E-007
2, 3420.00000, 0.249375, 0.0819658, -9.31736E-008, -2.35656E-007
2, 3480.00000, 0.249375, 0.0819658, -9.31735E-008, -2.35656E-007
2, 3540.00000, 0.249375, 0.0819658, -9.31735E-008, -2.35656E-007
3, 0.00000, 0.249375, 0.0819658, -9.31735E-008, -2.35656E-007
3, 60.00000, 0.178125, 0.0585468, 1.16374E-007, -1.5738E-007
3, 120.00000, 0.178125, 0.058547, 1.16373E-007, -1.57389E-007
3, 180.00000, 0.178125, 0.058547, 1.16373E-007, -1.57389E-007
3, 240.00000, 0.178125, 0.058547, 1.16373E-007, -1.57389E-007
3, 300.00000, 0.178125, 0.058547, 1.16373E-007, -1.57389E-007
3, 360.00000, 0.178124, 0.0585473, 1.08033E-008, -6.33115E-010
3, 420.00000, 0.178125, 0.0585469, 1.08014E-008, -6.14431E-010
3, 480.00000, 0.178125, 0.0585469, 1.08013E-008, -6.14353E-010
3, 540.00000, 0.178125, 0.0585469, 1.08013E-008, -6.14352E-010
3, 600.00000, 0.178125, 0.0585469, 1.08013E-008, -6.14352E-010
3, 660.00000, 0.17811, 0.0585432, 9.30351E-008, 1.65679E-007
3, 720.00000, 0.178125, 0.0585467, 9.28989E-008, 1.65824E-007
3, 780.00000, 0.178125, 0.0585467, 9.28981E-008, 1.65825E-007
3, 840.00000, 0.178125, 0.0585467, 9.28981E-008, 1.65825E-007
3, 900.00000, 0.178125, 0.0585467, 9.28981E-008, 1.65825E-007
3, 960.00000, 0.178126, 0.0585475, 1.01892E-007, 5.89212E-008
3, 1020.00000, 0.178125, 0.0585468, 1.01908E-007, 5.89234E-008
3, 1080.00000, 0.178125, 0.0585468, 1.01908E-007, 5.89235E-008
3, 1140.00000, 0.178125, 0.0585468, 1.01908E-007, 5.89235E-008
3, 1200.00000, 0.178125, 0.0585468, 1.01908E-007, 5.89235E-008
3, 1260.00000, 0.178126, 0.0585473, 1.98111E-007, 9.7774E-009
3, 1320.00000, 0.178125, 0.0585468, 1.98124E-007, 9.76822E-009
3, 1380.00000, 0.178125, 0.0585468, 1.98124E-007, 9.7682E-009
3, 1440.00000, 0.178125, 0.0585468, 1.98124E-007, 9.7682E-009
3, 1500.00000, 0.178125, 0.0585468, 1.98124E-007, 9.7682E-009
3, 1560.00000, 0.142499, 0.0468367, 2.35973E-007, -3.01037E-008
3, 1620.00000, 0.1425, 0.0468375, 2.35956E-007, -3.01032E-008
3, 1680.00000, 0.1425, 0.0468375, 2.35956E-007, -3.01032E-008
3, 1740.00000, 0.1425, 0.0468375, 2.35956E-007, -3.01032E-008
3, 1800.00000, 0.1425, 0.0468375, 2.35956E-007, -3.01032E-008
3, 1860.00000, 0.249376, 0.0819656, -2.22437E-009, 2.99125E-007
3, 1920.00000, 0.249375, 0.0819653, -2.2112E-009, 2.99112E-007
3, 1980.00000, 0.249375, 0.0819653, -2.21113E-009, 2.99112E-007
3, 2040.00000, 0.249375, 0.0819653, -2.21113E-009, 2.99112E-007
3, 2100.00000, 0.249375, 0.0819653, -2.21113E-009, 2.99112E-007
3, 2160.00000, 0.178124, 0.0585466, 1.08514E-007, -4.87661E-008
3, 2220.00000, 0.178125, 0.0585469, 1.08505E-007, -4.87601E-008
3, 2280.00000, 0.178125, 0.0585469, 1.08505E-007, -4.87601E-008
3, 2340.00000, 0.178125, 0.0585469, 1.08505E-007, -4.87601E-008
3, 2400.00000, 0.178125, 0.0585469, 1.08505E-007, -4.87601E-008
3, 2460.00000, 0.178125, 0.0585475, 1.9154E-007, 1.17985E-007
3, 2520.00000, 0.178125, 0.0585467, 1.91551E-007, 1.17999E-007
3, 2580.00000, 0.178125, 0.0585467, 1.91551E-007, 1.17999E-007
3, 2640.00000, 0.178125, 0.0585467, 1.91551E-007, 1.17999E-007
3, 2700.00000, 0.178125, 0.0585467, 1.91551E-007, 1.17999E-007
3, 2760.00000, 0.213749, 0.0702552, -1.02947E-007, 5.86562E-008
3, 2820.00000, 0.21375, 0.0702562, -1.02968E-007, 5.86497E-008
3, 2880.00000, 0.21375, 0.0702562, -1.02968E-007, 5.86497E-008
3, 2940.00000, 0.21375, 0.0702562, -1.02968E-007, 5.86497E-008
3, 3000.00000, 0.21375, 0.0702562, -1.02968E-007, 5.86497E-008
3, 3060.00000, 0.213749, 0.0702561, -1.11563E-007, 1.88617E-007
3, 3120.00000, 0.21375, 0.070256, -1.11568E-007, 1.88632E-007
3, 3180.00000, 0.21375, 0.070256, -1.11568E-007, 1.88632E-007
3, 3240.00000, 0.21375, 0.070256, -1.11568E-007, 1.88632E-007
3, 3300.00000, 0.21375, 0.070256, -1.11568E-007, 1.88632E-007
3, 3360.00000, 0.142501, 0.046838, 1.57024E-007, 8.76891E-009
3, 3420.00000, 0.1425, 0.0468375, 1.57039E-007, 8.75814E-009
3, 3480.00000, 0.1425, 0.0468375, 1.57039E-007, 8.75812E-009
3, 3540.00000, 0.1425, 0.0468375, 1.57039E-007, 8.75812E-009
4, 0.00000, 0.1425, 0.0468375, 1.57039E-007, 8.75812E-009
4, 60.00000, 0.1425, 0.0468377, 1.57777E-007, 8.43658E-009
4, 120.00000, 0.1425, 0.0468375, 1.57784E-007, 8.43594E-009
4, 180.00000, 0.1425, 0.0468375, 1.57784E-007, 8.43595E-009
4, 240.00000, 0.1425, 0.0468375, 1.57784E-007, 8.43595E-009
4, 300.00000, 0.1425, 0.0468375, 1.57784E-007, 8.43595E-009
4, 360.00000, 0.213749, 0.0702562, -8.21135E-008, -2.00586E-007
4, 420.00000, 0.21375, 0.0702564, -8.21238E-008, -2.00581E-007
4, 480.00000, 0.21375, 0.0702564, -8.21239E-008, -2.00581E-007
4, 540.00000, 0.21375, 0.0702564, -8.21239E-008, -2.00581E-007
4, 600.00000, 0.21375, 0.0702564, -8.21239E-008, -2.00581E-007
4, 660.00000, 0.178124, 0.0585462, 1.16936E-007, -1.56172E-007
4, 720.00000, 0.178125, 0.058547, 1.16919E-007, -1.56175E-007
4, 780.00000, 0.178125, 0.058547, 1.16919E-007, -1.56175E-007
4, 840.00000, 0.178125, 0.058547, 1.16919E-007, -1.56175E-007
4, 900.00000, 0.178125, 0.058547, 1.16919E-007, -1.56175E-007
4, 960.00000, 0.178134, 0.0585558, 1.09193E-007, -4.8691E-008
4, 1020.00000, 0.178125, 0.0585469, 1.0938E-007, -4.86269E-008
4, 1080.00000, 0.178125, 0.0585469, 1.09381E-007, -4.86263E-008
4, 1140.00000, 0.178125, 0.0585469, 1.09381E-007, -4.86263E-008
4, 1200.00000, 0.178125, 0.0585469, 1.09381E-007, -4.86263E-008
4, 1260.00000, 0.213746, 0.0702474, 6.1594E-009, 1.29529E-007
4, 1320.00000, 0.21375, 0.0702561, 6.00382E-009, 1.29426E-007
4, 1380.00000, 0.21375, 0.0702561, 6.00332E-009, 1.29425E-007
4, 1440.00000, 0.21375, 0.0702561, 6.00332E-009, 1.29425E-007
4, 1500.00000, 0.21375, 0.0702561, 6.00332E-009, 1.29425E-007
4, 1560.00000, 0.178128, 0.05855, 1.90926E-008, -1.07621E-007
4, 1620.00000, 0.178125, 0.058547, 1.91495E-008, -1.07612E-007
4, 1680.00000, 0.178125, 0.058547, 1.91498E-008, -1.07612E-007
4, 1740.00000, 0.178125, 0.058547, 1.91498E-008, -1.07612E-007
4, 1800.00000, 0.178125, 0.058547, 1.91498E-008, -1.07612E-007
4, 1860.00000, 0.249376, 0.0819652, -3.57994E-007, -2.4918E-007
4, 1920.00000, 0.249375, 0.0819658, -3.57992E-007, -2.49205E-007
4, 1980.00000, 0.249376, 0.081966, -3.58005E-007, -2.4919E-007
4, 2040.00000, 0.249375, 0.0819657, -3.57992E-007, -2.49204E-007
4, 2100.00000, 0.249376, 0.081966, -3.58003E-007, -2.49192E-007
4, 2160.00000, 0.213749, 0.0702566, -1.02224E-007, 5.77535E-008
4, 2220.00000, 0.213751, 0.0702564, -1.02277E-007, 5.77462E-008
4, 2280.00000, 0.21375, 0.0702562, -1.02296E-007, 5.77367E-008
4, 2340.00000, 0.21375, 0.0702562, -1.02308E-007, 5.77304E-008
4, 2400.00000, 0.213751, 0.0702566, -1.02431E-007, 5.76628E-008
4, 2460.00000, 0.178126, 0.0585477, 1.17E-007, -1.56311E-007
4, 2520.00000, 0.178126, 0.0585475, 1.16758E-007, -1.56281E-007
4, 2580.00000, 0.178125, 0.058547, 1.16749E-007, -1.56278E-007
4, 2640.00000, 0.178125, 0.058547, 1.16749E-007, -1.56278E-007
4, 2700.00000, 0.178125, 0.058547, 1.16749E-007, -1.56278E-007
4, 2760.00000, 0.178124, 0.0585463, 1.98551E-007, 9.35728E-009
4, 2820.00000, 0.178126, 0.0585471, 1.98379E-007, 9.32823E-009
4, 2880.00000, 0.178125, 0.0585469, 1.98334E-007, 9.31976E-009
4, 2940.00000, 0.178125, 0.058547, 1.98233E-007, 9.29928E-009
4, 3000.00000, 0.178125, 0.058547, 1.98132E-007, 9.27881E-009
4, 3060.00000, 0.285002, 0.0936746, -2.87552E-007, 1.52412E-007
4, 3120.00000, 0.285003, 0.0936759, -2.87734E-007, 1.52196E-007
4, 3180.00000, 0.285, 0.0936746, -2.87699E-007, 1.52234E-007
4, 3240.00000, 0.285002, 0.0936755, -2.87829E-007, 1.52108E-007
4, 3300.00000, 0.285001, 0.0936749, -2.87853E-007, 1.52088E-007
4, 3360.00000, 0.17813, 0.0585526, 9.36203E-009, -1.68686E-009
4, 3420.00000, 0.178126, 0.0585472, 9.29968E-009, -1.63985E-009
4, 3480.00000, 0.178127, 0.0585475, 9.03643E-009, -1.69704E-009
4, 3540.00000, 0.178126, 0.0585471, 8.92553E-009, -1.71912E-009
5, 0.00000, 0.178125, 0.0585468, 8.92884E-009, -1.71725E-009
5, 60.00000, 0.320621, 0.105382, -3.49942E-007, 5.60467E-007
5, 120.00000, 0.320626, 0.105384, -3.50041E-007, 5.6037E-007
5, 180.00000, 0.320628, 0.105384, -3.50169E-007, 5.60016E-007
5, 240.00000, 0.320627, 0.105384, -3.50265E-007, 5.59752E-007
5, 300.00000, 0.32063, 0.105385, -3.50531E-007, 5.59007E-007
5, 360.00000, 0.178126, 0.0585474, 9.73513E-008, 5.7969E-008
5, 420.00000, 0.178126, 0.0585471, 9.72076E-008, 5.79107E-008
5, 480.00000, 0.178126, 0.058547, 9.70786E-008, 5.78671E-008
5, 540.00000, 0.178127, 0.0585476, 9.66525E-008, 5.77206E-008
5, 600.00000, 0.178127, 0.0585476, 9.62202E-008, 5.75739E-008
5, 660.00000, 0.178115, 0.0585523, 9.65732E-008, 5.7498E-008
5, 720.00000, 0.178127, 0.0585477, 9.60602E-008, 5.7489E-008
5, 780.00000, 0.178126, 0.0585472, 9.58119E-008, 5.73964E-008
5, 840.00000, 0.178127, 0.0585474, 9.54582E-008, 5.72613E-008
5, 900.00000, 0.178127, 0.0585476, 9.49624E-008, 5.7072E-008
5, 960.00000, 0.213751, 0.0702559, -9.75685E-008, -7.12332E-008
5, 1020.00000, 0.213753, 0.0702575, -9.79243E-008, -7.12814E-008
5, 1080.00000, 0.213752, 0.0702573, -9.82334E-008, -7.13001E-008
5, 1140.00000, 0.213752, 0.0702573, -9.85283E-008, -7.1318E-008
