hour, t(sec), P1 (kW), Q1 (kvar), P2 (kW), Q2 (kvar)
0, 60.00000, 0.258018, 0.0848064, 7.54861E-008, 5.53879E-008
0, 120.00000, 0.25802, 0.084807, 7.54861E-008, 5.53924E-008
0, 180.00000, 0.25802, 0.084807, 7.54861E-008, 5.53924E-008
0, 240.00000, 0.25802, 0.084807, 7.54861E-008, 5.53924E-008
0, 300.00000, 0.25802, 0.084807, 7.54861E-008, 5.53924E-008
0, 360.00000, 0.258016, 0.0848057, -2.12815E-008, -2.47608E-008
0, 420.00000, 0.25802, 0.0848071, -2.12938E-008, -2.47432E-008
0, 480.00000, 0.25802, 0.0848071, -2.12939E-008, -2.47431E-008
0, 540.00000, 0.25802, 0.0848071, -2.12939E-008, -2.47431E-008
0, 600.00000, 0.25802, 0.0848071, -2.12939E-008, -2.47431E-008
0, 660.00000, 0.258024, 0.0848075, 4.62098E-009, 3.97964E-008
0, 720.00000, 0.25802, 0.084807, 4.62603E-009, 3.97727E-008
0, 780.00000, 0.25802, 0.084807, 4.62612E-009, 3.97726E-008
0, 840.00000, 0.25802, 0.084807, 4.62612E-009, 3.97726E-008
0, 900.00000, 0.25802, 0.084807, 4.62612E-009, 3.97726E-008
0, 960.00000, 0.25802, 0.0848069, 3.06899E-008, 1.0516E-007
0, 1020.00000, 0.25802, 0.084807, 3.0689E-008, 1.05157E-007
0, 1080.00000, 0.25802, 0.084807, 3.0689E-008, 1.05157E-007
0, 1140.00000, 0.25802, 0.084807, 3.0689E-008, 1.05157E-007
0, 1200.00000, 0.25802, 0.084807, 3.0689E-008, 1.05157E-007
0, 1260.00000, 0.258017, 0.0848085, 1.46941E-007, 7.14761E-008
0, 1320.00000, 0.25802, 0.084807, 1.46958E-007, 7.15045E-008
0, 1380.00000, 0.25802, 0.084807, 1.46958E-007, 7.15047E-008
0, 1440.00000, 0.25802, 0.084807, 1.46958E-007, 7.15047E-008
0, 1500.00000, 0.25802, 0.084807, 1.46958E-007, 7.15047E-008
0, 1560.00000, 0.1843, 0.0605778, 1.86744E-007, 1.84111E-008
0, 1620.00000, 0.1843, 0.0605765, 1.86757E-007, 1.84157E-008
0, 1680.00000, 0.1843, 0.0605765, 1.86757E-007, 1.84158E-008
0, 1740.00000, 0.1843, 0.0605765, 1.86757E-007, 1.84158E-008
0, 1800.00000, 0.1843, 0.0605765, 1.86757E-007, 1.84158E-008
0, 1860.00000, 0.331739, 0.109035, 4.27425E-008, 1.5137E-007
0, 1920.00000, 0.33174, 0.109037, 4.27178E-008, 1.5136E-007
0, 1980.00000, 0.33174, 0.109038, 4.27177E-008, 1.5136E-007
0, 2040.00000, 0.33174, 0.109038, 4.27177E-008, 1.5136E-007
0, 2100.00000, 0.33174, 0.109038, 4.27177E-008, 1.5136E-007
0, 2160.00000, 0.294884, 0.0969222, 6.59615E-009, 5.20932E-008
0, 2220.00000, 0.29488, 0.0969223, 6.59217E-009, 5.207E-008
0, 2280.00000, 0.29488, 0.0969223, 6.5922E-009, 5.20698E-008
0, 2340.00000, 0.29488, 0.0969223, 6.5922E-009, 5.20698E-008
0, 2400.00000, 0.29488, 0.0969223, 6.5922E-009, 5.20698E-008
0, 2460.00000, 0.22116, 0.0726894, 5.65521E-008, -1.12709E-007
0, 2520.00000, 0.22116, 0.0726919, 5.65302E-008, -1.1273E-007
0, 2580.00000, 0.22116, 0.0726919, 5.65301E-008, -1.1273E-007
0, 2640.00000, 0.22116, 0.0726919, 5.65301E-008, -1.1273E-007
0, 2700.00000, 0.22116, 0.0726919, 5.65301E-008, -1.1273E-007
0, 2760.00000, 0.331737, 0.109035, -1.08834E-007, 1.95013E-007
0, 2820.00000, 0.33174, 0.109037, -1.08857E-007, 1.95024E-007
0, 2880.00000, 0.33174, 0.109037, -1.08857E-007, 1.95024E-007
0, 2940.00000, 0.33174, 0.109037, -1.08857E-007, 1.95024E-007
0, 3000.00000, 0.33174, 0.109037, -1.08857E-007, 1.95024E-007
0, 3060.00000, 0.221164, 0.0726957, 1.62264E-007, 1.30702E-008
0, 3120.00000, 0.22116, 0.0726918, 1.62301E-007, 1.30662E-008
0, 3180.00000, 0.22116, 0.0726918, 1.62301E-007, 1.30662E-008
0, 3240.00000, 0.22116, 0.0726918, 1.62301E-007, 1.30662E-008
0, 3300.00000, 0.22116, 0.0726918, 1.62301E-007, 1.30662E-008
0, 3360.00000, 0.221159, 0.0726944, 2.24342E-007, 2.65572E-008
0, 3420.00000, 0.22116, 0.0726918, 2.24372E-007, 2.65746E-008
0, 3480.00000, 0.22116, 0.0726918, 2.24372E-007, 2.65748E-008
0, 3540.00000, 0.22116, 0.0726918, 2.24372E-007, 2.65748E-008
1, 0.00000, 0.22116, 0.0726918, 2.24372E-007, 2.65748E-008
1, 60.00000, 0.221162, 0.0726905, 4.1294E-008, -1.36219E-008
1, 120.00000, 0.22116, 0.0726918, 4.12747E-008, -1.36334E-008
1, 180.00000, 0.22116, 0.0726918, 4.12746E-008, -1.36335E-008
1, 240.00000, 0.22116, 0.0726918, 4.12746E-008, -1.36335E-008
1, 300.00000, 0.22116, 0.0726918, 4.12746E-008, -1.36335E-008
1, 360.00000, 0.221157, 0.0726919, 1.24007E-007, 5.55548E-008
1, 420.00000, 0.22116, 0.0726917, 1.2401E-007, 5.55731E-008
1, 480.00000, 0.22116, 0.0726917, 1.2401E-007, 5.55732E-008
1, 540.00000, 0.22116, 0.0726917, 1.2401E-007, 5.55732E-008
1, 600.00000, 0.22116, 0.0726917, 1.2401E-007, 5.55732E-008
1, 660.00000, 0.221161, 0.0726915, 3.83845E-009, 2.89906E-008
1, 720.00000, 0.22116, 0.0726917, 3.837E-009, 2.89818E-008
1, 780.00000, 0.22116, 0.0726917, 3.83701E-009, 2.89817E-008
1, 840.00000, 0.22116, 0.0726917, 3.83701E-009, 2.89817E-008
1, 900.00000, 0.22116, 0.0726917, 3.83701E-009, 2.89817E-008
1, 960.00000, 0.294875, 0.0969201, 6.57211E-008, 2.00969E-007
1, 1020.00000, 0.29488, 0.0969222, 6.57021E-008, 2.00991E-007
1, 1080.00000, 0.29488, 0.0969222, 6.5702E-008, 2.00991E-007
1, 1140.00000, 0.29488, 0.0969222, 6.5702E-008, 2.00991E-007
1, 1200.00000, 0.29488, 0.0969222, 6.5702E-008, 2.00991E-007
1, 1260.00000, 0.258025, 0.0848076, -5.73365E-008, 2.02412E-007
1, 1320.00000, 0.25802, 0.0848069, -5.73267E-008, 2.02386E-007
1, 1380.00000, 0.25802, 0.0848069, -5.73266E-008, 2.02386E-007
1, 1440.00000, 0.25802, 0.0848069, -5.73266E-008, 2.02386E-007
1, 1500.00000, 0.25802, 0.0848069, -5.73266E-008, 2.02386E-007
1, 1560.00000, 0.294878, 0.0969203, -6.56132E-008, 2.3902E-007
1, 1620.00000, 0.29488, 0.0969221, -6.56317E-008, 2.39028E-007
1, 1680.00000, 0.29488, 0.0969221, -6.56319E-008, 2.39028E-007
1, 1740.00000, 0.29488, 0.0969221, -6.56319E-008, 2.39028E-007
1, 1800.00000, 0.29488, 0.0969221, -6.56319E-008, 2.39028E-007
1, 1860.00000, 0.331737, 0.109037, -1.6295E-007, 2.57437E-007
1, 1920.00000, 0.33174, 0.109037, -1.62953E-007, 2.57461E-007
1, 1980.00000, 0.33174, 0.109037, -1.62953E-007, 2.57461E-007
1, 2040.00000, 0.33174, 0.109037, -1.62953E-007, 2.57461E-007
1, 2100.00000, 0.33174, 0.109037, -1.62953E-007, 2.57461E-007
1, 2160.00000, 0.258022, 0.0848072, -6.53752E-008, 2.41872E-008
1, 2220.00000, 0.25802, 0.0848071, -6.53723E-008, 2.41723E-008
1, 2280.00000, 0.25802, 0.084807, -6.53723E-008, 2.41722E-008
1, 2340.00000, 0.25802, 0.084807, -6.53723E-008, 2.41722E-008
1, 2400.00000, 0.25802, 0.084807, -6.53723E-008, 2.41722E-008
1, 2460.00000, 0.258042, 0.0848043, -1.0947E-007, 7.32923E-008
1, 2520.00000, 0.25802, 0.084807, -1.09484E-007, 7.31548E-008
1, 2580.00000, 0.25802, 0.084807, -1.09484E-007, 7.31539E-008
1, 2640.00000, 0.25802, 0.084807, -1.09484E-007, 7.31539E-008
1, 2700.00000, 0.25802, 0.084807, -1.09484E-007, 7.31539E-008
1, 2760.00000, 0.258007, 0.0848128, -9.12868E-008, -4.10571E-008
1, 2820.00000, 0.25802, 0.0848071, -9.12228E-008, -4.09971E-008
1, 2880.00000, 0.25802, 0.0848071, -9.12226E-008, -4.09966E-008
1, 2940.00000, 0.25802, 0.0848071, -9.12226E-008, -4.09966E-008
1, 3000.00000, 0.25802, 0.0848071, -9.12226E-008, -4.09966E-008
1, 3060.00000, 0.258003, 0.0848034, -3.95395E-008, 8.93244E-008
1, 3120.00000, 0.25802, 0.0848069, -3.95932E-008, 8.94433E-008
1, 3180.00000, 0.25802, 0.084807, -3.95938E-008, 8.94439E-008
1, 3240.00000, 0.25802, 0.084807, -3.95938E-008, 8.94439E-008
1, 3300.00000, 0.25802, 0.084807, -3.95938E-008, 8.94439E-008
1, 3360.00000, 0.221163, 0.0726946, -1.82507E-008, -2.67959E-008
1, 3420.00000, 0.22116, 0.0726918, -1.82268E-008, -2.68013E-008
1, 3480.00000, 0.22116, 0.0726918, -1.82267E-008, -2.68012E-008
1, 3540.00000, 0.22116, 0.0726918, -1.82267E-008, -2.68012E-008
2, 0.00000, 0.22116, 0.0726918, -1.82267E-008, -2.68012E-008
2, 60.00000, 0.1843, 0.060576, -3.41116E-008, -7.2097E-008
2, 120.00000, 0.1843, 0.0605765, -3.41176E-008, -7.20953E-008
2, 180.00000, 0.1843, 0.0605766, -3.41176E-008, -7.20953E-008
2, 240.00000, 0.1843, 0.0605766, -3.41176E-008, -7.20953E-008
2, 300.00000, 0.1843, 0.0605766, -3.41176E-008, -7.20953E-008
2, 360.00000, 0.22116, 0.0726908, 3.40645E-009, 2.88036E-008
2, 420.00000, 0.22116, 0.0726917, 3.39806E-009, 2.88013E-008
2, 480.00000, 0.22116, 0.0726917, 3.39803E-009, 2.88013E-008
2, 540.00000, 0.22116, 0.0726917, 3.39803E-009, 2.88013E-008
2, 600.00000, 0.22116, 0.0726917, 3.39803E-009, 2.88013E-008
2, 660.00000, 0.221172, 0.0726857, -1.15699E-007, 2.12558E-009
2, 720.00000, 0.22116, 0.0726918, -1.15736E-007, 2.03808E-009
2, 780.00000, 0.22116, 0.0726918, -1.15736E-007, 2.03752E-009
2, 840.00000, 0.22116, 0.0726918, -1.15736E-007, 2.03752E-009
2, 900.00000, 0.22116, 0.0726918, -1.15736E-007, 2.03752E-009
2, 960.00000, 0.25802, 0.0848091, -1.33863E-007, 8.14506E-009
2, 1020.00000, 0.25802, 0.0848071, -1.33847E-007, 8.15698E-009
2, 1080.00000, 0.25802, 0.0848071, -1.33847E-007, 8.15709E-009
2, 1140.00000, 0.25802, 0.0848071, -1.33847E-007, 8.15709E-009
2, 1200.00000, 0.25802, 0.0848071, -1.33847E-007, 8.15709E-009
2, 1260.00000, 0.184312, 0.0605777, 6.501E-008, -5.0143E-008
2, 1320.00000, 0.1843, 0.0605765, 6.50079E-008, -5.01839E-008
2, 1380.00000, 0.1843, 0.0605765, 6.5008E-008, -5.01841E-008
2, 1440.00000, 0.1843, 0.0605765, 6.5008E-008, -5.01841E-008
2, 1500.00000, 0.1843, 0.0605765, 6.5008E-008, -5.01841E-008
2, 1560.00000, 0.221159, 0.0726906, -5.60295E-008, 1.554E-008
2, 1620.00000, 0.22116, 0.0726918, -5.60398E-008, 1.55407E-008
2, 1680.00000, 0.22116, 0.0726918, -5.60398E-008, 1.55407E-008
2, 1740.00000, 0.22116, 0.0726918, -5.60398E-008, 1.55407E-008
2, 1800.00000, 0.22116, 0.0726918, -5.60398E-008, 1.55407E-008
2, 1860.00000, 0.147439, 0.0484629, 9.12703E-008, -3.44517E-008
2, 1920.00000, 0.14744, 0.0484612, 9.12916E-008, -3.44577E-008
2, 1980.00000, 0.14744, 0.0484612, 9.12916E-008, -3.44577E-008
2, 2040.00000, 0.14744, 0.0484612, 9.12916E-008, -3.44577E-008
2, 2100.00000, 0.14744, 0.0484612, 9.12916E-008, -3.44577E-008
2, 2160.00000, 0.221155, 0.0726893, 2.55108E-008, 8.39516E-008
2, 2220.00000, 0.22116, 0.0726917, 2.5489E-008, 8.39821E-008
2, 2280.00000, 0.22116, 0.0726917, 2.54889E-008, 8.39823E-008
2, 2340.00000, 0.22116, 0.0726917, 2.54889E-008, 8.39823E-008
2, 2400.00000, 0.22116, 0.0726917, 2.54889E-008, 8.39823E-008
2, 2460.00000, 0.257998, 0.0847997, -1.08724E-007, 7.31803E-008
2, 2520.00000, 0.25802, 0.0848069, -1.08804E-007, 7.32919E-008
2, 2580.00000, 0.25802, 0.084807, -1.08805E-007, 7.32924E-008
2, 2640.00000, 0.25802, 0.084807, -1.08805E-007, 7.32924E-008
2, 2700.00000, 0.25802, 0.084807, -1.08805E-007, 7.32924E-008
2, 2760.00000, 0.184301, 0.0605772, -1.57995E-008, -2.59515E-008
2, 2820.00000, 0.1843, 0.0605765, -1.57935E-008, -2.59523E-008
2, 2880.00000, 0.1843, 0.0605765, -1.57935E-008, -2.59523E-008
2, 2940.00000, 0.1843, 0.0605765, -1.57935E-008, -2.59523E-008
2, 3000.00000, 0.1843, 0.0605765, -1.57935E-008, -2.59523E-008
2, 3060.00000, 0.147442, 0.048461, 3.65094E-008, -8.03134E-008
2, 3120.00000, 0.14744, 0.0484613, 3.65067E-008, -8.03264E-008
2, 3180.00000, 0.14744, 0.0484613, 3.65067E-008, -8.03265E-008
2, 3240.00000, 0.14744, 0.0484613, 3.65067E-008, -8.03265E-008
2, 3300.00000, 0.14744, 0.0484613, 3.65067E-008, -8.03265E-008
2, 3360.00000, 0.184297, 0.060577, 8.36673E-008, -3.97862E-009
2, 3420.00000, 0.1843, 0.0605765, 8.36727E-008, -3.96029E-009
2, 3480.00000, 0.1843, 0.0605765, 8.36727E-008, -3.96019E-009
2, 3540.00000, 0.1843, 0.0605765, 8.36727E-008, -3.96019E-009
3, 0.00000, 0.1843, 0.0605765, 8.36727E-008, -3.96019E-009
3, 60.00000, 0.184303, 0.060577, 1.01505E-007, 4.15742E-008
3, 120.00000, 0.1843, 0.0605764, 1.01508E-007, 4.15618E-008
3, 180.00000, 0.1843, 0.0605764, 1.01508E-007, 4.15618E-008
3, 240.00000, 0.1843, 0.0605764, 1.01508E-007, 4.15618E-008
3, 300.00000, 0.1843, 0.0605764, 1.01508E-007, 4.15618E-008
3, 360.00000, 0.221157, 0.0726907, 2.56159E-008, 8.39283E-008
3, 420.00000, 0.22116, 0.0726917, 2.56065E-008, 8.39414E-008
3, 480.00000, 0.22116, 0.0726917, 2.56065E-008, 8.39414E-008
3, 540.00000, 0.22116, 0.0726917, 2.56065E-008, 8.39414E-008
3, 600.00000, 0.22116, 0.0726917, 2.56065E-008, 8.39414E-008
3, 660.00000, 0.18431, 0.0605728, -4.70584E-008, 8.95328E-009
3, 720.00000, 0.1843, 0.0605765, -4.70854E-008, 8.89221E-009
3, 780.00000, 0.1843, 0.0605765, -4.70855E-008, 8.89179E-009
3, 840.00000, 0.1843, 0.0605765, -4.70855E-008, 8.89179E-009
3, 900.00000, 0.1843, 0.0605765, -4.70855E-008, 8.89179E-009
3, 960.00000, 0.147441, 0.0484619, 2.65354E-008, -1.52588E-008
3, 1020.00000, 0.14744, 0.0484612, 2.65405E-008, -1.52588E-008
3, 1080.00000, 0.14744, 0.0484612, 2.65405E-008, -1.52588E-008
3, 1140.00000, 0.14744, 0.0484612, 2.65405E-008, -1.52588E-008
3, 1200.00000, 0.14744, 0.0484612, 2.65405E-008, -1.52588E-008
3, 1260.00000, 0.221157, 0.0726911, 3.7215E-009, 2.89779E-008
3, 1320.00000, 0.22116, 0.0726917, 3.71557E-009, 2.899E-008
3, 1380.00000, 0.22116, 0.0726917, 3.71551E-009, 2.899E-008
3, 1440.00000, 0.22116, 0.0726917, 3.71551E-009, 2.899E-008
3, 1500.00000, 0.22116, 0.0726917, 3.71551E-009, 2.899E-008
3, 1560.00000, 0.221161, 0.0726916, 3.58118E-009, 2.88943E-008
3, 1620.00000, 0.22116, 0.0726917, 3.58002E-009, 2.88884E-008
3, 1680.00000, 0.22116, 0.0726917, 3.58003E-009, 2.88884E-008
3, 1740.00000, 0.22116, 0.0726917, 3.58003E-009, 2.88884E-008
3, 1800.00000, 0.22116, 0.0726917, 3.58003E-009, 2.88884E-008
3, 1860.00000, 0.221162, 0.0726928, -1.1497E-007, 1.89507E-009
3, 1920.00000, 0.22116, 0.0726918, -1.1496E-007, 1.888E-009
3, 1980.00000, 0.22116, 0.0726918, -1.1496E-007, 1.88798E-009
3, 2040.00000, 0.22116, 0.0726918, -1.1496E-007, 1.88798E-009
3, 2100.00000, 0.22116, 0.0726918, -1.1496E-007, 1.88798E-009
3, 2160.00000, 0.221161, 0.0726908, -5.59864E-008, 1.49323E-008
3, 2220.00000, 0.22116, 0.0726918, -5.5993E-008, 1.49228E-008
3, 2280.00000, 0.22116, 0.0726918, -5.5993E-008, 1.49227E-008
3, 2340.00000, 0.22116, 0.0726918, -5.5993E-008, 1.49227E-008
3, 2400.00000, 0.22116, 0.0726918, -5.5993E-008, 1.49227E-008
3, 2460.00000, 0.184298, 0.0605778, -1.55409E-008, -2.59844E-008
3, 2520.00000, 0.1843, 0.0605765, -1.55319E-008, -2.59691E-008
3, 2580.00000, 0.1843, 0.0605765, -1.55319E-008, -2.5969E-008
3, 2640.00000, 0.1843, 0.0605765, -1.55319E-008, -2.5969E-008
3, 2700.00000, 0.1843, 0.0605765, -1.55319E-008, -2.5969E-008
3, 2760.00000, 0.258017, 0.084805, -3.88078E-008, 8.88614E-008
3, 2820.00000, 0.25802, 0.084807, -3.88273E-008, 8.88729E-008
3, 2880.00000, 0.25802, 0.084807, -3.88274E-008, 8.88729E-008
3, 2940.00000, 0.25802, 0.084807, -3.88274E-008, 8.88729E-008
3, 3000.00000, 0.25802, 0.084807, -3.88274E-008, 8.88729E-008
3, 3060.00000, 0.184302, 0.0605754, 5.15191E-008, 3.09618E-008
3, 3120.00000, 0.1843, 0.0605764, 5.15108E-008, 3.09477E-008
3, 3180.00000, 0.1843, 0.0605765, 5.15107E-008, 3.09476E-008
3, 3240.00000, 0.1843, 0.0605765, 5.15107E-008, 3.09476E-008
3, 3300.00000, 0.1843, 0.0605765, 5.15107E-008, 3.09476E-008
3, 3360.00000, 0.221157, 0.0726918, -1.87106E-008, -2.59209E-008
3, 3420.00000, 0.22116, 0.0726918, -1.87111E-008, -2.59059E-008
3, 3480.00000, 0.22116, 0.0726918, -1.87111E-008, -2.59058E-008
3, 3540.00000, 0.22116, 0.0726918, -1.87111E-008, -2.59058E-008
4, 0.00000, 0.22116, 0.0726918, -1.87111E-008, -2.59058E-008
4, 60.00000, 0.184304, 0.0605775, 3.34305E-008, -1.53233E-008
4, 120.00000, 0.1843, 0.0605765, 3.34398E-008, -1.53391E-008
4, 180.00000, 0.1843, 0.0605765, 3.34399E-008, -1.53392E-008
4, 240.00000, 0.1843, 0.0605765, 3.34399E-008, -1.53392E-008
4, 300.00000, 0.1843, 0.0605765, 3.34399E-008, -1.53392E-008
4, 360.00000, 0.258018, 0.0848088, 5.48698E-009, 3.9087E-008
4, 420.00000, 0.25802, 0.084807, 5.50124E-009, 3.91084E-008
4, 480.00000, 0.25802, 0.084807, 5.50128E-009, 3.91085E-008
4, 540.00000, 0.25802, 0.084807, 5.50128E-009, 3.91085E-008
4, 600.00000, 0.25802, 0.084807, 5.50128E-009, 3.91085E-008
4, 660.00000, 0.221159, 0.0726905, 3.64142E-009, 2.88601E-008
4, 720.00000, 0.22116, 0.0726917, 3.63056E-009, 2.88578E-008
4, 780.00000, 0.22116, 0.0726917, 3.6305E-009, 2.88577E-008
4, 840.00000, 0.22116, 0.0726917, 3.6305E-009, 2.88577E-008
4, 900.00000, 0.22116, 0.0726917, 3.6305E-009, 2.88577E-008
4, 960.00000, 0.221165, 0.0726897, 6.3094E-008, 4.20522E-008
4, 1020.00000, 0.22116, 0.0726917, 6.30618E-008, 4.20358E-008
4, 1080.00000, 0.22116, 0.0726917, 6.30616E-008, 4.20356E-008
4, 1140.00000, 0.22116, 0.0726917, 6.30616E-008, 4.20356E-008
4, 1200.00000, 0.22116, 0.0726917, 6.30616E-008, 4.20356E-008
4, 1260.00000, 0.184307, 0.0605794, 8.32799E-008, -4.0499E-009
4, 1320.00000, 0.1843, 0.0605765, 8.33112E-008, -4.0842E-009
4, 1380.00000, 0.1843, 0.0605765, 8.33115E-008, -4.08432E-009
4, 1440.00000, 0.1843, 0.0605765, 8.33115E-008, -4.08432E-009
4, 1500.00000, 0.1843, 0.0605765, 8.33115E-008, -4.08432E-009
4, 1560.00000, 0.184283, 0.0605679, 3.37672E-008, -1.49878E-008
4, 1620.00000, 0.1843, 0.0605764, 3.3708E-008, -1.49363E-008
4, 1680.00000, 0.1843, 0.0605765, 3.37076E-008, -1.49361E-008
4, 1740.00000, 0.1843, 0.0605765, 3.37075E-008, -1.49361E-008
4, 1800.00000, 0.1843, 0.0605765, 3.37075E-008, -1.49361E-008
4, 1860.00000, 0.221161, 0.0726913, 3.18429E-009, 2.87313E-008
4, 1920.00000, 0.22116, 0.0726917, 3.18026E-009, 2.8724E-008
4, 1980.00000, 0.221161, 0.072692, 3.20077E-009, 2.86209E-008
4, 2040.00000, 0.221159, 0.0726915, 3.18042E-009, 2.87233E-008
4, 2100.00000, 0.22116, 0.0726919, 3.19739E-009, 2.86379E-008
4, 2160.00000, 0.1843, 0.0605767, -1.60135E-008, -2.60942E-008
4, 2220.00000, 0.184301, 0.0605768, -1.59844E-008, -2.62125E-008
4, 2280.00000, 0.1843, 0.0605766, -1.59748E-008, -2.62532E-008
4, 2340.00000, 0.1843, 0.0605766, -1.59684E-008, -2.62803E-008
4, 2400.00000, 0.184302, 0.0605772, -1.58996E-008, -2.65745E-008
4, 2460.00000, 0.22116, 0.0726926, 6.32046E-008, 4.08103E-008
4, 2520.00000, 0.221163, 0.0726928, 6.32745E-008, 4.02885E-008
4, 2580.00000, 0.22116, 0.0726917, 6.32735E-008, 4.0285E-008
4, 2640.00000, 0.22116, 0.0726917, 6.32735E-008, 4.02848E-008
4, 2700.00000, 0.22116, 0.0726917, 6.32735E-008, 4.02847E-008
4, 2760.00000, 0.221161, 0.0726931, 4.84026E-008, 1.36573E-007
4, 2820.00000, 0.221161, 0.0726922, 4.84497E-008, 1.36264E-007
4, 2880.00000, 0.22116, 0.0726918, 4.84575E-008, 1.36184E-007
4, 2940.00000, 0.221161, 0.072692, 4.84785E-008, 1.35992E-007
4, 3000.00000, 0.221161, 0.072692, 4.84991E-008, 1.358E-007
4, 3060.00000, 0.258017, 0.084806, 3.16563E-008, 1.00481E-007
4, 3120.00000, 0.258024, 0.0848084, 3.17624E-008, 9.96712E-008
4, 3180.00000, 0.258019, 0.0848067, 3.17368E-008, 9.98386E-008
4, 3240.00000, 0.258023, 0.084808, 3.18162E-008, 9.92758E-008
4, 3300.00000, 0.25802, 0.0848071, 3.18276E-008, 9.91848E-008
4, 3360.00000, 0.221161, 0.0726868, 1.45406E-007, 1.06167E-007
4, 3420.00000, 0.221162, 0.0726924, 1.4538E-007, 1.05727E-007
4, 3480.00000, 0.221163, 0.072693, 1.45394E-007, 1.0497E-007
4, 3540.00000, 0.221161, 0.0726922, 1.45396E-007, 1.04663E-007
5, 0.00000, 0.22116, 0.0726916, 1.45394E-007, 1.04679E-007
5, 60.00000, 0.258023, 0.0848056, -2.00352E-008, -3.21908E-008
5, 120.00000, 0.258021, 0.0848075, -2.00001E-008, -3.24051E-008
5, 180.00000, 0.258023, 0.0848082, -1.98876E-008, -3.28876E-008
5, 240.00000, 0.258022, 0.0848079, -1.98051E-008, -3.32396E-008
5, 300.00000, 0.258026, 0.0848094, -1.95684E-008, -3.42569E-008
5, 360.00000, 0.184297, 0.0605767, 1.83249E-007, 1.16666E-008
5, 420.00000, 0.184301, 0.060577, 1.8324E-007, 1.13947E-008
5, 480.00000, 0.184301, 0.0605769, 1.83226E-007, 1.11684E-008
5, 540.00000, 0.184304, 0.0605779, 1.83185E-007, 1.04028E-008
5, 600.00000, 0.184304, 0.0605779, 1.83139E-007, 9.63701E-009
5, 660.00000, 0.294866, 0.0969347, -1.13104E-008, 1.66255E-007
5, 720.00000, 0.294888, 0.0969248, -1.09241E-008, 1.64695E-007
5, 780.00000, 0.294884, 0.0969234, -1.07888E-008, 1.6391E-007
5, 840.00000, 0.294885, 0.0969239, -1.05881E-008, 1.62753E-007
5, 900.00000, 0.294887, 0.0969246, -1.03067E-008, 1.61128E-007
5, 960.00000, 0.221163, 0.0726927, 1.02305E-007, -1.46866E-008
5, 1020.00000, 0.221165, 0.0726937, 1.02375E-007, -1.57924E-008
5, 1080.00000, 0.221164, 0.0726934, 1.02423E-007, -1.67088E-008
5, 1140.00000, 0.221164, 0.0726933, 1.02469E-007, -1.75903E-008
5, 1200.00000, 0.221163, 0.0726932, 1.0251E-007, -1.8387E-008
5, 1260.00000, 0.221159, 0.0726908, 2.89298E-008, 6.30076E-008
