hour, t(sec), P1 (kW), Q1 (kvar), P2 (kW), Q2 (kvar), P3 (kW), Q3 (kvar), P4 (kW), Q4 (kvar)
1, 0.00000, -0.233687, -0.0768058, -0.233688, -0.0768109, -0.233684, -0.0768076, 5.3455E-009, -3.37194E-009
2, 0.00000, -0.198034, -0.0650892, -0.198033, -0.0650916, -0.198031, -0.0650897, 3.31358E-009, -2.06344E-009
3, 0.00000, -0.181344, -0.0596047, -0.181341, -0.0596058, -0.181335, -0.0596031, 2.55057E-009, -1.5715E-009
4, 0.00000, -0.175556, -0.0577014, -0.175555, -0.0577032, -0.175553, -0.0577016, 2.31176E-009, -1.42888E-009
5, 0.00000, -0.182808, -0.0600845, -0.182809, -0.0600871, -0.182808, -0.060086, 2.58871E-009, -1.6115E-009
6, 0.00000, -0.210889, -0.0693141, -0.210893, -0.0693186, -0.210895, -0.0693179, 3.82384E-009, -2.44062E-009
7, 0.00000, -0.267358, -0.0878735, -0.267358, -0.0878789, -0.267355, -0.0878756, 8.08933E-009, -5.15097E-009
8, 0.00000, -0.263999, -0.0980263, -0.264004, -0.0980333, -0.264005, -0.0980316, 8.60878E-009, -5.6585E-009
9, 0.00000, 0.0462297, -0.100411, 0.0462288, -0.100409, 0.0462293, -0.100409, 4.62724E-010, -7.29566E-010
10, 0.00000, 0.179477, -0.103317, 0.179474, -0.103317, 0.179476, -0.103316, 7.72002E-010, -2.24259E-009
11, 0.00000, 0.730008, -0.104028, 0.729993, -0.104042, 0.730017, -0.10404, -3.42025E-008, -1.32913E-008
12, 0.00000, 0.758689, -0.103215, 0.758688, -0.103239, 0.758709, -0.103222, -3.90636E-008, -1.32973E-008
13, 0.00000, 0.547825, -0.103667, 0.547837, -0.10369, 0.54785, -0.103673, -1.21863E-008, -9.68156E-009
14, 0.00000, 0.0579223, -0.105717, 0.0579233, -0.10572, 0.057924, -0.105719, 5.26602E-010, -8.82678E-010
15, 0.00000, -0.199503, -0.110115, -0.199505, -0.110121, -0.199502, -0.110119, 5.03723E-009, -3.77248E-009
16, 0.00000, -0.368133, -0.120991, -0.368136, -0.121003, -0.368132, -0.120998, 2.28119E-008, -1.44215E-008
17, 0.00000, -0.428027, -0.140676, -0.428031, -0.140692, -0.428024, -0.140685, 3.83523E-008, -2.39135E-008
18, 0.00000, -0.476669, -0.156663, -0.476672, -0.156682, -0.476662, -0.156672, 5.52164E-008, -3.42652E-008
19, 0.00000, -0.495824, -0.162958, -0.495822, -0.162978, -0.49581, -0.162965, 6.3283E-008, -3.91838E-008
20, 0.00000, -0.50684, -0.166585, -0.506837, -0.166603, -0.506834, -0.166592, 6.79208E-008, -4.21107E-008
21, 0.00000, -0.493943, -0.162342, -0.493936, -0.16236, -0.493922, -0.162345, 6.14372E-008, -3.8312E-008
22, 0.00000, -0.451953, -0.148542, -0.451943, -0.148556, -0.451929, -0.148543, 4.51546E-008, -2.83588E-008
23, 0.00000, -0.383565, -0.126067, -0.383557, -0.126076, -0.383547, -0.126067, 2.61163E-008, -1.64986E-008
24, 0.00000, -0.301981, -0.0992535, -0.301977, -0.0992589, -0.30197, -0.0992533, 1.23243E-008, -7.72728E-009
25, 0.00000, -0.233704, -0.0768125, -0.233697, -0.0768146, -0.233693, -0.0768113, 6.09577E-009, -3.65544E-009
26, 0.00000, -0.198041, -0.0650917, -0.198034, -0.0650921, -0.198033, -0.0650903, 3.4595E-009, -2.13983E-009
27, 0.00000, -0.181327, -0.0595982, -0.181325, -0.0595998, -0.181323, -0.0595981, 2.69009E-009, -1.62846E-009
28, 0.00000, -0.175555, -0.0577011, -0.175553, -0.0577026, -0.175551, -0.0577011, 2.37317E-009, -1.45298E-009
29, 0.00000, -0.182813, -0.0600863, -0.182814, -0.0600891, -0.182813, -0.0600877, 2.73807E-009, -1.65185E-009
30, 0.00000, -0.210908, -0.0693203, -0.210913, -0.0693248, -0.210911, -0.0693234, 4.23003E-009, -2.55828E-009
31, 0.00000, -0.267356, -0.0878728, -0.267359, -0.0878792, -0.267355, -0.0878757, 9.10763E-009, -5.46881E-009
32, 0.00000, -0.264487, -0.0980351, -0.264491, -0.0980417, -0.264489, -0.0980389, 9.53564E-009, -5.9754E-009
33, 0.00000, -0.064963, -0.100409, -0.0649619, -0.100408, -0.0649614, -0.100408, 8.94982E-010, -8.65295E-010
34, 0.00000, 0.1025, -0.10332, 0.1025, -0.103317, 0.102501, -0.103318, 7.6223E-010, -1.29649E-009
35, 0.00000, 0.343083, -0.104046, 0.343077, -0.104045, 0.343083, -0.104048, -3.01625E-010, -5.77255E-009
36, 0.00000, 0.379171, -0.103226, 0.379172, -0.103234, 0.379178, -0.103229, -1.4064E-009, -6.43822E-009
37, 0.00000, 0.236578, -0.103669, 0.236583, -0.103679, 0.236586, -0.103673, 1.04761E-009, -3.36952E-009
38, 0.00000, -0.0140698, -0.105717, -0.0140703, -0.10572, -0.0140696, -0.105719, 6.30994E-010, -7.34554E-010
39, 0.00000, -0.268065, -0.110102, -0.268077, -0.110114, -0.268079, -0.110113, 1.02311E-008, -6.78121E-009
40, 0.00000, -0.368133, -0.120993, -0.368136, -0.121005, -0.368132, -0.120999, 2.40638E-008, -1.48428E-008
41, 0.00000, -0.428023, -0.140677, -0.428028, -0.140692, -0.428022, -0.140685, 3.91393E-008, -2.41756E-008
42, 0.00000, -0.476659, -0.15666, -0.476666, -0.15668, -0.476658, -0.156671, 5.74045E-008, -3.5027E-008
43, 0.00000, -0.49583, -0.16296, -0.495815, -0.162977, -0.495806, -0.162963, 6.63522E-008, -4.00786E-008
44, 0.00000, -0.506903, -0.166598, -0.50689, -0.166617, -0.506877, -0.166603, 7.12279E-008, -4.24977E-008
45, 0.00000, -0.493937, -0.162339, -0.493939, -0.16236, -0.493923, -0.162345, 6.57257E-008, -3.9396E-008
46, 0.00000, -0.451955, -0.148542, -0.451948, -0.148557, -0.451934, -0.148544, 4.88687E-008, -2.96351E-008
47, 0.00000, -0.383572, -0.126068, -0.383561, -0.126077, -0.38355, -0.126067, 2.89217E-008, -1.74897E-008
48, 0.00000, -0.301983, -0.0992535, -0.301974, -0.0992575, -0.301969, -0.0992526, 1.38167E-008, -8.27723E-009
49, 0.00000, -0.233696, -0.0768102, -0.233691, -0.0768125, -0.233689, -0.0768099, 5.90389E-009, -3.59701E-009
50, 0.00000, -0.198047, -0.0650936, -0.19804, -0.0650942, -0.198037, -0.0650918, 3.59161E-009, -2.17326E-009
51, 0.00000, -0.18133, -0.059599, -0.181326, -0.0596001, -0.181324, -0.0595984, 2.69731E-009, -1.63514E-009
52, 0.00000, -0.175556, -0.0577013, -0.175553, -0.0577027, -0.175552, -0.0577012, 2.35616E-009, -1.44882E-009
53, 0.00000, -0.182814, -0.0600867, -0.182815, -0.0600894, -0.182813, -0.0600879, 2.66216E-009, -1.62942E-009
54, 0.00000, -0.210896, -0.069316, -0.210906, -0.0693226, -0.210905, -0.0693213, 4.59834E-009, -2.65526E-009
55, 0.00000, -0.267334, -0.087863, -0.267343, -0.0878721, -0.26734, -0.0878694, 8.68697E-009, -5.31585E-009
56, 0.00000, -0.298246, -0.0980246, -0.298263, -0.0980368, -0.298262, -0.0980342, 1.29373E-008, -7.70972E-009
57, 0.00000, -0.205462, -0.100418, -0.205449, -0.100416, -0.205446, -0.100413, 5.49828E-009, -3.78413E-009
58, 0.00000, -0.146717, -0.10332, -0.14671, -0.103318, -0.146709, -0.103317, 2.73307E-009, -2.16227E-009
59, 0.00000, -0.0803959, -0.104051, -0.08039, -0.104047, -0.0803891, -0.104047, 1.0706E-009, -1.0738E-009
60, 0.00000, -0.0779675, -0.103221, -0.0779729, -0.103227, -0.0779726, -0.103225, 1.26383E-009, -1.06874E-009
61, 0.00000, -0.113668, -0.103671, -0.113671, -0.103675, -0.11367, -0.103674, 2.09032E-009, -1.60477E-009
62, 0.00000, -0.187952, -0.105711, -0.187958, -0.105717, -0.187957, -0.105716, 4.92937E-009, -3.42363E-009
63, 0.00000, -0.20132, -0.110112, -0.201328, -0.11012, -0.201326, -0.110119, 6.4307E-009, -4.25583E-009
64, 0.00000, -0.368136, -0.120993, -0.368143, -0.121007, -0.368135, -0.121001, 2.72288E-008, -1.58945E-008
65, 0.00000, -0.428021, -0.140677, -0.42803, -0.140694, -0.428026, -0.140686, 4.45762E-008, -2.60666E-008
66, 0.00000, -0.476678, -0.156667, -0.476635, -0.156673, -0.476641, -0.156664, 6.33817E-008, -3.68722E-008
67, 0.00000, -0.495833, -0.162961, -0.495806, -0.162974, -0.4958, -0.162962, 7.02843E-008, -3.99931E-008
68, 0.00000, -0.506902, -0.166597, -0.506895, -0.16662, -0.506853, -0.166596, 7.62708E-008, -4.01757E-008
69, 0.00000, -0.493936, -0.162339, -0.493947, -0.162362, -0.493945, -0.162352, 6.8646E-008, -3.90681E-008
70, 0.00000, -0.451924, -0.148531, -0.451998, -0.148572, -0.451976, -0.148561, 5.40698E-008, -3.03454E-008
71, 0.00000, -0.383573, -0.126068, -0.383557, -0.126075, -0.383547, -0.126066, 3.13601E-008, -1.83923E-008
72, 0.00000, -0.301986, -0.0992546, -0.301974, -0.0992578, -0.30197, -0.0992529, 1.38241E-008, -8.29748E-009
73, 0.00000, -0.250559, -0.0823525, -0.250541, -0.0823518, -0.250535, -0.0823472, 7.74215E-009, -4.64375E-009
74, 0.00000, -0.21156, -0.0695345, -0.211546, -0.0695332, -0.211542, -0.0695308, 4.34233E-009, -2.66865E-009
75, 0.00000, -0.190406, -0.062582, -0.190402, -0.0625834, -0.1904, -0.0625814, 3.14781E-009, -1.90406E-009
76, 0.00000, -0.180691, -0.0593891, -0.180688, -0.0593903, -0.180686, -0.0593887, 2.56931E-009, -1.58442E-009
77, 0.00000, -0.1806, -0.0593592, -0.1806, -0.0593614, -0.180598, -0.0593599, 2.55258E-009, -1.56907E-009
78, 0.00000, -0.190115, -0.0624863, -0.190116, -0.0624892, -0.190114, -0.0624877, 2.99246E-009, -1.8349E-009
79, 0.00000, -0.212094, -0.0697102, -0.212099, -0.0697149, -0.212097, -0.0697131, 4.2463E-009, -2.58352E-009
80, 0.00000, -0.220624, -0.0833805, -0.220629, -0.0833861, -0.220628, -0.0833845, 5.28821E-009, -3.3733E-009
81, 0.00000, -0.0840183, -0.105052, -0.0840147, -0.105049, -0.0840143, -0.105048, 1.15065E-009, -1.12372E-009
82, 0.00000, 0.0280092, -0.12517, 0.0280098, -0.125173, 0.0280109, -0.125174, 1.00212E-009, -1.31629E-009
83, 0.00000, 0.23512, -0.135829, 0.235115, -0.135826, 0.235118, -0.135825, 2.51562E-009, -5.50739E-009
84, 0.00000, 0.221436, -0.139871, 0.221438, -0.139877, 0.221442, -0.139874, 2.75231E-009, -5.37277E-009
85, 0.00000, 0.112061, -0.141751, 0.112064, -0.141759, 0.112067, -0.141758, 1.9944E-009, -2.91237E-009
86, 0.00000, -0.136287, -0.144483, -0.136288, -0.144489, -0.136286, -0.144488, 4.8391E-009, -3.89817E-009
87, 0.00000, -0.381684, -0.147183, -0.381688, -0.147196, -0.381684, -0.14719, 3.37517E-008, -2.09556E-008
88, 0.00000, -0.456653, -0.150085, -0.456659, -0.150104, -0.456651, -0.150095, 5.19322E-008, -3.11468E-008
89, 0.00000, -0.479582, -0.157621, -0.479583, -0.15764, -0.479572, -0.157629, 5.9884E-008, -3.62288E-008
90, 0.00000, -0.49231, -0.161797, -0.49231, -0.161819, -0.492296, -0.161806, 6.33216E-008, -3.8798E-008
91, 0.00000, -0.489801, -0.160976, -0.489784, -0.160993, -0.489764, -0.160976, 6.20412E-008, -3.8128E-008
92, 0.00000, -0.487827, -0.160337, -0.487834, -0.160357, -0.487829, -0.160347, 6.20917E-008, -3.78739E-008
93, 0.00000, -0.469379, -0.154268, -0.469371, -0.154284, -0.469358, -0.154271, 5.65921E-008, -3.40676E-008
94, 0.00000, -0.433216, -0.142383, -0.433203, -0.142395, -0.433189, -0.142383, 4.4388E-008, -2.65053E-008
95, 0.00000, -0.381178, -0.125281, -0.381167, -0.125289, -0.381159, -0.125281, 3.05902E-008, -1.79509E-008
96, 0.00000, -0.3176, -0.104386, -0.31759, -0.104391, -0.317585, -0.104385, 1.67505E-008, -9.90247E-009
97, 0.00000, -0.256139, -0.0841864, -0.256132, -0.0841892, -0.25613, -0.0841859, 7.96629E-009, -4.83134E-009
98, 0.00000, -0.215462, -0.0708174, -0.215451, -0.0708174, -0.215447, -0.0708143, 4.58152E-009, -2.80707E-009
99, 0.00000, -0.191873, -0.0630643, -0.191869, -0.0630656, -0.191866, -0.0630635, 3.22911E-009, -1.95326E-009
100, 0.00000, -0.180131, -0.059205, -0.180127, -0.0592062, -0.180126, -0.0592045, 2.54764E-009, -1.57138E-009
101, 0.00000, -0.176529, -0.0580209, -0.17653, -0.0580235, -0.176529, -0.0580221, 2.44924E-009, -1.48059E-009
102, 0.00000, -0.182374, -0.0599424, -0.182374, -0.0599447, -0.182373, -0.0599433, 2.62353E-009, -1.61644E-009
103, 0.00000, -0.201413, -0.0661998, -0.201417, -0.0662038, -0.201415, -0.0662022, 3.58986E-009, -2.19267E-009
104, 0.00000, -0.201441, -0.0770389, -0.201444, -0.0770429, -0.201443, -0.0770414, 3.97725E-009, -2.56271E-009
105, 0.00000, -0.0614296, -0.0973831, -0.061427, -0.0973801, -0.0614268, -0.0973799, 6.9695E-010, -7.4163E-010
106, 0.00000, 0.0456073, -0.119006, 0.0456058, -0.119003, 0.0456077, -0.119006, 6.77324E-010, -1.13845E-009
107, 0.00000, 0.613436, -0.132671, 0.613417, -0.132673, 0.613433, -0.132674, -1.57329E-008, -1.7391E-008
108, 0.00000, 1.21563, -0.137976, 1.21562, -0.138032, 1.21568, -0.138006, -1.60925E-007, -3.47E-008
109, 0.00000, 1.1697, -0.141397, 1.16972, -0.141488, 1.16979, -0.141432, -1.42455E-007, -3.52101E-008
110, 0.00000, 0.0360601, -0.143734, 0.0360621, -0.143743, 0.0360638, -0.143742, 1.12763E-009, -1.82876E-009
111, 0.00000, -0.268999, -0.142999, -0.269, -0.143006, -0.268997, -0.143002, 1.22959E-008, -9.19802E-009
112, 0.00000, -0.431323, -0.141758, -0.43133, -0.141776, -0.431325, -0.141769, 3.69682E-008, -2.36859E-008
113, 0.00000, -0.449315, -0.147674, -0.449314, -0.14769, -0.449305, -0.14768, 4.27595E-008, -2.72565E-008
114, 0.00000, -0.473229, -0.155533, -0.473229, -0.155551, -0.473219, -0.15554, 5.11504E-008, -3.24723E-008
115, 0.00000, -0.484888, -0.159365, -0.484886, -0.159383, -0.484874, -0.159371, 5.58918E-008, -3.53573E-008
116, 0.00000, -0.499477, -0.164159, -0.499476, -0.164179, -0.499464, -0.164166, 6.21826E-008, -3.91881E-008
117, 0.00000, -0.488167, -0.160446, -0.488151, -0.160461, -0.488133, -0.160444, 5.86932E-008, -3.67363E-008
118, 0.00000, -0.443597, -0.145796, -0.443586, -0.145808, -0.443571, -0.145795, 4.25931E-008, -2.67216E-008
119, 0.00000, -0.373672, -0.122815, -0.373662, -0.122823, -0.373651, -0.122814, 2.45537E-008, -1.5355E-008
120, 0.00000, -0.292462, -0.0961243, -0.292456, -0.0961288, -0.292451, -0.0961242, 1.23713E-008, -7.42414E-009
121, 0.00000, -0.233696, -0.07681, -0.233691, -0.0768125, -0.233689, -0.0768098, 5.88811E-009, -3.58865E-009
122, 0.00000, -0.198047, -0.0650935, -0.19804, -0.0650941, -0.198037, -0.0650917, 3.59126E-009, -2.17283E-009
123, 0.00000, -0.181331, -0.0595996, -0.181327, -0.0596004, -0.181325, -0.0595987, 2.62038E-009, -1.61334E-009
124, 0.00000, -0.175558, -0.0577018, -0.175556, -0.0577036, -0.175554, -0.0577018, 2.42544E-009, -1.46538E-009
125, 0.00000, -0.182808, -0.0600849, -0.182808, -0.0600875, -0.182808, -0.0600863, 2.63322E-009, -1.62369E-009
126, 0.00000, -0.210906, -0.0693194, -0.210911, -0.0693245, -0.21091, -0.0693229, 4.14911E-009, -2.52659E-009
127, 0.00000, -0.267355, -0.0878724, -0.267359, -0.0878792, -0.267355, -0.0878756, 9.34189E-009, -5.54222E-009
128, 0.00000, -0.265052, -0.0980367, -0.265054, -0.0980427, -0.265052, -0.0980397, 9.60596E-009, -6.01833E-009
129, 0.00000, -0.0687341, -0.100409, -0.0687328, -0.100408, -0.0687323, -0.100408, 8.26091E-010, -8.53605E-010
130, 0.00000, 0.0965402, -0.10332, 0.096537, -0.103318, 0.0965375, -0.103317, 4.83633E-010, -1.1049E-009
131, 0.00000, 1.06723, -0.103983, 1.0672, -0.10402, 1.06726, -0.104012, -1.1792E-007, -1.36408E-008
132, 0.00000, 1.32208, -0.103173, 1.32209, -0.103254, 1.32215, -0.103203, -2.18965E-007, -8.25118E-009
133, 0.00000, 1.47347, -0.103615, 1.47349, -0.103717, 1.47357, -0.103649, -2.96453E-007, -3.15079E-009
134, 0.00000, 0.220751, -0.105715, 0.220756, -0.105722, 0.220758, -0.105718, 2.46293E-010, -2.79264E-009
135, 0.00000, -0.100231, -0.110123, -0.100231, -0.110125, -0.10023, -0.110124, 1.40611E-009, -1.39048E-009
136, 0.00000, -0.36814, -0.120987, -0.368141, -0.121002, -0.368134, -0.120995, 2.08491E-008, -1.37637E-008
137, 0.00000, -0.428036, -0.140678, -0.428036, -0.140693, -0.428028, -0.140685, 3.50295E-008, -2.27555E-008
138, 0.00000, -0.476677, -0.156664, -0.476676, -0.156682, -0.476666, -0.156672, 5.06632E-008, -3.26505E-008
139, 0.00000, -0.495827, -0.162959, -0.495824, -0.162978, -0.495811, -0.162965, 5.82634E-008, -3.73798E-008
140, 0.00000, -0.506841, -0.166592, -0.506848, -0.166611, -0.506841, -0.166602, 6.28028E-008, -4.02174E-008
141, 0.00000, -0.493995, -0.16235, -0.493979, -0.162368, -0.493958, -0.16235, 5.82275E-008, -3.71869E-008
142, 0.00000, -0.451947, -0.148541, -0.451939, -0.148555, -0.451927, -0.148543, 4.25409E-008, -2.74118E-008
143, 0.00000, -0.383559, -0.126066, -0.383553, -0.126075, -0.383544, -0.126067, 2.43245E-008, -1.5862E-008
144, 0.00000, -0.301976, -0.0992528, -0.301974, -0.0992583, -0.301968, -0.0992532, 1.13547E-008, -7.39544E-009
145, 0.00000, -0.233699, -0.0768109, -0.233695, -0.0768137, -0.233691, -0.0768106, 6.07538E-009, -3.64158E-009
146, 0.00000, -0.198041, -0.0650917, -0.198034, -0.0650921, -0.198033, -0.0650903, 3.45891E-009, -2.13964E-009
147, 0.00000, -0.181327, -0.0595982, -0.181325, -0.0595998, -0.181323, -0.0595981, 2.68966E-009, -1.62832E-009
148, 0.00000, -0.175575, -0.0577077, -0.17557, -0.0577082, -0.175566, -0.057706, 2.45585E-009, -1.4834E-009
149, 0.00000, -0.182814, -0.0600867, -0.182815, -0.0600894, -0.182813, -0.0600879, 2.73958E-009, -1.6545E-009
150, 0.00000, -0.210909, -0.0693203, -0.210913, -0.0693249, -0.210911, -0.0693234, 4.22281E-009, -2.55627E-009
151, 0.00000, -0.267356, -0.0878728, -0.267359, -0.0878792, -0.267355, -0.0878757, 9.09898E-009, -5.46589E-009
152, 0.00000, -0.231574, -0.0980364, -0.231571, -0.0980389, -0.231572, -0.0980375, 7.03005E-009, -4.60806E-009
153, 0.00000, 0.0357913, -0.100422, 0.0357889, -0.100415, 0.0357889, -0.100414, 5.32388E-010, -7.31684E-010
154, 0.00000, 0.0964094, -0.103315, 0.0964089, -0.103315, 0.0964099, -0.103315, 7.96416E-010, -1.24061E-009
155, 0.00000, 0.335665, -0.104048, 0.335658, -0.104048, 0.335663, -0.104048, -2.62565E-010, -5.56042E-009
156, 0.00000, 0.372835, -0.103226, 0.372835, -0.103234, 0.372842, -0.103229, -1.2655E-009, -6.26978E-009
157, 0.00000, 0.232371, -0.103671, 0.232375, -0.103678, 0.232379, -0.103674, 7.85858E-010, -3.18365E-009
158, 0.00000, -0.0165033, -0.105718, -0.0165032, -0.10572, -0.0165026, -0.105719, 6.19938E-010, -7.33284E-010
159, 0.00000, -0.268605, -0.110105, -0.268614, -0.110116, -0.268615, -0.110114, 1.03291E-008, -6.8305E-009
160, 0.00000, -0.368132, -0.120992, -0.368136, -0.121004, -0.368132, -0.120999, 2.42986E-008, -1.49233E-008
161, 0.00000, -0.428021, -0.140676, -0.428027, -0.140692, -0.428021, -0.140684, 4.0056E-008, -2.44965E-008
162, 0.00000, -0.476662, -0.156661, -0.476668, -0.156681, -0.476659, -0.156671, 5.75106E-008, -3.50673E-008
163, 0.00000, -0.495766, -0.16293, -0.495777, -0.162956, -0.495767, -0.162947, 6.36229E-008, -3.92613E-008
164, 0.00000, -0.506903, -0.166598, -0.506887, -0.166616, -0.506876, -0.166602, 7.00652E-008, -4.24576E-008
165, 0.00000, -0.493937, -0.162339, -0.493938, -0.162359, -0.493923, -0.162345, 6.46684E-008, -3.93106E-008
166, 0.00000, -0.451955, -0.148541, -0.451945, -0.148556, -0.451931, -0.148543, 4.93186E-008, -2.98407E-008
167, 0.00000, -0.383572, -0.126068, -0.383561, -0.126077, -0.38355, -0.126067, 2.93311E-008, -1.76324E-008
168, 0.00000, -0.301984, -0.0992537, -0.301974, -0.0992576, -0.301969, -0.0992527, 1.38189E-008, -8.28101E-009
169, 0.00000, -0.233696, -0.0768102, -0.233691, -0.0768125, -0.233689, -0.0768099, 5.89224E-009, -3.59326E-009
170, 0.00000, -0.198047, -0.0650935, -0.19804, -0.0650941, -0.198037, -0.0650917, 3.59111E-009, -2.17281E-009
171, 0.00000, -0.181332, -0.0595996, -0.181327, -0.0596004, -0.181325, -0.0595987, 2.61004E-009, -1.6104E-009
172, 0.00000, -0.175554, -0.0577005, -0.175554, -0.0577026, -0.175552, -0.0577009, 2.42548E-009, -1.46358E-009
173, 0.00000, -0.182798, -0.0600813, -0.182801, -0.0600846, -0.182801, -0.0600838, 2.67182E-009, -1.63065E-009
174, 0.00000, -0.210904, -0.069319, -0.210911, -0.0693242, -0.210909, -0.0693227, 4.28445E-009, -2.5681E-009
175, 0.00000, -0.267325, -0.0878617, -0.267341, -0.0878714, -0.267339, -0.0878705, 9.03781E-009, -5.40882E-009
176, 0.00000, -0.2651, -0.0980335, -0.265106, -0.0980409, -0.265104, -0.0980382, 9.82661E-009, -6.07525E-009
177, 0.00000, -0.000478523, -0.100409, -0.00047842, -0.100408, -0.000478004, -0.100408, 4.41751E-010, -5.97646E-010
178, 0.00000, 0.197292, -0.103319, 0.197289, -0.103317, 0.19729, -0.103317, 7.44783E-010, -2.54252E-009
179, 0.00000, 0.70495, -0.104027, 0.704936, -0.10404, 0.704959, -0.10404, -3.03569E-008, -1.28897E-008
180, 0.00000, 0.370369, -0.103218, 0.370382, -0.103237, 0.370389, -0.103223, -1.61824E-009, -5.93319E-009
181, 0.00000, 0.231057, -0.103671, 0.231061, -0.103678, 0.231065, -0.103674, 6.48606E-010, -3.09786E-009
182, 0.00000, -0.0167757, -0.105705, -0.0167764, -0.105712, -0.0167757, -0.105713, 5.28716E-010, -6.85468E-010
183, 0.00000, -0.20145, -0.110114, -0.201452, -0.11012, -0.20145, -0.110118, 5.19422E-009, -3.85595E-009
184, 0.00000, -0.368132, -0.12099, -0.368136, -0.121003, -0.368131, -0.120998, 2.32956E-008, -1.45884E-008
185, 0.00000, -0.428028, -0.140677, -0.428031, -0.140692, -0.428024, -0.140685, 3.86891E-008, -2.40315E-008
