hour, t(sec), P1 (kW), Q1 (kvar), P2 (kW), Q2 (kvar), P3 (kW), Q3 (kvar), P4 (kW), Q4 (kvar)
0, 60.00000, -0.0709666, -0.0233249, -0.0630806, -0.0207344, -0.0473098, -0.0155498, 2.55892E-007, 4.89511E-008
0, 120.00000, -0.0709658, -0.0233246, -0.06308, -0.0207342, -0.0473095, -0.0155498, 2.5588E-007, 4.89555E-008
0, 180.00000, -0.0709658, -0.0233246, -0.06308, -0.0207342, -0.0473095, -0.0155498, 2.5588E-007, 4.89555E-008
0, 240.00000, -0.0709658, -0.0233246, -0.06308, -0.0207342, -0.0473095, -0.0155498, 2.5588E-007, 4.89555E-008
0, 300.00000, -0.0709658, -0.0233246, -0.06308, -0.0207342, -0.0473095, -0.0155498, 2.5588E-007, 4.89555E-008
0, 360.00000, -0.0630789, -0.0207325, -0.0630816, -0.0207344, -0.0473088, -0.0155498, 1.39364E-007, 3.20297E-008
0, 420.00000, -0.0630804, -0.020733, -0.0630802, -0.0207339, -0.0473096, -0.0155499, 1.39339E-007, 3.20238E-008
0, 480.00000, -0.0630804, -0.020733, -0.0630802, -0.0207339, -0.0473096, -0.0155499, 1.39339E-007, 3.20237E-008
0, 540.00000, -0.0630804, -0.020733, -0.0630802, -0.0207339, -0.0473096, -0.0155499, 1.39339E-007, 3.20237E-008
0, 600.00000, -0.0630804, -0.020733, -0.0630802, -0.0207339, -0.0473096, -0.0155499, 1.39339E-007, 3.20237E-008
0, 660.00000, -0.0709666, -0.0233258, -0.0630794, -0.0207334, -0.0709649, -0.0233242, 3.83803E-008, -2.3269E-009
0, 720.00000, -0.0709652, -0.0233254, -0.0630797, -0.0207334, -0.0709652, -0.0233248, 3.83719E-008, -2.33419E-009
0, 780.00000, -0.0709652, -0.0233254, -0.0630797, -0.0207334, -0.0709651, -0.0233248, 3.83719E-008, -2.33421E-009
0, 840.00000, -0.0709652, -0.0233254, -0.0630797, -0.0207334, -0.0709651, -0.0233248, 3.83719E-008, -2.33421E-009
0, 900.00000, -0.0709652, -0.0233254, -0.0630797, -0.0207334, -0.0709651, -0.0233248, 3.83719E-008, -2.33421E-009
0, 960.00000, -0.0630799, -0.0207336, -0.0630799, -0.0207332, -0.0709652, -0.023325, 2.64571E-008, -2.19578E-009
0, 1020.00000, -0.0630799, -0.0207336, -0.0630799, -0.0207332, -0.0709652, -0.023325, 2.64565E-008, -2.19544E-009
0, 1080.00000, -0.0630799, -0.0207336, -0.0630799, -0.0207332, -0.0709652, -0.023325, 2.64565E-008, -2.19544E-009
0, 1140.00000, -0.0630799, -0.0207336, -0.0630799, -0.0207332, -0.0709652, -0.023325, 2.64565E-008, -2.19544E-009
0, 1200.00000, -0.0630799, -0.0207336, -0.0630799, -0.0207332, -0.0709652, -0.023325, 2.64565E-008, -2.19544E-009
0, 1260.00000, -0.0709658, -0.0233252, -0.0551946, -0.0181422, -0.0551948, -0.0181412, 1.61226E-007, 2.11616E-008
0, 1320.00000, -0.0709657, -0.0233252, -0.0551947, -0.0181422, -0.0551948, -0.0181412, 1.61227E-007, 2.1163E-008
0, 1380.00000, -0.0709657, -0.0233252, -0.0551947, -0.0181422, -0.0551948, -0.0181412, 1.61227E-007, 2.11631E-008
0, 1440.00000, -0.0709657, -0.0233252, -0.0551947, -0.0181422, -0.0551948, -0.0181412, 1.61227E-007, 2.11631E-008
0, 1500.00000, -0.0709657, -0.0233252, -0.0551947, -0.0181422, -0.0551948, -0.0181412, 1.61227E-007, 2.11631E-008
0, 1560.00000, -0.0473104, -0.0155493, -0.0709645, -0.0233247, -0.0473107, -0.0155508, 2.88323E-007, 6.04373E-008
0, 1620.00000, -0.0473098, -0.0155495, -0.0709659, -0.0233252, -0.0473096, -0.0155505, 2.88386E-007, 6.04607E-008
0, 1680.00000, -0.0473098, -0.0155495, -0.0709659, -0.0233252, -0.0473096, -0.0155505, 2.88385E-007, 6.04608E-008
0, 1740.00000, -0.0473098, -0.0155495, -0.0709659, -0.0233252, -0.0473096, -0.0155505, 2.88385E-007, 6.04607E-008
0, 1800.00000, -0.0473098, -0.0155495, -0.0709659, -0.0233252, -0.0473096, -0.0155505, 2.88385E-007, 6.04607E-008
0, 1860.00000, -0.0788498, -0.0259164, -0.0630799, -0.020734, -0.063079, -0.0207327, 1.59605E-007, 1.23307E-008
0, 1920.00000, -0.0788508, -0.0259168, -0.0630796, -0.0207339, -0.0630797, -0.0207328, 1.59622E-007, 1.23238E-008
0, 1980.00000, -0.0788508, -0.0259168, -0.0630796, -0.0207339, -0.0630797, -0.0207328, 1.59622E-007, 1.23238E-008
0, 2040.00000, -0.0788508, -0.0259168, -0.0630796, -0.0207339, -0.0630797, -0.0207328, 1.59622E-007, 1.23238E-008
0, 2100.00000, -0.0788508, -0.0259168, -0.0630796, -0.0207339, -0.0630797, -0.0207328, 1.59622E-007, 1.23238E-008
0, 2160.00000, -0.0630812, -0.0207338, -0.0551973, -0.0181428, -0.0551926, -0.018141, 4.58835E-008, 3.33515E-009
0, 2220.00000, -0.0630804, -0.0207334, -0.0551948, -0.018142, -0.0551949, -0.0181414, 4.58738E-008, 3.32713E-009
0, 2280.00000, -0.0630804, -0.0207334, -0.0551948, -0.018142, -0.0551949, -0.0181414, 4.58737E-008, 3.32711E-009
0, 2340.00000, -0.0630804, -0.0207334, -0.0551948, -0.018142, -0.0551949, -0.0181414, 4.58737E-008, 3.32711E-009
0, 2400.00000, -0.0630804, -0.0207334, -0.0551948, -0.018142, -0.0551949, -0.0181414, 4.58737E-008, 3.32711E-009
0, 2460.00000, -0.0709651, -0.0233256, -0.0630796, -0.0207332, -0.0788504, -0.0259164, 9.82976E-008, 1.96329E-009
0, 2520.00000, -0.070965, -0.0233256, -0.0630796, -0.0207332, -0.0788505, -0.0259165, 9.82983E-008, 1.96397E-009
0, 2580.00000, -0.070965, -0.0233256, -0.0630796, -0.0207332, -0.0788505, -0.0259165, 9.82983E-008, 1.96397E-009
0, 2640.00000, -0.070965, -0.0233256, -0.0630796, -0.0207332, -0.0788505, -0.0259165, 9.82983E-008, 1.96397E-009
0, 2700.00000, -0.070965, -0.0233256, -0.0630796, -0.0207332, -0.0788505, -0.0259165, 9.82983E-008, 1.96397E-009
0, 2760.00000, -0.055195, -0.0181415, -0.0630801, -0.0207334, -0.0551951, -0.0181419, 3.46551E-008, 7.31907E-009
0, 2820.00000, -0.0551949, -0.0181415, -0.0630803, -0.0207335, -0.0551948, -0.0181419, 3.46627E-008, 7.31368E-009
0, 2880.00000, -0.0551949, -0.0181415, -0.0630803, -0.0207335, -0.0551948, -0.0181419, 3.46627E-008, 7.31371E-009
0, 2940.00000, -0.0551949, -0.0181415, -0.0630803, -0.0207335, -0.0551948, -0.0181419, 3.46627E-008, 7.31371E-009
0, 3000.00000, -0.0551949, -0.0181415, -0.0630803, -0.0207335, -0.0551948, -0.0181419, 3.46627E-008, 7.31371E-009
0, 3060.00000, -0.0630801, -0.0207334, -0.06308, -0.0207334, -0.06308, -0.0207334, 2.7255E-011, -2.04774E-011
0, 3120.00000, -0.06308, -0.0207334, -0.06308, -0.0207334, -0.0630799, -0.0207334, 2.72713E-011, -2.04543E-011
0, 3180.00000, -0.06308, -0.0207334, -0.06308, -0.0207334, -0.0630799, -0.0207334, 2.72715E-011, -2.04545E-011
0, 3240.00000, -0.06308, -0.0207334, -0.06308, -0.0207334, -0.0630799, -0.0207334, 2.72715E-011, -2.04545E-011
0, 3300.00000, -0.06308, -0.0207334, -0.06308, -0.0207334, -0.0630799, -0.0207334, 2.72715E-011, -2.04545E-011
0, 3360.00000, -0.0473108, -0.0155497, -0.0788498, -0.0259166, -0.0473094, -0.0155506, 5.36712E-007, 1.07508E-007
0, 3420.00000, -0.0473097, -0.0155493, -0.0788513, -0.025917, -0.0473095, -0.0155507, 5.3673E-007, 1.0749E-007
0, 3480.00000, -0.0473097, -0.0155493, -0.0788513, -0.025917, -0.0473095, -0.0155507, 5.36731E-007, 1.0749E-007
0, 3540.00000, -0.0473097, -0.0155493, -0.0788513, -0.025917, -0.0473095, -0.0155507, 5.36731E-007, 1.0749E-007
1, 0.00000, -0.0473097, -0.0155493, -0.0788513, -0.025917, -0.0473095, -0.0155507, 5.36731E-007, 1.0749E-007
1, 60.00000, -0.039425, -0.0129584, -0.0473105, -0.01555, -0.0473102, -0.0155502, 2.76495E-008, 6.61238E-009
1, 120.00000, -0.0394249, -0.0129583, -0.0473101, -0.0155499, -0.04731, -0.0155502, 2.76397E-008, 6.60908E-009
1, 180.00000, -0.0394249, -0.0129583, -0.0473101, -0.0155499, -0.04731, -0.0155502, 2.76397E-008, 6.60889E-009
1, 240.00000, -0.0394249, -0.0129583, -0.0473101, -0.0155499, -0.04731, -0.0155502, 2.76397E-008, 6.60889E-009
1, 300.00000, -0.0394249, -0.0129583, -0.0473101, -0.0155499, -0.04731, -0.0155502, 2.76397E-008, 6.60889E-009
1, 360.00000, -0.0473099, -0.0155497, -0.0630806, -0.0207335, -0.0473097, -0.0155503, 1.23412E-007, 2.97851E-008
1, 420.00000, -0.0473099, -0.0155497, -0.0630805, -0.0207335, -0.0473097, -0.0155503, 1.23401E-007, 2.97941E-008
1, 480.00000, -0.0473099, -0.0155497, -0.0630805, -0.0207335, -0.0473097, -0.0155503, 1.23401E-007, 2.9794E-008
1, 540.00000, -0.0473099, -0.0155497, -0.0630805, -0.0207335, -0.0473097, -0.0155503, 1.23401E-007, 2.9794E-008
1, 600.00000, -0.0473099, -0.0155497, -0.0630805, -0.0207335, -0.0473097, -0.0155503, 1.23401E-007, 2.9794E-008
1, 660.00000, -0.0551952, -0.0181413, -0.0630803, -0.0207337, -0.0473096, -0.0155502, 1.02911E-007, 2.19878E-008
1, 720.00000, -0.0551951, -0.0181413, -0.0630804, -0.0207337, -0.0473097, -0.0155502, 1.02907E-007, 2.19794E-008
1, 780.00000, -0.0551951, -0.0181413, -0.0630804, -0.0207337, -0.0473097, -0.0155502, 1.02908E-007, 2.19793E-008
1, 840.00000, -0.0551951, -0.0181413, -0.0630804, -0.0207337, -0.0473097, -0.0155502, 1.02908E-007, 2.19793E-008
1, 900.00000, -0.0551951, -0.0181413, -0.0630804, -0.0207337, -0.0473097, -0.0155502, 1.02908E-007, 2.19793E-008
1, 960.00000, -0.0551949, -0.0181421, -0.0473097, -0.0155499, -0.0630805, -0.0207332, 1.08053E-007, 3.26812E-010
1, 1020.00000, -0.055195, -0.0181422, -0.0473097, -0.0155499, -0.0630804, -0.0207331, 1.08049E-007, 3.24276E-010
1, 1080.00000, -0.055195, -0.0181422, -0.0473097, -0.0155499, -0.0630804, -0.0207331, 1.08049E-007, 3.2419E-010
1, 1140.00000, -0.055195, -0.0181422, -0.0473097, -0.0155499, -0.0630804, -0.0207331, 1.08049E-007, 3.24191E-010
1, 1200.00000, -0.055195, -0.0181422, -0.0473097, -0.0155499, -0.0630804, -0.0207331, 1.08049E-007, 3.24191E-010
1, 1260.00000, -0.04731, -0.0155504, -0.0394248, -0.0129582, -0.0551953, -0.0181415, 1.079E-007, 1.20347E-010
1, 1320.00000, -0.04731, -0.0155504, -0.0394247, -0.0129582, -0.0551954, -0.0181415, 1.07902E-007, 1.17328E-010
1, 1380.00000, -0.04731, -0.0155504, -0.0394247, -0.0129582, -0.0551954, -0.0181415, 1.07902E-007, 1.1736E-010
1, 1440.00000, -0.04731, -0.0155504, -0.0394247, -0.0129582, -0.0551954, -0.0181415, 1.07902E-007, 1.17361E-010
1, 1500.00000, -0.04731, -0.0155504, -0.0394247, -0.0129582, -0.0551954, -0.0181415, 1.07902E-007, 1.17361E-010
1, 1560.00000, -0.0630809, -0.020733, -0.0473099, -0.0155508, -0.0315396, -0.0103664, 4.15959E-007, 5.41009E-008
1, 1620.00000, -0.0630809, -0.020733, -0.0473099, -0.0155508, -0.0315396, -0.0103664, 4.15951E-007, 5.40994E-008
1, 1680.00000, -0.0630809, -0.020733, -0.0473099, -0.0155508, -0.0315396, -0.0103664, 4.15951E-007, 5.40993E-008
1, 1740.00000, -0.0630809, -0.020733, -0.0473099, -0.0155508, -0.0315396, -0.0103664, 4.15951E-007, 5.40993E-008
1, 1800.00000, -0.0630809, -0.020733, -0.0473099, -0.0155508, -0.0315396, -0.0103664, 4.15951E-007, 5.40993E-008
1, 1860.00000, -0.0473096, -0.0155499, -0.0473093, -0.0155498, -0.0473109, -0.0155503, 2.31536E-011, 1.53325E-011
1, 1920.00000, -0.04731, -0.0155501, -0.04731, -0.0155501, -0.04731, -0.01555, 2.30721E-011, 1.63661E-011
1, 1980.00000, -0.04731, -0.0155501, -0.04731, -0.0155501, -0.04731, -0.01555, 2.30682E-011, 1.63681E-011
1, 2040.00000, -0.04731, -0.0155501, -0.04731, -0.0155501, -0.04731, -0.01555, 2.30682E-011, 1.63682E-011
1, 2100.00000, -0.04731, -0.0155501, -0.04731, -0.0155501, -0.04731, -0.01555, 2.30682E-011, 1.63682E-011
1, 2160.00000, -0.0630819, -0.0207341, -0.0394244, -0.0129586, -0.0473091, -0.0155492, 2.46538E-007, 2.57449E-008
1, 2220.00000, -0.0630807, -0.0207337, -0.0394246, -0.0129586, -0.04731, -0.0155495, 2.46499E-007, 2.57596E-008
1, 2280.00000, -0.0630807, -0.0207337, -0.0394246, -0.0129586, -0.0473099, -0.0155495, 2.46498E-007, 2.57596E-008
1, 2340.00000, -0.0630807, -0.0207337, -0.0394246, -0.0129586, -0.0473099, -0.0155495, 2.46498E-007, 2.57596E-008
1, 2400.00000, -0.0630807, -0.0207337, -0.0394246, -0.0129586, -0.0473099, -0.0155495, 2.46498E-007, 2.57596E-008
1, 2460.00000, -0.0551952, -0.0181419, -0.0394251, -0.0129586, -0.04731, -0.0155496, 1.11846E-007, 1.05475E-008
1, 2520.00000, -0.0551954, -0.018142, -0.0394247, -0.0129585, -0.04731, -0.0155497, 1.11854E-007, 1.05605E-008
1, 2580.00000, -0.0551954, -0.018142, -0.0394247, -0.0129585, -0.04731, -0.0155497, 1.11854E-007, 1.05606E-008
1, 2640.00000, -0.0551954, -0.018142, -0.0394247, -0.0129585, -0.04731, -0.0155497, 1.11854E-007, 1.05606E-008
1, 2700.00000, -0.0551954, -0.018142, -0.0394247, -0.0129585, -0.04731, -0.0155497, 1.11854E-007, 1.05606E-008
1, 2760.00000, -0.055195, -0.0181415, -0.0630802, -0.0207335, -0.0551948, -0.0181419, 3.0096E-008, 1.05048E-008
1, 2820.00000, -0.055195, -0.0181415, -0.0630802, -0.0207335, -0.0551948, -0.0181419, 3.00957E-008, 1.05023E-008
1, 2880.00000, -0.055195, -0.0181415, -0.0630802, -0.0207335, -0.0551948, -0.0181419, 3.00958E-008, 1.05023E-008
1, 2940.00000, -0.055195, -0.0181415, -0.0630802, -0.0207335, -0.0551948, -0.0181419, 3.00958E-008, 1.05023E-008
1, 3000.00000, -0.055195, -0.0181415, -0.0630802, -0.0207335, -0.0551948, -0.0181419, 3.00958E-008, 1.05023E-008
1, 3060.00000, -0.0473096, -0.0155499, -0.039425, -0.0129585, -0.0394254, -0.0129584, 3.68391E-008, 7.75846E-009
1, 3120.00000, -0.0473102, -0.0155501, -0.0394249, -0.0129585, -0.0394249, -0.0129582, 3.6859E-008, 7.75996E-009
1, 3180.00000, -0.0473102, -0.0155501, -0.0394249, -0.0129585, -0.0394249, -0.0129582, 3.6859E-008, 7.76018E-009
1, 3240.00000, -0.0473102, -0.0155501, -0.0394249, -0.0129585, -0.0394249, -0.0129582, 3.6859E-008, 7.76018E-009
1, 3300.00000, -0.0473102, -0.0155501, -0.0394249, -0.0129585, -0.0394249, -0.0129582, 3.6859E-008, 7.76018E-009
1, 3360.00000, -0.0394248, -0.0129582, -0.0551954, -0.0181416, -0.0473099, -0.0155504, 9.22975E-008, 2.24082E-008
1, 3420.00000, -0.0394248, -0.0129582, -0.0551954, -0.0181416, -0.0473099, -0.0155504, 9.22963E-008, 2.24142E-008
1, 3480.00000, -0.0394248, -0.0129582, -0.0551954, -0.0181416, -0.0473099, -0.0155504, 9.22962E-008, 2.24142E-008
1, 3540.00000, -0.0394248, -0.0129582, -0.0551954, -0.0181416, -0.0473099, -0.0155504, 9.22962E-008, 2.24142E-008
2, 0.00000, -0.0394248, -0.0129582, -0.0551954, -0.0181416, -0.0473099, -0.0155504, 9.22962E-008, 2.24142E-008
2, 60.00000, -0.0394249, -0.0129584, -0.0473101, -0.0155499, -0.0473101, -0.0155502, 2.80053E-008, 1.28813E-009
2, 120.00000, -0.0394249, -0.0129584, -0.0473101, -0.0155499, -0.0473101, -0.0155502, 2.80055E-008, 1.28768E-009
2, 180.00000, -0.0394249, -0.0129584, -0.0473101, -0.0155499, -0.0473101, -0.0155502, 2.80056E-008, 1.28768E-009
2, 240.00000, -0.0394249, -0.0129584, -0.0473101, -0.0155499, -0.0473101, -0.0155502, 2.80056E-008, 1.28768E-009
2, 300.00000, -0.0394249, -0.0129584, -0.0473101, -0.0155499, -0.0473101, -0.0155502, 2.80056E-008, 1.28768E-009
2, 360.00000, -0.0473103, -0.0155497, -0.0473101, -0.0155505, -0.0315397, -0.0103666, 1.44034E-007, 2.98643E-008
2, 420.00000, -0.0473103, -0.0155497, -0.0473101, -0.0155505, -0.0315397, -0.0103666, 1.44035E-007, 2.98637E-008
2, 480.00000, -0.0473103, -0.0155497, -0.0473101, -0.0155505, -0.0315397, -0.0103666, 1.44035E-007, 2.98637E-008
2, 540.00000, -0.0473103, -0.0155497, -0.0473101, -0.0155505, -0.0315397, -0.0103666, 1.44035E-007, 2.98637E-008
2, 600.00000, -0.0473103, -0.0155497, -0.0473101, -0.0155505, -0.0315397, -0.0103666, 1.44035E-007, 2.98637E-008
2, 660.00000, -0.0473108, -0.0155499, -0.0551943, -0.0181417, -0.0394251, -0.0129585, 1.00502E-007, 2.30314E-008
2, 720.00000, -0.0473101, -0.0155497, -0.0551953, -0.018142, -0.0394247, -0.0129585, 1.00525E-007, 2.3031E-008
2, 780.00000, -0.0473101, -0.0155497, -0.0551953, -0.018142, -0.0394247, -0.0129585, 1.00525E-007, 2.3031E-008
2, 840.00000, -0.0473101, -0.0155497, -0.0551953, -0.018142, -0.0394247, -0.0129585, 1.00525E-007, 2.3031E-008
2, 900.00000, -0.0473101, -0.0155497, -0.0551953, -0.018142, -0.0394247, -0.0129585, 1.00525E-007, 2.3031E-008
2, 960.00000, -0.0394252, -0.0129582, -0.039425, -0.0129586, -0.0315398, -0.0103667, 4.07462E-008, 8.79375E-009
2, 1020.00000, -0.0394251, -0.0129582, -0.0394251, -0.0129586, -0.0315398, -0.0103667, 4.07463E-008, 8.79447E-009
2, 1080.00000, -0.0394251, -0.0129582, -0.0394251, -0.0129586, -0.0315398, -0.0103667, 4.07463E-008, 8.79447E-009
2, 1140.00000, -0.0394251, -0.0129582, -0.0394251, -0.0129586, -0.0315398, -0.0103667, 4.07463E-008, 8.79447E-009
2, 1200.00000, -0.0394251, -0.0129582, -0.0394251, -0.0129586, -0.0315398, -0.0103667, 4.07463E-008, 8.79447E-009
2, 1260.00000, -0.0473103, -0.0155504, -0.0236548, -0.00777512, -0.0394254, -0.012958, 2.5344E-007, 1.22902E-008
2, 1320.00000, -0.0473104, -0.0155504, -0.0236547, -0.00777509, -0.0394251, -0.0129579, 2.53461E-007, 1.23237E-008
2, 1380.00000, -0.0473104, -0.0155504, -0.0236547, -0.0077751, -0.0394251, -0.0129579, 2.53461E-007, 1.23241E-008
2, 1440.00000, -0.0473104, -0.0155504, -0.0236547, -0.0077751, -0.0394251, -0.0129579, 2.53461E-007, 1.23241E-008
2, 1500.00000, -0.0473104, -0.0155504, -0.0236547, -0.0077751, -0.0394251, -0.0129579, 2.53461E-007, 1.23241E-008
2, 1560.00000, -0.0315396, -0.0103666, -0.0551954, -0.0181412, -0.0551953, -0.0181423, 2.85123E-007, 3.57818E-008
2, 1620.00000, -0.0315396, -0.0103666, -0.0551954, -0.0181412, -0.0551953, -0.0181423, 2.85125E-007, 3.57814E-008
2, 1680.00000, -0.0315396, -0.0103666, -0.0551954, -0.0181412, -0.0551953, -0.0181423, 2.85125E-007, 3.57814E-008
2, 1740.00000, -0.0315396, -0.0103666, -0.0551954, -0.0181412, -0.0551953, -0.0181423, 2.85125E-007, 3.57814E-008
2, 1800.00000, -0.0315396, -0.0103666, -0.0551954, -0.0181412, -0.0551953, -0.0181423, 2.85125E-007, 3.57814E-008
2, 1860.00000, -0.0394247, -0.0129583, -0.0473109, -0.0155501, -0.0473092, -0.01555, 3.12874E-008, 5.34172E-009
2, 1920.00000, -0.0394248, -0.0129583, -0.0473101, -0.0155499, -0.0473101, -0.0155502, 3.12853E-008, 5.34039E-009
2, 1980.00000, -0.0394248, -0.0129583, -0.0473101, -0.0155499, -0.0473101, -0.0155502, 3.12853E-008, 5.34038E-009
2, 2040.00000, -0.0394248, -0.0129583, -0.0473101, -0.0155499, -0.0473101, -0.0155502, 3.12853E-008, 5.34038E-009
2, 2100.00000, -0.0394248, -0.0129583, -0.0473101, -0.0155499, -0.0473101, -0.0155502, 3.12853E-008, 5.34038E-009
2, 2160.00000, -0.0394249, -0.0129585, -0.0394245, -0.0129581, -0.0473106, -0.0155502, 3.30549E-008, -1.39519E-009
2, 2220.00000, -0.0394249, -0.0129585, -0.0394249, -0.0129582, -0.0473102, -0.01555, 3.30546E-008, -1.39562E-009
2, 2280.00000, -0.0394249, -0.0129585, -0.0394249, -0.0129582, -0.0473102, -0.01555, 3.30546E-008, -1.3956E-009
2, 2340.00000, -0.0394249, -0.0129585, -0.0394249, -0.0129582, -0.0473102, -0.01555, 3.30546E-008, -1.3956E-009
2, 2400.00000, -0.0394249, -0.0129585, -0.0394249, -0.0129582, -0.0473102, -0.01555, 3.30546E-008, -1.3956E-009
2, 2460.00000, -0.0473099, -0.01555, -0.039425, -0.0129585, -0.0394252, -0.0129583, 3.75486E-008, 4.79886E-009
2, 2520.00000, -0.0473102, -0.0155501, -0.0394249, -0.0129585, -0.0394249, -0.0129582, 3.75489E-008, 4.80369E-009
2, 2580.00000, -0.0473102, -0.0155501, -0.0394249, -0.0129585, -0.0394249, -0.0129582, 3.75489E-008, 4.80372E-009
2, 2640.00000, -0.0473102, -0.0155501, -0.0394249, -0.0129585, -0.0394249, -0.0129582, 3.75489E-008, 4.80372E-009
2, 2700.00000, -0.0473102, -0.0155501, -0.0394249, -0.0129585, -0.0394249, -0.0129582, 3.75489E-008, 4.80372E-009
2, 2760.00000, -0.0394252, -0.0129583, -0.0473097, -0.01555, -0.0394251, -0.0129585, 2.67746E-008, 8.54838E-009
2, 2820.00000, -0.039425, -0.0129582, -0.0473102, -0.0155501, -0.0394249, -0.0129585, 2.67787E-008, 8.55391E-009
2, 2880.00000, -0.039425, -0.0129582, -0.0473102, -0.0155501, -0.0394249, -0.0129585, 2.67787E-008, 8.55396E-009
2, 2940.00000, -0.039425, -0.0129582, -0.0473102, -0.0155501, -0.0394249, -0.0129585, 2.67787E-008, 8.55396E-009
2, 3000.00000, -0.039425, -0.0129582, -0.0473102, -0.0155501, -0.0394249, -0.0129585, 2.67787E-008, 8.55396E-009
2, 3060.00000, -0.0551956, -0.0181416, -0.0394249, -0.0129588, -0.0315397, -0.0103664, 2.44683E-007, 2.94819E-008
2, 3120.00000, -0.0551956, -0.0181416, -0.0394249, -0.0129588, -0.0315397, -0.0103664, 2.44684E-007, 2.94769E-008
2, 3180.00000, -0.0551956, -0.0181416, -0.0394249, -0.0129588, -0.0315397, -0.0103664, 2.44684E-007, 2.94769E-008
2, 3240.00000, -0.0551956, -0.0181416, -0.0394249, -0.0129588, -0.0315397, -0.0103664, 2.44684E-007, 2.94769E-008
2, 3300.00000, -0.0551956, -0.0181416, -0.0394249, -0.0129588, -0.0315397, -0.0103664, 2.44684E-007, 2.94769E-008
2, 3360.00000, -0.0473099, -0.0155502, -0.0473099, -0.0155499, -0.0551953, -0.0181417, 3.23773E-008, -2.62808E-009
