hour, t(sec), V1, VAngle1, V2, VAngle2, V3, VAngle3, V4, VAngle4, I1, IAngle1, I2, IAngle2, I3, IAngle3, I4, IAngle4
0, 60.00000, 222.571, -30.1049, 222.888, -150.168, 223.207, 89.8869, 7.06138E-005, -111.936, 0.53916, 131.7, 0.484554, 11.637, 0.430096, -108.308, 0.0526878, -30.1563
0, 120.00000, 222.571, -30.1049, 222.888, -150.168, 223.207, 89.8869, 7.06113E-005, -111.936, 0.539153, 131.7, 0.484548, 11.637, 0.430094, -108.308, 0.0526858, -30.1558
0, 180.00000, 222.571, -30.1049, 222.888, -150.168, 223.207, 89.8869, 7.06113E-005, -111.936, 0.539153, 131.7, 0.484548, 11.637, 0.430094, -108.308, 0.0526858, -30.1558
0, 240.00000, 222.571, -30.1049, 222.888, -150.168, 223.207, 89.8869, 7.06113E-005, -111.936, 0.539153, 131.7, 0.484548, 11.637, 0.430094, -108.308, 0.0526858, -30.1558
0, 300.00000, 222.571, -30.1049, 222.888, -150.168, 223.207, 89.8869, 7.06113E-005, -111.936, 0.539153, 131.7, 0.484548, 11.637, 0.430094, -108.308, 0.0526858, -30.1558
0, 360.00000, 222.722, -30.1203, 222.729, -150.136, 222.889, 89.8549, 2.9357E-005, 32.7382, 0.431014, 131.685, 0.431036, 11.6691, 0.484535, -108.34, 0.0358183, 102.445
0, 420.00000, 222.722, -30.1202, 222.728, -150.136, 222.89, 89.8548, 2.93672E-005, 32.7049, 0.431031, 131.685, 0.431018, 11.6691, 0.484545, -108.34, 0.0358274, 102.422
0, 480.00000, 222.722, -30.1202, 222.728, -150.136, 222.89, 89.8548, 2.93673E-005, 32.7049, 0.431031, 131.685, 0.431018, 11.669, 0.484545, -108.34, 0.0358274, 102.422
0, 540.00000, 222.722, -30.1202, 222.728, -150.136, 222.89, 89.8548, 2.93673E-005, 32.7049, 0.431031, 131.685, 0.431018, 11.669, 0.484545, -108.34, 0.0358274, 102.422
0, 600.00000, 222.722, -30.1202, 222.728, -150.136, 222.89, 89.8548, 2.93673E-005, 32.7049, 0.431031, 131.685, 0.431018, 11.669, 0.484545, -108.34, 0.0358274, 102.422
0, 660.00000, 222.651, -30.0961, 222.715, -150.16, 223.171, 89.8635, 0.000131362, -111.249, 0.538978, 131.709, 0.431038, 11.6454, 0.322618, -108.332, 0.10487, -35.3641
0, 720.00000, 222.651, -30.0961, 222.715, -150.16, 223.171, 89.8635, 0.000131348, -111.253, 0.538961, 131.709, 0.431044, 11.6453, 0.322622, -108.331, 0.104858, -35.3681
0, 780.00000, 222.651, -30.0961, 222.715, -150.16, 223.171, 89.8635, 0.000131348, -111.253, 0.538961, 131.709, 0.431044, 11.6453, 0.322622, -108.331, 0.104858, -35.3681
0, 840.00000, 222.651, -30.0961, 222.715, -150.16, 223.171, 89.8635, 0.000131348, -111.253, 0.538961, 131.709, 0.431044, 11.6453, 0.322622, -108.331, 0.104858, -35.3681
0, 900.00000, 222.651, -30.0961, 222.715, -150.16, 223.171, 89.8635, 0.000131348, -111.253, 0.538961, 131.709, 0.431044, 11.6453, 0.322622, -108.331, 0.104858, -35.3681
0, 960.00000, 222.632, -30.112, 222.847, -150.161, 223.061, 89.8699, 7.20223E-006, -118.809, 0.431205, 131.693, 0.430789, 11.6441, 0.430376, -108.325, 0.00697131, 58.2147
0, 1020.00000, 222.632, -30.112, 222.847, -150.161, 223.061, 89.8699, 7.20202E-006, -118.811, 0.431205, 131.693, 0.430789, 11.6441, 0.430376, -108.325, 0.0069712, 58.2165
0, 1080.00000, 222.632, -30.112, 222.847, -150.161, 223.061, 89.8699, 7.20202E-006, -118.811, 0.431205, 131.693, 0.430789, 11.6441, 0.430376, -108.325, 0.0069712, 58.2165
0, 1140.00000, 222.632, -30.112, 222.847, -150.161, 223.061, 89.8699, 7.20202E-006, -118.811, 0.431205, 131.693, 0.430789, 11.6441, 0.430376, -108.325, 0.0069712, 58.2165
0, 1200.00000, 222.632, -30.112, 222.847, -150.161, 223.061, 89.8699, 7.20202E-006, -118.811, 0.431205, 131.693, 0.430789, 11.6441, 0.430376, -108.325, 0.0069712, 58.2165
0, 1260.00000, 222.832, -30.1275, 222.81, -150.132, 222.877, 89.8566, 5.88729E-005, 4.80668, 0.376965, 131.678, 0.323144, 11.6728, 0.430731, -108.338, 0.0580505, 79.0255
0, 1320.00000, 222.832, -30.1276, 222.81, -150.132, 222.877, 89.8566, 5.88724E-005, 4.80695, 0.376965, 131.678, 0.323145, 11.6728, 0.430731, -108.338, 0.0580501, 79.0258
0, 1380.00000, 222.832, -30.1276, 222.81, -150.132, 222.877, 89.8566, 5.88724E-005, 4.80695, 0.376965, 131.678, 0.323145, 11.6728, 0.430731, -108.338, 0.0580501, 79.0258
0, 1440.00000, 222.832, -30.1276, 222.81, -150.132, 222.877, 89.8566, 5.88724E-005, 4.80695, 0.376965, 131.678, 0.323145, 11.6728, 0.430731, -108.338, 0.0580501, 79.0258
0, 1500.00000, 222.832, -30.1276, 222.81, -150.132, 222.877, 89.8566, 5.88724E-005, 4.80695, 0.376965, 131.678, 0.323145, 11.6728, 0.430731, -108.338, 0.0580501, 79.0258
0, 1560.00000, 222.568, -30.1221, 222.967, -150.153, 223.062, 89.8945, 7.24674E-005, 165.813, 0.377419, 131.683, 0.484358, 11.6518, 0.37659, -108.301, 0.0530026, -131.153
0, 1620.00000, 222.568, -30.1222, 222.968, -150.153, 223.062, 89.8945, 7.24887E-005, 165.815, 0.377413, 131.683, 0.484375, 11.6518, 0.376577, -108.3, 0.0530201, -131.149
0, 1680.00000, 222.568, -30.1222, 222.968, -150.153, 223.062, 89.8945, 7.24888E-005, 165.815, 0.377413, 131.683, 0.484375, 11.6518, 0.376577, -108.3, 0.0530201, -131.149
0, 1740.00000, 222.568, -30.1222, 222.968, -150.153, 223.062, 89.8945, 7.24888E-005, 165.815, 0.377413, 131.683, 0.484375, 11.6518, 0.376577, -108.3, 0.0530201, -131.149
0, 1800.00000, 222.568, -30.1222, 222.968, -150.153, 223.062, 89.8945, 7.24888E-005, 165.815, 0.377413, 131.683, 0.484375, 11.6518, 0.376577, -108.3, 0.0530201, -131.149
0, 1860.00000, 222.56, -30.1227, 222.84, -150.157, 223.005, 89.8718, 4.01888E-005, -86.4793, 0.37742, 131.682, 0.323105, 11.6482, 0.322858, -108.323, 0.0335674, -0.866261
0, 1920.00000, 222.56, -30.1226, 222.84, -150.157, 223.005, 89.8717, 4.01923E-005, -86.4705, 0.377427, 131.682, 0.323102, 11.6481, 0.322863, -108.323, 0.0335716, -0.858698
0, 1980.00000, 222.56, -30.1226, 222.84, -150.157, 223.005, 89.8717, 4.01923E-005, -86.4705, 0.377427, 131.682, 0.323102, 11.6481, 0.322863, -108.323, 0.0335716, -0.858669
0, 2040.00000, 222.56, -30.1226, 222.84, -150.157, 223.005, 89.8717, 4.01923E-005, -86.4705, 0.377427, 131.682, 0.323102, 11.6481, 0.322863, -108.323, 0.0335716, -0.858669
0, 2100.00000, 222.56, -30.1226, 222.84, -150.157, 223.005, 89.8717, 4.01923E-005, -86.4705, 0.377427, 131.682, 0.323102, 11.6481, 0.322863, -108.323, 0.0335716, -0.858669
0, 2160.00000, 223.011, -30.0918, 222.535, -150.119, 222.909, 89.8249, 6.66101E-005, -166.489, 0.376668, 131.712, 0.431422, 11.6866, 0.322978, -108.369, 0.0467864, -96.4997
0, 2220.00000, 223.011, -30.0916, 222.535, -150.119, 222.909, 89.8249, 6.65733E-005, -166.487, 0.376663, 131.714, 0.431393, 11.6864, 0.323002, -108.37, 0.0467553, -96.4987
0, 2280.00000, 223.011, -30.0916, 222.535, -150.119, 222.909, 89.8249, 6.65733E-005, -166.487, 0.376663, 131.714, 0.431393, 11.6864, 0.323002, -108.37, 0.0467553, -96.4988
0, 2340.00000, 223.011, -30.0916, 222.535, -150.119, 222.909, 89.8249, 6.65733E-005, -166.487, 0.376663, 131.714, 0.431393, 11.6864, 0.323002, -108.37, 0.0467553, -96.4988
0, 2400.00000, 223.011, -30.0916, 222.535, -150.119, 222.909, 89.8249, 6.65733E-005, -166.487, 0.376663, 131.714, 0.431393, 11.6864, 0.323002, -108.37, 0.0467553, -96.4988
0, 2460.00000, 222.724, -30.1232, 222.882, -150.14, 222.976, 89.8585, 0.000101947, -156.4, 0.538785, 131.682, 0.592243, 11.6652, 0.430539, -108.336, 0.0729949, -84.3835
0, 2520.00000, 222.724, -30.1232, 222.882, -150.14, 222.976, 89.8585, 0.000101946, -156.4, 0.538784, 131.682, 0.592243, 11.6652, 0.43054, -108.336, 0.0729943, -84.3838
0, 2580.00000, 222.724, -30.1232, 222.882, -150.14, 222.976, 89.8585, 0.000101946, -156.4, 0.538784, 131.682, 0.592243, 11.6652, 0.43054, -108.336, 0.0729943, -84.3838
0, 2640.00000, 222.724, -30.1232, 222.882, -150.14, 222.976, 89.8585, 0.000101946, -156.4, 0.538784, 131.682, 0.592243, 11.6652, 0.43054, -108.336, 0.0729943, -84.3838
0, 2700.00000, 222.724, -30.1232, 222.882, -150.14, 222.976, 89.8585, 0.000101946, -156.4, 0.538784, 131.682, 0.592243, 11.6652, 0.43054, -108.336, 0.0729943, -84.3838
0, 2760.00000, 222.807, -30.1207, 222.926, -150.138, 223.071, 89.8605, 7.11883E-006, -118.905, 0.430869, 131.684, 0.430635, 11.6668, 0.430356, -108.334, 0.00690122, 58.4087
0, 2820.00000, 222.807, -30.1207, 222.926, -150.138, 223.071, 89.8606, 7.11857E-006, -118.918, 0.430867, 131.684, 0.430636, 11.6668, 0.430355, -108.334, 0.00690003, 58.4134
0, 2880.00000, 222.807, -30.1207, 222.926, -150.138, 223.071, 89.8606, 7.11859E-006, -118.918, 0.430867, 131.684, 0.430636, 11.6668, 0.430355, -108.334, 0.00690003, 58.4133
0, 2940.00000, 222.807, -30.1207, 222.926, -150.138, 223.071, 89.8606, 7.11859E-006, -118.918, 0.430867, 131.684, 0.430636, 11.6668, 0.430355, -108.334, 0.00690003, 58.4133
0, 3000.00000, 222.807, -30.1207, 222.926, -150.138, 223.071, 89.8606, 7.11859E-006, -118.918, 0.430867, 131.684, 0.430636, 11.6668, 0.430355, -108.334, 0.00690003, 58.4133
0, 3060.00000, 222.621, -30.119, 222.761, -150.137, 222.855, 89.8604, 6.95122E-005, -111.623, 0.48513, 131.686, 0.430954, 11.6683, 0.376927, -108.334, 0.0523023, -31.1312
0, 3120.00000, 222.621, -30.119, 222.761, -150.137, 222.855, 89.8604, 6.95122E-005, -111.624, 0.48513, 131.686, 0.430955, 11.6683, 0.376927, -108.334, 0.0523023, -31.1314
0, 3180.00000, 222.621, -30.119, 222.761, -150.137, 222.855, 89.8604, 6.95122E-005, -111.624, 0.48513, 131.686, 0.430955, 11.6683, 0.376927, -108.334, 0.0523023, -31.1314
0, 3240.00000, 222.621, -30.119, 222.761, -150.137, 222.855, 89.8604, 6.95122E-005, -111.624, 0.48513, 131.686, 0.430955, 11.6683, 0.376927, -108.334, 0.0523023, -31.1314
0, 3300.00000, 222.621, -30.119, 222.761, -150.137, 222.855, 89.8604, 6.95122E-005, -111.624, 0.48513, 131.686, 0.430955, 11.6683, 0.376927, -108.334, 0.0523023, -31.1314
0, 3360.00000, 222.689, -30.1191, 222.897, -150.155, 223.019, 89.8689, 7.63092E-006, -116.438, 0.431104, 131.686, 0.430681, 11.6502, 0.430455, -108.326, 0.00748251, 60.9012
0, 3420.00000, 222.689, -30.1191, 222.897, -150.155, 223.019, 89.8689, 7.62569E-006, -116.519, 0.431094, 131.686, 0.430692, 11.6502, 0.430456, -108.326, 0.00747486, 60.9545
0, 3480.00000, 222.689, -30.1191, 222.897, -150.155, 223.019, 89.8689, 7.62571E-006, -116.52, 0.431094, 131.686, 0.430692, 11.6502, 0.430456, -108.326, 0.00747483, 60.9544
0, 3540.00000, 222.689, -30.1191, 222.897, -150.155, 223.019, 89.8689, 7.62571E-006, -116.52, 0.431094, 131.686, 0.430692, 11.6502, 0.430456, -108.326, 0.00747483, 60.9544
1, 0.00000, 222.689, -30.1191, 222.897, -150.155, 223.019, 89.8689, 7.62571E-006, -116.52, 0.431094, 131.686, 0.430692, 11.6502, 0.430456, -108.326, 0.00747483, 60.9544
1, 60.00000, 223.391, -30.0816, 223.412, -150.102, 223.531, 89.8898, 9.77372E-005, -177.418, 0.376024, 131.724, 0.483416, 11.7031, 0.322104, -108.305, 0.0726839, -109.536
1, 120.00000, 223.391, -30.0815, 223.412, -150.102, 223.531, 89.8898, 9.77356E-005, -177.418, 0.376022, 131.724, 0.483413, 11.7031, 0.322103, -108.305, 0.0726826, -109.536
1, 180.00000, 223.391, -30.0815, 223.412, -150.102, 223.531, 89.8898, 9.77356E-005, -177.418, 0.376022, 131.724, 0.483413, 11.7031, 0.322103, -108.305, 0.0726826, -109.536
1, 240.00000, 223.391, -30.0815, 223.412, -150.102, 223.531, 89.8898, 9.77356E-005, -177.418, 0.376022, 131.724, 0.483413, 11.7031, 0.322103, -108.305, 0.0726826, -109.536
1, 300.00000, 223.391, -30.0815, 223.412, -150.102, 223.531, 89.8898, 9.77356E-005, -177.418, 0.376022, 131.724, 0.483413, 11.7031, 0.322103, -108.305, 0.0726826, -109.536
1, 360.00000, 223.66, -30.0841, 223.27, -150.082, 223.443, 89.8645, 3.70012E-005, 169.761, 0.375571, 131.721, 0.429974, 11.7232, 0.375935, -108.33, 0.0239271, -133.331
1, 420.00000, 223.66, -30.084, 223.269, -150.082, 223.443, 89.8645, 3.70006E-005, 169.761, 0.375571, 131.721, 0.429974, 11.7232, 0.375935, -108.33, 0.0239267, -133.331
1, 480.00000, 223.66, -30.084, 223.269, -150.082, 223.443, 89.8645, 3.70006E-005, 169.761, 0.375571, 131.721, 0.429974, 11.7232, 0.375935, -108.33, 0.0239267, -133.331
1, 540.00000, 223.66, -30.084, 223.269, -150.082, 223.443, 89.8645, 3.70006E-005, 169.761, 0.375571, 131.721, 0.429974, 11.7232, 0.375935, -108.33, 0.0239267, -133.331
1, 600.00000, 223.66, -30.084, 223.269, -150.082, 223.443, 89.8645, 3.70006E-005, 169.761, 0.375571, 131.721, 0.429974, 11.7232, 0.375935, -108.33, 0.0239267, -133.331
1, 660.00000, 223.28, -30.0875, 223.425, -150.114, 223.594, 89.9006, 3.99009E-005, -85.8623, 0.376209, 131.718, 0.322255, 11.6913, 0.322012, -108.294, 0.032988, -1.01282
1, 720.00000, 223.28, -30.0875, 223.425, -150.114, 223.594, 89.9006, 3.99005E-005, -85.8626, 0.376209, 131.718, 0.322255, 11.6913, 0.322012, -108.294, 0.0329876, -1.013
1, 780.00000, 223.28, -30.0875, 223.425, -150.114, 223.594, 89.9006, 3.99005E-005, -85.8626, 0.376209, 131.718, 0.322255, 11.6913, 0.322012, -108.294, 0.0329876, -1.01302
1, 840.00000, 223.28, -30.0875, 223.425, -150.114, 223.594, 89.9006, 3.99005E-005, -85.8626, 0.376209, 131.718, 0.322255, 11.6913, 0.322012, -108.294, 0.0329876, -1.01302
1, 900.00000, 223.28, -30.0875, 223.425, -150.114, 223.594, 89.9006, 3.99005E-005, -85.8626, 0.376209, 131.718, 0.322255, 11.6913, 0.322012, -108.294, 0.0329876, -1.01302
1, 960.00000, 223.342, -30.0766, 223.154, -150.117, 223.545, 89.8729, 3.76559E-005, 168.92, 0.322375, 131.729, 0.376422, 11.6885, 0.322083, -108.322, 0.0242267, -130.83
1, 1020.00000, 223.342, -30.0766, 223.154, -150.117, 223.545, 89.8729, 3.76559E-005, 168.921, 0.322375, 131.729, 0.376422, 11.6885, 0.322083, -108.322, 0.0242267, -130.83
1, 1080.00000, 223.342, -30.0766, 223.154, -150.117, 223.545, 89.8729, 3.76559E-005, 168.921, 0.322375, 131.729, 0.376422, 11.6885, 0.322083, -108.322, 0.0242266, -130.83
1, 1140.00000, 223.342, -30.0766, 223.154, -150.117, 223.545, 89.8729, 3.76559E-005, 168.921, 0.322375, 131.729, 0.376422, 11.6885, 0.322083, -108.322, 0.0242266, -130.83
1, 1200.00000, 223.342, -30.0766, 223.154, -150.117, 223.545, 89.8729, 3.76559E-005, 168.921, 0.322375, 131.729, 0.376422, 11.6885, 0.322083, -108.322, 0.0242266, -130.83
1, 1260.00000, 223.42, -30.086, 223.34, -150.101, 223.504, 89.882, 0.000113158, -139.55, 0.429685, 131.719, 0.429838, 11.7037, 0.268451, -108.313, 0.0872017, -65.9741
1, 1320.00000, 223.42, -30.086, 223.34, -150.101, 223.504, 89.882, 0.000113157, -139.55, 0.429685, 131.719, 0.429838, 11.7037, 0.268451, -108.313, 0.0872013, -65.974
1, 1380.00000, 223.42, -30.086, 223.34, -150.101, 223.504, 89.882, 0.000113157, -139.55, 0.429685, 131.719, 0.429838, 11.7037, 0.268451, -108.313, 0.0872013, -65.974
1, 1440.00000, 223.42, -30.086, 223.34, -150.101, 223.504, 89.882, 0.000113157, -139.55, 0.429685, 131.719, 0.429838, 11.7037, 0.268451, -108.313, 0.0872013, -65.974
1, 1500.00000, 223.42, -30.086, 223.34, -150.101, 223.504, 89.882, 0.000113157, -139.55, 0.429685, 131.719, 0.429838, 11.7037, 0.268451, -108.313, 0.0872013, -65.974
1, 1560.00000, 223.412, -30.1008, 223.492, -150.092, 223.474, 89.8885, 4.00385E-005, -85.8497, 0.375988, 131.704, 0.322159, 11.7129, 0.322185, -108.306, 0.0329909, -0.514409
1, 1620.00000, 223.412, -30.1008, 223.492, -150.092, 223.474, 89.8885, 4.00384E-005, -85.85, 0.375988, 131.704, 0.322159, 11.7129, 0.322185, -108.306, 0.0329908, -0.514603
1, 1680.00000, 223.412, -30.1008, 223.492, -150.092, 223.474, 89.8885, 4.00384E-005, -85.85, 0.375988, 131.704, 0.322159, 11.7129, 0.322185, -108.306, 0.0329908, -0.514609
1, 1740.00000, 223.412, -30.1008, 223.492, -150.092, 223.474, 89.8885, 4.00384E-005, -85.85, 0.375988, 131.704, 0.322159, 11.7129, 0.322185, -108.306, 0.0329908, -0.514609
1, 1800.00000, 223.412, -30.1008, 223.492, -150.092, 223.474, 89.8885, 4.00384E-005, -85.85, 0.375988, 131.704, 0.322159, 11.7129, 0.322185, -108.306, 0.0329908, -0.514609
1, 1860.00000, 223.175, -30.1091, 223.606, -150.117, 223.563, 89.9192, 6.43541E-005, -55.7758, 0.43015, 131.696, 0.32199, 11.6879, 0.375742, -108.276, 0.0575057, 24.2135
1, 1920.00000, 223.175, -30.1091, 223.606, -150.117, 223.563, 89.9192, 6.43558E-005, -55.7851, 0.430157, 131.696, 0.321995, 11.6878, 0.375732, -108.276, 0.0575059, 24.2045
1, 1980.00000, 223.175, -30.1091, 223.606, -150.117, 223.563, 89.9192, 6.43557E-005, -55.7851, 0.430157, 131.696, 0.321995, 11.6878, 0.375732, -108.276, 0.0575059, 24.2045
1, 2040.00000, 223.175, -30.1091, 223.606, -150.117, 223.563, 89.9192, 6.43557E-005, -55.7851, 0.430157, 131.696, 0.321995, 11.6878, 0.375732, -108.276, 0.0575059, 24.2045
1, 2100.00000, 223.175, -30.1091, 223.606, -150.117, 223.563, 89.9192, 6.43557E-005, -55.7851, 0.430157, 131.696, 0.321995, 11.6878, 0.375732, -108.276, 0.0575059, 24.2045
1, 2160.00000, 223.403, -30.0808, 223.329, -150.111, 223.6, 89.8824, 3.05495E-005, 105.46, 0.322296, 131.724, 0.376123, 11.694, 0.375663, -108.312, 0.0295323, 159.355
1, 2220.00000, 223.403, -30.0808, 223.329, -150.111, 223.6, 89.8824, 3.05589E-005, 105.454, 0.322287, 131.724, 0.376127, 11.694, 0.375671, -108.312, 0.029541, 159.354
1, 2280.00000, 223.403, -30.0808, 223.329, -150.111, 223.6, 89.8824, 3.05589E-005, 105.454, 0.322287, 131.724, 0.376127, 11.694, 0.375671, -108.312, 0.029541, 159.354
1, 2340.00000, 223.403, -30.0808, 223.329, -150.111, 223.6, 89.8824, 3.05589E-005, 105.454, 0.322287, 131.724, 0.376127, 11.694, 0.375671, -108.312, 0.029541, 159.354
1, 2400.00000, 223.403, -30.0808, 223.329, -150.111, 223.6, 89.8824, 3.05589E-005, 105.454, 0.322287, 131.724, 0.376127, 11.694, 0.375671, -108.312, 0.029541, 159.354
1, 2460.00000, 223.305, -30.0871, 223.482, -150.109, 223.593, 89.9017, 8.7964E-005, 57.453, 0.322427, 131.718, 0.375875, 11.6962, 0.48302, -108.293, 0.0836149, 126.062
1, 2520.00000, 223.305, -30.0871, 223.482, -150.109, 223.593, 89.9017, 8.7964E-005, 57.4502, 0.322429, 131.718, 0.37587, 11.6962, 0.48302, -108.293, 0.0836151, 126.059
1, 2580.00000, 223.305, -30.0871, 223.482, -150.109, 223.593, 89.9017, 8.7964E-005, 57.4502, 0.322429, 131.718, 0.37587, 11.6962, 0.48302, -108.293, 0.0836151, 126.059
1, 2640.00000, 223.305, -30.0871, 223.482, -150.109, 223.593, 89.9017, 8.7964E-005, 57.4502, 0.322429, 131.718, 0.37587, 11.6962, 0.48302, -108.293, 0.0836151, 126.059
1, 2700.00000, 223.305, -30.0871, 223.482, -150.109, 223.593, 89.9017, 8.7964E-005, 57.4502, 0.322429, 131.718, 0.37587, 11.6962, 0.48302, -108.293, 0.0836151, 126.059
1, 2760.00000, 223.427, -30.0898, 223.369, -150.095, 223.468, 89.8818, 7.10573E-005, -24.5606, 0.375962, 131.715, 0.268614, 11.7102, 0.375893, -108.313, 0.0653898, 51.5807
1, 2820.00000, 223.427, -30.0898, 223.369, -150.095, 223.468, 89.8818, 7.1057E-005, -24.5604, 0.375962, 131.715, 0.268614, 11.7102, 0.375893, -108.313, 0.0653895, 51.5809
1, 2880.00000, 223.427, -30.0898, 223.369, -150.095, 223.468, 89.8818, 7.1057E-005, -24.5604, 0.375962, 131.715, 0.268614, 11.7102, 0.375893, -108.313, 0.0653895, 51.5809
1, 2940.00000, 223.427, -30.0898, 223.369, -150.095, 223.468, 89.8818, 7.1057E-005, -24.5604, 0.375962, 131.715, 0.268614, 11.7102, 0.375893, -108.313, 0.0653895, 51.5809
1, 3000.00000, 223.427, -30.0898, 223.369, -150.095, 223.468, 89.8818, 7.1057E-005, -24.5604, 0.375962, 131.715, 0.268614, 11.7102, 0.375893, -108.313, 0.0653895, 51.5809
1, 3060.00000, 223.309, -30.1057, 223.548, -150.102, 223.497, 89.9, 3.55193E-005, -28.3759, 0.322417, 131.699, 0.2684, 11.7034, 0.322157, -108.295, 0.0349903, 52.0163
1, 3120.00000, 223.309, -30.1058, 223.548, -150.102, 223.497, 89.9, 3.55209E-005, -28.3859, 0.322423, 131.699, 0.268399, 11.7034, 0.322152, -108.295, 0.0349909, 52.0072
1, 3180.00000, 223.309, -30.1058, 223.548, -150.102, 223.497, 89.9, 3.55209E-005, -28.3858, 0.322423, 131.699, 0.268399, 11.7034, 0.322152, -108.295, 0.0349909, 52.0073
1, 3240.00000, 223.309, -30.1058, 223.548, -150.102, 223.497, 89.9, 3.55209E-005, -28.3858, 0.322423, 131.699, 0.268399, 11.7034, 0.322152, -108.295, 0.0349909, 52.0073
1, 3300.00000, 223.309, -30.1058, 223.548, -150.102, 223.497, 89.9, 3.55209E-005, -28.3858, 0.322423, 131.699, 0.268399, 11.7034, 0.322152, -108.295, 0.0349909, 52.0073
1, 3360.00000, 223.136, -30.096, 223.557, -150.127, 223.572, 89.9175, 7.49444E-005, -82.8811, 0.376452, 131.709, 0.268388, 11.6781, 0.268369, -108.277, 0.0628199, -5.62934
