hour, t(sec), P1 (kW), Q1 (kvar), P2 (kW), Q2 (kvar), P3 (kW), Q3 (kvar), P4 (kW), Q4 (kvar)
0, 60.00000, -0.06232, -0.0204835, -0.0701106, -0.0230439, -0.0701096, -0.023044, 2.29413E-008, 2.68527E-010
0, 120.00000, -0.0623198, -0.0204836, -0.0701101, -0.0230439, -0.0701101, -0.0230442, 2.29424E-008, 2.68281E-010
0, 180.00000, -0.0623198, -0.0204836, -0.0701101, -0.0230439, -0.0701101, -0.0230442, 2.29425E-008, 2.6828E-010
0, 240.00000, -0.0623198, -0.0204836, -0.0701101, -0.0230439, -0.0701101, -0.0230442, 2.29425E-008, 2.68281E-010
0, 300.00000, -0.0623198, -0.0204836, -0.0701101, -0.0230439, -0.0701101, -0.0230442, 2.29425E-008, 2.68281E-010
0, 360.00000, -0.0623183, -0.0204829, -0.0701053, -0.0230427, -0.0545319, -0.0179243, 7.38102E-008, 1.27891E-008
0, 420.00000, -0.06232, -0.0204832, -0.0701103, -0.0230443, -0.0545297, -0.0179233, 7.3882E-008, 1.27938E-008
0, 480.00000, -0.0623201, -0.0204833, -0.0701103, -0.0230443, -0.0545297, -0.0179232, 7.38822E-008, 1.27938E-008
0, 540.00000, -0.0623201, -0.0204833, -0.0701103, -0.0230443, -0.0545297, -0.0179232, 7.38822E-008, 1.27938E-008
0, 600.00000, -0.0623201, -0.0204833, -0.0701103, -0.0230443, -0.0545297, -0.0179232, 7.38822E-008, 1.27938E-008
0, 660.00000, -0.0467388, -0.0153624, -0.0623254, -0.0204852, -0.0545273, -0.0179221, 8.1991E-008, 1.71749E-008
0, 720.00000, -0.0467398, -0.0153625, -0.0623204, -0.0204835, -0.0545299, -0.0179235, 8.1914E-008, 1.71711E-008
0, 780.00000, -0.0467398, -0.0153625, -0.0623204, -0.0204835, -0.0545299, -0.0179235, 8.19138E-008, 1.71711E-008
0, 840.00000, -0.0467398, -0.0153625, -0.0623204, -0.0204835, -0.0545299, -0.0179235, 8.19138E-008, 1.71711E-008
0, 900.00000, -0.0467398, -0.0153625, -0.0623204, -0.0204835, -0.0545299, -0.0179235, 8.19138E-008, 1.71711E-008
0, 960.00000, -0.0623202, -0.020484, -0.0467397, -0.0153627, -0.0623201, -0.0204832, 1.06437E-007, 1.64818E-010
0, 1020.00000, -0.0623202, -0.020484, -0.0467397, -0.0153627, -0.0623202, -0.0204832, 1.06438E-007, 1.64769E-010
0, 1080.00000, -0.0623202, -0.020484, -0.0467397, -0.0153627, -0.0623202, -0.0204832, 1.06438E-007, 1.64768E-010
0, 1140.00000, -0.0623202, -0.020484, -0.0467397, -0.0153627, -0.0623202, -0.0204832, 1.06438E-007, 1.64768E-010
0, 1200.00000, -0.0623202, -0.020484, -0.0467397, -0.0153627, -0.0623202, -0.0204832, 1.06438E-007, 1.64768E-010
0, 1260.00000, -0.0389494, -0.0128023, -0.0623204, -0.020483, -0.0701106, -0.0230447, 3.0869E-007, 2.51934E-008
0, 1320.00000, -0.0389496, -0.0128023, -0.0623202, -0.0204829, -0.0701105, -0.0230446, 3.08682E-007, 2.51932E-008
0, 1380.00000, -0.0389496, -0.0128023, -0.0623202, -0.0204829, -0.0701105, -0.0230446, 3.08682E-007, 2.51932E-008
0, 1440.00000, -0.0389496, -0.0128023, -0.0623202, -0.0204829, -0.0701105, -0.0230446, 3.08682E-007, 2.51932E-008
0, 1500.00000, -0.0389496, -0.0128023, -0.0623202, -0.0204829, -0.0701105, -0.0230446, 3.08682E-007, 2.51932E-008
0, 1560.00000, -0.0701137, -0.0230446, -0.0467388, -0.0153623, -0.0467394, -0.0153624, 2.16321E-007, -2.22859E-008
0, 1620.00000, -0.0701107, -0.023044, -0.0467398, -0.0153631, -0.0467397, -0.0153623, 2.16244E-007, -2.22811E-008
0, 1680.00000, -0.0701106, -0.023044, -0.0467398, -0.0153631, -0.0467397, -0.0153623, 2.16243E-007, -2.22811E-008
0, 1740.00000, -0.0701106, -0.023044, -0.0467398, -0.0153631, -0.0467397, -0.0153623, 2.16243E-007, -2.22811E-008
0, 1800.00000, -0.0701106, -0.023044, -0.0467398, -0.0153631, -0.0467397, -0.0153623, 2.16243E-007, -2.22811E-008
0, 1860.00000, -0.0701047, -0.0230421, -0.0701123, -0.0230451, -0.054528, -0.0179223, 1.22941E-007, 1.52789E-008
0, 1920.00000, -0.0701103, -0.0230436, -0.0701102, -0.0230446, -0.0545296, -0.0179231, 1.22948E-007, 1.52698E-008
0, 1980.00000, -0.0701103, -0.0230436, -0.0701102, -0.0230446, -0.0545296, -0.0179231, 1.22948E-007, 1.52697E-008
0, 2040.00000, -0.0701103, -0.0230436, -0.0701102, -0.0230446, -0.0545296, -0.0179231, 1.22948E-007, 1.52697E-008
0, 2100.00000, -0.0701103, -0.0230436, -0.0701102, -0.0230446, -0.0545296, -0.0179231, 1.22948E-007, 1.52697E-008
0, 2160.00000, -0.0701122, -0.0230444, -0.0545335, -0.0179249, -0.0545283, -0.0179222, 9.57244E-008, -2.20932E-010
0, 2220.00000, -0.0701104, -0.023044, -0.0545298, -0.0179234, -0.0545298, -0.0179229, 9.57229E-008, -2.18193E-010
0, 2280.00000, -0.0701104, -0.023044, -0.0545298, -0.0179234, -0.0545298, -0.0179229, 9.57229E-008, -2.18181E-010
0, 2340.00000, -0.0701104, -0.023044, -0.0545298, -0.0179234, -0.0545298, -0.0179229, 9.57229E-008, -2.18181E-010
0, 2400.00000, -0.0701104, -0.023044, -0.0545298, -0.0179234, -0.0545298, -0.0179229, 9.57229E-008, -2.18181E-010
0, 2460.00000, -0.085691, -0.0281648, -0.0701097, -0.0230446, -0.0623194, -0.0204831, 1.83478E-007, 1.90958E-008
0, 2520.00000, -0.0856907, -0.0281648, -0.0701098, -0.0230446, -0.0623196, -0.0204832, 1.83471E-007, 1.90957E-008
0, 2580.00000, -0.0856907, -0.0281648, -0.0701098, -0.0230446, -0.0623196, -0.0204832, 1.83471E-007, 1.90957E-008
0, 2640.00000, -0.0856907, -0.0281648, -0.0701098, -0.0230446, -0.0623196, -0.0204832, 1.83471E-007, 1.90957E-008
0, 2700.00000, -0.0856907, -0.0281648, -0.0701098, -0.0230446, -0.0623196, -0.0204832, 1.83471E-007, 1.90957E-008
0, 2760.00000, -0.0623178, -0.0204828, -0.0623202, -0.0204839, -0.0545328, -0.0179243, 3.0475E-008, 9.92147E-009
0, 2820.00000, -0.0623202, -0.0204834, -0.0623201, -0.0204838, -0.0545298, -0.0179231, 3.05083E-008, 9.92451E-009
0, 2880.00000, -0.0623202, -0.0204834, -0.06232, -0.0204838, -0.0545298, -0.0179231, 3.05084E-008, 9.92451E-009
0, 2940.00000, -0.0623202, -0.0204834, -0.06232, -0.0204838, -0.0545298, -0.0179231, 3.05084E-008, 9.92451E-009
0, 3000.00000, -0.0623202, -0.0204834, -0.06232, -0.0204838, -0.0545298, -0.0179231, 3.05084E-008, 9.92451E-009
0, 3060.00000, -0.0545295, -0.0179229, -0.0779003, -0.025604, -0.0701104, -0.0230448, 1.69935E-007, 1.94994E-008
0, 3120.00000, -0.0545296, -0.0179229, -0.0779005, -0.0256041, -0.07011, -0.0230446, 1.69936E-007, 1.94997E-008
0, 3180.00000, -0.0545296, -0.0179229, -0.0779005, -0.0256041, -0.07011, -0.0230446, 1.69936E-007, 1.94997E-008
0, 3240.00000, -0.0545296, -0.0179229, -0.0779005, -0.0256041, -0.07011, -0.0230446, 1.69936E-007, 1.94997E-008
0, 3300.00000, -0.0545296, -0.0179229, -0.0779005, -0.0256041, -0.07011, -0.0230446, 1.69936E-007, 1.94997E-008
0, 3360.00000, -0.0467434, -0.0153641, -0.0778933, -0.0256024, -0.070111, -0.023045, 3.19996E-007, 5.6396E-008
0, 3420.00000, -0.0467395, -0.0153625, -0.0779007, -0.025604, -0.0701101, -0.0230449, 3.20197E-007, 5.64091E-008
0, 3480.00000, -0.0467395, -0.0153625, -0.0779007, -0.025604, -0.0701101, -0.0230448, 3.20198E-007, 5.64091E-008
0, 3540.00000, -0.0467395, -0.0153625, -0.0779007, -0.025604, -0.0701101, -0.0230448, 3.20198E-007, 5.64091E-008
1, 0.00000, -0.0467395, -0.0153625, -0.0779007, -0.025604, -0.0701101, -0.0230448, 3.20198E-007, 5.64091E-008
1, 60.00000, -0.0545309, -0.0179238, -0.0467406, -0.0153627, -0.0701114, -0.0230442, 1.43681E-007, 4.18023E-009
1, 120.00000, -0.0545299, -0.0179235, -0.0467398, -0.0153625, -0.0701105, -0.0230439, 1.4368E-007, 4.18021E-009
1, 180.00000, -0.0545299, -0.0179235, -0.0467398, -0.0153625, -0.0701105, -0.0230439, 1.4368E-007, 4.18021E-009
1, 240.00000, -0.0545299, -0.0179235, -0.0467398, -0.0153625, -0.0701105, -0.0230439, 1.4368E-007, 4.18021E-009
1, 300.00000, -0.0545299, -0.0179235, -0.0467398, -0.0153625, -0.0701105, -0.0230439, 1.4368E-007, 4.18021E-009
1, 360.00000, -0.0467397, -0.0153623, -0.0623204, -0.0204836, -0.0467401, -0.015363, 1.01724E-007, 1.21596E-008
1, 420.00000, -0.0467399, -0.0153624, -0.0623204, -0.0204836, -0.0467398, -0.0153629, 1.01725E-007, 1.21595E-008
1, 480.00000, -0.0467399, -0.0153624, -0.0623204, -0.0204836, -0.0467398, -0.0153629, 1.01725E-007, 1.21595E-008
1, 540.00000, -0.0467399, -0.0153624, -0.0623204, -0.0204836, -0.0467398, -0.0153629, 1.01725E-007, 1.21595E-008
1, 600.00000, -0.0467399, -0.0153624, -0.0623204, -0.0204836, -0.0467398, -0.0153629, 1.01725E-007, 1.21595E-008
1, 660.00000, -0.0545304, -0.0179232, -0.0467399, -0.0153629, -0.0467397, -0.0153625, 3.3667E-008, -1.32933E-009
1, 720.00000, -0.0545302, -0.0179231, -0.0467399, -0.0153629, -0.0467399, -0.0153625, 3.36653E-008, -1.32934E-009
1, 780.00000, -0.0545302, -0.0179231, -0.0467399, -0.0153629, -0.0467399, -0.0153625, 3.36653E-008, -1.32934E-009
1, 840.00000, -0.0545302, -0.0179231, -0.0467399, -0.0153629, -0.0467399, -0.0153625, 3.36653E-008, -1.32934E-009
1, 900.00000, -0.0545302, -0.0179231, -0.0467399, -0.0153629, -0.0467399, -0.0153625, 3.36653E-008, -1.32934E-009
1, 960.00000, -0.0389495, -0.012802, -0.0545305, -0.0179231, -0.0467401, -0.015363, 7.36795E-008, 1.53067E-008
1, 1020.00000, -0.0389498, -0.0128021, -0.0545303, -0.0179231, -0.0467399, -0.015363, 7.3675E-008, 1.53065E-008
1, 1080.00000, -0.0389498, -0.0128021, -0.0545303, -0.0179231, -0.0467399, -0.015363, 7.3675E-008, 1.53065E-008
1, 1140.00000, -0.0389498, -0.0128021, -0.0545303, -0.0179231, -0.0467399, -0.015363, 7.3675E-008, 1.53065E-008
1, 1200.00000, -0.0389498, -0.0128021, -0.0545303, -0.0179231, -0.0467399, -0.015363, 7.3675E-008, 1.53065E-008
1, 1260.00000, -0.0467402, -0.0153631, -0.0467399, -0.0153624, -0.06232, -0.0204835, 1.01998E-007, 2.27492E-009
1, 1320.00000, -0.0467398, -0.015363, -0.0467399, -0.0153624, -0.0623204, -0.0204836, 1.02006E-007, 2.27471E-009
1, 1380.00000, -0.0467398, -0.015363, -0.0467399, -0.0153624, -0.0623204, -0.0204836, 1.02006E-007, 2.27471E-009
1, 1440.00000, -0.0467398, -0.015363, -0.0467399, -0.0153624, -0.0623204, -0.0204836, 1.02006E-007, 2.27471E-009
1, 1500.00000, -0.0467398, -0.015363, -0.0467399, -0.0153624, -0.0623204, -0.0204836, 1.02006E-007, 2.27471E-009
1, 1560.00000, -0.0389497, -0.0128022, -0.0545303, -0.0179229, -0.0545301, -0.0179234, 8.52771E-008, 5.94901E-009
1, 1620.00000, -0.0389498, -0.0128022, -0.0545302, -0.0179229, -0.0545301, -0.0179234, 8.52748E-008, 5.94891E-009
1, 1680.00000, -0.0389498, -0.0128022, -0.0545302, -0.0179229, -0.0545301, -0.0179234, 8.52747E-008, 5.94891E-009
1, 1740.00000, -0.0389498, -0.0128022, -0.0545302, -0.0179229, -0.0545301, -0.0179234, 8.52747E-008, 5.94891E-009
1, 1800.00000, -0.0389498, -0.0128022, -0.0545302, -0.0179229, -0.0545301, -0.0179234, 8.52747E-008, 5.94891E-009
1, 1860.00000, -0.0623167, -0.0204828, -0.0389475, -0.0128016, -0.0545355, -0.0179244, 1.9069E-007, -5.18726E-009
1, 1920.00000, -0.0623204, -0.020484, -0.0389497, -0.0128024, -0.0545301, -0.0179227, 1.90687E-007, -5.18086E-009
1, 1980.00000, -0.0623204, -0.020484, -0.0389497, -0.0128024, -0.0545301, -0.0179226, 1.90687E-007, -5.18085E-009
1, 2040.00000, -0.0623204, -0.020484, -0.0389497, -0.0128024, -0.0545301, -0.0179226, 1.90687E-007, -5.18085E-009
1, 2100.00000, -0.0623204, -0.020484, -0.0389497, -0.0128024, -0.0545301, -0.0179226, 1.90687E-007, -5.18085E-009
1, 2160.00000, -0.0701127, -0.0230447, -0.0467416, -0.0153636, -0.0545253, -0.0179213, 1.61964E-007, -2.13167E-008
1, 2220.00000, -0.0701106, -0.0230442, -0.0467398, -0.015363, -0.0545299, -0.0179227, 1.61934E-007, -2.13112E-008
1, 2280.00000, -0.0701105, -0.0230442, -0.0467398, -0.015363, -0.0545299, -0.0179227, 1.61934E-007, -2.13112E-008
1, 2340.00000, -0.0701105, -0.0230442, -0.0467398, -0.015363, -0.0545299, -0.0179227, 1.61934E-007, -2.13112E-008
1, 2400.00000, -0.0701105, -0.0230442, -0.0467398, -0.015363, -0.0545299, -0.0179227, 1.61934E-007, -2.13112E-008
1, 2460.00000, -0.0545332, -0.0179242, -0.0467414, -0.0153633, -0.054527, -0.0179219, 2.78709E-008, -6.24573E-009
1, 2520.00000, -0.0545301, -0.0179233, -0.0467398, -0.0153627, -0.0545301, -0.017923, 2.78787E-008, -6.2489E-009
1, 2580.00000, -0.0545301, -0.0179233, -0.0467398, -0.0153627, -0.0545301, -0.017923, 2.78787E-008, -6.2489E-009
1, 2640.00000, -0.0545301, -0.0179233, -0.0467398, -0.0153627, -0.0545301, -0.017923, 2.78787E-008, -6.2489E-009
1, 2700.00000, -0.0545301, -0.0179233, -0.0467398, -0.0153627, -0.0545301, -0.017923, 2.78787E-008, -6.2489E-009
1, 2760.00000, -0.0467401, -0.0153626, -0.0467399, -0.0153628, -0.0389499, -0.0128022, 3.01415E-008, 5.99984E-009
1, 2820.00000, -0.0467401, -0.0153626, -0.0467401, -0.0153629, -0.0389499, -0.0128022, 3.01419E-008, 5.99997E-009
1, 2880.00000, -0.0467401, -0.0153626, -0.0467401, -0.0153629, -0.0389499, -0.0128022, 3.01419E-008, 5.99998E-009
1, 2940.00000, -0.0467401, -0.0153626, -0.0467401, -0.0153629, -0.0389499, -0.0128022, 3.01419E-008, 5.99998E-009
1, 3000.00000, -0.0467401, -0.0153626, -0.0467401, -0.0153629, -0.0389499, -0.0128022, 3.01419E-008, 5.99998E-009
1, 3060.00000, -0.0389485, -0.0128015, -0.046741, -0.0153631, -0.0311616, -0.0102425, 8.71262E-008, 9.06816E-009
1, 3120.00000, -0.03895, -0.012802, -0.0467402, -0.0153629, -0.0311598, -0.0102419, 8.71399E-008, 9.06516E-009
1, 3180.00000, -0.03895, -0.012802, -0.0467402, -0.0153629, -0.0311598, -0.0102419, 8.71399E-008, 9.06515E-009
1, 3240.00000, -0.03895, -0.012802, -0.0467402, -0.0153629, -0.0311598, -0.0102419, 8.71399E-008, 9.06515E-009
1, 3300.00000, -0.03895, -0.012802, -0.0467402, -0.0153629, -0.0311598, -0.0102419, 8.71399E-008, 9.06515E-009
1, 3360.00000, -0.0623206, -0.0204837, -0.0545295, -0.0179232, -0.0545299, -0.017923, 2.7457E-008, -4.41569E-009
1, 3420.00000, -0.0623202, -0.0204836, -0.0545299, -0.0179233, -0.0545299, -0.017923, 2.74534E-008, -4.41521E-009
1, 3480.00000, -0.0623202, -0.0204836, -0.0545299, -0.0179233, -0.0545299, -0.017923, 2.74534E-008, -4.4152E-009
1, 3540.00000, -0.0623202, -0.0204836, -0.0545299, -0.0179233, -0.0545299, -0.017923, 2.74534E-008, -4.4152E-009
2, 0.00000, -0.0623202, -0.0204836, -0.0545299, -0.0179233, -0.0545299, -0.017923, 2.74534E-008, -4.4152E-009
2, 60.00000, -0.0389498, -0.0128021, -0.0467405, -0.0153628, -0.03895, -0.0128024, 2.61116E-008, 3.89696E-009
2, 120.00000, -0.03895, -0.0128021, -0.0467402, -0.0153627, -0.0389499, -0.0128023, 2.61093E-008, 3.89685E-009
2, 180.00000, -0.03895, -0.0128021, -0.0467402, -0.0153627, -0.0389499, -0.0128023, 2.61093E-008, 3.89685E-009
2, 240.00000, -0.03895, -0.0128021, -0.0467402, -0.0153627, -0.0389499, -0.0128023, 2.61093E-008, 3.89685E-009
2, 300.00000, -0.03895, -0.0128021, -0.0467402, -0.0153627, -0.0389499, -0.0128023, 2.61093E-008, 3.89685E-009
2, 360.00000, -0.0467399, -0.0153625, -0.0467403, -0.0153629, -0.0389498, -0.0128022, 1.9726E-008, 5.37626E-010
2, 420.00000, -0.0467401, -0.0153626, -0.0467401, -0.0153628, -0.0389499, -0.0128022, 1.97248E-008, 5.3795E-010
2, 480.00000, -0.0467401, -0.0153626, -0.0467401, -0.0153628, -0.0389499, -0.0128022, 1.97248E-008, 5.37951E-010
2, 540.00000, -0.0467401, -0.0153626, -0.0467401, -0.0153628, -0.0389499, -0.0128022, 1.97248E-008, 5.37951E-010
2, 600.00000, -0.0467401, -0.0153626, -0.0467401, -0.0153628, -0.0389499, -0.0128022, 1.97248E-008, 5.37951E-010
2, 660.00000, -0.046742, -0.0153633, -0.0467424, -0.0153636, -0.0467381, -0.0153621, 2.09205E-011, -3.77034E-011
2, 720.00000, -0.04674, -0.0153627, -0.04674, -0.0153627, -0.04674, -0.0153627, 1.80415E-011, -3.79799E-011
2, 780.00000, -0.04674, -0.0153627, -0.04674, -0.0153627, -0.04674, -0.0153627, 1.80274E-011, -3.79751E-011
2, 840.00000, -0.04674, -0.0153627, -0.04674, -0.0153627, -0.04674, -0.0153627, 1.80273E-011, -3.79751E-011
2, 900.00000, -0.04674, -0.0153627, -0.04674, -0.0153627, -0.04674, -0.0153627, 1.80273E-011, -3.79751E-011
2, 960.00000, -0.03895, -0.0128022, -0.0467396, -0.0153625, -0.0389503, -0.0128024, 2.04813E-008, -6.59805E-011
2, 1020.00000, -0.0389499, -0.0128022, -0.0467401, -0.0153627, -0.03895, -0.0128023, 2.04855E-008, -6.5967E-011
2, 1080.00000, -0.0389499, -0.0128022, -0.0467401, -0.0153627, -0.0389499, -0.0128023, 2.04855E-008, -6.59663E-011
2, 1140.00000, -0.0389499, -0.0128022, -0.0467401, -0.0153627, -0.0389499, -0.0128023, 2.04855E-008, -6.59663E-011
2, 1200.00000, -0.0389499, -0.0128022, -0.0467401, -0.0153627, -0.0389499, -0.0128023, 2.04855E-008, -6.59663E-011
2, 1260.00000, -0.038952, -0.0128032, -0.0389503, -0.0128022, -0.0545298, -0.0179229, 1.00809E-007, 6.55607E-009
2, 1320.00000, -0.0389493, -0.0128023, -0.0389494, -0.0128019, -0.0545297, -0.017923, 1.00853E-007, 6.55737E-009
2, 1380.00000, -0.0389499, -0.0128025, -0.0389499, -0.012802, -0.0545304, -0.0179232, 1.00854E-007, 6.55755E-009
2, 1440.00000, -0.0389499, -0.0128025, -0.0389499, -0.012802, -0.0545304, -0.0179232, 1.00854E-007, 6.55755E-009
2, 1500.00000, -0.0389499, -0.0128025, -0.0389499, -0.012802, -0.0545304, -0.0179232, 1.00854E-007, 6.55755E-009
2, 1560.00000, -0.0389498, -0.0128022, -0.0389504, -0.0128024, -0.0389499, -0.0128022, -1.34911E-011, 1.13411E-011
2, 1620.00000, -0.03895, -0.0128023, -0.03895, -0.0128022, -0.03895, -0.0128022, -1.34424E-011, 1.16158E-011
2, 1680.00000, -0.03895, -0.0128023, -0.03895, -0.0128022, -0.03895, -0.0128022, -1.34412E-011, 1.16173E-011
2, 1740.00000, -0.03895, -0.0128023, -0.03895, -0.0128022, -0.03895, -0.0128022, -1.34412E-011, 1.16173E-011
2, 1800.00000, -0.03895, -0.0128023, -0.03895, -0.0128022, -0.03895, -0.0128022, -1.34412E-011, 1.16173E-011
2, 1860.00000, -0.0545287, -0.0179226, -0.0389486, -0.0128021, -0.0389487, -0.0128016, 1.13303E-007, 5.70662E-009
2, 1920.00000, -0.0545304, -0.0179232, -0.0389498, -0.0128025, -0.0389499, -0.012802, 1.1331E-007, 5.70696E-009
2, 1980.00000, -0.0545304, -0.0179232, -0.0389498, -0.0128025, -0.0389499, -0.012802, 1.1331E-007, 5.70697E-009
2, 2040.00000, -0.0545304, -0.0179232, -0.0389498, -0.0128025, -0.0389499, -0.012802, 1.1331E-007, 5.70697E-009
2, 2100.00000, -0.0545304, -0.0179232, -0.0389498, -0.0128025, -0.0389499, -0.012802, 1.1331E-007, 5.70697E-009
2, 2160.00000, -0.0467392, -0.0153627, -0.0389503, -0.0128022, -0.0545322, -0.0179237, 8.07836E-008, 1.17359E-008
2, 2220.00000, -0.04674, -0.015363, -0.0389498, -0.0128021, -0.0545303, -0.017923, 8.07671E-008, 1.17363E-008
2, 2280.00000, -0.04674, -0.015363, -0.0389498, -0.0128021, -0.0545303, -0.017923, 8.07671E-008, 1.17363E-008
2, 2340.00000, -0.04674, -0.015363, -0.0389498, -0.0128021, -0.0545303, -0.017923, 8.07671E-008, 1.17363E-008
2, 2400.00000, -0.04674, -0.015363, -0.0389498, -0.0128021, -0.0545303, -0.017923, 8.07671E-008, 1.17363E-008
2, 2460.00000, -0.0623141, -0.0204813, -0.054533, -0.0179243, -0.0467425, -0.0153636, 8.04898E-008, -9.3663E-009
2, 2520.00000, -0.0623203, -0.0204834, -0.0545301, -0.0179235, -0.0467397, -0.0153626, 8.05784E-008, -9.37497E-009
2, 2580.00000, -0.0623203, -0.0204834, -0.05453, -0.0179235, -0.0467397, -0.0153626, 8.05788E-008, -9.37502E-009
2, 2640.00000, -0.0623203, -0.0204834, -0.05453, -0.0179235, -0.0467397, -0.0153626, 8.05788E-008, -9.37502E-009
2, 2700.00000, -0.0623203, -0.0204834, -0.05453, -0.0179235, -0.0467397, -0.0153626, 8.05788E-008, -9.37502E-009
2, 2760.00000, -0.0467447, -0.0153642, -0.0389468, -0.0128014, -0.0389501, -0.0128021, 2.42162E-008, -5.36363E-009
2, 2820.00000, -0.0467402, -0.0153627, -0.0389499, -0.0128024, -0.0389499, -0.0128022, 2.41789E-008, -5.35862E-009
2, 2880.00000, -0.0467401, -0.0153627, -0.03895, -0.0128024, -0.0389499, -0.0128022, 2.41787E-008, -5.35861E-009
2, 2940.00000, -0.0467401, -0.0153627, -0.03895, -0.0128024, -0.0389499, -0.0128022, 2.41787E-008, -5.35861E-009
2, 3000.00000, -0.0467401, -0.0153627, -0.03895, -0.0128024, -0.0389499, -0.0128022, 2.41787E-008, -5.35861E-009
2, 3060.00000, -0.0623216, -0.020484, -0.0389499, -0.0128026, -0.038949, -0.0128016, 2.13843E-007, 1.9111E-008
2, 3120.00000, -0.0623206, -0.0204836, -0.0389498, -0.0128025, -0.0389498, -0.0128019, 2.13819E-007, 1.9111E-008
2, 3180.00000, -0.0623206, -0.0204836, -0.0389498, -0.0128025, -0.0389499, -0.0128019, 2.13818E-007, 1.9111E-008
2, 3240.00000, -0.0623206, -0.0204836, -0.0389498, -0.0128025, -0.0389499, -0.0128019, 2.13818E-007, 1.9111E-008
2, 3300.00000, -0.0623206, -0.0204836, -0.0389498, -0.0128025, -0.0389499, -0.0128019, 2.13818E-007, 1.9111E-008
2, 3360.00000, -0.0389493, -0.012802, -0.0389498, -0.0128022, -0.0389508, -0.0128025, 8.6354E-011, -7.06375E-012
