hour, t(sec), P1 (kW), Q1 (kvar), P2 (kW), Q2 (kvar), P3 (kW), Q3 (kvar), P4 (kW), Q4 (kvar)
0, 60.00000, -0.0418954, -0.0137697, -0.0658367, -0.0216394, -0.0359098, -0.0118035, 4.44858E-007, 4.61734E-008
0, 120.00000, -0.0418948, -0.0137696, -0.065836, -0.0216392, -0.0359096, -0.0118034, 4.44848E-007, 4.61718E-008
0, 180.00000, -0.0418948, -0.0137696, -0.065836, -0.0216392, -0.0359096, -0.0118034, 4.44848E-007, 4.61718E-008
0, 240.00000, -0.0418948, -0.0137696, -0.065836, -0.0216392, -0.0359096, -0.0118034, 4.44848E-007, 4.61718E-008
0, 300.00000, -0.0418948, -0.0137696, -0.065836, -0.0216392, -0.0359096, -0.0118034, 4.44848E-007, 4.61718E-008
0, 360.00000, -0.0478789, -0.015737, -0.0359115, -0.0118038, -0.0418941, -0.01377, 6.10217E-008, 1.18939E-008
0, 420.00000, -0.0478802, -0.0157376, -0.0359098, -0.0118031, -0.041895, -0.01377, 6.10448E-008, 1.19034E-008
0, 480.00000, -0.0478802, -0.0157376, -0.0359098, -0.0118031, -0.041895, -0.01377, 6.10448E-008, 1.19034E-008
0, 540.00000, -0.0478802, -0.0157376, -0.0359098, -0.0118031, -0.041895, -0.01377, 6.10448E-008, 1.19034E-008
0, 600.00000, -0.0478802, -0.0157376, -0.0359098, -0.0118031, -0.041895, -0.01377, 6.10448E-008, 1.19034E-008
0, 660.00000, -0.0598519, -0.0196722, -0.0478793, -0.0157373, -0.0478795, -0.0157366, 8.48216E-008, -1.29876E-009
0, 720.00000, -0.0598504, -0.0196717, -0.0478798, -0.0157377, -0.0478798, -0.0157371, 8.47994E-008, -1.30511E-009
0, 780.00000, -0.0598504, -0.0196717, -0.0478798, -0.0157377, -0.0478798, -0.0157371, 8.47994E-008, -1.30511E-009
0, 840.00000, -0.0598504, -0.0196717, -0.0478798, -0.0157377, -0.0478798, -0.0157371, 8.47994E-008, -1.30511E-009
0, 900.00000, -0.0598504, -0.0196717, -0.0478798, -0.0157377, -0.0478798, -0.0157371, 8.47994E-008, -1.30511E-009
0, 960.00000, -0.0538655, -0.0177041, -0.0478802, -0.015738, -0.0299246, -0.00983577, 2.97471E-007, 4.60851E-009
0, 1020.00000, -0.0538655, -0.017704, -0.0478802, -0.015738, -0.0299246, -0.00983577, 2.9747E-007, 4.60848E-009
0, 1080.00000, -0.0538655, -0.017704, -0.0478802, -0.015738, -0.0299246, -0.00983577, 2.9747E-007, 4.60848E-009
0, 1140.00000, -0.0538655, -0.017704, -0.0478802, -0.015738, -0.0299246, -0.00983577, 2.9747E-007, 4.60848E-009
0, 1200.00000, -0.0538655, -0.017704, -0.0478802, -0.015738, -0.0299246, -0.00983577, 2.9747E-007, 4.60848E-009
0, 1260.00000, -0.0538651, -0.0177049, -0.0478797, -0.0157373, -0.0598503, -0.0196715, 6.02728E-008, -3.74582E-009
0, 1320.00000, -0.053865, -0.0177049, -0.0478797, -0.0157373, -0.0598503, -0.0196716, 6.02721E-008, -3.74605E-009
0, 1380.00000, -0.053865, -0.0177049, -0.0478798, -0.0157373, -0.0598503, -0.0196716, 6.02721E-008, -3.74605E-009
0, 1440.00000, -0.053865, -0.0177049, -0.0478798, -0.0157373, -0.0598503, -0.0196716, 6.02721E-008, -3.74605E-009
0, 1500.00000, -0.053865, -0.0177049, -0.0478798, -0.0157373, -0.0598503, -0.0196716, 6.02721E-008, -3.74605E-009
0, 1560.00000, -0.0478806, -0.0157373, -0.0538634, -0.0177044, -0.0359107, -0.0118034, 1.6329E-007, 1.47343E-008
0, 1620.00000, -0.0478801, -0.0157369, -0.0538654, -0.017705, -0.0359096, -0.0118031, 1.63333E-007, 1.47511E-008
0, 1680.00000, -0.0478801, -0.0157369, -0.0538654, -0.017705, -0.0359096, -0.0118031, 1.63333E-007, 1.47511E-008
0, 1740.00000, -0.0478801, -0.0157369, -0.0538654, -0.017705, -0.0359096, -0.0118031, 1.63333E-007, 1.47511E-008
0, 1800.00000, -0.0478801, -0.0157369, -0.0538654, -0.017705, -0.0359096, -0.0118031, 1.63333E-007, 1.47511E-008
0, 1860.00000, -0.0478795, -0.0157365, -0.059851, -0.0196724, -0.035909, -0.0118031, 2.77437E-007, 4.30201E-008
0, 1920.00000, -0.0478801, -0.0157368, -0.0598506, -0.0196723, -0.0359095, -0.0118032, 2.7742E-007, 4.30121E-008
0, 1980.00000, -0.0478801, -0.0157368, -0.0598506, -0.0196723, -0.0359095, -0.0118032, 2.7742E-007, 4.30121E-008
0, 2040.00000, -0.0478801, -0.0157368, -0.0598506, -0.0196723, -0.0359095, -0.0118032, 2.7742E-007, 4.30121E-008
0, 2100.00000, -0.0478801, -0.0157368, -0.0598506, -0.0196723, -0.0359095, -0.0118032, 2.7742E-007, 4.30121E-008
0, 2160.00000, -0.0418954, -0.0137701, -0.0538688, -0.0177055, -0.0478773, -0.0157373, 6.33982E-008, 1.09776E-008
0, 2220.00000, -0.0418948, -0.0137701, -0.0538653, -0.0177045, -0.0478799, -0.0157377, 6.33836E-008, 1.09744E-008
0, 2280.00000, -0.0418948, -0.0137701, -0.0538653, -0.0177045, -0.0478799, -0.0157377, 6.33837E-008, 1.09745E-008
0, 2340.00000, -0.0418948, -0.0137701, -0.0538653, -0.0177045, -0.0478799, -0.0157377, 6.33837E-008, 1.09745E-008
0, 2400.00000, -0.0418948, -0.0137701, -0.0538653, -0.0177045, -0.0478799, -0.0157377, 6.33837E-008, 1.09745E-008
0, 2460.00000, -0.0538655, -0.0177039, -0.0538654, -0.0177053, -0.0299245, -0.00983583, 3.51095E-007, 1.71854E-008
0, 2520.00000, -0.0538654, -0.0177039, -0.0538654, -0.0177053, -0.0299246, -0.00983585, 3.51093E-007, 1.71846E-008
0, 2580.00000, -0.0538654, -0.0177039, -0.0538654, -0.0177053, -0.0299246, -0.00983585, 3.51093E-007, 1.71846E-008
0, 2640.00000, -0.0538654, -0.0177039, -0.0538654, -0.0177053, -0.0299246, -0.00983585, 3.51093E-007, 1.71846E-008
0, 2700.00000, -0.0538654, -0.0177039, -0.0538654, -0.0177053, -0.0299246, -0.00983585, 3.51093E-007, 1.71846E-008
0, 2760.00000, -0.0478801, -0.0157373, -0.0478799, -0.0157373, -0.0478801, -0.0157374, -5.77759E-012, -4.69045E-011
0, 2820.00000, -0.04788, -0.0157373, -0.0478801, -0.0157374, -0.04788, -0.0157374, -5.5067E-012, -4.6927E-011
0, 2880.00000, -0.04788, -0.0157373, -0.0478801, -0.0157374, -0.04788, -0.0157374, -5.5068E-012, -4.69304E-011
0, 2940.00000, -0.04788, -0.0157373, -0.0478801, -0.0157374, -0.04788, -0.0157374, -5.50682E-012, -4.69304E-011
0, 3000.00000, -0.04788, -0.0157373, -0.0478801, -0.0157374, -0.04788, -0.0157374, -5.50682E-012, -4.69304E-011
0, 3060.00000, -0.0538651, -0.0177043, -0.0538651, -0.0177048, -0.0478798, -0.0157374, 2.71577E-008, -3.14717E-009
0, 3120.00000, -0.0538651, -0.0177043, -0.0538651, -0.0177048, -0.0478798, -0.0157374, 2.71579E-008, -3.14711E-009
0, 3180.00000, -0.0538651, -0.0177043, -0.0538651, -0.0177048, -0.0478798, -0.0157374, 2.71579E-008, -3.14711E-009
0, 3240.00000, -0.0538651, -0.0177043, -0.0538651, -0.0177048, -0.0478798, -0.0157374, 2.71579E-008, -3.14711E-009
0, 3300.00000, -0.0538651, -0.0177043, -0.0538651, -0.0177048, -0.0478798, -0.0157374, 2.71579E-008, -3.14711E-009
0, 3360.00000, -0.0478809, -0.0157373, -0.0538638, -0.0177042, -0.0418947, -0.0137702, 6.85608E-008, 1.06526E-009
0, 3420.00000, -0.04788, -0.0157371, -0.0538653, -0.0177048, -0.0418948, -0.0137704, 6.85773E-008, 1.06937E-009
0, 3480.00000, -0.04788, -0.0157371, -0.0538653, -0.0177048, -0.0418948, -0.0137704, 6.85774E-008, 1.06938E-009
0, 3540.00000, -0.04788, -0.0157371, -0.0538653, -0.0177048, -0.0418948, -0.0137704, 6.85774E-008, 1.06938E-009
1, 0.00000, -0.04788, -0.0157371, -0.0538653, -0.0177048, -0.0418948, -0.0137704, 6.85774E-008, 1.06938E-009
1, 60.00000, -0.0418953, -0.0137701, -0.0418954, -0.0137705, -0.0359099, -0.0118031, 2.49789E-008, 5.97426E-010
1, 120.00000, -0.0418951, -0.0137701, -0.0418951, -0.0137704, -0.0359099, -0.011803, 2.49777E-008, 5.97082E-010
1, 180.00000, -0.0418951, -0.0137701, -0.0418951, -0.0137704, -0.0359099, -0.011803, 2.49776E-008, 5.97083E-010
1, 240.00000, -0.0418951, -0.0137701, -0.0418951, -0.0137704, -0.0359099, -0.011803, 2.49776E-008, 5.97083E-010
1, 300.00000, -0.0418951, -0.0137701, -0.0418951, -0.0137704, -0.0359099, -0.011803, 2.49776E-008, 5.97083E-010
1, 360.00000, -0.0359098, -0.0118029, -0.0478803, -0.0157373, -0.0418949, -0.0137705, 6.02816E-008, 2.39148E-009
1, 420.00000, -0.0359098, -0.0118029, -0.0478802, -0.0157373, -0.041895, -0.0137705, 6.02811E-008, 2.39141E-009
1, 480.00000, -0.0359098, -0.0118029, -0.0478802, -0.0157373, -0.041895, -0.0137705, 6.02811E-008, 2.39142E-009
1, 540.00000, -0.0359098, -0.0118029, -0.0478802, -0.0157373, -0.041895, -0.0137705, 6.02811E-008, 2.39142E-009
1, 600.00000, -0.0359098, -0.0118029, -0.0478802, -0.0157373, -0.041895, -0.0137705, 6.02811E-008, 2.39142E-009
1, 660.00000, -0.0418949, -0.0137702, -0.0478801, -0.0157373, -0.04788, -0.0157376, 2.07234E-008, 5.8388E-009
1, 720.00000, -0.0418949, -0.0137702, -0.0478801, -0.0157373, -0.04788, -0.0157376, 2.07239E-008, 5.83897E-009
1, 780.00000, -0.0418949, -0.0137702, -0.0478801, -0.0157373, -0.04788, -0.0157376, 2.07239E-008, 5.83896E-009
1, 840.00000, -0.0418949, -0.0137702, -0.0478801, -0.0157373, -0.04788, -0.0157376, 2.07239E-008, 5.83896E-009
1, 900.00000, -0.0418949, -0.0137702, -0.0478801, -0.0157373, -0.04788, -0.0157376, 2.07239E-008, 5.83896E-009
1, 960.00000, -0.03591, -0.011803, -0.03591, -0.0118031, -0.03591, -0.0118031, 5.44592E-012, 5.25057E-012
1, 1020.00000, -0.03591, -0.011803, -0.03591, -0.0118031, -0.03591, -0.011803, 5.46654E-012, 5.24626E-012
1, 1080.00000, -0.03591, -0.011803, -0.03591, -0.0118031, -0.03591, -0.011803, 5.46641E-012, 5.246E-012
1, 1140.00000, -0.03591, -0.011803, -0.03591, -0.0118031, -0.03591, -0.011803, 5.46641E-012, 5.246E-012
1, 1200.00000, -0.03591, -0.011803, -0.03591, -0.0118031, -0.03591, -0.011803, 5.46641E-012, 5.246E-012
1, 1260.00000, -0.03591, -0.0118031, -0.03591, -0.0118031, -0.03591, -0.011803, 1.67105E-012, 3.60742E-012
1, 1320.00000, -0.03591, -0.0118031, -0.03591, -0.0118031, -0.03591, -0.011803, 1.67368E-012, 3.58522E-012
1, 1380.00000, -0.03591, -0.0118031, -0.03591, -0.0118031, -0.03591, -0.011803, 1.67344E-012, 3.58508E-012
1, 1440.00000, -0.03591, -0.0118031, -0.03591, -0.0118031, -0.03591, -0.011803, 1.67343E-012, 3.58508E-012
1, 1500.00000, -0.03591, -0.0118031, -0.03591, -0.0118031, -0.03591, -0.011803, 1.67343E-012, 3.58508E-012
1, 1560.00000, -0.0359099, -0.0118031, -0.041895, -0.0137701, -0.0418951, -0.0137703, 2.08818E-008, -1.6104E-009
1, 1620.00000, -0.0359099, -0.0118031, -0.0418951, -0.0137701, -0.0418951, -0.0137703, 2.08819E-008, -1.61039E-009
1, 1680.00000, -0.0359099, -0.0118031, -0.0418951, -0.0137701, -0.0418951, -0.0137703, 2.08819E-008, -1.61039E-009
1, 1740.00000, -0.0359099, -0.0118031, -0.0418951, -0.0137701, -0.0418951, -0.0137703, 2.08819E-008, -1.61039E-009
1, 1800.00000, -0.0359099, -0.0118031, -0.0418951, -0.0137701, -0.0418951, -0.0137703, 2.08819E-008, -1.61039E-009
1, 1860.00000, -0.0418943, -0.01377, -0.0478792, -0.015737, -0.0478812, -0.0157379, 1.79438E-008, 4.76281E-009
1, 1920.00000, -0.0418949, -0.0137702, -0.0478801, -0.0157373, -0.04788, -0.0157375, 1.79382E-008, 4.76179E-009
1, 1980.00000, -0.0418949, -0.0137702, -0.0478801, -0.0157373, -0.04788, -0.0157375, 1.79382E-008, 4.76179E-009
1, 2040.00000, -0.0418949, -0.0137702, -0.0478801, -0.0157373, -0.04788, -0.0157375, 1.79382E-008, 4.76179E-009
1, 2100.00000, -0.0418949, -0.0137702, -0.0478801, -0.0157373, -0.04788, -0.0157375, 1.79382E-008, 4.76179E-009
1, 2160.00000, -0.0418961, -0.0137703, -0.0478799, -0.0157375, -0.035909, -0.0118029, 6.91398E-008, -1.62507E-009
1, 2220.00000, -0.041895, -0.0137699, -0.0478803, -0.0157375, -0.0359098, -0.0118032, 6.91401E-008, -1.62537E-009
1, 2280.00000, -0.041895, -0.0137699, -0.0478803, -0.0157375, -0.0359098, -0.0118032, 6.91402E-008, -1.62536E-009
1, 2340.00000, -0.041895, -0.0137699, -0.0478803, -0.0157375, -0.0359098, -0.0118032, 6.91402E-008, -1.62536E-009
1, 2400.00000, -0.041895, -0.0137699, -0.0478803, -0.0157375, -0.0359098, -0.0118032, 6.91402E-008, -1.62536E-009
1, 2460.00000, -0.0299248, -0.00983582, -0.0359105, -0.0118031, -0.03591, -0.0118031, 1.81435E-008, 1.98032E-009
1, 2520.00000, -0.0299249, -0.00983586, -0.0359101, -0.011803, -0.03591, -0.0118031, 1.81407E-008, 1.97964E-009
1, 2580.00000, -0.0299249, -0.00983586, -0.0359101, -0.011803, -0.03591, -0.0118031, 1.81408E-008, 1.97964E-009
1, 2640.00000, -0.0299249, -0.00983586, -0.0359101, -0.011803, -0.03591, -0.0118031, 1.81408E-008, 1.97964E-009
1, 2700.00000, -0.0299249, -0.00983586, -0.0359101, -0.011803, -0.03591, -0.0118031, 1.81408E-008, 1.97964E-009
1, 2760.00000, -0.0418951, -0.0137704, -0.0359098, -0.011803, -0.0418951, -0.0137701, 2.64692E-008, 1.7578E-009
1, 2820.00000, -0.0418951, -0.0137704, -0.0359098, -0.011803, -0.0418951, -0.0137701, 2.64687E-008, 1.75764E-009
1, 2880.00000, -0.0418951, -0.0137704, -0.0359098, -0.011803, -0.0418951, -0.0137701, 2.64687E-008, 1.75764E-009
1, 2940.00000, -0.0418951, -0.0137704, -0.0359098, -0.011803, -0.0418951, -0.0137701, 2.64687E-008, 1.75764E-009
1, 3000.00000, -0.0418951, -0.0137704, -0.0359098, -0.011803, -0.0418951, -0.0137701, 2.64687E-008, 1.75764E-009
1, 3060.00000, -0.0418944, -0.0137702, -0.0359099, -0.011803, -0.0418958, -0.0137703, 2.54347E-008, 3.17629E-009
1, 3120.00000, -0.0418951, -0.0137704, -0.0359099, -0.011803, -0.0418951, -0.0137701, 2.54364E-008, 3.17732E-009
1, 3180.00000, -0.0418951, -0.0137704, -0.0359098, -0.011803, -0.0418951, -0.0137701, 2.54364E-008, 3.17732E-009
1, 3240.00000, -0.0418951, -0.0137704, -0.0359098, -0.011803, -0.0418951, -0.0137701, 2.54364E-008, 3.17732E-009
1, 3300.00000, -0.0418951, -0.0137704, -0.0359098, -0.011803, -0.0418951, -0.0137701, 2.54364E-008, 3.17732E-009
1, 3360.00000, -0.0359098, -0.0118031, -0.0418951, -0.01377, -0.0478802, -0.0157376, 5.91172E-008, 1.07615E-008
1, 3420.00000, -0.0359098, -0.0118031, -0.041895, -0.01377, -0.0478802, -0.0157376, 5.9117E-008, 1.07615E-008
1, 3480.00000, -0.0359098, -0.0118031, -0.041895, -0.01377, -0.0478802, -0.0157376, 5.9117E-008, 1.07615E-008
1, 3540.00000, -0.0359098, -0.0118031, -0.041895, -0.01377, -0.0478802, -0.0157376, 5.9117E-008, 1.07615E-008
2, 0.00000, -0.0359098, -0.0118031, -0.041895, -0.01377, -0.0478802, -0.0157376, 5.9117E-008, 1.07615E-008
2, 60.00000, -0.029925, -0.00983595, -0.029925, -0.0098358, -0.0359101, -0.011803, 1.79819E-008, -1.3708E-009
2, 120.00000, -0.029925, -0.00983595, -0.0299249, -0.0098358, -0.0359101, -0.011803, 1.79818E-008, -1.37078E-009
2, 180.00000, -0.029925, -0.00983595, -0.0299249, -0.0098358, -0.0359101, -0.011803, 1.79818E-008, -1.37078E-009
2, 240.00000, -0.029925, -0.00983595, -0.0299249, -0.0098358, -0.0359101, -0.011803, 1.79818E-008, -1.37078E-009
2, 300.00000, -0.029925, -0.00983595, -0.0299249, -0.0098358, -0.0359101, -0.011803, 1.79818E-008, -1.37078E-009
2, 360.00000, -0.0418953, -0.0137704, -0.0299248, -0.00983597, -0.03591, -0.0118028, 7.72305E-008, 3.16099E-009
2, 420.00000, -0.0418953, -0.0137704, -0.0299248, -0.00983598, -0.03591, -0.0118028, 7.72306E-008, 3.161E-009
2, 480.00000, -0.0418953, -0.0137704, -0.0299248, -0.00983598, -0.03591, -0.0118028, 7.72306E-008, 3.161E-009
2, 540.00000, -0.0418953, -0.0137704, -0.0299248, -0.00983598, -0.03591, -0.0118028, 7.72306E-008, 3.161E-009
2, 600.00000, -0.0418953, -0.0137704, -0.0299248, -0.00983598, -0.03591, -0.0118028, 7.72306E-008, 3.161E-009
2, 660.00000, -0.0359109, -0.0118032, -0.0359091, -0.0118029, -0.0299252, -0.00983589, 2.36462E-008, 6.90413E-009
2, 720.00000, -0.0359101, -0.0118029, -0.03591, -0.0118032, -0.0299249, -0.00983584, 2.36513E-008, 6.90642E-009
2, 780.00000, -0.0359101, -0.0118029, -0.03591, -0.0118032, -0.0299249, -0.00983584, 2.36513E-008, 6.90642E-009
2, 840.00000, -0.0359101, -0.0118029, -0.03591, -0.0118032, -0.0299249, -0.00983584, 2.36513E-008, 6.90642E-009
2, 900.00000, -0.0359101, -0.0118029, -0.03591, -0.0118032, -0.0299249, -0.00983584, 2.36513E-008, 6.90642E-009
2, 960.00000, -0.0299249, -0.00983585, -0.03591, -0.011803, -0.03591, -0.0118032, 1.6425E-008, 5.96632E-009
2, 1020.00000, -0.0299249, -0.00983584, -0.0359101, -0.011803, -0.03591, -0.0118031, 1.64252E-008, 5.96637E-009
2, 1080.00000, -0.0299249, -0.00983584, -0.0359101, -0.011803, -0.03591, -0.0118031, 1.64252E-008, 5.96637E-009
2, 1140.00000, -0.0299249, -0.00983584, -0.0359101, -0.011803, -0.03591, -0.0118031, 1.64252E-008, 5.96637E-009
2, 1200.00000, -0.0299249, -0.00983584, -0.0359101, -0.011803, -0.03591, -0.0118031, 1.64252E-008, 5.96637E-009
2, 1260.00000, -0.0359099, -0.0118031, -0.029925, -0.00983591, -0.0359104, -0.011803, 2.35789E-008, -5.40105E-009
2, 1320.00000, -0.0359101, -0.0118031, -0.0299249, -0.00983589, -0.03591, -0.0118029, 2.3581E-008, -5.40095E-009
2, 1380.00000, -0.0359101, -0.0118032, -0.0299249, -0.0098359, -0.03591, -0.0118029, 2.3581E-008, -5.40095E-009
2, 1440.00000, -0.0359101, -0.0118032, -0.0299249, -0.0098359, -0.03591, -0.0118029, 2.3581E-008, -5.40095E-009
2, 1500.00000, -0.0359101, -0.0118032, -0.0299249, -0.0098359, -0.03591, -0.0118029, 2.3581E-008, -5.40095E-009
2, 1560.00000, -0.0418952, -0.0137704, -0.0299248, -0.00983598, -0.03591, -0.0118028, 7.14405E-008, 1.8925E-010
2, 1620.00000, -0.0418952, -0.0137704, -0.0299248, -0.00983597, -0.03591, -0.0118028, 7.14408E-008, 1.89304E-010
2, 1680.00000, -0.0418952, -0.0137704, -0.0299248, -0.00983597, -0.03591, -0.0118028, 7.14408E-008, 1.89304E-010
2, 1740.00000, -0.0418952, -0.0137704, -0.0299248, -0.00983597, -0.03591, -0.0118028, 7.14408E-008, 1.89304E-010
2, 1800.00000, -0.0418952, -0.0137704, -0.0299248, -0.00983597, -0.03591, -0.0118028, 7.14408E-008, 1.89304E-010
2, 1860.00000, -0.0299249, -0.00983559, -0.035911, -0.0118034, -0.0239393, -0.0078686, 6.59674E-008, 2.27007E-009
2, 1920.00000, -0.029925, -0.00983568, -0.0359102, -0.0118032, -0.0239399, -0.00786877, 6.59526E-008, 2.26314E-009
2, 1980.00000, -0.029925, -0.00983568, -0.0359102, -0.0118032, -0.0239399, -0.00786877, 6.59526E-008, 2.26314E-009
2, 2040.00000, -0.029925, -0.00983568, -0.0359102, -0.0118032, -0.0239399, -0.00786877, 6.59526E-008, 2.26314E-009
2, 2100.00000, -0.029925, -0.00983568, -0.0359102, -0.0118032, -0.0239399, -0.00786877, 6.59526E-008, 2.26314E-009
2, 2160.00000, -0.0299248, -0.00983605, -0.0359095, -0.0118026, -0.0478809, -0.0157377, 1.40084E-007, 1.41509E-008
2, 2220.00000, -0.0299248, -0.00983603, -0.03591, -0.0118027, -0.0478804, -0.0157376, 1.40069E-007, 1.41479E-008
2, 2280.00000, -0.0299248, -0.00983603, -0.03591, -0.0118027, -0.0478804, -0.0157376, 1.40069E-007, 1.41479E-008
2, 2340.00000, -0.0299248, -0.00983603, -0.03591, -0.0118027, -0.0478804, -0.0157376, 1.40069E-007, 1.41479E-008
2, 2400.00000, -0.0299248, -0.00983603, -0.03591, -0.0118027, -0.0478804, -0.0157376, 1.40069E-007, 1.41479E-008
2, 2460.00000, -0.0418948, -0.0137702, -0.0299249, -0.00983596, -0.0359103, -0.0118029, 6.26155E-008, 6.32095E-009
2, 2520.00000, -0.0418952, -0.0137704, -0.0299248, -0.00983595, -0.03591, -0.0118028, 6.262E-008, 6.32264E-009
2, 2580.00000, -0.0418952, -0.0137704, -0.0299248, -0.00983595, -0.03591, -0.0118028, 6.262E-008, 6.32265E-009
2, 2640.00000, -0.0418952, -0.0137704, -0.0299248, -0.00983595, -0.03591, -0.0118028, 6.262E-008, 6.32265E-009
2, 2700.00000, -0.0418952, -0.0137704, -0.0299248, -0.00983595, -0.03591, -0.0118028, 6.262E-008, 6.32265E-009
2, 2760.00000, -0.029925, -0.00983612, -0.0359095, -0.0118026, -0.0478807, -0.0157376, 1.36334E-007, -4.01114E-009
2, 2820.00000, -0.0299248, -0.00983605, -0.0359099, -0.0118027, -0.0478804, -0.0157375, 1.36327E-007, -4.01254E-009
2, 2880.00000, -0.0299248, -0.00983605, -0.0359099, -0.0118027, -0.0478804, -0.0157375, 1.36327E-007, -4.01254E-009
2, 2940.00000, -0.0299248, -0.00983605, -0.0359099, -0.0118027, -0.0478804, -0.0157375, 1.36327E-007, -4.01254E-009
2, 3000.00000, -0.0299248, -0.00983605, -0.0359099, -0.0118027, -0.0478804, -0.0157375, 1.36327E-007, -4.01254E-009
2, 3060.00000, -0.0299249, -0.00983607, -0.0299249, -0.00983568, -0.0418953, -0.0137702, 9.00481E-008, -1.79702E-009
2, 3120.00000, -0.0299249, -0.00983607, -0.0299249, -0.00983568, -0.0418953, -0.0137702, 9.00487E-008, -1.79698E-009
2, 3180.00000, -0.0299249, -0.00983607, -0.0299249, -0.00983568, -0.0418953, -0.0137702, 9.00487E-008, -1.79698E-009
2, 3240.00000, -0.0299249, -0.00983607, -0.0299249, -0.00983568, -0.0418953, -0.0137702, 9.00487E-008, -1.79698E-009
2, 3300.00000, -0.0299249, -0.00983607, -0.0299249, -0.00983568, -0.0418953, -0.0137702, 9.00487E-008, -1.79698E-009
2, 3360.00000, -0.0359099, -0.0118031, -0.0359099, -0.0118029, -0.0418952, -0.0137702, 1.92656E-008, 9.34899E-010
2, 3420.00000, -0.0359099, -0.0118031, -0.0359099, -0.0118029, -0.0418951, -0.0137702, 1.92652E-008, 9.34856E-010
