hour, t(sec), P1 (kW), Q1 (kvar), P2 (kW), Q2 (kvar), P3 (kW), Q3 (kvar), P4 (kW), Q4 (kvar)
0, 60.00000, -0.164159, -0.0539512, -0.21889, -0.0719439, -0.191516, -0.0629558, 1.45378E-006, 1.12327E-006
0, 120.00000, -0.164158, -0.0539509, -0.218888, -0.0719435, -0.191515, -0.0629554, 1.45377E-006, 1.12326E-006
0, 180.00000, -0.164158, -0.0539509, -0.218888, -0.0719435, -0.191515, -0.0629554, 1.45377E-006, 1.12326E-006
0, 240.00000, -0.164158, -0.0539509, -0.218888, -0.0719435, -0.191515, -0.0629554, 1.45377E-006, 1.12326E-006
0, 300.00000, -0.164158, -0.0539509, -0.218888, -0.0719435, -0.191515, -0.0629554, 1.45377E-006, 1.12326E-006
0, 360.00000, -0.164154, -0.0539612, -0.164159, -0.0539508, -0.246246, -0.080936, 3.30026E-006, 6.01846E-007
0, 420.00000, -0.164156, -0.0539619, -0.164158, -0.0539505, -0.24625, -0.080937, 3.30044E-006, 6.01767E-007
0, 480.00000, -0.164156, -0.0539619, -0.164158, -0.0539505, -0.24625, -0.080937, 3.30044E-006, 6.01767E-007
0, 540.00000, -0.164156, -0.0539619, -0.164158, -0.0539505, -0.24625, -0.080937, 3.30044E-006, 6.01767E-007
0, 600.00000, -0.164156, -0.0539619, -0.164158, -0.0539505, -0.24625, -0.080937, 3.30044E-006, 6.01767E-007
0, 660.00000, -0.218887, -0.0719361, -0.218883, -0.0719528, -0.218873, -0.0719392, 8.90553E-009, -6.2011E-009
0, 720.00000, -0.218888, -0.0719364, -0.218881, -0.0719522, -0.218871, -0.0719386, 9.02291E-009, -6.3003E-009
0, 780.00000, -0.218888, -0.0719364, -0.218881, -0.0719522, -0.218871, -0.0719386, 9.02259E-009, -6.3005E-009
0, 840.00000, -0.218888, -0.0719364, -0.218881, -0.0719522, -0.218871, -0.0719386, 9.02259E-009, -6.3005E-009
0, 900.00000, -0.218888, -0.0719364, -0.218881, -0.0719522, -0.218871, -0.0719386, 9.02259E-009, -6.3005E-009
0, 960.00000, -0.191522, -0.0629405, -0.246248, -0.0809436, -0.191511, -0.0629521, 1.91062E-006, 1.88209E-006
0, 1020.00000, -0.191522, -0.0629405, -0.246249, -0.0809437, -0.191511, -0.0629521, 1.91064E-006, 1.88209E-006
0, 1080.00000, -0.191522, -0.0629405, -0.246249, -0.0809437, -0.191511, -0.0629521, 1.91064E-006, 1.88209E-006
0, 1140.00000, -0.191522, -0.0629405, -0.246249, -0.0809437, -0.191511, -0.0629521, 1.91064E-006, 1.88209E-006
0, 1200.00000, -0.191522, -0.0629405, -0.246249, -0.0809437, -0.191511, -0.0629521, 1.91064E-006, 1.88209E-006
0, 1260.00000, -0.191521, -0.0629472, -0.218882, -0.0719451, -0.191517, -0.0629496, 2.03457E-007, 3.45741E-007
0, 1320.00000, -0.191521, -0.0629471, -0.218882, -0.0719451, -0.191517, -0.0629496, 2.03456E-007, 3.4574E-007
0, 1380.00000, -0.191521, -0.0629471, -0.218882, -0.0719451, -0.191517, -0.0629496, 2.03456E-007, 3.4574E-007
0, 1440.00000, -0.191521, -0.0629471, -0.218882, -0.0719451, -0.191517, -0.0629496, 2.03456E-007, 3.4574E-007
0, 1500.00000, -0.191521, -0.0629471, -0.218882, -0.0719451, -0.191517, -0.0629496, 2.03456E-007, 3.4574E-007
0, 1560.00000, -0.218882, -0.0719183, -0.273631, -0.0899494, -0.191501, -0.0629567, 7.22059E-006, 2.76764E-006
0, 1620.00000, -0.218884, -0.0719193, -0.273622, -0.0899469, -0.191501, -0.0629565, 7.21964E-006, 2.76722E-006
0, 1680.00000, -0.218884, -0.0719193, -0.273622, -0.0899469, -0.191501, -0.0629565, 7.21963E-006, 2.76722E-006
0, 1740.00000, -0.218884, -0.0719193, -0.273622, -0.0899469, -0.191501, -0.0629565, 7.21963E-006, 2.76722E-006
0, 1800.00000, -0.218884, -0.0719193, -0.273622, -0.0899469, -0.191501, -0.0629565, 7.21963E-006, 2.76722E-006
0, 1860.00000, -0.19152, -0.0629351, -0.273616, -0.0899386, -0.191502, -0.0629545, 5.19585E-006, 3.22534E-006
0, 1920.00000, -0.19152, -0.0629353, -0.273617, -0.0899388, -0.191507, -0.0629563, 5.19533E-006, 3.22535E-006
0, 1980.00000, -0.19152, -0.0629353, -0.273617, -0.0899388, -0.191507, -0.0629563, 5.19533E-006, 3.22535E-006
0, 2040.00000, -0.19152, -0.0629353, -0.273617, -0.0899388, -0.191507, -0.0629563, 5.19533E-006, 3.22535E-006
0, 2100.00000, -0.19152, -0.0629353, -0.273617, -0.0899388, -0.191507, -0.0629563, 5.19533E-006, 3.22535E-006
0, 2160.00000, -0.191531, -0.0629414, -0.218883, -0.0719557, -0.164153, -0.0539554, 2.23933E-006, 2.1715E-006
0, 2220.00000, -0.191529, -0.0629405, -0.218884, -0.0719562, -0.16415, -0.0539541, 2.23956E-006, 2.17161E-006
0, 2280.00000, -0.191529, -0.0629405, -0.218884, -0.0719562, -0.16415, -0.0539541, 2.23956E-006, 2.17161E-006
0, 2340.00000, -0.191529, -0.0629405, -0.218884, -0.0719562, -0.16415, -0.0539541, 2.23956E-006, 2.17161E-006
0, 2400.00000, -0.191529, -0.0629405, -0.218884, -0.0719562, -0.16415, -0.0539541, 2.23956E-006, 2.17161E-006
0, 2460.00000, -0.218891, -0.0719429, -0.191515, -0.0629574, -0.218875, -0.0719329, 7.30138E-007, -1.1215E-006
0, 2520.00000, -0.218891, -0.0719429, -0.191515, -0.0629574, -0.218875, -0.0719329, 7.30143E-007, -1.1215E-006
0, 2580.00000, -0.218891, -0.0719429, -0.191515, -0.0629574, -0.218875, -0.0719329, 7.30143E-007, -1.1215E-006
0, 2640.00000, -0.218891, -0.0719429, -0.191515, -0.0629574, -0.218875, -0.0719329, 7.30143E-007, -1.1215E-006
0, 2700.00000, -0.218891, -0.0719429, -0.191515, -0.0629574, -0.218875, -0.0719329, 7.30143E-007, -1.1215E-006
0, 2760.00000, -0.273623, -0.0899304, -0.191509, -0.0629619, -0.218875, -0.0719263, 5.86723E-006, -1.40872E-006
0, 2820.00000, -0.273623, -0.0899302, -0.191511, -0.0629625, -0.218872, -0.0719258, 5.86701E-006, -1.40854E-006
0, 2880.00000, -0.273623, -0.0899302, -0.191511, -0.0629625, -0.218872, -0.0719258, 5.86701E-006, -1.40855E-006
0, 2940.00000, -0.273623, -0.0899302, -0.191511, -0.0629625, -0.218872, -0.0719258, 5.86701E-006, -1.40855E-006
0, 3000.00000, -0.273623, -0.0899302, -0.191511, -0.0629625, -0.218872, -0.0719258, 5.86701E-006, -1.40855E-006
0, 3060.00000, -0.191529, -0.0629417, -0.191522, -0.0629615, -0.16415, -0.0539534, 1.64127E-006, 5.65159E-007
0, 3120.00000, -0.191529, -0.0629417, -0.191522, -0.0629615, -0.16415, -0.0539534, 1.64128E-006, 5.6516E-007
0, 3180.00000, -0.191529, -0.0629417, -0.191522, -0.0629615, -0.16415, -0.0539534, 1.64128E-006, 5.6516E-007
0, 3240.00000, -0.191529, -0.0629417, -0.191522, -0.0629615, -0.16415, -0.0539534, 1.64128E-006, 5.6516E-007
0, 3300.00000, -0.191529, -0.0629417, -0.191522, -0.0629615, -0.16415, -0.0539534, 1.64128E-006, 5.6516E-007
0, 3360.00000, -0.218887, -0.0719382, -0.24624, -0.0809377, -0.218873, -0.0719439, 5.69832E-007, 4.582E-007
0, 3420.00000, -0.218881, -0.0719366, -0.246245, -0.0809393, -0.218875, -0.0719445, 5.70003E-007, 4.5828E-007
0, 3480.00000, -0.218881, -0.0719366, -0.246245, -0.0809393, -0.218875, -0.0719445, 5.70004E-007, 4.58281E-007
0, 3540.00000, -0.218881, -0.0719366, -0.246245, -0.0809393, -0.218875, -0.0719445, 5.70004E-007, 4.58281E-007
1, 0.00000, -0.218881, -0.0719366, -0.246245, -0.0809393, -0.218875, -0.0719445, 5.70004E-007, 4.58281E-007
1, 60.00000, -0.191523, -0.0629371, -0.246254, -0.0809461, -0.191508, -0.0629543, 2.84942E-006, 2.31215E-006
1, 120.00000, -0.191522, -0.0629369, -0.246253, -0.0809456, -0.191508, -0.0629542, 2.8493E-006, 2.31211E-006
1, 180.00000, -0.191522, -0.0629369, -0.246253, -0.0809456, -0.191508, -0.0629542, 2.8493E-006, 2.31211E-006
1, 240.00000, -0.191522, -0.0629369, -0.246253, -0.0809456, -0.191508, -0.0629542, 2.8493E-006, 2.31211E-006
1, 300.00000, -0.191522, -0.0629369, -0.246253, -0.0809456, -0.191508, -0.0629542, 2.8493E-006, 2.31211E-006
1, 360.00000, -0.191525, -0.0629429, -0.191523, -0.0629575, -0.164153, -0.0539557, 1.1891E-006, 1.62068E-007
1, 420.00000, -0.191525, -0.062943, -0.191523, -0.0629573, -0.164153, -0.0539558, 1.18909E-006, 1.6206E-007
1, 480.00000, -0.191525, -0.062943, -0.191523, -0.0629573, -0.164153, -0.0539558, 1.18909E-006, 1.6206E-007
1, 540.00000, -0.191525, -0.062943, -0.191523, -0.0629573, -0.164153, -0.0539558, 1.18909E-006, 1.62061E-007
1, 600.00000, -0.191525, -0.062943, -0.191523, -0.0629573, -0.164153, -0.0539558, 1.18909E-006, 1.62061E-007
1, 660.00000, -0.164162, -0.0539514, -0.191524, -0.0629546, -0.164154, -0.0539579, 6.33233E-007, 7.25853E-007
1, 720.00000, -0.164162, -0.0539513, -0.191524, -0.0629547, -0.164154, -0.0539579, 6.33242E-007, 7.25859E-007
1, 780.00000, -0.164162, -0.0539513, -0.191524, -0.0629547, -0.164154, -0.0539579, 6.33243E-007, 7.25859E-007
1, 840.00000, -0.164162, -0.0539513, -0.191524, -0.0629547, -0.164154, -0.0539579, 6.33243E-007, 7.25859E-007
1, 900.00000, -0.164162, -0.0539513, -0.191524, -0.0629547, -0.164154, -0.0539579, 6.33243E-007, 7.25859E-007
1, 960.00000, -0.164162, -0.053961, -0.164155, -0.0539567, -0.191523, -0.0629448, 4.1181E-007, -6.90577E-007
1, 1020.00000, -0.164162, -0.053961, -0.164155, -0.0539567, -0.191523, -0.0629447, 4.11806E-007, -6.90572E-007
1, 1080.00000, -0.164162, -0.053961, -0.164155, -0.0539567, -0.191523, -0.0629447, 4.11806E-007, -6.90572E-007
1, 1140.00000, -0.164162, -0.053961, -0.164155, -0.0539567, -0.191523, -0.0629447, 4.11806E-007, -6.90572E-007
1, 1200.00000, -0.164162, -0.053961, -0.164155, -0.0539567, -0.191523, -0.0629447, 4.11806E-007, -6.90572E-007
1, 1260.00000, -0.191531, -0.0629382, -0.191524, -0.0629649, -0.136789, -0.0449612, 4.40119E-006, 1.09359E-006
1, 1320.00000, -0.191531, -0.0629382, -0.191524, -0.0629648, -0.136789, -0.0449612, 4.40117E-006, 1.09359E-006
1, 1380.00000, -0.191531, -0.0629382, -0.191524, -0.0629648, -0.136789, -0.0449612, 4.40117E-006, 1.09359E-006
1, 1440.00000, -0.191531, -0.0629382, -0.191524, -0.0629648, -0.136789, -0.0449612, 4.40117E-006, 1.09359E-006
1, 1500.00000, -0.191531, -0.0629382, -0.191524, -0.0629648, -0.136789, -0.0449612, 4.40117E-006, 1.09359E-006
1, 1560.00000, -0.191531, -0.0629526, -0.136794, -0.0449697, -0.164158, -0.0539474, 2.7225E-006, -7.12393E-007
1, 1620.00000, -0.191531, -0.0629526, -0.136794, -0.0449697, -0.164158, -0.0539474, 2.72249E-006, -7.12389E-007
1, 1680.00000, -0.191531, -0.0629526, -0.136794, -0.0449697, -0.164158, -0.0539474, 2.72249E-006, -7.12389E-007
1, 1740.00000, -0.191531, -0.0629526, -0.136794, -0.0449697, -0.164158, -0.0539474, 2.72249E-006, -7.12389E-007
1, 1800.00000, -0.191531, -0.0629526, -0.136794, -0.0449697, -0.164158, -0.0539474, 2.72249E-006, -7.12389E-007
1, 1860.00000, -0.191526, -0.0629517, -0.164153, -0.0539608, -0.19152, -0.0629421, 8.82112E-007, -7.69665E-007
1, 1920.00000, -0.191528, -0.0629522, -0.164155, -0.0539614, -0.191518, -0.0629416, 8.82061E-007, -7.69575E-007
1, 1980.00000, -0.191528, -0.0629522, -0.164155, -0.0539614, -0.191518, -0.0629416, 8.8206E-007, -7.69574E-007
1, 2040.00000, -0.191528, -0.0629522, -0.164155, -0.0539614, -0.191518, -0.0629416, 8.8206E-007, -7.69574E-007
1, 2100.00000, -0.191528, -0.0629522, -0.164155, -0.0539614, -0.191518, -0.0629416, 8.8206E-007, -7.69574E-007
1, 2160.00000, -0.218895, -0.0719285, -0.218885, -0.0719595, -0.136787, -0.0449618, 7.02752E-006, 1.12485E-006
1, 2220.00000, -0.218892, -0.0719277, -0.218887, -0.0719601, -0.136788, -0.0449621, 7.02719E-006, 1.12498E-006
1, 2280.00000, -0.218892, -0.0719277, -0.218887, -0.0719601, -0.136788, -0.0449621, 7.02719E-006, 1.12498E-006
1, 2340.00000, -0.218892, -0.0719277, -0.218887, -0.0719601, -0.136788, -0.0449621, 7.02719E-006, 1.12498E-006
1, 2400.00000, -0.218892, -0.0719277, -0.218887, -0.0719601, -0.136788, -0.0449621, 7.02719E-006, 1.12498E-006
1, 2460.00000, -0.218898, -0.0719545, -0.109433, -0.0359763, -0.191519, -0.0629306, 9.15788E-006, -1.88121E-006
1, 2520.00000, -0.218897, -0.0719541, -0.109431, -0.0359757, -0.191521, -0.0629315, 9.15822E-006, -1.88142E-006
1, 2580.00000, -0.218897, -0.0719541, -0.109431, -0.0359757, -0.191521, -0.0629315, 9.15821E-006, -1.88142E-006
1, 2640.00000, -0.218897, -0.0719541, -0.109431, -0.0359757, -0.191521, -0.0629315, 9.15821E-006, -1.88142E-006
1, 2700.00000, -0.218897, -0.0719541, -0.109431, -0.0359757, -0.191521, -0.0629315, 9.15821E-006, -1.88142E-006
1, 2760.00000, -0.191531, -0.0629442, -0.164159, -0.0539673, -0.136793, -0.044959, 3.06719E-006, 2.06548E-007
1, 2820.00000, -0.191531, -0.0629441, -0.164159, -0.0539674, -0.136793, -0.044959, 3.06717E-006, 2.06556E-007
1, 2880.00000, -0.191531, -0.0629441, -0.164159, -0.0539674, -0.136793, -0.044959, 3.06717E-006, 2.06556E-007
1, 2940.00000, -0.191531, -0.0629441, -0.164159, -0.0539674, -0.136793, -0.044959, 3.06717E-006, 2.06556E-007
1, 3000.00000, -0.191531, -0.0629441, -0.164159, -0.0539674, -0.136793, -0.044959, 3.06717E-006, 2.06556E-007
1, 3060.00000, -0.191526, -0.0629508, -0.136797, -0.0449694, -0.191517, -0.0629407, 1.84666E-006, -1.91126E-006
1, 3120.00000, -0.191529, -0.0629518, -0.136795, -0.0449688, -0.191517, -0.0629407, 1.84696E-006, -1.91148E-006
1, 3180.00000, -0.191529, -0.0629518, -0.136795, -0.0449688, -0.191517, -0.0629407, 1.84696E-006, -1.91148E-006
1, 3240.00000, -0.191529, -0.0629518, -0.136795, -0.0449688, -0.191517, -0.0629407, 1.84696E-006, -1.91148E-006
1, 3300.00000, -0.191529, -0.0629518, -0.136795, -0.0449688, -0.191517, -0.0629407, 1.84696E-006, -1.91148E-006
1, 3360.00000, -0.136801, -0.0449611, -0.191523, -0.0629529, -0.164156, -0.0539574, 1.86348E-007, 1.03919E-006
1, 3420.00000, -0.136801, -0.0449611, -0.191523, -0.0629528, -0.164156, -0.0539574, 1.86346E-007, 1.03919E-006
1, 3480.00000, -0.136801, -0.0449611, -0.191523, -0.0629528, -0.164156, -0.0539574, 1.86345E-007, 1.03919E-006
1, 3540.00000, -0.136801, -0.0449611, -0.191523, -0.0629528, -0.164156, -0.0539574, 1.86345E-007, 1.03919E-006
2, 0.00000, -0.136801, -0.0449611, -0.191523, -0.0629528, -0.164156, -0.0539574, 1.86345E-007, 1.03919E-006
2, 60.00000, -0.191532, -0.0629478, -0.136797, -0.044972, -0.136795, -0.0449572, 3.43175E-006, -5.04504E-007
2, 120.00000, -0.191532, -0.0629478, -0.136797, -0.044972, -0.136795, -0.0449572, 3.43176E-006, -5.04505E-007
2, 180.00000, -0.191532, -0.0629478, -0.136797, -0.044972, -0.136795, -0.0449572, 3.43176E-006, -5.04505E-007
2, 240.00000, -0.191532, -0.0629478, -0.136797, -0.044972, -0.136795, -0.0449572, 3.43176E-006, -5.04505E-007
2, 300.00000, -0.191532, -0.0629478, -0.136797, -0.044972, -0.136795, -0.0449572, 3.43176E-006, -5.04505E-007
2, 360.00000, -0.136797, -0.0449606, -0.191526, -0.0629478, -0.164159, -0.0539623, 1.59046E-006, 4.13212E-007
2, 420.00000, -0.136797, -0.0449606, -0.191526, -0.0629478, -0.164159, -0.0539623, 1.59045E-006, 4.13212E-007
2, 480.00000, -0.136797, -0.0449606, -0.191526, -0.0629478, -0.164159, -0.0539623, 1.59045E-006, 4.13212E-007
2, 540.00000, -0.136797, -0.0449606, -0.191526, -0.0629478, -0.164159, -0.0539623, 1.59045E-006, 4.13212E-007
2, 600.00000, -0.136797, -0.0449606, -0.191526, -0.0629478, -0.164159, -0.0539623, 1.59045E-006, 4.13212E-007
2, 660.00000, -0.136801, -0.0449625, -0.164162, -0.0539584, -0.164159, -0.0539575, -8.90291E-008, 3.36155E-007
2, 720.00000, -0.1368, -0.0449623, -0.164161, -0.0539583, -0.164158, -0.0539573, -8.90303E-008, 3.36151E-007
2, 780.00000, -0.1368, -0.0449623, -0.164161, -0.0539583, -0.164158, -0.0539573, -8.90304E-008, 3.3615E-007
2, 840.00000, -0.1368, -0.0449623, -0.164161, -0.0539583, -0.164158, -0.0539573, -8.90304E-008, 3.3615E-007
2, 900.00000, -0.1368, -0.0449623, -0.164161, -0.0539583, -0.164158, -0.0539573, -8.90304E-008, 3.3615E-007
2, 960.00000, -0.164164, -0.0539556, -0.164159, -0.0539612, -0.164157, -0.0539536, 2.72532E-009, -1.48534E-009
2, 1020.00000, -0.164164, -0.0539556, -0.164159, -0.0539612, -0.164157, -0.0539536, 2.72322E-009, -1.48219E-009
2, 1080.00000, -0.164164, -0.0539556, -0.164159, -0.0539612, -0.164157, -0.0539536, 2.72322E-009, -1.48217E-009
2, 1140.00000, -0.164164, -0.0539556, -0.164159, -0.0539612, -0.164157, -0.0539536, 2.72322E-009, -1.48217E-009
2, 1200.00000, -0.164164, -0.0539556, -0.164159, -0.0539612, -0.164157, -0.0539536, 2.72322E-009, -1.48217E-009
2, 1260.00000, -0.164167, -0.0539574, -0.164157, -0.0539604, -0.164157, -0.0539531, 3.33017E-010, -4.96026E-010
2, 1320.00000, -0.164164, -0.0539564, -0.164158, -0.0539607, -0.164157, -0.0539531, 2.40497E-010, -4.7066E-010
2, 1380.00000, -0.164164, -0.0539564, -0.164158, -0.0539608, -0.164157, -0.0539532, 2.40667E-010, -4.70318E-010
2, 1440.00000, -0.164164, -0.0539564, -0.164158, -0.0539608, -0.164157, -0.0539532, 2.40671E-010, -4.70316E-010
2, 1500.00000, -0.164164, -0.0539564, -0.164158, -0.0539608, -0.164157, -0.0539532, 2.40671E-010, -4.70316E-010
2, 1560.00000, -0.164164, -0.0539562, -0.164158, -0.0539608, -0.164157, -0.0539534, 2.2333E-009, -3.27189E-011
2, 1620.00000, -0.164164, -0.0539562, -0.164158, -0.0539608, -0.164157, -0.0539533, 2.23656E-009, -3.34867E-011
2, 1680.00000, -0.164164, -0.0539562, -0.164158, -0.0539608, -0.164157, -0.0539533, 2.23658E-009, -3.35022E-011
2, 1740.00000, -0.164164, -0.0539562, -0.164158, -0.0539608, -0.164157, -0.0539533, 2.23658E-009, -3.35023E-011
2, 1800.00000, -0.164164, -0.0539562, -0.164158, -0.0539608, -0.164157, -0.0539533, 2.23658E-009, -3.35023E-011
2, 1860.00000, -0.16416, -0.0539536, -0.191522, -0.0629524, -0.164157, -0.0539572, 3.26034E-007, 4.13062E-007
2, 1920.00000, -0.164161, -0.0539538, -0.191522, -0.0629525, -0.164157, -0.0539572, 3.26043E-007, 4.13062E-007
2, 1980.00000, -0.164161, -0.0539538, -0.191522, -0.0629525, -0.164157, -0.0539572, 3.26043E-007, 4.13062E-007
2, 2040.00000, -0.164161, -0.0539538, -0.191522, -0.0629525, -0.164157, -0.0539572, 3.26043E-007, 4.13062E-007
2, 2100.00000, -0.164161, -0.0539538, -0.191522, -0.0629525, -0.164157, -0.0539572, 3.26043E-007, 4.13062E-007
2, 2160.00000, -0.191529, -0.0629521, -0.136795, -0.0449694, -0.164158, -0.0539483, 2.50484E-006, -6.57794E-007
2, 2220.00000, -0.19153, -0.0629523, -0.136795, -0.0449692, -0.164158, -0.0539481, 2.50493E-006, -6.57817E-007
2, 2280.00000, -0.19153, -0.0629523, -0.136795, -0.0449692, -0.164158, -0.0539481, 2.50493E-006, -6.57817E-007
2, 2340.00000, -0.19153, -0.0629523, -0.136795, -0.0449692, -0.164158, -0.0539481, 2.50493E-006, -6.57817E-007
2, 2400.00000, -0.19153, -0.0629523, -0.136795, -0.0449692, -0.164158, -0.0539481, 2.50493E-006, -6.57817E-007
2, 2460.00000, -0.191526, -0.0629476, -0.164158, -0.0539623, -0.164157, -0.053953, 9.21848E-007, -2.52579E-007
2, 2520.00000, -0.191526, -0.0629478, -0.164159, -0.0539623, -0.164156, -0.0539528, 9.21897E-007, -2.52579E-007
2, 2580.00000, -0.191526, -0.0629478, -0.164159, -0.0539623, -0.164156, -0.0539528, 9.21898E-007, -2.52579E-007
2, 2640.00000, -0.191526, -0.0629478, -0.164159, -0.0539623, -0.164156, -0.0539528, 9.21898E-007, -2.52579E-007
2, 2700.00000, -0.191526, -0.0629478, -0.164159, -0.0539623, -0.164156, -0.0539528, 9.21898E-007, -2.52579E-007
2, 2760.00000, -0.164167, -0.0539557, -0.136798, -0.0449693, -0.136797, -0.0449596, 1.15091E-006, -1.85738E-007
2, 2820.00000, -0.164167, -0.0539557, -0.136798, -0.0449694, -0.136796, -0.0449595, 1.15092E-006, -1.85738E-007
2, 2880.00000, -0.164167, -0.0539557, -0.136798, -0.0449694, -0.136796, -0.0449595, 1.15092E-006, -1.85738E-007
2, 2940.00000, -0.164167, -0.0539557, -0.136798, -0.0449694, -0.136796, -0.0449595, 1.15092E-006, -1.85738E-007
2, 3000.00000, -0.164167, -0.0539557, -0.136798, -0.0449694, -0.136796, -0.0449595, 1.15092E-006, -1.85738E-007
2, 3060.00000, -0.136804, -0.0449666, -0.109437, -0.0359732, -0.1368, -0.0449589, 8.89196E-007, -4.98362E-007
2, 3120.00000, -0.136804, -0.0449666, -0.109436, -0.0359732, -0.1368, -0.0449589, 8.89201E-007, -4.98366E-007
2, 3180.00000, -0.136804, -0.0449666, -0.109436, -0.0359732, -0.1368, -0.0449589, 8.89201E-007, -4.98366E-007
2, 3240.00000, -0.136804, -0.0449666, -0.109436, -0.0359732, -0.1368, -0.0449589, 8.89201E-007, -4.98366E-007
2, 3300.00000, -0.136804, -0.0449666, -0.109436, -0.0359732, -0.1368, -0.0449589, 8.89201E-007, -4.98366E-007
2, 3360.00000, -0.16416, -0.0539462, -0.218892, -0.0719497, -0.164151, -0.0539619, 3.01911E-006, 1.84448E-006
2, 3420.00000, -0.16416, -0.0539462, -0.218892, -0.0719498, -0.164151, -0.0539618, 3.01915E-006, 1.84449E-006
2, 3480.00000, -0.16416, -0.0539462, -0.218892, -0.0719498, -0.164151, -0.0539618, 3.01915E-006, 1.84449E-006
2, 3540.00000, -0.16416, -0.0539462, -0.218892, -0.0719498, -0.164151, -0.0539618, 3.01915E-006, 1.84449E-006
3, 0.00000, -0.16416, -0.0539462, -0.218892, -0.0719498, -0.164151, -0.0539618, 3.01915E-006, 1.84449E-006
