hour, t(sec), P1 (kW), Q1 (kvar), P2 (kW), Q2 (kvar), P3 (kW), Q3 (kvar), P4 (kW), Q4 (kvar)
0, 60.00000, -0.115712, -0.0380323, -0.115713, -0.0380327, -0.115709, -0.0380314, -9.00481E-011, -3.19481E-012
0, 120.00000, -0.11571, -0.038032, -0.11571, -0.038032, -0.11571, -0.038032, -9.00206E-011, -3.1658E-012
0, 180.00000, -0.11571, -0.038032, -0.11571, -0.038032, -0.11571, -0.038032, -9.00198E-011, -3.16454E-012
0, 240.00000, -0.11571, -0.038032, -0.11571, -0.038032, -0.11571, -0.038032, -9.00198E-011, -3.16454E-012
0, 300.00000, -0.11571, -0.038032, -0.11571, -0.038032, -0.11571, -0.038032, -9.00198E-011, -3.16454E-012
0, 360.00000, -0.115714, -0.0380329, -0.11571, -0.0380326, -0.0991736, -0.0325968, 5.7257E-010, -2.31287E-009
0, 420.00000, -0.11571, -0.038032, -0.11571, -0.038032, -0.09918, -0.0325989, 5.72007E-010, -2.31064E-009
0, 480.00000, -0.11571, -0.038032, -0.11571, -0.0380321, -0.09918, -0.0325989, 5.7201E-010, -2.31064E-009
0, 540.00000, -0.11571, -0.038032, -0.11571, -0.0380321, -0.09918, -0.0325989, 5.7201E-010, -2.31064E-009
0, 600.00000, -0.11571, -0.038032, -0.11571, -0.0380321, -0.09918, -0.0325989, 5.7201E-010, -2.31064E-009
0, 660.00000, -0.132236, -0.0434646, -0.18183, -0.0597604, -0.132246, -0.0434671, 8.56711E-009, -1.66693E-008
0, 720.00000, -0.13224, -0.0434651, -0.18183, -0.0597646, -0.13224, -0.0434653, 8.56743E-009, -1.66708E-008
0, 780.00000, -0.13224, -0.0434651, -0.18183, -0.0597646, -0.13224, -0.0434653, 8.56741E-009, -1.66707E-008
0, 840.00000, -0.13224, -0.0434651, -0.18183, -0.0597646, -0.13224, -0.0434653, 8.56741E-009, -1.66707E-008
0, 900.00000, -0.13224, -0.0434651, -0.18183, -0.0597646, -0.13224, -0.0434653, 8.56741E-009, -1.66707E-008
0, 960.00000, -0.181829, -0.0597648, -0.14877, -0.0488979, -0.148771, -0.0488987, 1.7405E-009, -1.02096E-008
0, 1020.00000, -0.18183, -0.0597646, -0.14877, -0.0488984, -0.14877, -0.0488983, 1.74069E-009, -1.02102E-008
0, 1080.00000, -0.18183, -0.0597646, -0.14877, -0.0488984, -0.14877, -0.0488983, 1.74069E-009, -1.02102E-008
0, 1140.00000, -0.18183, -0.0597646, -0.14877, -0.0488984, -0.14877, -0.0488983, 1.74069E-009, -1.02102E-008
0, 1200.00000, -0.18183, -0.0597646, -0.14877, -0.0488984, -0.14877, -0.0488983, 1.74069E-009, -1.02102E-008
0, 1260.00000, -0.132241, -0.043465, -0.165301, -0.0543323, -0.115708, -0.0380316, 6.18184E-009, -1.36394E-008
0, 1320.00000, -0.13224, -0.0434651, -0.1653, -0.0543315, -0.11571, -0.0380321, 6.18131E-009, -1.36379E-008
0, 1380.00000, -0.13224, -0.0434651, -0.1653, -0.0543315, -0.11571, -0.0380321, 6.18131E-009, -1.36379E-008
0, 1440.00000, -0.13224, -0.0434651, -0.1653, -0.0543315, -0.11571, -0.0380321, 6.18131E-009, -1.36379E-008
0, 1500.00000, -0.13224, -0.0434651, -0.1653, -0.0543315, -0.11571, -0.0380321, 6.18131E-009, -1.36379E-008
0, 1560.00000, -0.0991687, -0.032595, -0.132244, -0.0434637, -0.132249, -0.043469, 4.14294E-009, -6.88658E-009
0, 1620.00000, -0.0991799, -0.0325989, -0.13224, -0.0434652, -0.13224, -0.0434652, 4.13961E-009, -6.8795E-009
0, 1680.00000, -0.09918, -0.0325989, -0.13224, -0.0434651, -0.13224, -0.0434652, 4.1396E-009, -6.87949E-009
0, 1740.00000, -0.09918, -0.0325989, -0.13224, -0.0434651, -0.13224, -0.0434652, 4.1396E-009, -6.87949E-009
0, 1800.00000, -0.09918, -0.0325989, -0.13224, -0.0434651, -0.13224, -0.0434652, 4.1396E-009, -6.87949E-009
0, 1860.00000, -0.132232, -0.0434624, -0.148777, -0.0489005, -0.165298, -0.0543336, 3.02545E-009, -5.24443E-009
0, 1920.00000, -0.13224, -0.0434652, -0.14877, -0.0488983, -0.1653, -0.0543315, 3.0243E-009, -5.24304E-009
0, 1980.00000, -0.13224, -0.0434652, -0.14877, -0.0488983, -0.1653, -0.0543315, 3.02431E-009, -5.24306E-009
0, 2040.00000, -0.13224, -0.0434652, -0.14877, -0.0488983, -0.1653, -0.0543315, 3.02431E-009, -5.24306E-009
0, 2100.00000, -0.13224, -0.0434652, -0.14877, -0.0488983, -0.1653, -0.0543315, 3.02431E-009, -5.24306E-009
0, 2160.00000, -0.132248, -0.0434675, -0.115707, -0.0380313, -0.132236, -0.0434632, 3.65547E-010, -2.69661E-009
0, 2220.00000, -0.13224, -0.0434652, -0.11571, -0.038032, -0.13224, -0.0434652, 3.65399E-010, -2.69503E-009
0, 2280.00000, -0.13224, -0.0434652, -0.11571, -0.0380321, -0.13224, -0.0434652, 3.65396E-010, -2.69502E-009
0, 2340.00000, -0.13224, -0.0434652, -0.11571, -0.0380321, -0.13224, -0.0434652, 3.65396E-010, -2.69502E-009
0, 2400.00000, -0.13224, -0.0434652, -0.11571, -0.0380321, -0.13224, -0.0434652, 3.65396E-010, -2.69502E-009
0, 2460.00000, -0.099179, -0.0325986, -0.11571, -0.0380319, -0.148771, -0.0488988, 6.23015E-009, -1.37801E-008
0, 2520.00000, -0.09918, -0.0325989, -0.11571, -0.038032, -0.14877, -0.0488983, 6.22964E-009, -1.37789E-008
0, 2580.00000, -0.09918, -0.0325989, -0.11571, -0.038032, -0.14877, -0.0488983, 6.22964E-009, -1.37789E-008
0, 2640.00000, -0.09918, -0.0325989, -0.11571, -0.038032, -0.14877, -0.0488983, 6.22964E-009, -1.37789E-008
0, 2700.00000, -0.09918, -0.0325989, -0.11571, -0.038032, -0.14877, -0.0488983, 6.22964E-009, -1.37789E-008
0, 2760.00000, -0.0991846, -0.0326002, -0.132231, -0.0434623, -0.115713, -0.0380324, 3.20702E-009, -4.99735E-009
0, 2820.00000, -0.0991799, -0.0325989, -0.13224, -0.0434651, -0.11571, -0.0380321, 3.20933E-009, -5.00199E-009
0, 2880.00000, -0.09918, -0.0325989, -0.13224, -0.0434651, -0.11571, -0.0380321, 3.20932E-009, -5.00198E-009
0, 2940.00000, -0.09918, -0.0325989, -0.13224, -0.0434651, -0.11571, -0.0380321, 3.20932E-009, -5.00198E-009
0, 3000.00000, -0.09918, -0.0325989, -0.13224, -0.0434651, -0.11571, -0.0380321, 3.20932E-009, -5.00198E-009
0, 3060.00000, -0.132242, -0.0434656, -0.115709, -0.0380319, -0.115709, -0.0380317, 2.35541E-010, -2.87712E-009
0, 3120.00000, -0.13224, -0.0434652, -0.11571, -0.0380321, -0.11571, -0.038032, 2.35391E-010, -2.87646E-009
0, 3180.00000, -0.13224, -0.0434652, -0.11571, -0.0380321, -0.11571, -0.038032, 2.35391E-010, -2.87645E-009
0, 3240.00000, -0.13224, -0.0434652, -0.11571, -0.0380321, -0.11571, -0.038032, 2.35391E-010, -2.87646E-009
0, 3300.00000, -0.13224, -0.0434652, -0.11571, -0.0380321, -0.11571, -0.038032, 2.35391E-010, -2.87646E-009
0, 3360.00000, -0.132255, -0.0434682, -0.148765, -0.0489012, -0.115697, -0.0380276, 2.49584E-009, -5.91855E-009
0, 3420.00000, -0.13224, -0.0434652, -0.14877, -0.0488983, -0.11571, -0.0380321, 2.49576E-009, -5.91522E-009
0, 3480.00000, -0.13224, -0.0434651, -0.14877, -0.0488983, -0.11571, -0.0380321, 2.49578E-009, -5.91526E-009
0, 3540.00000, -0.13224, -0.0434651, -0.14877, -0.0488983, -0.11571, -0.0380321, 2.49578E-009, -5.91526E-009
1, 0.00000, -0.13224, -0.0434651, -0.14877, -0.0488983, -0.11571, -0.0380321, 2.49578E-009, -5.91526E-009
1, 60.00000, -0.0826421, -0.0271626, -0.115722, -0.0380356, -0.115702, -0.0380297, 4.03745E-009, -7.06184E-009
1, 120.00000, -0.0826501, -0.0271658, -0.11571, -0.038032, -0.11571, -0.038032, 4.03518E-009, -7.05756E-009
1, 180.00000, -0.08265, -0.0271658, -0.11571, -0.038032, -0.11571, -0.0380321, 4.03524E-009, -7.05769E-009
1, 240.00000, -0.08265, -0.0271658, -0.11571, -0.038032, -0.11571, -0.0380321, 4.03524E-009, -7.05769E-009
1, 300.00000, -0.08265, -0.0271658, -0.11571, -0.038032, -0.11571, -0.0380321, 4.03524E-009, -7.05769E-009
1, 360.00000, -0.115705, -0.0380287, -0.148781, -0.0489014, -0.0991772, -0.0325976, 6.05634E-009, -1.36288E-008
1, 420.00000, -0.11571, -0.038032, -0.14877, -0.0488984, -0.0991798, -0.0325989, 6.05274E-009, -1.36211E-008
1, 480.00000, -0.11571, -0.038032, -0.14877, -0.0488983, -0.09918, -0.0325989, 6.05271E-009, -1.3621E-008
1, 540.00000, -0.11571, -0.038032, -0.14877, -0.0488983, -0.09918, -0.0325989, 6.05271E-009, -1.3621E-008
1, 600.00000, -0.11571, -0.038032, -0.14877, -0.0488983, -0.09918, -0.0325989, 6.05271E-009, -1.3621E-008
1, 660.00000, -0.0991871, -0.0326013, -0.115705, -0.0380305, -0.115707, -0.0380308, 1.16142E-009, -1.41364E-009
1, 720.00000, -0.09918, -0.0325989, -0.11571, -0.038032, -0.11571, -0.0380321, 1.16278E-009, -1.41594E-009
1, 780.00000, -0.09918, -0.0325989, -0.11571, -0.038032, -0.11571, -0.0380321, 1.16278E-009, -1.41594E-009
1, 840.00000, -0.09918, -0.0325989, -0.11571, -0.038032, -0.11571, -0.0380321, 1.16278E-009, -1.41593E-009
1, 900.00000, -0.09918, -0.0325989, -0.11571, -0.038032, -0.11571, -0.0380321, 1.16278E-009, -1.41593E-009
1, 960.00000, -0.148764, -0.0488965, -0.0991808, -0.032599, -0.0991828, -0.0325999, 5.80421E-009, -2.0874E-008
1, 1020.00000, -0.14877, -0.0488982, -0.0991801, -0.032599, -0.0991799, -0.0325988, 5.80604E-009, -2.08797E-008
1, 1080.00000, -0.14877, -0.0488983, -0.09918, -0.032599, -0.0991799, -0.0325989, 5.80606E-009, -2.08797E-008
1, 1140.00000, -0.14877, -0.0488983, -0.09918, -0.032599, -0.0991799, -0.0325989, 5.80606E-009, -2.08797E-008
1, 1200.00000, -0.14877, -0.0488983, -0.09918, -0.032599, -0.0991799, -0.0325989, 5.80606E-009, -2.08797E-008
1, 1260.00000, -0.132239, -0.0434646, -0.115713, -0.0380332, -0.132237, -0.0434645, 3.71611E-010, -2.68057E-009
1, 1320.00000, -0.13224, -0.0434652, -0.11571, -0.0380321, -0.13224, -0.0434651, 3.72015E-010, -2.682E-009
1, 1380.00000, -0.13224, -0.0434652, -0.11571, -0.0380321, -0.13224, -0.0434652, 3.72017E-010, -2.68199E-009
1, 1440.00000, -0.13224, -0.0434652, -0.11571, -0.0380321, -0.13224, -0.0434652, 3.72017E-010, -2.68199E-009
1, 1500.00000, -0.13224, -0.0434652, -0.11571, -0.0380321, -0.13224, -0.0434652, 3.72017E-010, -2.68199E-009
1, 1560.00000, -0.115713, -0.0380331, -0.0991776, -0.0325982, -0.0991794, -0.0325986, 3.34407E-010, -2.74888E-009
1, 1620.00000, -0.11571, -0.038032, -0.09918, -0.0325989, -0.09918, -0.0325989, 3.34091E-010, -2.74754E-009
1, 1680.00000, -0.11571, -0.038032, -0.09918, -0.0325989, -0.09918, -0.0325989, 3.34092E-010, -2.74755E-009
1, 1740.00000, -0.11571, -0.038032, -0.09918, -0.0325989, -0.09918, -0.0325989, 3.34092E-010, -2.74755E-009
1, 1800.00000, -0.11571, -0.038032, -0.09918, -0.0325989, -0.09918, -0.0325989, 3.34092E-010, -2.74755E-009
1, 1860.00000, -0.0826515, -0.0271658, -0.0495925, -0.0163005, -0.0991664, -0.0325944, 5.26661E-009, -1.51666E-008
1, 1920.00000, -0.0826502, -0.0271658, -0.0495899, -0.0162994, -0.09918, -0.0325988, 5.2696E-009, -1.51748E-008
1, 1980.00000, -0.08265, -0.0271658, -0.04959, -0.0162995, -0.09918, -0.0325988, 5.26958E-009, -1.51747E-008
1, 2040.00000, -0.08265, -0.0271658, -0.04959, -0.0162995, -0.09918, -0.0325988, 5.26958E-009, -1.51747E-008
1, 2100.00000, -0.08265, -0.0271658, -0.04959, -0.0162995, -0.09918, -0.0325988, 5.26958E-009, -1.51747E-008
1, 2160.00000, -0.115722, -0.0380356, -0.09918, -0.0325995, -0.0991673, -0.0325944, 3.20111E-010, -2.74441E-009
1, 2220.00000, -0.11571, -0.0380321, -0.0991797, -0.0325988, -0.0991801, -0.0325989, 3.18851E-010, -2.73938E-009
1, 2280.00000, -0.11571, -0.038032, -0.09918, -0.0325989, -0.09918, -0.0325989, 3.18832E-010, -2.7393E-009
1, 2340.00000, -0.11571, -0.038032, -0.09918, -0.0325989, -0.09918, -0.0325989, 3.18833E-010, -2.7393E-009
1, 2400.00000, -0.11571, -0.038032, -0.09918, -0.0325989, -0.09918, -0.0325989, 3.18833E-010, -2.7393E-009
1, 2460.00000, -0.0826568, -0.0271676, -0.0826506, -0.0271664, -0.0826384, -0.0271617, -4.56449E-011, -2.84738E-012
1, 2520.00000, -0.0826501, -0.0271658, -0.0826498, -0.0271657, -0.08265, -0.0271657, -4.54579E-011, -2.58112E-012
1, 2580.00000, -0.08265, -0.0271657, -0.08265, -0.0271657, -0.08265, -0.0271657, -4.54525E-011, -2.57262E-012
1, 2640.00000, -0.08265, -0.0271657, -0.08265, -0.0271657, -0.08265, -0.0271657, -4.54525E-011, -2.57268E-012
1, 2700.00000, -0.08265, -0.0271657, -0.08265, -0.0271657, -0.08265, -0.0271657, -4.54525E-011, -2.57268E-012
1, 2760.00000, -0.082653, -0.0271667, -0.132238, -0.0434647, -0.0826479, -0.027165, 8.06396E-009, -1.70998E-008
1, 2820.00000, -0.08265, -0.0271657, -0.13224, -0.0434651, -0.08265, -0.0271658, 8.06477E-009, -1.71013E-008
1, 2880.00000, -0.0826499, -0.0271657, -0.13224, -0.0434651, -0.08265, -0.0271658, 8.06481E-009, -1.71013E-008
1, 2940.00000, -0.0826499, -0.0271657, -0.13224, -0.0434651, -0.08265, -0.0271658, 8.06481E-009, -1.71013E-008
1, 3000.00000, -0.0826499, -0.0271657, -0.13224, -0.0434651, -0.08265, -0.0271658, 8.06481E-009, -1.71013E-008
1, 3060.00000, -0.115693, -0.0380261, -0.13226, -0.0434711, -0.0991855, -0.0326015, 2.44901E-009, -5.87971E-009
1, 3120.00000, -0.11571, -0.038032, -0.13224, -0.0434653, -0.0991797, -0.0325988, 2.4462E-009, -5.87651E-009
1, 3180.00000, -0.11571, -0.038032, -0.13224, -0.0434652, -0.09918, -0.0325989, 2.44612E-009, -5.8763E-009
1, 3240.00000, -0.11571, -0.038032, -0.13224, -0.0434652, -0.09918, -0.0325989, 2.44612E-009, -5.8763E-009
1, 3300.00000, -0.11571, -0.038032, -0.13224, -0.0434652, -0.09918, -0.0325989, 2.44612E-009, -5.8763E-009
1, 3360.00000, -0.115706, -0.0380307, -0.0826508, -0.0271659, -0.115714, -0.0380333, 2.61519E-009, -9.2304E-009
1, 3420.00000, -0.11571, -0.038032, -0.08265, -0.0271658, -0.11571, -0.038032, 2.61529E-009, -9.23113E-009
1, 3480.00000, -0.11571, -0.0380321, -0.08265, -0.0271658, -0.11571, -0.038032, 2.61531E-009, -9.23119E-009
1, 3540.00000, -0.11571, -0.0380321, -0.08265, -0.0271658, -0.11571, -0.038032, 2.61531E-009, -9.23119E-009
2, 0.00000, -0.11571, -0.0380321, -0.08265, -0.0271658, -0.11571, -0.038032, 2.61531E-009, -9.23119E-009
2, 60.00000, -0.11571, -0.0380322, -0.0826503, -0.0271659, -0.132239, -0.0434648, 5.08666E-009, -1.54749E-008
2, 120.00000, -0.11571, -0.0380321, -0.08265, -0.0271658, -0.13224, -0.0434651, 5.08689E-009, -1.54755E-008
2, 180.00000, -0.11571, -0.0380321, -0.08265, -0.0271658, -0.13224, -0.0434651, 5.08689E-009, -1.54755E-008
2, 240.00000, -0.11571, -0.0380321, -0.08265, -0.0271658, -0.13224, -0.0434651, 5.08689E-009, -1.54755E-008
2, 300.00000, -0.11571, -0.0380321, -0.08265, -0.0271658, -0.13224, -0.0434651, 5.08689E-009, -1.54755E-008
2, 360.00000, -0.0991795, -0.0325988, -0.11571, -0.0380318, -0.132241, -0.0434655, 2.88326E-009, -5.4821E-009
2, 420.00000, -0.09918, -0.0325989, -0.11571, -0.038032, -0.13224, -0.0434652, 2.88304E-009, -5.48156E-009
2, 480.00000, -0.09918, -0.0325989, -0.11571, -0.038032, -0.13224, -0.0434652, 2.88304E-009, -5.48156E-009
2, 540.00000, -0.09918, -0.0325989, -0.11571, -0.038032, -0.13224, -0.0434652, 2.88304E-009, -5.48156E-009
2, 600.00000, -0.09918, -0.0325989, -0.11571, -0.038032, -0.13224, -0.0434652, 2.88304E-009, -5.48156E-009
2, 660.00000, -0.0826491, -0.0271655, -0.115711, -0.0380321, -0.0991809, -0.0325992, 3.09753E-009, -5.10069E-009
2, 720.00000, -0.08265, -0.0271657, -0.11571, -0.038032, -0.09918, -0.0325989, 3.09726E-009, -5.10018E-009
2, 780.00000, -0.08265, -0.0271657, -0.11571, -0.038032, -0.09918, -0.0325989, 3.09726E-009, -5.10017E-009
2, 840.00000, -0.08265, -0.0271657, -0.11571, -0.038032, -0.09918, -0.0325989, 3.09726E-009, -5.10017E-009
2, 900.00000, -0.08265, -0.0271657, -0.11571, -0.038032, -0.09918, -0.0325989, 3.09726E-009, -5.10017E-009
2, 960.00000, -0.08265, -0.0271657, -0.13224, -0.0434651, -0.08265, -0.0271658, 8.13526E-009, -1.71683E-008
2, 1020.00000, -0.0826499, -0.0271657, -0.13224, -0.0434651, -0.08265, -0.0271658, 8.13534E-009, -1.71685E-008
2, 1080.00000, -0.0826499, -0.0271657, -0.13224, -0.0434651, -0.08265, -0.0271658, 8.13534E-009, -1.71685E-008
2, 1140.00000, -0.0826499, -0.0271657, -0.13224, -0.0434651, -0.08265, -0.0271658, 8.13534E-009, -1.71685E-008
2, 1200.00000, -0.0826499, -0.0271657, -0.13224, -0.0434651, -0.08265, -0.0271658, 8.13534E-009, -1.71685E-008
2, 1260.00000, -0.0991794, -0.0325987, -0.115713, -0.0380329, -0.0826489, -0.0271654, 2.46297E-009, -5.92784E-009
2, 1320.00000, -0.0991799, -0.0325988, -0.11571, -0.038032, -0.0826499, -0.0271657, 2.4624E-009, -5.92659E-009
2, 1380.00000, -0.09918, -0.0325988, -0.11571, -0.038032, -0.08265, -0.0271658, 2.46241E-009, -5.92661E-009
2, 1440.00000, -0.09918, -0.0325988, -0.11571, -0.038032, -0.08265, -0.0271658, 2.46241E-009, -5.92661E-009
2, 1500.00000, -0.09918, -0.0325988, -0.11571, -0.038032, -0.08265, -0.0271658, 2.46241E-009, -5.92661E-009
2, 1560.00000, -0.0991805, -0.032599, -0.0826498, -0.0271657, -0.0826499, -0.0271657, 3.95319E-010, -2.60583E-009
2, 1620.00000, -0.09918, -0.0325989, -0.08265, -0.0271658, -0.08265, -0.0271657, 3.95271E-010, -2.60565E-009
2, 1680.00000, -0.09918, -0.0325989, -0.08265, -0.0271658, -0.08265, -0.0271657, 3.95271E-010, -2.60565E-009
2, 1740.00000, -0.09918, -0.0325989, -0.08265, -0.0271658, -0.08265, -0.0271657, 3.95271E-010, -2.60565E-009
2, 1800.00000, -0.09918, -0.0325989, -0.08265, -0.0271658, -0.08265, -0.0271657, 3.95271E-010, -2.60565E-009
2, 1860.00000, -0.0991753, -0.0325972, -0.132243, -0.0434661, -0.0661208, -0.021733, 9.72538E-009, -2.43296E-008
2, 1920.00000, -0.09918, -0.0325988, -0.13224, -0.0434652, -0.06612, -0.0217326, 9.72448E-009, -2.43282E-008
2, 1980.00000, -0.09918, -0.0325988, -0.13224, -0.0434652, -0.06612, -0.0217326, 9.72448E-009, -2.43282E-008
2, 2040.00000, -0.09918, -0.0325988, -0.13224, -0.0434652, -0.06612, -0.0217326, 9.72448E-009, -2.43282E-008
2, 2100.00000, -0.09918, -0.0325988, -0.13224, -0.0434652, -0.06612, -0.0217326, 9.72448E-009, -2.43282E-008
2, 2160.00000, -0.0826567, -0.0271678, -0.0991785, -0.0325988, -0.0991723, -0.0325962, 1.13699E-009, -1.51733E-009
2, 2220.00000, -0.08265, -0.0271658, -0.09918, -0.0325989, -0.09918, -0.0325989, 1.13829E-009, -1.51978E-009
2, 2280.00000, -0.08265, -0.0271657, -0.09918, -0.0325989, -0.09918, -0.0325989, 1.13829E-009, -1.51978E-009
2, 2340.00000, -0.08265, -0.0271657, -0.09918, -0.0325989, -0.09918, -0.0325989, 1.13829E-009, -1.51978E-009
2, 2400.00000, -0.08265, -0.0271657, -0.09918, -0.0325989, -0.09918, -0.0325989, 1.13829E-009, -1.51978E-009
2, 2460.00000, -0.0991738, -0.032597, -0.066121, -0.0217328, -0.0661236, -0.0217338, 2.58502E-009, -9.23021E-009
2, 2520.00000, -0.09918, -0.0325989, -0.06612, -0.0217326, -0.06612, -0.0217326, 2.5865E-009, -9.23463E-009
2, 2580.00000, -0.09918, -0.0325989, -0.06612, -0.0217326, -0.06612, -0.0217326, 2.5865E-009, -9.23464E-009
2, 2640.00000, -0.09918, -0.0325989, -0.06612, -0.0217326, -0.06612, -0.0217326, 2.5865E-009, -9.23464E-009
2, 2700.00000, -0.09918, -0.0325989, -0.06612, -0.0217326, -0.06612, -0.0217326, 2.5865E-009, -9.23464E-009
2, 2760.00000, -0.0991799, -0.032599, -0.115704, -0.0380302, -0.0991836, -0.0325998, 1.02504E-009, -1.55804E-009
2, 2820.00000, -0.09918, -0.0325989, -0.11571, -0.038032, -0.09918, -0.0325989, 1.02579E-009, -1.55966E-009
2, 2880.00000, -0.09918, -0.0325989, -0.11571, -0.038032, -0.09918, -0.0325989, 1.02579E-009, -1.55967E-009
2, 2940.00000, -0.09918, -0.0325989, -0.11571, -0.038032, -0.09918, -0.0325989, 1.02579E-009, -1.55967E-009
2, 3000.00000, -0.09918, -0.0325989, -0.11571, -0.038032, -0.09918, -0.0325989, 1.02579E-009, -1.55967E-009
2, 3060.00000, -0.0991801, -0.032599, -0.0826496, -0.0271656, -0.0991802, -0.0325989, 5.09921E-010, -2.49451E-009
2, 3120.00000, -0.09918, -0.0325989, -0.08265, -0.0271658, -0.09918, -0.0325989, 5.09878E-010, -2.49438E-009
2, 3180.00000, -0.09918, -0.0325989, -0.08265, -0.0271658, -0.09918, -0.0325989, 5.09878E-010, -2.49438E-009
2, 3240.00000, -0.09918, -0.0325989, -0.08265, -0.0271658, -0.09918, -0.0325989, 5.09878E-010, -2.49438E-009
2, 3300.00000, -0.09918, -0.0325989, -0.08265, -0.0271658, -0.09918, -0.0325989, 5.09878E-010, -2.49438E-009
2, 3360.00000, -0.0826499, -0.0271657, -0.0991801, -0.0325989, -0.11571, -0.0380321, 2.83642E-009, -5.58461E-009
2, 3420.00000, -0.08265, -0.0271658, -0.09918, -0.0325989, -0.11571, -0.038032, 2.8364E-009, -5.58457E-009
2, 3480.00000, -0.08265, -0.0271658, -0.09918, -0.0325989, -0.11571, -0.038032, 2.8364E-009, -5.58457E-009
2, 3540.00000, -0.08265, -0.0271658, -0.09918, -0.0325989, -0.11571, -0.038032, 2.8364E-009, -5.58457E-009
3, 0.00000, -0.08265, -0.0271658, -0.09918, -0.0325989, -0.11571, -0.038032, 2.8364E-009, -5.58457E-009
3, 60.00000, -0.0826494, -0.0271656, -0.11571, -0.038032, -0.0991808, -0.0325992, 3.11475E-009, -5.13352E-009
3, 120.00000, -0.08265, -0.0271657, -0.11571, -0.038032, -0.09918, -0.0325989, 3.11466E-009, -5.13336E-009
