hour, t(sec), V1, VAngle1, V2, VAngle2, V3, VAngle3, V4, VAngle4, I1, IAngle1, I2, IAngle2, I3, IAngle3, I4, IAngle4
0, 60.00000, 223.178, -30.1709, 223.38, -150.2, 223.536, 89.8317, 0.000130801, 160.505, 0.368317, 131.634, 0.551976, 11.6055, 0.367727, -108.363, 0.0989318, -125.067
0, 120.00000, 223.178, -30.1709, 223.38, -150.2, 223.536, 89.8317, 0.000130801, 160.505, 0.368315, 131.634, 0.551973, 11.6055, 0.367725, -108.363, 0.0989313, -125.067
0, 180.00000, 223.178, -30.1709, 223.38, -150.2, 223.536, 89.8317, 0.000130801, 160.505, 0.368315, 131.634, 0.551973, 11.6055, 0.367725, -108.363, 0.0989313, -125.067
0, 240.00000, 223.178, -30.1709, 223.38, -150.2, 223.536, 89.8317, 0.000130801, 160.505, 0.368315, 131.634, 0.551973, 11.6055, 0.367725, -108.363, 0.0989313, -125.067
0, 300.00000, 223.178, -30.1709, 223.38, -150.2, 223.536, 89.8317, 0.000130801, 160.505, 0.368315, 131.634, 0.551973, 11.6055, 0.367725, -108.363, 0.0989313, -125.067
0, 360.00000, 223.084, -30.1979, 223.476, -150.196, 223.363, 89.835, 8.0819E-005, 103.771, 0.429876, 131.607, 0.551743, 11.6087, 0.552007, -108.36, 0.0632405, 168.172
0, 420.00000, 223.084, -30.1979, 223.476, -150.196, 223.363, 89.835, 8.08162E-005, 103.765, 0.429883, 131.607, 0.551737, 11.6087, 0.552018, -108.36, 0.0632384, 168.165
0, 480.00000, 223.084, -30.1979, 223.476, -150.196, 223.363, 89.835, 8.08162E-005, 103.765, 0.429883, 131.607, 0.551737, 11.6087, 0.552018, -108.36, 0.0632384, 168.165
0, 540.00000, 223.084, -30.1979, 223.476, -150.196, 223.363, 89.835, 8.08162E-005, 103.765, 0.429883, 131.607, 0.551737, 11.6087, 0.552018, -108.36, 0.0632384, 168.165
0, 600.00000, 223.084, -30.1979, 223.476, -150.196, 223.363, 89.835, 8.08162E-005, 103.765, 0.429883, 131.607, 0.551737, 11.6087, 0.552018, -108.36, 0.0632384, 168.165
0, 660.00000, 222.947, -30.1858, 223.532, -150.215, 223.546, 89.8544, 9.13455E-005, -82.9721, 0.491591, 131.619, 0.367737, 11.5895, 0.367716, -108.34, 0.0708154, -1.36107
0, 720.00000, 222.947, -30.1858, 223.532, -150.215, 223.546, 89.8544, 9.1353E-005, -82.9725, 0.491597, 131.619, 0.367732, 11.5897, 0.36771, -108.341, 0.0708218, -1.36283
0, 780.00000, 222.947, -30.1858, 223.532, -150.215, 223.546, 89.8544, 9.1353E-005, -82.9724, 0.491597, 131.619, 0.367732, 11.5897, 0.36771, -108.341, 0.0708218, -1.36282
0, 840.00000, 222.947, -30.1858, 223.532, -150.215, 223.546, 89.8544, 9.1353E-005, -82.9724, 0.491597, 131.619, 0.367732, 11.5897, 0.36771, -108.341, 0.0708218, -1.36282
0, 900.00000, 222.947, -30.1858, 223.532, -150.215, 223.546, 89.8544, 9.1353E-005, -82.9724, 0.491597, 131.619, 0.367732, 11.5897, 0.36771, -108.341, 0.0708218, -1.36282
0, 960.00000, 223.164, -30.156, 223.163, -150.204, 223.471, 89.8091, 3.50095E-005, 34.2512, 0.491119, 131.649, 0.49112, 11.6007, 0.55175, -108.386, 0.039337, 104.148
0, 1020.00000, 223.164, -30.156, 223.163, -150.204, 223.471, 89.8091, 3.50093E-005, 34.2516, 0.491119, 131.649, 0.49112, 11.6007, 0.551749, -108.386, 0.0393368, 104.149
0, 1080.00000, 223.164, -30.156, 223.163, -150.204, 223.471, 89.8091, 3.50093E-005, 34.2516, 0.491119, 131.649, 0.49112, 11.6007, 0.551749, -108.386, 0.0393368, 104.149
0, 1140.00000, 223.164, -30.156, 223.163, -150.204, 223.471, 89.8091, 3.50093E-005, 34.2516, 0.491119, 131.649, 0.49112, 11.6007, 0.551749, -108.386, 0.0393368, 104.149
0, 1200.00000, 223.164, -30.156, 223.163, -150.204, 223.471, 89.8091, 3.50093E-005, 34.2516, 0.491119, 131.649, 0.49112, 11.6007, 0.551749, -108.386, 0.0393368, 104.149
0, 1260.00000, 223.192, -30.1466, 223.08, -150.213, 223.573, 89.8057, 4.05644E-005, 176.435, 0.491057, 131.659, 0.552715, 11.592, 0.49022, -108.389, 0.0250922, -142.495
0, 1320.00000, 223.192, -30.1466, 223.08, -150.213, 223.573, 89.8057, 4.05644E-005, 176.434, 0.491057, 131.659, 0.552715, 11.592, 0.49022, -108.389, 0.0250923, -142.495
0, 1380.00000, 223.192, -30.1466, 223.08, -150.213, 223.573, 89.8057, 4.05644E-005, 176.434, 0.491057, 131.659, 0.552715, 11.592, 0.49022, -108.389, 0.0250923, -142.495
0, 1440.00000, 223.192, -30.1466, 223.08, -150.213, 223.573, 89.8057, 4.05644E-005, 176.434, 0.491057, 131.659, 0.552715, 11.592, 0.49022, -108.389, 0.0250923, -142.495
0, 1500.00000, 223.192, -30.1466, 223.08, -150.213, 223.573, 89.8057, 4.05644E-005, 176.434, 0.491057, 131.659, 0.552715, 11.592, 0.49022, -108.389, 0.0250923, -142.495
0, 1560.00000, 223.009, -30.1748, 223.516, -150.219, 223.646, 89.8552, 8.54826E-005, -23.8781, 0.49145, 131.63, 0.367781, 11.5855, 0.490061, -108.34, 0.0722114, 54.2147
0, 1620.00000, 223.009, -30.1748, 223.517, -150.219, 223.646, 89.8552, 8.54993E-005, -23.8822, 0.49146, 131.63, 0.367758, 11.5857, 0.490059, -108.34, 0.072225, 54.2079
0, 1680.00000, 223.009, -30.1748, 223.517, -150.219, 223.646, 89.8552, 8.54993E-005, -23.8822, 0.49146, 131.63, 0.367758, 11.5857, 0.490059, -108.34, 0.072225, 54.2079
0, 1740.00000, 223.009, -30.1748, 223.517, -150.219, 223.646, 89.8552, 8.54993E-005, -23.8822, 0.49146, 131.63, 0.367758, 11.5857, 0.490059, -108.34, 0.072225, 54.2079
0, 1800.00000, 223.009, -30.1748, 223.517, -150.219, 223.646, 89.8552, 8.54993E-005, -23.8822, 0.49146, 131.63, 0.367758, 11.5857, 0.490059, -108.34, 0.072225, 54.2079
0, 1860.00000, 223.121, -30.1973, 223.418, -150.19, 223.317, 89.8254, 8.85193E-006, -126.679, 0.491215, 131.608, 0.490558, 11.615, 0.490765, -108.369, 0.0088242, 50.4633
0, 1920.00000, 223.121, -30.1973, 223.418, -150.19, 223.317, 89.8254, 8.84106E-006, -126.678, 0.491214, 131.608, 0.490561, 11.615, 0.490783, -108.369, 0.00882778, 50.5237
0, 1980.00000, 223.121, -30.1973, 223.418, -150.19, 223.317, 89.8254, 8.84104E-006, -126.678, 0.491214, 131.608, 0.490561, 11.615, 0.490783, -108.369, 0.00882779, 50.5237
0, 2040.00000, 223.121, -30.1973, 223.418, -150.19, 223.317, 89.8254, 8.84104E-006, -126.678, 0.491214, 131.608, 0.490561, 11.615, 0.490783, -108.369, 0.00882779, 50.5237
0, 2100.00000, 223.121, -30.1973, 223.418, -150.19, 223.317, 89.8254, 8.84104E-006, -126.678, 0.491214, 131.608, 0.490561, 11.615, 0.490783, -108.369, 0.00882779, 50.5237
0, 2160.00000, 223.118, -30.1558, 223.364, -150.221, 223.655, 89.8305, 3.96856E-005, 164.12, 0.552627, 131.649, 0.613342, 11.5843, 0.551309, -108.364, 0.0321719, -132.475
0, 2220.00000, 223.118, -30.1558, 223.364, -150.221, 223.655, 89.8305, 3.96952E-005, 164.126, 0.552621, 131.649, 0.613348, 11.5843, 0.551295, -108.364, 0.0321799, -132.467
0, 2280.00000, 223.118, -30.1558, 223.364, -150.221, 223.655, 89.8305, 3.96952E-005, 164.126, 0.552621, 131.649, 0.613348, 11.5843, 0.551295, -108.364, 0.0321799, -132.467
0, 2340.00000, 223.118, -30.1558, 223.364, -150.221, 223.655, 89.8305, 3.96952E-005, 164.126, 0.552621, 131.649, 0.613348, 11.5843, 0.551295, -108.364, 0.0321799, -132.467
0, 2400.00000, 223.118, -30.1558, 223.364, -150.221, 223.655, 89.8305, 3.96952E-005, 164.126, 0.552621, 131.649, 0.613348, 11.5843, 0.551295, -108.364, 0.0321799, -132.467
0, 2460.00000, 223.043, -30.1913, 223.48, -150.196, 223.382, 89.8331, 3.39643E-005, 36.1822, 0.429961, 131.614, 0.429121, 11.6087, 0.490639, -108.362, 0.0385696, 101.452
0, 2520.00000, 223.043, -30.1913, 223.48, -150.196, 223.382, 89.8331, 3.39645E-005, 36.1819, 0.429961, 131.614, 0.42912, 11.6087, 0.490639, -108.362, 0.0385697, 101.451
0, 2580.00000, 223.043, -30.1913, 223.48, -150.196, 223.382, 89.8331, 3.39645E-005, 36.1819, 0.429961, 131.614, 0.42912, 11.6087, 0.490639, -108.362, 0.0385697, 101.451
0, 2640.00000, 223.043, -30.1913, 223.48, -150.196, 223.382, 89.8331, 3.39645E-005, 36.1819, 0.429961, 131.614, 0.42912, 11.6087, 0.490639, -108.362, 0.0385697, 101.451
0, 2700.00000, 223.043, -30.1913, 223.48, -150.196, 223.382, 89.8331, 3.39645E-005, 36.1819, 0.429961, 131.614, 0.42912, 11.6087, 0.490639, -108.362, 0.0385697, 101.451
0, 2760.00000, 223.107, -30.1878, 223.428, -150.184, 223.358, 89.8314, 0.000121325, -103.454, 0.614057, 131.617, 0.490533, 11.621, 0.429358, -108.363, 0.0964453, -19.6225
0, 2820.00000, 223.107, -30.1878, 223.428, -150.184, 223.358, 89.8314, 0.000121325, -103.456, 0.614054, 131.617, 0.490538, 11.621, 0.429355, -108.363, 0.0964439, -19.6252
0, 2880.00000, 223.107, -30.1878, 223.428, -150.184, 223.358, 89.8314, 0.000121325, -103.456, 0.614054, 131.617, 0.490538, 11.621, 0.429355, -108.363, 0.0964439, -19.6252
0, 2940.00000, 223.107, -30.1878, 223.428, -150.184, 223.358, 89.8314, 0.000121325, -103.456, 0.614054, 131.617, 0.490538, 11.621, 0.429355, -108.363, 0.0964439, -19.6252
0, 3000.00000, 223.107, -30.1878, 223.428, -150.184, 223.358, 89.8314, 0.000121325, -103.456, 0.614054, 131.617, 0.490538, 11.621, 0.429355, -108.363, 0.0964439, -19.6252
0, 3060.00000, 223.052, -30.1797, 223.422, -150.207, 223.471, 89.8284, 5.22608E-005, -138.946, 0.491364, 131.625, 0.490552, 11.5984, 0.429138, -108.366, 0.0317984, -49.8926
0, 3120.00000, 223.052, -30.1797, 223.422, -150.207, 223.471, 89.8284, 5.22609E-005, -138.946, 0.491364, 131.625, 0.490552, 11.5984, 0.429138, -108.366, 0.0317985, -49.8927
0, 3180.00000, 223.052, -30.1797, 223.422, -150.207, 223.471, 89.8284, 5.22609E-005, -138.946, 0.491364, 131.625, 0.490552, 11.5984, 0.429138, -108.366, 0.0317985, -49.8927
0, 3240.00000, 223.052, -30.1797, 223.422, -150.207, 223.471, 89.8284, 5.22609E-005, -138.946, 0.491364, 131.625, 0.490552, 11.5984, 0.429138, -108.366, 0.0317985, -49.8927
0, 3300.00000, 223.052, -30.1797, 223.422, -150.207, 223.471, 89.8284, 5.22609E-005, -138.946, 0.491364, 131.625, 0.490552, 11.5984, 0.429138, -108.366, 0.0317985, -49.8927
0, 3360.00000, 223.363, -30.168, 223.246, -150.189, 223.414, 89.7982, 0.000142524, 2.95952, 0.552035, 131.637, 0.429556, 11.6165, 0.674527, -108.397, 0.134651, 82.9343
0, 3420.00000, 223.363, -30.1679, 223.246, -150.189, 223.414, 89.7982, 0.000142516, 2.96678, 0.552016, 131.637, 0.429571, 11.6164, 0.674532, -108.397, 0.134648, 82.9417
0, 3480.00000, 223.363, -30.1679, 223.246, -150.189, 223.414, 89.7982, 0.000142516, 2.96678, 0.552016, 131.637, 0.429571, 11.6164, 0.674532, -108.397, 0.134648, 82.9417
0, 3540.00000, 223.363, -30.1679, 223.246, -150.189, 223.414, 89.7982, 0.000142516, 2.96678, 0.552016, 131.637, 0.429571, 11.6164, 0.674532, -108.397, 0.134648, 82.9417
1, 0.00000, 223.363, -30.1679, 223.246, -150.189, 223.414, 89.7982, 0.000142516, 2.96678, 0.552016, 131.637, 0.429571, 11.6164, 0.674532, -108.397, 0.134648, 82.9417
1, 60.00000, 223.566, -30.1358, 223.802, -150.163, 223.877, 89.8618, 7.82174E-005, 100.593, 0.306399, 131.669, 0.428507, 11.6419, 0.428362, -108.333, 0.068402, 167.858
1, 120.00000, 223.566, -30.1358, 223.802, -150.163, 223.877, 89.8618, 7.8217E-005, 100.592, 0.306397, 131.669, 0.428504, 11.6419, 0.42836, -108.333, 0.0684016, 167.858
1, 180.00000, 223.566, -30.1358, 223.802, -150.163, 223.877, 89.8618, 7.8217E-005, 100.592, 0.306397, 131.669, 0.428504, 11.6419, 0.42836, -108.333, 0.0684016, 167.858
1, 240.00000, 223.566, -30.1358, 223.802, -150.163, 223.877, 89.8618, 7.8217E-005, 100.592, 0.306397, 131.669, 0.428504, 11.6419, 0.42836, -108.333, 0.0684016, 167.858
1, 300.00000, 223.566, -30.1358, 223.802, -150.163, 223.877, 89.8618, 7.8217E-005, 100.592, 0.306397, 131.669, 0.428504, 11.6419, 0.42836, -108.333, 0.0684016, 167.858
1, 360.00000, 223.603, -30.1402, 223.808, -150.171, 223.932, 89.8645, 3.83234E-005, 102.899, 0.306346, 131.665, 0.36728, 11.6345, 0.367075, -108.33, 0.033108, 165.713
1, 420.00000, 223.603, -30.1402, 223.808, -150.171, 223.932, 89.8645, 3.83232E-005, 102.898, 0.306346, 131.665, 0.367279, 11.6345, 0.367075, -108.33, 0.0331079, 165.712
1, 480.00000, 223.603, -30.1402, 223.808, -150.171, 223.932, 89.8645, 3.83232E-005, 102.898, 0.306346, 131.665, 0.367279, 11.6345, 0.367075, -108.33, 0.0331079, 165.712
1, 540.00000, 223.603, -30.1402, 223.808, -150.171, 223.932, 89.8645, 3.83232E-005, 102.898, 0.306346, 131.665, 0.367279, 11.6345, 0.367075, -108.33, 0.0331079, 165.712
1, 600.00000, 223.603, -30.1402, 223.808, -150.171, 223.932, 89.8645, 3.83232E-005, 102.898, 0.306346, 131.665, 0.367279, 11.6345, 0.367075, -108.33, 0.0331079, 165.712
1, 660.00000, 223.348, -30.148, 223.868, -150.178, 223.907, 89.8853, 4.66181E-005, -141.644, 0.429376, 131.657, 0.428377, 11.627, 0.367116, -108.31, 0.0345516, -59.1958
1, 720.00000, 223.348, -30.148, 223.868, -150.178, 223.907, 89.8853, 4.66182E-005, -141.644, 0.429375, 131.657, 0.428377, 11.627, 0.367116, -108.31, 0.0345516, -59.1965
1, 780.00000, 223.348, -30.148, 223.868, -150.178, 223.907, 89.8853, 4.66182E-005, -141.644, 0.429375, 131.657, 0.428377, 11.627, 0.367116, -108.31, 0.0345516, -59.1965
1, 840.00000, 223.348, -30.148, 223.868, -150.178, 223.907, 89.8853, 4.66182E-005, -141.644, 0.429375, 131.657, 0.428377, 11.627, 0.367116, -108.31, 0.0345516, -59.1965
1, 900.00000, 223.348, -30.148, 223.868, -150.178, 223.907, 89.8853, 4.66182E-005, -141.644, 0.429375, 131.657, 0.428377, 11.627, 0.367116, -108.31, 0.0345516, -59.1965
1, 960.00000, 223.467, -30.1449, 223.717, -150.183, 223.91, 89.8601, 0.000167233, 159.601, 0.306533, 131.66, 0.551144, 11.6219, 0.305926, -108.335, 0.136224, -127.596
1, 1020.00000, 223.467, -30.1449, 223.717, -150.183, 223.91, 89.8601, 0.000167232, 159.601, 0.306533, 131.66, 0.551144, 11.6219, 0.305926, -108.335, 0.136224, -127.596
1, 1080.00000, 223.467, -30.1449, 223.717, -150.183, 223.91, 89.8601, 0.000167232, 159.601, 0.306533, 131.66, 0.551144, 11.6219, 0.305926, -108.335, 0.136224, -127.596
1, 1140.00000, 223.467, -30.1449, 223.717, -150.183, 223.91, 89.8601, 0.000167232, 159.601, 0.306533, 131.66, 0.551144, 11.6219, 0.305926, -108.335, 0.136224, -127.596
1, 1200.00000, 223.467, -30.1449, 223.717, -150.183, 223.91, 89.8601, 0.000167232, 159.601, 0.306533, 131.66, 0.551144, 11.6219, 0.305926, -108.335, 0.136224, -127.596
1, 1260.00000, 223.5, -30.1252, 223.657, -150.179, 223.963, 89.8567, 4.30742E-005, -28.6793, 0.367785, 131.68, 0.306273, 11.6263, 0.367025, -108.338, 0.0395147, 55.7103
1, 1320.00000, 223.5, -30.1252, 223.657, -150.179, 223.963, 89.8567, 4.30744E-005, -28.6789, 0.367785, 131.68, 0.306273, 11.6263, 0.367025, -108.338, 0.0395149, 55.7106
1, 1380.00000, 223.5, -30.1252, 223.657, -150.179, 223.963, 89.8567, 4.30744E-005, -28.6789, 0.367785, 131.68, 0.306273, 11.6263, 0.367025, -108.338, 0.0395149, 55.7106
1, 1440.00000, 223.5, -30.1252, 223.657, -150.179, 223.963, 89.8567, 4.30744E-005, -28.6789, 0.367785, 131.68, 0.306273, 11.6263, 0.367025, -108.338, 0.0395149, 55.7106
1, 1500.00000, 223.5, -30.1252, 223.657, -150.179, 223.963, 89.8567, 4.30744E-005, -28.6789, 0.367785, 131.68, 0.306273, 11.6263, 0.367025, -108.338, 0.0395149, 55.7106
1, 1560.00000, 223.581, -30.1592, 223.898, -150.15, 223.781, 89.8622, 3.59746E-005, 38.0068, 0.306377, 131.646, 0.305943, 11.6555, 0.367324, -108.333, 0.036854, 103.893
1, 1620.00000, 223.581, -30.1592, 223.898, -150.15, 223.781, 89.8622, 3.59745E-005, 38.0069, 0.306377, 131.646, 0.305943, 11.6555, 0.367324, -108.333, 0.0368539, 103.893
1, 1680.00000, 223.581, -30.1592, 223.898, -150.15, 223.781, 89.8622, 3.59745E-005, 38.0069, 0.306377, 131.646, 0.305943, 11.6555, 0.367324, -108.333, 0.0368539, 103.893
1, 1740.00000, 223.581, -30.1592, 223.898, -150.15, 223.781, 89.8622, 3.59745E-005, 38.0069, 0.306377, 131.646, 0.305943, 11.6555, 0.367324, -108.333, 0.0368539, 103.893
1, 1800.00000, 223.581, -30.1592, 223.898, -150.15, 223.781, 89.8622, 3.59745E-005, 38.0069, 0.306377, 131.646, 0.305943, 11.6555, 0.367324, -108.333, 0.0368539, 103.893
1, 1860.00000, 223.512, -30.1486, 223.756, -150.16, 223.824, 89.8631, 0.000103539, 56.1409, 0.306469, 131.656, 0.367359, 11.6453, 0.489675, -108.332, 0.0964666, 128.289
1, 1920.00000, 223.512, -30.1486, 223.756, -150.16, 223.824, 89.8631, 0.000103534, 56.1428, 0.306472, 131.656, 0.367365, 11.6453, 0.48967, -108.332, 0.0964626, 128.291
1, 1980.00000, 223.512, -30.1486, 223.756, -150.16, 223.824, 89.8631, 0.000103534, 56.1428, 0.306472, 131.656, 0.367365, 11.6453, 0.48967, -108.332, 0.0964626, 128.291
1, 2040.00000, 223.512, -30.1486, 223.756, -150.16, 223.824, 89.8631, 0.000103534, 56.1428, 0.306472, 131.656, 0.367365, 11.6453, 0.48967, -108.332, 0.0964626, 128.291
1, 2100.00000, 223.512, -30.1486, 223.756, -150.16, 223.824, 89.8631, 0.000103534, 56.1428, 0.306472, 131.656, 0.367365, 11.6453, 0.48967, -108.332, 0.0964626, 128.291
1, 2160.00000, 223.581, -30.1356, 223.658, -150.163, 223.855, 89.8508, 3.57555E-005, 101.544, 0.367656, 131.669, 0.428774, 11.6419, 0.4284, -108.344, 0.0351274, 162.715
1, 2220.00000, 223.581, -30.1356, 223.658, -150.163, 223.855, 89.8508, 3.5761E-005, 101.546, 0.367651, 131.669, 0.428779, 11.6419, 0.428402, -108.344, 0.0351323, 162.717
1, 2280.00000, 223.581, -30.1356, 223.658, -150.163, 223.855, 89.8508, 3.5761E-005, 101.546, 0.367651, 131.669, 0.428779, 11.6419, 0.428402, -108.344, 0.0351323, 162.717
1, 2340.00000, 223.581, -30.1356, 223.658, -150.163, 223.855, 89.8508, 3.5761E-005, 101.546, 0.367651, 131.669, 0.428779, 11.6419, 0.428402, -108.344, 0.0351323, 162.717
1, 2400.00000, 223.581, -30.1356, 223.658, -150.163, 223.855, 89.8508, 3.5761E-005, 101.546, 0.367651, 131.669, 0.428779, 11.6419, 0.428402, -108.344, 0.0351323, 162.717
1, 2460.00000, 223.668, -30.1485, 223.786, -150.14, 223.741, 89.8535, 6.73575E-005, 134.543, 0.306259, 131.657, 0.428544, 11.6654, 0.367382, -108.341, 0.0552841, -164.518
1, 2520.00000, 223.668, -30.1485, 223.786, -150.14, 223.741, 89.8535, 6.73526E-005, 134.537, 0.306257, 131.657, 0.428534, 11.6654, 0.367389, -108.341, 0.0552807, -164.526
1, 2580.00000, 223.668, -30.1485, 223.786, -150.14, 223.741, 89.8535, 6.73527E-005, 134.537, 0.306257, 131.657, 0.428534, 11.6654, 0.367389, -108.341, 0.0552807, -164.526
1, 2640.00000, 223.668, -30.1485, 223.786, -150.14, 223.741, 89.8535, 6.73527E-005, 134.537, 0.306257, 131.657, 0.428534, 11.6654, 0.367389, -108.341, 0.0552807, -164.526
1, 2700.00000, 223.668, -30.1485, 223.786, -150.14, 223.741, 89.8535, 6.73527E-005, 134.537, 0.306257, 131.657, 0.428534, 11.6654, 0.367389, -108.341, 0.0552807, -164.526
1, 2760.00000, 223.648, -30.1376, 223.732, -150.16, 223.881, 89.8478, 7.80159E-005, -164.906, 0.367542, 131.668, 0.428638, 11.6455, 0.305966, -108.347, 0.0505006, -94.356
1, 2820.00000, 223.648, -30.1376, 223.732, -150.16, 223.881, 89.8478, 7.80161E-005, -164.906, 0.367542, 131.667, 0.428638, 11.6455, 0.305966, -108.347, 0.0505008, -94.3564
1, 2880.00000, 223.648, -30.1376, 223.732, -150.16, 223.881, 89.8478, 7.80161E-005, -164.906, 0.367542, 131.667, 0.428638, 11.6455, 0.305966, -108.347, 0.0505008, -94.3564
1, 2940.00000, 223.648, -30.1376, 223.732, -150.16, 223.881, 89.8478, 7.80161E-005, -164.906, 0.367542, 131.667, 0.428638, 11.6455, 0.305966, -108.347, 0.0505008, -94.3564
1, 3000.00000, 223.648, -30.1376, 223.732, -150.16, 223.881, 89.8478, 7.80161E-005, -164.906, 0.367542, 131.667, 0.428638, 11.6455, 0.305966, -108.347, 0.0505008, -94.3564
1, 3060.00000, 223.493, -30.1532, 223.88, -150.165, 223.871, 89.8675, 0.000128712, -83.3506, 0.490386, 131.652, 0.305973, 11.6405, 0.305979, -108.327, 0.107992, -5.23058
1, 3120.00000, 223.493, -30.1532, 223.88, -150.165, 223.871, 89.8675, 0.00012872, -83.3491, 0.490395, 131.652, 0.305967, 11.6405, 0.305979, -108.327, 0.108, -5.22967
1, 3180.00000, 223.493, -30.1532, 223.88, -150.165, 223.871, 89.8675, 0.00012872, -83.3491, 0.490395, 131.652, 0.305967, 11.6405, 0.305979, -108.327, 0.108, -5.22967
1, 3240.00000, 223.493, -30.1532, 223.88, -150.165, 223.871, 89.8675, 0.00012872, -83.3491, 0.490395, 131.652, 0.305967, 11.6405, 0.305979, -108.327, 0.108, -5.22967
1, 3300.00000, 223.493, -30.1532, 223.88, -150.165, 223.871, 89.8675, 0.00012872, -83.3491, 0.490395, 131.652, 0.305967, 11.6405, 0.305979, -108.327, 0.108, -5.22967
1, 3360.00000, 223.64, -30.1455, 223.751, -150.153, 223.766, 89.8503, 8.39937E-005, -114.192, 0.428814, 131.66, 0.367374, 11.6518, 0.306123, -108.345, 0.0623351, -26.0582
1, 3420.00000, 223.64, -30.1455, 223.751, -150.153, 223.766, 89.8503, 8.39938E-005, -114.192, 0.428814, 131.66, 0.367374, 11.6518, 0.306123, -108.345, 0.0623352, -26.0581
