hour, t(sec), P1 (kW), Q1 (kvar), P2 (kW), Q2 (kvar), P3 (kW), Q3 (kvar), P4 (kW), Q4 (kvar)
0, 60.00000, -0.0706804, -0.0232315, -0.0706804, -0.0232315, -0.0706803, -0.0232315, -3.04241E-011, -7.0014E-013
0, 120.00000, -0.07068, -0.0232314, -0.07068, -0.0232314, -0.07068, -0.0232314, -3.04227E-011, -6.99274E-013
0, 180.00000, -0.07068, -0.0232314, -0.07068, -0.0232314, -0.07068, -0.0232314, -3.04227E-011, -6.99251E-013
0, 240.00000, -0.07068, -0.0232314, -0.07068, -0.0232314, -0.07068, -0.0232314, -3.04227E-011, -6.99251E-013
0, 300.00000, -0.07068, -0.0232314, -0.07068, -0.0232314, -0.07068, -0.0232314, -3.04227E-011, -6.99251E-013
0, 360.00000, -0.0618439, -0.0203272, -0.0706807, -0.0232316, -0.0883483, -0.0290388, 1.25807E-009, -4.33492E-009
0, 420.00000, -0.061845, -0.0203275, -0.07068, -0.0232314, -0.08835, -0.0290392, 1.25812E-009, -4.33535E-009
0, 480.00000, -0.061845, -0.0203275, -0.07068, -0.0232314, -0.08835, -0.0290392, 1.25812E-009, -4.33535E-009
0, 540.00000, -0.061845, -0.0203275, -0.07068, -0.0232314, -0.08835, -0.0290392, 1.25812E-009, -4.33535E-009
0, 600.00000, -0.061845, -0.0203275, -0.07068, -0.0232314, -0.08835, -0.0290392, 1.25812E-009, -4.33535E-009
0, 660.00000, -0.0883491, -0.029039, -0.0618456, -0.0203277, -0.0706811, -0.0232317, 5.22869E-010, -5.16033E-009
0, 720.00000, -0.08835, -0.0290392, -0.061845, -0.0203275, -0.07068, -0.0232314, 5.22952E-010, -5.16104E-009
0, 780.00000, -0.08835, -0.0290392, -0.061845, -0.0203275, -0.07068, -0.0232314, 5.22952E-010, -5.16104E-009
0, 840.00000, -0.08835, -0.0290392, -0.061845, -0.0203275, -0.07068, -0.0232314, 5.22952E-010, -5.16104E-009
0, 900.00000, -0.08835, -0.0290392, -0.061845, -0.0203275, -0.07068, -0.0232314, 5.22952E-010, -5.16104E-009
0, 960.00000, -0.05301, -0.0174236, -0.0706799, -0.0232314, -0.07068, -0.0232314, 8.57617E-010, -2.22635E-009
0, 1020.00000, -0.05301, -0.0174236, -0.07068, -0.0232314, -0.07068, -0.0232314, 8.57619E-010, -2.22636E-009
0, 1080.00000, -0.05301, -0.0174236, -0.07068, -0.0232314, -0.07068, -0.0232314, 8.57619E-010, -2.22636E-009
0, 1140.00000, -0.05301, -0.0174236, -0.07068, -0.0232314, -0.07068, -0.0232314, 8.57619E-010, -2.22636E-009
0, 1200.00000, -0.05301, -0.0174236, -0.07068, -0.0232314, -0.07068, -0.0232314, 8.57619E-010, -2.22636E-009
0, 1260.00000, -0.079515, -0.0261353, -0.061845, -0.0203275, -0.07068, -0.0232314, 2.17454E-010, -2.22892E-009
0, 1320.00000, -0.079515, -0.0261353, -0.061845, -0.0203275, -0.07068, -0.0232314, 2.17453E-010, -2.22891E-009
0, 1380.00000, -0.079515, -0.0261353, -0.061845, -0.0203275, -0.07068, -0.0232314, 2.17453E-010, -2.22891E-009
0, 1440.00000, -0.079515, -0.0261353, -0.061845, -0.0203275, -0.07068, -0.0232314, 2.17453E-010, -2.22891E-009
0, 1500.00000, -0.079515, -0.0261353, -0.061845, -0.0203275, -0.07068, -0.0232314, 2.17453E-010, -2.22891E-009
0, 1560.00000, -0.0530086, -0.0174231, -0.0883539, -0.0290403, -0.0618454, -0.0203276, 2.08781E-009, -7.48776E-009
0, 1620.00000, -0.05301, -0.0174235, -0.08835, -0.0290392, -0.061845, -0.0203275, 2.08728E-009, -7.48542E-009
0, 1680.00000, -0.05301, -0.0174235, -0.08835, -0.0290392, -0.061845, -0.0203275, 2.08728E-009, -7.48542E-009
0, 1740.00000, -0.05301, -0.0174235, -0.08835, -0.0290392, -0.061845, -0.0203275, 2.08728E-009, -7.48542E-009
0, 1800.00000, -0.05301, -0.0174235, -0.08835, -0.0290392, -0.061845, -0.0203275, 2.08728E-009, -7.48542E-009
0, 1860.00000, -0.0795152, -0.0261353, -0.0530098, -0.0174234, -0.079512, -0.0261343, 8.58186E-010, -6.38382E-009
0, 1920.00000, -0.079515, -0.0261353, -0.05301, -0.0174236, -0.079515, -0.0261353, 8.58283E-010, -6.38433E-009
0, 1980.00000, -0.079515, -0.0261353, -0.05301, -0.0174236, -0.079515, -0.0261353, 8.58283E-010, -6.38433E-009
0, 2040.00000, -0.079515, -0.0261353, -0.05301, -0.0174236, -0.079515, -0.0261353, 8.58283E-010, -6.38433E-009
0, 2100.00000, -0.079515, -0.0261353, -0.05301, -0.0174236, -0.079515, -0.0261353, 8.58283E-010, -6.38433E-009
0, 2160.00000, -0.088351, -0.0290397, -0.0795143, -0.026135, -0.0618469, -0.0203281, 3.89646E-010, -4.93095E-009
0, 2220.00000, -0.08835, -0.0290392, -0.079515, -0.0261353, -0.061845, -0.0203275, 3.89726E-010, -4.93136E-009
0, 2280.00000, -0.08835, -0.0290392, -0.079515, -0.0261353, -0.061845, -0.0203275, 3.89726E-010, -4.93136E-009
0, 2340.00000, -0.08835, -0.0290392, -0.079515, -0.0261353, -0.061845, -0.0203275, 3.89726E-010, -4.93136E-009
0, 2400.00000, -0.08835, -0.0290392, -0.079515, -0.0261353, -0.061845, -0.0203275, 3.89726E-010, -4.93136E-009
0, 2460.00000, -0.05301, -0.0174236, -0.05301, -0.0174235, -0.079515, -0.0261353, 1.29954E-009, -5.89426E-009
0, 2520.00000, -0.05301, -0.0174236, -0.05301, -0.0174235, -0.079515, -0.0261353, 1.29954E-009, -5.89428E-009
0, 2580.00000, -0.05301, -0.0174236, -0.05301, -0.0174235, -0.079515, -0.0261353, 1.29954E-009, -5.89428E-009
0, 2640.00000, -0.05301, -0.0174236, -0.05301, -0.0174235, -0.079515, -0.0261353, 1.29954E-009, -5.89428E-009
0, 2700.00000, -0.05301, -0.0174236, -0.05301, -0.0174235, -0.079515, -0.0261353, 1.29954E-009, -5.89428E-009
0, 2760.00000, -0.0618453, -0.0203276, -0.0706793, -0.0232311, -0.0795157, -0.0261355, 6.50635E-010, -1.7243E-009
0, 2820.00000, -0.061845, -0.0203275, -0.07068, -0.0232314, -0.079515, -0.0261353, 6.50631E-010, -1.72419E-009
0, 2880.00000, -0.061845, -0.0203275, -0.07068, -0.0232314, -0.079515, -0.0261353, 6.5063E-010, -1.72419E-009
0, 2940.00000, -0.061845, -0.0203275, -0.07068, -0.0232314, -0.079515, -0.0261353, 6.5063E-010, -1.72419E-009
0, 3000.00000, -0.061845, -0.0203275, -0.07068, -0.0232314, -0.079515, -0.0261353, 6.5063E-010, -1.72419E-009
0, 3060.00000, -0.079515, -0.0261353, -0.061845, -0.0203275, -0.061845, -0.0203275, 1.68614E-010, -3.03172E-009
0, 3120.00000, -0.079515, -0.0261353, -0.061845, -0.0203275, -0.061845, -0.0203275, 1.68615E-010, -3.03172E-009
0, 3180.00000, -0.079515, -0.0261353, -0.061845, -0.0203275, -0.061845, -0.0203275, 1.68615E-010, -3.03172E-009
0, 3240.00000, -0.079515, -0.0261353, -0.061845, -0.0203275, -0.061845, -0.0203275, 1.68615E-010, -3.03172E-009
0, 3300.00000, -0.079515, -0.0261353, -0.061845, -0.0203275, -0.061845, -0.0203275, 1.68615E-010, -3.03172E-009
0, 3360.00000, -0.0441772, -0.0145205, -0.0795128, -0.0261346, -0.0883492, -0.0290389, 3.42918E-009, -1.30852E-008
0, 3420.00000, -0.044175, -0.0145196, -0.079515, -0.0261353, -0.0883501, -0.0290393, 3.42968E-009, -1.30875E-008
0, 3480.00000, -0.044175, -0.0145196, -0.079515, -0.0261353, -0.0883501, -0.0290393, 3.42968E-009, -1.30875E-008
0, 3540.00000, -0.044175, -0.0145196, -0.079515, -0.0261353, -0.0883501, -0.0290393, 3.42968E-009, -1.30875E-008
1, 0.00000, -0.044175, -0.0145196, -0.079515, -0.0261353, -0.0883501, -0.0290393, 3.42968E-009, -1.30875E-008
1, 60.00000, -0.0441752, -0.0145197, -0.0618454, -0.0203276, -0.0618452, -0.0203275, 8.18171E-010, -2.22467E-009
1, 120.00000, -0.044175, -0.0145196, -0.061845, -0.0203275, -0.061845, -0.0203275, 8.18163E-010, -2.22464E-009
1, 180.00000, -0.044175, -0.0145196, -0.061845, -0.0203275, -0.061845, -0.0203275, 8.18163E-010, -2.22464E-009
1, 240.00000, -0.044175, -0.0145196, -0.061845, -0.0203275, -0.061845, -0.0203275, 8.18163E-010, -2.22464E-009
1, 300.00000, -0.044175, -0.0145196, -0.061845, -0.0203275, -0.061845, -0.0203275, 8.18163E-010, -2.22464E-009
1, 360.00000, -0.061845, -0.0203275, -0.0441751, -0.0145197, -0.0618449, -0.0203274, 3.43163E-010, -2.87173E-009
1, 420.00000, -0.061845, -0.0203275, -0.044175, -0.0145196, -0.061845, -0.0203274, 3.43168E-010, -2.87177E-009
1, 480.00000, -0.061845, -0.0203275, -0.044175, -0.0145196, -0.061845, -0.0203274, 3.43168E-010, -2.87177E-009
1, 540.00000, -0.061845, -0.0203275, -0.044175, -0.0145196, -0.061845, -0.0203274, 3.43168E-010, -2.87177E-009
1, 600.00000, -0.061845, -0.0203275, -0.044175, -0.0145196, -0.061845, -0.0203274, 3.43168E-010, -2.87177E-009
1, 660.00000, -0.05301, -0.0174236, -0.0530099, -0.0174235, -0.061845, -0.0203275, 1.66745E-010, -6.58386E-010
1, 720.00000, -0.05301, -0.0174236, -0.05301, -0.0174235, -0.061845, -0.0203275, 1.66746E-010, -6.58382E-010
1, 780.00000, -0.05301, -0.0174236, -0.05301, -0.0174235, -0.061845, -0.0203275, 1.66746E-010, -6.58381E-010
1, 840.00000, -0.05301, -0.0174236, -0.05301, -0.0174235, -0.061845, -0.0203275, 1.66746E-010, -6.58381E-010
1, 900.00000, -0.05301, -0.0174236, -0.05301, -0.0174235, -0.061845, -0.0203275, 1.66746E-010, -6.58381E-010
1, 960.00000, -0.044175, -0.0145196, -0.05301, -0.0174235, -0.0618451, -0.0203275, 6.07888E-010, -1.74853E-009
1, 1020.00000, -0.044175, -0.0145196, -0.05301, -0.0174235, -0.061845, -0.0203275, 6.07883E-010, -1.74851E-009
1, 1080.00000, -0.044175, -0.0145196, -0.05301, -0.0174235, -0.061845, -0.0203275, 6.07883E-010, -1.74851E-009
1, 1140.00000, -0.044175, -0.0145196, -0.05301, -0.0174235, -0.061845, -0.0203275, 6.07883E-010, -1.74851E-009
1, 1200.00000, -0.044175, -0.0145196, -0.05301, -0.0174235, -0.061845, -0.0203275, 6.07883E-010, -1.74851E-009
1, 1260.00000, -0.061845, -0.0203275, -0.061845, -0.0203275, -0.0530099, -0.0174235, -1.10101E-011, -7.16595E-010
1, 1320.00000, -0.061845, -0.0203275, -0.061845, -0.0203275, -0.05301, -0.0174235, -1.10113E-011, -7.16582E-010
1, 1380.00000, -0.061845, -0.0203275, -0.061845, -0.0203275, -0.05301, -0.0174235, -1.10113E-011, -7.16581E-010
1, 1440.00000, -0.061845, -0.0203275, -0.061845, -0.0203275, -0.05301, -0.0174235, -1.10113E-011, -7.16581E-010
1, 1500.00000, -0.061845, -0.0203275, -0.061845, -0.0203275, -0.05301, -0.0174235, -1.10113E-011, -7.16581E-010
1, 1560.00000, -0.044175, -0.0145196, -0.061845, -0.0203274, -0.05301, -0.0174236, 6.15965E-010, -1.64421E-009
1, 1620.00000, -0.044175, -0.0145196, -0.061845, -0.0203275, -0.05301, -0.0174236, 6.15967E-010, -1.64421E-009
1, 1680.00000, -0.044175, -0.0145196, -0.061845, -0.0203275, -0.05301, -0.0174236, 6.15967E-010, -1.64421E-009
1, 1740.00000, -0.044175, -0.0145196, -0.061845, -0.0203275, -0.05301, -0.0174236, 6.15967E-010, -1.64421E-009
1, 1800.00000, -0.044175, -0.0145196, -0.061845, -0.0203275, -0.05301, -0.0174236, 6.15967E-010, -1.64421E-009
1, 1860.00000, -0.0795145, -0.0261351, -0.0618441, -0.0203272, -0.0795157, -0.0261355, 3.39207E-010, -2.91482E-009
1, 1920.00000, -0.079515, -0.0261353, -0.061845, -0.0203275, -0.079515, -0.0261353, 3.39149E-010, -2.91452E-009
1, 1980.00000, -0.079515, -0.0261353, -0.061845, -0.0203275, -0.079515, -0.0261353, 3.39149E-010, -2.91451E-009
1, 2040.00000, -0.079515, -0.0261353, -0.061845, -0.0203275, -0.079515, -0.0261353, 3.39149E-010, -2.91451E-009
1, 2100.00000, -0.079515, -0.0261353, -0.061845, -0.0203275, -0.079515, -0.0261353, 3.39149E-010, -2.91451E-009
1, 2160.00000, -0.0441756, -0.0145198, -0.0441745, -0.0145195, -0.0618446, -0.0203273, 6.07264E-010, -2.59157E-009
1, 2220.00000, -0.044175, -0.0145196, -0.044175, -0.0145196, -0.061845, -0.0203275, 6.073E-010, -2.59168E-009
1, 2280.00000, -0.044175, -0.0145196, -0.044175, -0.0145196, -0.061845, -0.0203275, 6.073E-010, -2.59168E-009
1, 2340.00000, -0.044175, -0.0145196, -0.044175, -0.0145196, -0.061845, -0.0203275, 6.07299E-010, -2.59168E-009
1, 2400.00000, -0.044175, -0.0145196, -0.044175, -0.0145196, -0.061845, -0.0203275, 6.07299E-010, -2.59168E-009
1, 2460.00000, -0.0618454, -0.0203276, -0.0618463, -0.0203279, -0.0618439, -0.0203271, -1.90693E-011, -6.43143E-013
1, 2520.00000, -0.061845, -0.0203275, -0.061845, -0.0203275, -0.061845, -0.0203275, -1.90662E-011, -6.59278E-013
1, 2580.00000, -0.061845, -0.0203275, -0.061845, -0.0203275, -0.061845, -0.0203275, -1.90662E-011, -6.59207E-013
1, 2640.00000, -0.061845, -0.0203275, -0.061845, -0.0203275, -0.061845, -0.0203275, -1.90662E-011, -6.59208E-013
1, 2700.00000, -0.061845, -0.0203275, -0.061845, -0.0203275, -0.061845, -0.0203275, -1.90662E-011, -6.59208E-013
1, 2760.00000, -0.0618451, -0.0203275, -0.044175, -0.0145196, -0.05301, -0.0174235, 1.9188E-010, -2.20862E-009
1, 2820.00000, -0.061845, -0.0203275, -0.044175, -0.0145196, -0.05301, -0.0174235, 1.91877E-010, -2.2086E-009
1, 2880.00000, -0.061845, -0.0203275, -0.044175, -0.0145196, -0.05301, -0.0174235, 1.91877E-010, -2.2086E-009
1, 2940.00000, -0.061845, -0.0203275, -0.044175, -0.0145196, -0.05301, -0.0174235, 1.91877E-010, -2.2086E-009
1, 3000.00000, -0.061845, -0.0203275, -0.044175, -0.0145196, -0.05301, -0.0174235, 1.91877E-010, -2.2086E-009
1, 3060.00000, -0.0618438, -0.0203271, -0.053011, -0.0174239, -0.061845, -0.0203275, 3.48528E-011, -8.10836E-010
1, 3120.00000, -0.061845, -0.0203275, -0.05301, -0.0174235, -0.061845, -0.0203275, 3.48612E-011, -8.11105E-010
1, 3180.00000, -0.061845, -0.0203275, -0.05301, -0.0174235, -0.061845, -0.0203275, 3.48613E-011, -8.11105E-010
1, 3240.00000, -0.061845, -0.0203275, -0.05301, -0.0174235, -0.061845, -0.0203275, 3.48613E-011, -8.11105E-010
1, 3300.00000, -0.061845, -0.0203275, -0.05301, -0.0174235, -0.061845, -0.0203275, 3.48613E-011, -8.11105E-010
1, 3360.00000, -0.044175, -0.0145196, -0.044175, -0.0145196, -0.05301, -0.0174235, 1.21178E-010, -6.96691E-010
1, 3420.00000, -0.044175, -0.0145196, -0.044175, -0.0145196, -0.05301, -0.0174235, 1.21178E-010, -6.96691E-010
1, 3480.00000, -0.044175, -0.0145196, -0.044175, -0.0145196, -0.05301, -0.0174235, 1.21178E-010, -6.96692E-010
1, 3540.00000, -0.044175, -0.0145196, -0.044175, -0.0145196, -0.05301, -0.0174235, 1.21178E-010, -6.96692E-010
2, 0.00000, -0.044175, -0.0145196, -0.044175, -0.0145196, -0.05301, -0.0174235, 1.21178E-010, -6.96692E-010
2, 60.00000, -0.044175, -0.0145196, -0.061845, -0.0203275, -0.044175, -0.0145196, 6.09008E-010, -2.35219E-009
2, 120.00000, -0.044175, -0.0145196, -0.061845, -0.0203275, -0.044175, -0.0145196, 6.09007E-010, -2.35218E-009
2, 180.00000, -0.044175, -0.0145196, -0.061845, -0.0203275, -0.044175, -0.0145196, 6.09007E-010, -2.35218E-009
2, 240.00000, -0.044175, -0.0145196, -0.061845, -0.0203275, -0.044175, -0.0145196, 6.09007E-010, -2.35218E-009
2, 300.00000, -0.044175, -0.0145196, -0.061845, -0.0203275, -0.044175, -0.0145196, 6.09007E-010, -2.35218E-009
2, 360.00000, -0.07068, -0.0232314, -0.05301, -0.0174236, -0.044175, -0.0145196, 5.24407E-010, -4.89864E-009
2, 420.00000, -0.07068, -0.0232314, -0.05301, -0.0174236, -0.044175, -0.0145196, 5.24409E-010, -4.89865E-009
2, 480.00000, -0.07068, -0.0232314, -0.05301, -0.0174236, -0.044175, -0.0145196, 5.24409E-010, -4.89865E-009
2, 540.00000, -0.07068, -0.0232314, -0.05301, -0.0174236, -0.044175, -0.0145196, 5.24409E-010, -4.89865E-009
2, 600.00000, -0.07068, -0.0232314, -0.05301, -0.0174236, -0.044175, -0.0145196, 5.24409E-010, -4.89865E-009
2, 660.00000, -0.0441751, -0.0145197, -0.0618452, -0.0203275, -0.0530102, -0.0174236, 6.45468E-010, -1.55146E-009
2, 720.00000, -0.044175, -0.0145196, -0.061845, -0.0203275, -0.05301, -0.0174236, 6.45462E-010, -1.55145E-009
2, 780.00000, -0.044175, -0.0145196, -0.061845, -0.0203275, -0.05301, -0.0174236, 6.45462E-010, -1.55145E-009
2, 840.00000, -0.044175, -0.0145196, -0.061845, -0.0203275, -0.05301, -0.0174236, 6.45462E-010, -1.55145E-009
2, 900.00000, -0.044175, -0.0145196, -0.061845, -0.0203275, -0.05301, -0.0174236, 6.45462E-010, -1.55145E-009
2, 960.00000, -0.05301, -0.0174236, -0.05301, -0.0174235, -0.061845, -0.0203275, 1.61788E-010, -6.60417E-010
2, 1020.00000, -0.05301, -0.0174236, -0.05301, -0.0174235, -0.061845, -0.0203275, 1.61788E-010, -6.60416E-010
2, 1080.00000, -0.05301, -0.0174236, -0.05301, -0.0174235, -0.061845, -0.0203275, 1.61788E-010, -6.60416E-010
2, 1140.00000, -0.05301, -0.0174236, -0.05301, -0.0174235, -0.061845, -0.0203275, 1.61788E-010, -6.60416E-010
2, 1200.00000, -0.05301, -0.0174236, -0.05301, -0.0174235, -0.061845, -0.0203275, 1.61788E-010, -6.60416E-010
2, 1260.00000, -0.0530111, -0.0174239, -0.0618445, -0.0203273, -0.0530098, -0.0174235, 1.55703E-010, -5.68328E-010
2, 1320.00000, -0.0530099, -0.0174235, -0.0618449, -0.0203274, -0.0530099, -0.0174235, 1.55747E-010, -5.6846E-010
2, 1380.00000, -0.05301, -0.0174235, -0.061845, -0.0203275, -0.05301, -0.0174236, 1.55747E-010, -5.68462E-010
2, 1440.00000, -0.05301, -0.0174235, -0.061845, -0.0203275, -0.05301, -0.0174236, 1.55747E-010, -5.68462E-010
2, 1500.00000, -0.05301, -0.0174235, -0.061845, -0.0203275, -0.05301, -0.0174236, 1.55747E-010, -5.68462E-010
2, 1560.00000, -0.061845, -0.0203275, -0.05301, -0.0174236, -0.05301, -0.0174235, -3.37915E-011, -8.13356E-010
2, 1620.00000, -0.061845, -0.0203275, -0.05301, -0.0174236, -0.05301, -0.0174235, -3.3791E-011, -8.13365E-010
2, 1680.00000, -0.061845, -0.0203275, -0.05301, -0.0174236, -0.05301, -0.0174235, -3.3791E-011, -8.13365E-010
2, 1740.00000, -0.061845, -0.0203275, -0.05301, -0.0174236, -0.05301, -0.0174235, -3.3791E-011, -8.13365E-010
2, 1800.00000, -0.061845, -0.0203275, -0.05301, -0.0174236, -0.05301, -0.0174235, -3.3791E-011, -8.13365E-010
2, 1860.00000, -0.0618448, -0.0203274, -0.05301, -0.0174235, -0.0618449, -0.0203274, 1.76213E-011, -8.15917E-010
2, 1920.00000, -0.061845, -0.0203275, -0.05301, -0.0174235, -0.061845, -0.0203275, 1.7622E-011, -8.15947E-010
2, 1980.00000, -0.061845, -0.0203275, -0.05301, -0.0174235, -0.061845, -0.0203275, 1.7622E-011, -8.15947E-010
2, 2040.00000, -0.061845, -0.0203275, -0.05301, -0.0174235, -0.061845, -0.0203275, 1.7622E-011, -8.15947E-010
2, 2100.00000, -0.061845, -0.0203275, -0.05301, -0.0174235, -0.061845, -0.0203275, 1.7622E-011, -8.15947E-010
2, 2160.00000, -0.0441747, -0.0145195, -0.0441751, -0.0145197, -0.0530103, -0.0174236, 1.58796E-010, -6.64424E-010
2, 2220.00000, -0.044175, -0.0145196, -0.044175, -0.0145196, -0.05301, -0.0174235, 1.58781E-010, -6.64381E-010
2, 2280.00000, -0.044175, -0.0145196, -0.044175, -0.0145196, -0.05301, -0.0174235, 1.58781E-010, -6.64381E-010
2, 2340.00000, -0.044175, -0.0145196, -0.044175, -0.0145196, -0.05301, -0.0174235, 1.58781E-010, -6.64381E-010
2, 2400.00000, -0.044175, -0.0145196, -0.044175, -0.0145196, -0.05301, -0.0174235, 1.58781E-010, -6.64381E-010
2, 2460.00000, -0.0530099, -0.0174235, -0.0441749, -0.0145196, -0.0530102, -0.0174236, 8.67806E-011, -7.38908E-010
2, 2520.00000, -0.05301, -0.0174235, -0.044175, -0.0145196, -0.05301, -0.0174235, 8.67743E-011, -7.38882E-010
2, 2580.00000, -0.05301, -0.0174235, -0.044175, -0.0145196, -0.05301, -0.0174235, 8.67743E-011, -7.38883E-010
2, 2640.00000, -0.05301, -0.0174235, -0.044175, -0.0145196, -0.05301, -0.0174235, 8.67743E-011, -7.38883E-010
2, 2700.00000, -0.05301, -0.0174235, -0.044175, -0.0145196, -0.05301, -0.0174235, 8.67743E-011, -7.38883E-010
2, 2760.00000, -0.0353399, -0.0116157, -0.0530099, -0.0174235, -0.0530103, -0.0174236, 7.8567E-010, -2.25938E-009
2, 2820.00000, -0.03534, -0.0116157, -0.05301, -0.0174235, -0.05301, -0.0174236, 7.85658E-010, -2.25933E-009
2, 2880.00000, -0.03534, -0.0116157, -0.05301, -0.0174235, -0.05301, -0.0174236, 7.85658E-010, -2.25933E-009
2, 2940.00000, -0.03534, -0.0116157, -0.05301, -0.0174235, -0.05301, -0.0174236, 7.85658E-010, -2.25933E-009
2, 3000.00000, -0.03534, -0.0116157, -0.05301, -0.0174235, -0.05301, -0.0174236, 7.85658E-010, -2.25933E-009
2, 3060.00000, -0.05301, -0.0174236, -0.026505, -0.00871178, -0.0530099, -0.0174235, 1.07911E-009, -6.06795E-009
2, 3120.00000, -0.05301, -0.0174236, -0.026505, -0.00871178, -0.05301, -0.0174235, 1.07911E-009, -6.06797E-009
2, 3180.00000, -0.05301, -0.0174236, -0.026505, -0.00871178, -0.05301, -0.0174235, 1.07911E-009, -6.06797E-009
2, 3240.00000, -0.05301, -0.0174236, -0.026505, -0.00871178, -0.05301, -0.0174235, 1.07911E-009, -6.06797E-009
2, 3300.00000, -0.05301, -0.0174236, -0.026505, -0.00871178, -0.05301, -0.0174235, 1.07911E-009, -6.06797E-009
2, 3360.00000, -0.044175, -0.0145196, -0.0530099, -0.0174235, -0.0530101, -0.0174236, 2.51722E-010, -4.80831E-010
2, 3420.00000, -0.044175, -0.0145196, -0.05301, -0.0174235, -0.05301, -0.0174235, 2.51721E-010, -4.80828E-010
2, 3480.00000, -0.044175, -0.0145196, -0.05301, -0.0174235, -0.05301, -0.0174235, 2.51721E-010, -4.80828E-010
2, 3540.00000, -0.044175, -0.0145196, -0.05301, -0.0174235, -0.05301, -0.0174235, 2.51721E-010, -4.80828E-010
