hour, t(sec), V1, VAngle1, V2, VAngle2, V3, VAngle3, V4, VAngle4, I1, IAngle1, I2, IAngle2, I3, IAngle3, I4, IAngle4
0, 60.00000, 222.463, -30.0981, 222.783, -150.158, 223.084, 89.8936, 0.00384826, -52.1393, 0.539431, 131.707, 0.403984, 11.646, 0.403432, -108.301, 0.135398, -48.3906
0, 120.00000, 222.463, -30.098, 222.783, -150.158, 223.084, 89.8936, 0.00384814, -52.1385, 0.539424, 131.707, 0.403979, 11.6459, 0.40343, -108.301, 0.135394, -48.3899
0, 180.00000, 222.463, -30.098, 222.783, -150.158, 223.084, 89.8936, 0.00384814, -52.1385, 0.539424, 131.707, 0.403979, 11.6459, 0.40343, -108.301, 0.135394, -48.3899
0, 240.00000, 222.463, -30.098, 222.783, -150.158, 223.084, 89.8936, 0.00384814, -52.1385, 0.539424, 131.707, 0.403979, 11.6459, 0.40343, -108.301, 0.135394, -48.3899
0, 300.00000, 222.463, -30.098, 222.783, -150.158, 223.084, 89.8936, 0.00384814, -52.1385, 0.539424, 131.707, 0.403979, 11.6459, 0.40343, -108.301, 0.135394, -48.3899
0, 360.00000, 222.585, -30.1097, 222.591, -150.129, 222.777, 89.8623, 0.00122411, -149.622, 0.606488, 131.696, 0.606517, 11.6763, 0.605971, -108.334, 0.000396768, -80.575
0, 420.00000, 222.585, -30.1096, 222.591, -150.129, 222.778, 89.8622, 0.00122314, -149.609, 0.606507, 131.696, 0.606498, 11.6762, 0.605984, -108.333, 0.000397731, -76.7531
0, 480.00000, 222.585, -30.1096, 222.591, -150.129, 222.778, 89.8622, 0.00122314, -149.609, 0.606507, 131.696, 0.606498, 11.6762, 0.605984, -108.333, 0.000397698, -76.7521
0, 540.00000, 222.585, -30.1096, 222.591, -150.129, 222.778, 89.8622, 0.00122314, -149.609, 0.606507, 131.696, 0.606498, 11.6762, 0.605984, -108.333, 0.000397698, -76.7521
0, 600.00000, 222.585, -30.1096, 222.591, -150.129, 222.778, 89.8622, 0.00122314, -149.609, 0.606507, 131.696, 0.606498, 11.6762, 0.605984, -108.333, 0.000397698, -76.7521
0, 660.00000, 222.534, -30.0847, 222.567, -150.151, 223.055, 89.8685, 0.00145711, 53.146, 0.539262, 131.72, 0.539153, 11.6536, 0.537981, -108.326, 0.000716491, -91.113
0, 720.00000, 222.534, -30.0847, 222.568, -150.151, 223.055, 89.8686, 0.00145717, 53.1704, 0.539244, 131.72, 0.539159, 11.6539, 0.537986, -108.326, 0.000704668, -92.1208
0, 780.00000, 222.534, -30.0847, 222.568, -150.151, 223.055, 89.8686, 0.00145717, 53.1704, 0.539244, 131.72, 0.539159, 11.6539, 0.537986, -108.326, 0.000704673, -92.1226
0, 840.00000, 222.534, -30.0847, 222.568, -150.151, 223.055, 89.8686, 0.00145717, 53.1704, 0.539244, 131.72, 0.539159, 11.6539, 0.537986, -108.326, 0.000704673, -92.1226
0, 900.00000, 222.534, -30.0847, 222.568, -150.151, 223.055, 89.8686, 0.00145717, 53.1704, 0.539244, 131.72, 0.539159, 11.6539, 0.537986, -108.326, 0.000704673, -92.1226
0, 960.00000, 222.494, -30.1049, 222.754, -150.155, 222.957, 89.8799, 0.00374553, -69.5593, 0.606765, 131.701, 0.471373, 11.6496, 0.470936, -108.315, 0.135356, -48.3429
0, 1020.00000, 222.494, -30.1049, 222.754, -150.155, 222.957, 89.8799, 0.00374552, -69.5594, 0.606765, 131.701, 0.471373, 11.6496, 0.470936, -108.315, 0.135356, -48.3429
0, 1080.00000, 222.494, -30.1049, 222.754, -150.155, 222.957, 89.8799, 0.00374552, -69.5594, 0.606765, 131.701, 0.471373, 11.6496, 0.470936, -108.315, 0.135356, -48.3429
0, 1140.00000, 222.494, -30.1049, 222.754, -150.155, 222.957, 89.8799, 0.00374552, -69.5594, 0.606765, 131.701, 0.471373, 11.6496, 0.470936, -108.315, 0.135356, -48.3429
0, 1200.00000, 222.494, -30.1049, 222.754, -150.155, 222.957, 89.8799, 0.00374552, -69.5594, 0.606765, 131.701, 0.471373, 11.6496, 0.470936, -108.315, 0.135356, -48.3429
0, 1260.00000, 222.694, -30.1213, 222.707, -150.123, 222.742, 89.8662, 0.00386114, -21.7115, 0.740942, 131.684, 0.538817, 11.6814, 0.60608, -108.328, 0.178383, -29.2324
0, 1320.00000, 222.694, -30.1213, 222.707, -150.123, 222.742, 89.8662, 0.00386111, -21.7117, 0.740941, 131.684, 0.538818, 11.6814, 0.60608, -108.328, 0.178383, -29.2325
0, 1380.00000, 222.694, -30.1213, 222.707, -150.123, 222.742, 89.8662, 0.00386111, -21.7117, 0.740941, 131.684, 0.538818, 11.6814, 0.60608, -108.328, 0.178383, -29.2325
0, 1440.00000, 222.694, -30.1213, 222.707, -150.123, 222.742, 89.8662, 0.00386111, -21.7117, 0.740941, 131.684, 0.538818, 11.6814, 0.60608, -108.328, 0.178383, -29.2325
0, 1500.00000, 222.694, -30.1213, 222.707, -150.123, 222.742, 89.8662, 0.00386111, -21.7117, 0.740941, 131.684, 0.538818, 11.6814, 0.60608, -108.328, 0.178383, -29.2325
0, 1560.00000, 222.419, -30.1136, 222.853, -150.146, 222.941, 89.9039, 0.00430737, -31.386, 0.674424, 131.691, 0.471142, 11.6582, 0.470986, -108.29, 0.202988, -48.3309
0, 1620.00000, 222.419, -30.1137, 222.853, -150.146, 222.941, 89.9039, 0.00430701, -31.3966, 0.674416, 131.691, 0.471158, 11.6581, 0.470972, -108.29, 0.202982, -48.337
0, 1680.00000, 222.419, -30.1137, 222.853, -150.146, 222.941, 89.9039, 0.00430701, -31.3966, 0.674416, 131.691, 0.471158, 11.6581, 0.470972, -108.29, 0.202982, -48.337
0, 1740.00000, 222.419, -30.1137, 222.853, -150.146, 222.941, 89.9039, 0.00430701, -31.3966, 0.674416, 131.691, 0.471158, 11.6581, 0.470972, -108.29, 0.202982, -48.337
0, 1800.00000, 222.419, -30.1137, 222.853, -150.146, 222.941, 89.9039, 0.00430701, -31.3966, 0.674416, 131.691, 0.471158, 11.6581, 0.470972, -108.29, 0.202982, -48.337
0, 1860.00000, 222.418, -30.1153, 222.727, -150.148, 222.876, 89.881, 0.00511567, -80.4275, 0.606967, 131.691, 0.538784, 11.6555, 0.471096, -108.314, 0.117355, -78.1719
0, 1920.00000, 222.418, -30.1153, 222.727, -150.148, 222.876, 89.881, 0.0051157, -80.4233, 0.606976, 131.691, 0.538781, 11.6556, 0.471103, -108.314, 0.117357, -78.1671
0, 1980.00000, 222.418, -30.1153, 222.727, -150.148, 222.876, 89.881, 0.0051157, -80.4233, 0.606976, 131.691, 0.538781, 11.6556, 0.471103, -108.314, 0.117357, -78.1671
0, 2040.00000, 222.418, -30.1153, 222.727, -150.148, 222.876, 89.881, 0.0051157, -80.4233, 0.606976, 131.691, 0.538781, 11.6556, 0.471103, -108.314, 0.117357, -78.1671
0, 2100.00000, 222.418, -30.1153, 222.727, -150.148, 222.876, 89.881, 0.0051157, -80.4233, 0.606976, 131.691, 0.538781, 11.6556, 0.471103, -108.314, 0.117357, -78.1671
0, 2160.00000, 222.887, -30.0836, 222.408, -150.108, 222.774, 89.8319, 0.00387446, -92.9699, 0.673002, 131.723, 0.607032, 11.6955, 0.538621, -108.364, 0.116493, -78.5291
0, 2220.00000, 222.887, -30.0835, 222.407, -150.108, 222.774, 89.8319, 0.00387302, -92.9571, 0.672993, 131.723, 0.607, 11.6958, 0.538652, -108.363, 0.116463, -78.5139
0, 2280.00000, 222.887, -30.0835, 222.407, -150.108, 222.774, 89.8319, 0.00387301, -92.9572, 0.672993, 131.723, 0.607, 11.6958, 0.538653, -108.363, 0.116463, -78.5139
0, 2340.00000, 222.887, -30.0835, 222.407, -150.108, 222.774, 89.8319, 0.00387301, -92.9572, 0.672993, 131.723, 0.607, 11.6958, 0.538653, -108.363, 0.116463, -78.5139
0, 2400.00000, 222.887, -30.0835, 222.407, -150.108, 222.774, 89.8319, 0.00387301, -92.9572, 0.672993, 131.723, 0.607, 11.6958, 0.538653, -108.363, 0.116463, -78.5139
0, 2460.00000, 222.593, -30.1134, 222.756, -150.133, 222.871, 89.8659, 0.00400969, -105.347, 0.539104, 131.693, 0.538712, 11.6714, 0.403814, -108.329, 0.134921, -108.14
0, 2520.00000, 222.593, -30.1134, 222.756, -150.133, 222.871, 89.8659, 0.00400964, -105.347, 0.539103, 131.693, 0.538712, 11.6714, 0.403815, -108.329, 0.13492, -108.14
0, 2580.00000, 222.593, -30.1134, 222.756, -150.133, 222.871, 89.8659, 0.00400964, -105.347, 0.539103, 131.693, 0.538712, 11.6714, 0.403815, -108.329, 0.13492, -108.14
0, 2640.00000, 222.593, -30.1134, 222.756, -150.133, 222.871, 89.8659, 0.00400964, -105.347, 0.539103, 131.693, 0.538712, 11.6714, 0.403815, -108.329, 0.13492, -108.14
0, 2700.00000, 222.593, -30.1134, 222.756, -150.133, 222.871, 89.8659, 0.00400964, -105.347, 0.539103, 131.693, 0.538712, 11.6714, 0.403815, -108.329, 0.13492, -108.14
0, 2760.00000, 222.698, -30.1119, 222.799, -150.129, 222.95, 89.8663, 0.00109001, 134.281, 0.47149, 131.693, 0.471276, 11.6766, 0.538241, -108.329, 0.0669768, 71.4182
0, 2820.00000, 222.698, -30.1119, 222.799, -150.129, 222.95, 89.8663, 0.00109006, 134.284, 0.471488, 131.693, 0.471277, 11.6766, 0.53824, -108.329, 0.0669762, 71.4193
0, 2880.00000, 222.698, -30.1119, 222.799, -150.129, 222.95, 89.8663, 0.00109005, 134.284, 0.471488, 131.693, 0.471277, 11.6766, 0.53824, -108.329, 0.0669762, 71.4193
0, 2940.00000, 222.698, -30.1119, 222.799, -150.129, 222.95, 89.8663, 0.00109005, 134.284, 0.471488, 131.693, 0.471277, 11.6766, 0.53824, -108.329, 0.0669762, 71.4193
0, 3000.00000, 222.698, -30.1119, 222.799, -150.129, 222.95, 89.8663, 0.00109005, 134.284, 0.471488, 131.693, 0.471277, 11.6766, 0.53824, -108.329, 0.0669762, 71.4193
0, 3060.00000, 222.484, -30.1084, 222.621, -150.129, 222.739, 89.8676, 0.00337819, -103.376, 0.606789, 131.698, 0.673796, 11.6753, 0.538739, -108.327, 0.116716, -138.058
0, 3120.00000, 222.484, -30.1084, 222.621, -150.129, 222.739, 89.8676, 0.0033782, -103.376, 0.606789, 131.698, 0.673796, 11.6753, 0.538739, -108.327, 0.116717, -138.058
0, 3180.00000, 222.484, -30.1084, 222.621, -150.129, 222.739, 89.8676, 0.0033782, -103.376, 0.606789, 131.698, 0.673796, 11.6753, 0.538739, -108.327, 0.116717, -138.058
0, 3240.00000, 222.484, -30.1084, 222.621, -150.129, 222.739, 89.8676, 0.0033782, -103.376, 0.606789, 131.698, 0.673796, 11.6753, 0.538739, -108.327, 0.116717, -138.058
0, 3300.00000, 222.484, -30.1084, 222.621, -150.129, 222.739, 89.8676, 0.0033782, -103.376, 0.606789, 131.698, 0.673796, 11.6753, 0.538739, -108.327, 0.116717, -138.058
0, 3360.00000, 222.58, -30.1117, 222.789, -150.146, 222.901, 89.8756, 0.00257071, -55.1961, 0.606543, 131.694, 0.538614, 11.6589, 0.53835, -108.319, 0.0678778, -48.3112
0, 3420.00000, 222.58, -30.1117, 222.789, -150.146, 222.901, 89.8756, 0.00257025, -55.2057, 0.606531, 131.694, 0.538626, 11.6589, 0.538351, -108.319, 0.0678618, -48.3191
0, 3480.00000, 222.58, -30.1117, 222.789, -150.146, 222.901, 89.8756, 0.00257025, -55.2057, 0.606531, 131.694, 0.538626, 11.6589, 0.538351, -108.319, 0.0678618, -48.3191
0, 3540.00000, 222.58, -30.1117, 222.789, -150.146, 222.901, 89.8756, 0.00257025, -55.2057, 0.606531, 131.694, 0.538626, 11.6589, 0.538351, -108.319, 0.0678618, -48.3191
1, 0.00000, 222.58, -30.1117, 222.789, -150.146, 222.901, 89.8756, 0.00257025, -55.2057, 0.606531, 131.694, 0.538626, 11.6589, 0.538351, -108.319, 0.0678618, -48.3191
1, 60.00000, 223.285, -30.0747, 223.298, -150.095, 223.419, 89.8946, 0.00148445, -60.5532, 0.537435, 131.731, 0.470227, 11.7101, 0.469967, -108.3, 0.0674108, -48.2814
1, 120.00000, 223.285, -30.0747, 223.298, -150.095, 223.419, 89.8946, 0.00148443, -60.5507, 0.537433, 131.731, 0.470223, 11.7101, 0.469966, -108.3, 0.0674107, -48.2797
1, 180.00000, 223.285, -30.0747, 223.298, -150.095, 223.419, 89.8946, 0.00148443, -60.5507, 0.537433, 131.731, 0.470223, 11.7101, 0.469966, -108.3, 0.0674106, -48.2797
1, 240.00000, 223.285, -30.0747, 223.298, -150.095, 223.419, 89.8946, 0.00148443, -60.5507, 0.537433, 131.731, 0.470223, 11.7101, 0.469966, -108.3, 0.0674106, -48.2797
1, 300.00000, 223.285, -30.0747, 223.298, -150.095, 223.419, 89.8946, 0.00148443, -60.5507, 0.537433, 131.731, 0.470223, 11.7101, 0.469966, -108.3, 0.0674106, -48.2797
1, 360.00000, 223.554, -30.0769, 223.15, -150.074, 223.331, 89.8691, 0.00221838, -163.155, 0.402585, 131.729, 0.537761, 11.7308, 0.402987, -108.326, 0.13464, -168.329
1, 420.00000, 223.554, -30.0769, 223.15, -150.075, 223.331, 89.8691, 0.00221835, -163.155, 0.402585, 131.729, 0.53776, 11.7308, 0.402988, -108.326, 0.134639, -168.329
1, 480.00000, 223.554, -30.0769, 223.15, -150.075, 223.331, 89.8691, 0.00221835, -163.155, 0.402585, 131.729, 0.53776, 11.7308, 0.402988, -108.326, 0.134639, -168.329
1, 540.00000, 223.554, -30.0769, 223.15, -150.075, 223.331, 89.8691, 0.00221835, -163.155, 0.402585, 131.729, 0.53776, 11.7308, 0.402988, -108.326, 0.134639, -168.329
1, 600.00000, 223.554, -30.0769, 223.15, -150.075, 223.331, 89.8691, 0.00221835, -163.155, 0.402585, 131.729, 0.53776, 11.7308, 0.402988, -108.326, 0.134639, -168.329
1, 660.00000, 223.179, -30.0815, 223.317, -150.106, 223.482, 89.9054, 0.00294763, -111.801, 0.470475, 131.724, 0.470187, 11.6988, 0.402713, -108.29, 0.0674372, -108.069
1, 720.00000, 223.179, -30.0815, 223.317, -150.106, 223.482, 89.9054, 0.00294763, -111.801, 0.470474, 131.724, 0.470188, 11.6988, 0.402713, -108.29, 0.0674371, -108.07
1, 780.00000, 223.179, -30.0815, 223.317, -150.106, 223.482, 89.9054, 0.00294763, -111.801, 0.470474, 131.724, 0.470188, 11.6988, 0.402713, -108.29, 0.0674371, -108.07
1, 840.00000, 223.179, -30.0815, 223.317, -150.106, 223.482, 89.9054, 0.00294763, -111.801, 0.470474, 131.724, 0.470188, 11.6988, 0.402713, -108.29, 0.0674371, -108.07
1, 900.00000, 223.179, -30.0815, 223.317, -150.106, 223.482, 89.9054, 0.00294763, -111.801, 0.470474, 131.724, 0.470188, 11.6988, 0.402713, -108.29, 0.0674371, -108.07
1, 960.00000, 223.231, -30.0691, 223.03, -150.109, 223.432, 89.8774, 0.00543773, -89.4051, 0.537566, 131.737, 0.53805, 11.6949, 0.335665, -108.317, 0.2018, -108.347
1, 1020.00000, 223.231, -30.0691, 223.03, -150.109, 223.432, 89.8774, 0.00543776, -89.4049, 0.537567, 131.737, 0.53805, 11.6949, 0.335665, -108.317, 0.2018, -108.347
1, 1080.00000, 223.231, -30.0691, 223.03, -150.109, 223.432, 89.8774, 0.00543776, -89.4049, 0.537567, 131.737, 0.53805, 11.6949, 0.335665, -108.317, 0.2018, -108.347
1, 1140.00000, 223.231, -30.0691, 223.03, -150.109, 223.432, 89.8774, 0.00543776, -89.4049, 0.537567, 131.737, 0.53805, 11.6949, 0.335665, -108.317, 0.2018, -108.347
1, 1200.00000, 223.231, -30.0691, 223.03, -150.109, 223.432, 89.8774, 0.00543776, -89.4049, 0.537567, 131.737, 0.53805, 11.6949, 0.335665, -108.317, 0.2018, -108.347
1, 1260.00000, 223.332, -30.081, 223.239, -150.092, 223.385, 89.8863, 0.00101105, 90.5746, 0.402986, 131.724, 0.403154, 11.7129, 0.470043, -108.309, 0.06704, 71.6536
1, 1320.00000, 223.332, -30.081, 223.239, -150.092, 223.385, 89.8863, 0.00101108, 90.5739, 0.402986, 131.724, 0.403154, 11.7129, 0.470043, -108.309, 0.0670408, 71.6534
1, 1380.00000, 223.332, -30.081, 223.239, -150.092, 223.385, 89.8863, 0.00101108, 90.5739, 0.402986, 131.724, 0.403154, 11.7129, 0.470043, -108.309, 0.0670408, 71.6534
1, 1440.00000, 223.332, -30.081, 223.239, -150.092, 223.385, 89.8863, 0.00101108, 90.5739, 0.402986, 131.724, 0.403154, 11.7129, 0.470043, -108.309, 0.0670408, 71.6534
1, 1500.00000, 223.332, -30.081, 223.239, -150.092, 223.385, 89.8863, 0.00101108, 90.5739, 0.402986, 131.724, 0.403154, 11.7129, 0.470043, -108.309, 0.0670408, 71.6534
1, 1560.00000, 223.321, -30.0947, 223.379, -150.083, 223.357, 89.8924, 0.00238138, 146.784, 0.335836, 131.71, 0.470055, 11.7222, 0.470102, -108.303, 0.134064, 131.69
1, 1620.00000, 223.321, -30.0947, 223.379, -150.083, 223.357, 89.8924, 0.00238139, 146.784, 0.335836, 131.71, 0.470056, 11.7222, 0.470102, -108.303, 0.134064, 131.69
1, 1680.00000, 223.321, -30.0947, 223.379, -150.083, 223.357, 89.8924, 0.00238139, 146.784, 0.335836, 131.71, 0.470056, 11.7222, 0.470102, -108.303, 0.134064, 131.69
1, 1740.00000, 223.321, -30.0947, 223.379, -150.083, 223.357, 89.8924, 0.00238139, 146.784, 0.335836, 131.71, 0.470056, 11.7222, 0.470102, -108.303, 0.134064, 131.69
1, 1800.00000, 223.321, -30.0947, 223.379, -150.083, 223.357, 89.8924, 0.00238139, 146.784, 0.335836, 131.71, 0.470056, 11.7222, 0.470102, -108.303, 0.134064, 131.69
1, 1860.00000, 223.063, -30.101, 223.493, -150.112, 223.474, 89.9245, 0.00184146, -71.5464, 0.40347, 131.704, 0.40269, 11.6924, 0.335617, -108.27, 0.0673921, -107.883
1, 1920.00000, 223.062, -30.101, 223.493, -150.112, 223.474, 89.9245, 0.00184195, -71.5565, 0.403477, 131.704, 0.402697, 11.6924, 0.335607, -108.27, 0.0674082, -107.883
1, 1980.00000, 223.062, -30.101, 223.493, -150.112, 223.474, 89.9245, 0.00184195, -71.5566, 0.403477, 131.704, 0.402697, 11.6924, 0.335607, -108.27, 0.0674083, -107.883
1, 2040.00000, 223.062, -30.101, 223.493, -150.112, 223.474, 89.9245, 0.00184195, -71.5566, 0.403477, 131.704, 0.402697, 11.6924, 0.335607, -108.27, 0.0674083, -107.883
1, 2100.00000, 223.062, -30.101, 223.493, -150.112, 223.474, 89.9245, 0.00184195, -71.5566, 0.403477, 131.704, 0.402697, 11.6924, 0.335607, -108.27, 0.0674083, -107.883
1, 2160.00000, 223.291, -30.0756, 223.238, -150.105, 223.491, 89.8892, 0.00301669, 47.9887, 0.403075, 131.729, 0.335957, 11.7007, 0.536927, -108.305, 0.177428, 52.5247
1, 2220.00000, 223.291, -30.0756, 223.238, -150.105, 223.491, 89.8892, 0.00301694, 48.0009, 0.403063, 131.729, 0.33596, 11.7007, 0.53694, -108.305, 0.177439, 52.5305
1, 2280.00000, 223.291, -30.0756, 223.238, -150.105, 223.491, 89.8892, 0.00301694, 48.0009, 0.403063, 131.729, 0.33596, 11.7007, 0.53694, -108.305, 0.177439, 52.5305
1, 2340.00000, 223.291, -30.0756, 223.238, -150.105, 223.491, 89.8892, 0.00301694, 48.0009, 0.403063, 131.729, 0.33596, 11.7007, 0.53694, -108.305, 0.177439, 52.5305
1, 2400.00000, 223.291, -30.0756, 223.238, -150.105, 223.491, 89.8892, 0.00301694, 48.0009, 0.403063, 131.729, 0.33596, 11.7007, 0.53694, -108.305, 0.177439, 52.5305
1, 2460.00000, 223.189, -30.0777, 223.368, -150.106, 223.517, 89.9072, 0.00237974, 60.7142, 0.403244, 131.727, 0.402925, 11.6997, 0.536876, -108.287, 0.133957, 71.5927
1, 2520.00000, 223.189, -30.0777, 223.368, -150.106, 223.517, 89.9072, 0.00237985, 60.7091, 0.403246, 131.727, 0.402919, 11.6997, 0.536876, -108.287, 0.133959, 71.5897
1, 2580.00000, 223.189, -30.0777, 223.368, -150.106, 223.517, 89.9072, 0.00237985, 60.7092, 0.403246, 131.727, 0.402919, 11.6997, 0.536876, -108.287, 0.133959, 71.5897
1, 2640.00000, 223.189, -30.0777, 223.368, -150.106, 223.517, 89.9072, 0.00237985, 60.7092, 0.403246, 131.727, 0.402919, 11.6997, 0.536876, -108.287, 0.133959, 71.5897
1, 2700.00000, 223.189, -30.0777, 223.368, -150.106, 223.517, 89.9072, 0.00237985, 60.7092, 0.403246, 131.727, 0.402919, 11.6997, 0.536876, -108.287, 0.133959, 71.5897
1, 2760.00000, 223.312, -30.0829, 223.253, -150.088, 223.357, 89.8876, 0.000749325, -162.231, 0.470195, 131.722, 0.537507, 11.7171, 0.470099, -108.308, 0.0671477, -168.145
1, 2820.00000, 223.312, -30.0829, 223.253, -150.088, 223.357, 89.8876, 0.000749352, -162.233, 0.470194, 131.722, 0.537508, 11.7171, 0.470099, -108.307, 0.0671485, -168.145
1, 2880.00000, 223.312, -30.0829, 223.253, -150.088, 223.357, 89.8876, 0.000749352, -162.233, 0.470194, 131.722, 0.537508, 11.7171, 0.470099, -108.307, 0.0671486, -168.145
1, 2940.00000, 223.312, -30.0829, 223.253, -150.088, 223.357, 89.8876, 0.000749352, -162.233, 0.470194, 131.722, 0.537508, 11.7171, 0.470099, -108.307, 0.0671486, -168.145
1, 3000.00000, 223.312, -30.0829, 223.253, -150.088, 223.357, 89.8876, 0.000749352, -162.233, 0.470194, 131.722, 0.537508, 11.7171, 0.470099, -108.307, 0.0671486, -168.145
1, 3060.00000, 223.194, -30.1003, 223.447, -150.095, 223.386, 89.9065, 0.00414331, -105.787, 0.470436, 131.706, 0.469918, 11.7098, 0.268594, -108.289, 0.201613, -108.169
1, 3120.00000, 223.194, -30.1003, 223.447, -150.095, 223.386, 89.9065, 0.00414361, -105.783, 0.470445, 131.706, 0.469917, 11.7098, 0.268589, -108.289, 0.201621, -108.167
1, 3180.00000, 223.194, -30.1003, 223.447, -150.095, 223.386, 89.9065, 0.00414361, -105.783, 0.470445, 131.706, 0.469917, 11.7098, 0.268589, -108.289, 0.201621, -108.167
1, 3240.00000, 223.194, -30.1003, 223.447, -150.095, 223.386, 89.9065, 0.00414361, -105.783, 0.470445, 131.706, 0.469917, 11.7098, 0.268589, -108.289, 0.201621, -108.167
1, 3300.00000, 223.194, -30.1003, 223.447, -150.095, 223.386, 89.9065, 0.00414361, -105.783, 0.470445, 131.706, 0.469917, 11.7098, 0.268589, -108.289, 0.201621, -108.167
1, 3360.00000, 222.999, -30.0898, 223.45, -150.122, 223.459, 89.926, 0.00396376, 146.122, 0.336319, 131.715, 0.537038, 11.6845, 0.537017, -108.27, 0.20108, 131.7
1, 3420.00000, 222.999, -30.0898, 223.45, -150.122, 223.459, 89.926, 0.00396375, 146.122, 0.336319, 131.715, 0.537038, 11.6845, 0.537017, -108.27, 0.20108, 131.699
1, 3480.00000, 222.999, -30.0898, 223.45, -150.122, 223.459, 89.926, 0.00396375, 146.122, 0.336319, 131.715, 0.537038, 11.6845, 0.537017, -108.27, 0.20108, 131.699
