hour, t(sec), P1 (kW), Q1 (kvar), P2 (kW), Q2 (kvar), P3 (kW), Q3 (kvar), P4 (kW), Q4 (kvar)
0, 60.00000, -0.150041, -0.038547, -0.106144, -0.0240719, -0.135377, -0.0336907, 1.21945E-006, 1.36413E-008
0, 120.00000, -0.150023, -0.0384721, -0.106126, -0.0240445, -0.135389, -0.0336566, 1.21981E-006, 1.36348E-008
0, 180.00000, -0.150023, -0.038472, -0.106126, -0.0240446, -0.135389, -0.0336564, 1.21978E-006, 1.36338E-008
0, 240.00000, -0.150023, -0.038472, -0.106126, -0.0240446, -0.135389, -0.0336564, 1.21978E-006, 1.36338E-008
0, 300.00000, -0.150023, -0.038472, -0.106126, -0.0240446, -0.135389, -0.0336564, 1.21978E-006, 1.36338E-008
0, 360.00000, -0.150055, -0.0385221, -0.16464, -0.0431875, -0.135333, -0.0336612, 5.5478E-007, 8.84768E-008
0, 420.00000, -0.15002, -0.0384658, -0.164651, -0.0432795, -0.135386, -0.0336623, 5.50902E-007, 8.82822E-008
0, 480.00000, -0.150019, -0.038466, -0.164652, -0.0432799, -0.135386, -0.0336618, 5.50944E-007, 8.82882E-008
0, 540.00000, -0.150019, -0.038466, -0.164652, -0.0432799, -0.135386, -0.0336618, 5.50944E-007, 8.82882E-008
0, 600.00000, -0.150019, -0.038466, -0.164652, -0.0432799, -0.135386, -0.0336618, 5.50944E-007, 8.82882E-008
0, 660.00000, -0.164618, -0.0432356, -0.135386, -0.03374, -0.150061, -0.0384705, 5.35948E-007, -2.86102E-008
0, 720.00000, -0.164652, -0.0432793, -0.135387, -0.0336626, -0.150018, -0.0384656, 5.39847E-007, -2.84589E-008
0, 780.00000, -0.164652, -0.0432792, -0.135387, -0.0336623, -0.150018, -0.0384661, 5.39897E-007, -2.84591E-008
0, 840.00000, -0.164652, -0.0432792, -0.135387, -0.0336623, -0.150018, -0.0384661, 5.39897E-007, -2.84591E-008
0, 900.00000, -0.164652, -0.0432792, -0.135387, -0.0336623, -0.150018, -0.0384661, 5.39897E-007, -2.84591E-008
0, 960.00000, -0.150015, -0.0384598, -0.120753, -0.0288633, -0.150031, -0.0384683, 6.90268E-007, -3.30102E-008
0, 1020.00000, -0.150021, -0.038472, -0.120756, -0.0288523, -0.15002, -0.0384659, 6.90001E-007, -3.2995E-008
0, 1080.00000, -0.150021, -0.038472, -0.120756, -0.0288523, -0.15002, -0.038466, 6.90011E-007, -3.29949E-008
0, 1140.00000, -0.150021, -0.038472, -0.120756, -0.0288523, -0.15002, -0.038466, 6.90011E-007, -3.29949E-008
0, 1200.00000, -0.150021, -0.038472, -0.120756, -0.0288523, -0.15002, -0.038466, 6.90011E-007, -3.29949E-008
0, 1260.00000, -0.150025, -0.0384827, -0.164661, -0.0432706, -0.12074, -0.0288462, 1.27684E-006, 1.20946E-007
0, 1320.00000, -0.15002, -0.0384645, -0.164653, -0.0432814, -0.120755, -0.0288532, 1.27407E-006, 1.20764E-007
0, 1380.00000, -0.15002, -0.0384645, -0.164653, -0.0432815, -0.120755, -0.0288531, 1.27408E-006, 1.20765E-007
0, 1440.00000, -0.15002, -0.0384645, -0.164653, -0.0432815, -0.120755, -0.0288531, 1.27408E-006, 1.20765E-007
0, 1500.00000, -0.15002, -0.0384645, -0.164653, -0.0432815, -0.120755, -0.0288531, 1.27408E-006, 1.20765E-007
0, 1560.00000, -0.164548, -0.0432453, -0.13542, -0.0338173, -0.150083, -0.0384113, 5.21643E-007, -2.45474E-008
0, 1620.00000, -0.164652, -0.0432798, -0.135387, -0.0336623, -0.150018, -0.0384654, 5.33862E-007, -2.43752E-008
0, 1680.00000, -0.164652, -0.0432792, -0.135387, -0.0336622, -0.150018, -0.0384661, 5.33918E-007, -2.43758E-008
0, 1740.00000, -0.164652, -0.0432792, -0.135387, -0.0336622, -0.150018, -0.0384661, 5.33918E-007, -2.43758E-008
0, 1800.00000, -0.164652, -0.0432792, -0.135387, -0.0336622, -0.150018, -0.0384661, 5.33918E-007, -2.43758E-008
0, 1860.00000, -0.149956, -0.0384845, -0.164705, -0.0432837, -0.164639, -0.0432106, 1.29736E-007, 2.74467E-008
0, 1920.00000, -0.150018, -0.0384693, -0.16465, -0.0432764, -0.164649, -0.0432791, 1.27409E-007, 2.68218E-008
0, 1980.00000, -0.150018, -0.038469, -0.16465, -0.0432767, -0.164649, -0.0432792, 1.27422E-007, 2.68219E-008
0, 2040.00000, -0.150018, -0.038469, -0.16465, -0.0432767, -0.164649, -0.0432792, 1.27422E-007, 2.68219E-008
0, 2100.00000, -0.150018, -0.038469, -0.16465, -0.0432767, -0.164649, -0.0432792, 1.27422E-007, 2.68219E-008
0, 2160.00000, -0.120817, -0.0288627, -0.164628, -0.0432476, -0.120727, -0.0288967, 1.5074E-006, 1.68819E-007
0, 2220.00000, -0.120757, -0.028848, -0.164654, -0.0432782, -0.120757, -0.0288556, 1.51405E-006, 1.69361E-007
0, 2280.00000, -0.120757, -0.0288483, -0.164654, -0.0432781, -0.120757, -0.0288554, 1.51408E-006, 1.69364E-007
0, 2340.00000, -0.120757, -0.0288483, -0.164654, -0.0432781, -0.120757, -0.0288554, 1.51408E-006, 1.69364E-007
0, 2400.00000, -0.120757, -0.0288483, -0.164654, -0.0432781, -0.120757, -0.0288554, 1.51408E-006, 1.69364E-007
0, 2460.00000, -0.15001, -0.0384615, -0.150019, -0.0384816, -0.150027, -0.0384661, 2.38697E-010, 3.97799E-010
0, 2520.00000, -0.150019, -0.038469, -0.150019, -0.0384696, -0.150018, -0.0384689, 3.22076E-010, 3.89442E-010
0, 2580.00000, -0.150019, -0.038469, -0.150019, -0.0384696, -0.150019, -0.038469, 3.22053E-010, 3.88955E-010
0, 2640.00000, -0.150019, -0.038469, -0.150019, -0.0384696, -0.150019, -0.038469, 3.2205E-010, 3.88954E-010
0, 2700.00000, -0.150019, -0.038469, -0.150019, -0.0384696, -0.150019, -0.038469, 3.2205E-010, 3.88954E-010
0, 2760.00000, -0.135423, -0.0336157, -0.149952, -0.0384567, -0.135416, -0.0337715, 1.56926E-007, 4.3847E-008
0, 2820.00000, -0.135388, -0.0336586, -0.15002, -0.0384701, -0.135388, -0.0336618, 1.62049E-007, 4.46933E-008
0, 2880.00000, -0.135388, -0.0336591, -0.15002, -0.0384696, -0.135388, -0.0336617, 1.62059E-007, 4.46955E-008
0, 2940.00000, -0.135388, -0.0336591, -0.15002, -0.0384695, -0.135388, -0.0336617, 1.62058E-007, 4.46955E-008
0, 3000.00000, -0.135388, -0.0336591, -0.15002, -0.0384695, -0.135388, -0.0336617, 1.62058E-007, 4.46955E-008
0, 3060.00000, -0.150032, -0.0384702, -0.150013, -0.0384585, -0.135382, -0.0336727, 2.14993E-007, 1.48972E-008
0, 3120.00000, -0.15002, -0.0384673, -0.15002, -0.0384711, -0.135387, -0.0336606, 2.14721E-007, 1.49848E-008
0, 3180.00000, -0.15002, -0.0384673, -0.15002, -0.0384711, -0.135387, -0.0336605, 2.14727E-007, 1.49854E-008
0, 3240.00000, -0.15002, -0.0384673, -0.15002, -0.0384711, -0.135387, -0.0336605, 2.14727E-007, 1.49854E-008
0, 3300.00000, -0.15002, -0.0384673, -0.15002, -0.0384711, -0.135387, -0.0336605, 2.14727E-007, 1.49854E-008
0, 3360.00000, -0.135512, -0.0337651, -0.149979, -0.0383177, -0.135282, -0.0337123, 1.54609E-007, 4.70473E-008
0, 3420.00000, -0.135389, -0.0336587, -0.15002, -0.0384691, -0.135388, -0.0336625, 1.56229E-007, 4.70828E-008
0, 3480.00000, -0.135388, -0.0336591, -0.15002, -0.0384696, -0.135388, -0.0336616, 1.56283E-007, 4.7092E-008
0, 3540.00000, -0.135388, -0.0336591, -0.15002, -0.0384696, -0.135388, -0.0336616, 1.56283E-007, 4.70921E-008
1, 0.00000, -0.135388, -0.0336591, -0.15002, -0.0384696, -0.135388, -0.0336616, 1.56283E-007, 4.70921E-008
1, 60.00000, -0.0471301, -0.0286872, -0.0469581, -0.0287908, -0.0763619, -0.0385394, 6.65967E-007, 1.2087E-008
1, 120.00000, -0.0470414, -0.0288506, -0.047043, -0.0288532, -0.0763076, -0.0384688, 6.55371E-007, 1.18239E-008
1, 180.00000, -0.047043, -0.0288528, -0.0470435, -0.0288508, -0.0763056, -0.0384694, 6.55115E-007, 1.1811E-008
1, 240.00000, -0.047043, -0.0288527, -0.0470435, -0.0288508, -0.0763056, -0.0384695, 6.55118E-007, 1.1811E-008
1, 300.00000, -0.047043, -0.0288527, -0.0470435, -0.0288508, -0.0763056, -0.0384695, 6.55118E-007, 1.1811E-008
1, 360.00000, -0.0470916, -0.0287884, -0.061606, -0.0336396, -0.0763257, -0.0385529, 4.93149E-007, 3.18311E-008
1, 420.00000, -0.0470419, -0.0288507, -0.0616737, -0.0336609, -0.0763063, -0.0384701, 4.92521E-007, 3.18326E-008
1, 480.00000, -0.0470428, -0.0288521, -0.0616742, -0.0336593, -0.076305, -0.0384702, 4.92349E-007, 3.18214E-008
1, 540.00000, -0.0470428, -0.0288521, -0.0616741, -0.0336593, -0.076305, -0.0384703, 4.92348E-007, 3.18214E-008
1, 600.00000, -0.0470428, -0.0288521, -0.0616741, -0.0336593, -0.076305, -0.0384703, 4.92348E-007, 3.18214E-008
1, 660.00000, -0.0177195, -0.0192415, -0.0470827, -0.0289129, -0.061697, -0.0335948, 1.14963E-006, 9.50726E-008
1, 720.00000, -0.0177831, -0.0192359, -0.0470456, -0.0288498, -0.0616739, -0.0336613, 1.14094E-006, 9.43383E-008
1, 780.00000, -0.0177831, -0.0192344, -0.0470446, -0.0288505, -0.0616749, -0.0336622, 1.14106E-006, 9.43457E-008
1, 840.00000, -0.0177831, -0.0192344, -0.0470446, -0.0288505, -0.0616749, -0.0336622, 1.14107E-006, 9.4346E-008
1, 900.00000, -0.0177831, -0.0192344, -0.0470446, -0.0288505, -0.0616749, -0.0336622, 1.14107E-006, 9.4346E-008
1, 960.00000, -0.0617058, -0.0336757, -0.032407, -0.0239997, -0.0470187, -0.0288731, 5.1677E-007, 1.41272E-008
1, 1020.00000, -0.0616751, -0.0336608, -0.0324124, -0.0240434, -0.0470444, -0.0288516, 5.13221E-007, 1.3943E-008
1, 1080.00000, -0.0616748, -0.0336614, -0.0324131, -0.0240434, -0.0470441, -0.0288509, 5.13166E-007, 1.3941E-008
1, 1140.00000, -0.0616748, -0.0336614, -0.0324131, -0.0240434, -0.0470441, -0.0288509, 5.13167E-007, 1.3941E-008
1, 1200.00000, -0.0616748, -0.0336614, -0.0324131, -0.0240434, -0.0470441, -0.0288509, 5.13167E-007, 1.3941E-008
1, 1260.00000, -0.0616819, -0.0336333, -0.0616495, -0.0336679, -0.0616886, -0.0336863, 3.12226E-011, -7.46901E-011
1, 1320.00000, -0.0616734, -0.0336602, -0.0616739, -0.0336612, -0.0616742, -0.0336603, 6.94074E-011, -5.13794E-011
1, 1380.00000, -0.0616738, -0.0336605, -0.0616738, -0.0336606, -0.0616738, -0.0336605, 7.02917E-011, -5.20327E-011
1, 1440.00000, -0.0616738, -0.0336605, -0.0616738, -0.0336606, -0.0616738, -0.0336605, 7.02809E-011, -5.20453E-011
1, 1500.00000, -0.0616738, -0.0336605, -0.0616738, -0.0336606, -0.0616738, -0.0336605, 7.02805E-011, -5.20451E-011
1, 1560.00000, -0.032389, -0.0240503, -0.0470641, -0.0288713, -0.0763115, -0.0384394, 1.13531E-006, 5.40736E-008
1, 1620.00000, -0.0324128, -0.0240442, -0.0470443, -0.02885, -0.0763054, -0.0384701, 1.13408E-006, 5.39321E-008
1, 1680.00000, -0.0324128, -0.0240436, -0.0470439, -0.0288503, -0.0763059, -0.0384704, 1.13416E-006, 5.39362E-008
1, 1740.00000, -0.0324128, -0.0240436, -0.0470439, -0.0288504, -0.0763059, -0.0384704, 1.13416E-006, 5.39362E-008
1, 1800.00000, -0.0324128, -0.0240436, -0.0470439, -0.0288504, -0.0763059, -0.0384704, 1.13416E-006, 5.39362E-008
1, 1860.00000, -0.0762953, -0.0383484, -0.0469957, -0.028955, -0.061786, -0.03366, 5.27703E-007, 2.38504E-009
1, 1920.00000, -0.0763032, -0.0384707, -0.0470444, -0.028854, -0.0616745, -0.0336567, 5.30255E-007, 2.7787E-009
1, 1980.00000, -0.0763051, -0.0384703, -0.0470428, -0.0288522, -0.061674, -0.0336591, 5.30522E-007, 2.78764E-009
1, 2040.00000, -0.0763051, -0.0384702, -0.0470428, -0.0288522, -0.0616741, -0.0336592, 5.30522E-007, 2.78753E-009
1, 2100.00000, -0.0763051, -0.0384702, -0.0470428, -0.0288522, -0.0616741, -0.0336592, 5.30522E-007, 2.78753E-009
1, 2160.00000, -0.0615852, -0.0335954, -0.061672, -0.0337992, -0.0764101, -0.0383955, 1.54599E-007, 1.27098E-008
1, 2220.00000, -0.0616719, -0.0336629, -0.0616759, -0.0336604, -0.0763039, -0.0384667, 1.49201E-007, 1.20391E-008
1, 2280.00000, -0.0616734, -0.0336611, -0.0616736, -0.0336598, -0.0763046, -0.0384694, 1.49288E-007, 1.20392E-008
1, 2340.00000, -0.0616733, -0.033661, -0.0616736, -0.0336599, -0.0763046, -0.0384694, 1.4929E-007, 1.20394E-008
1, 2400.00000, -0.0616733, -0.033661, -0.0616736, -0.0336599, -0.0763046, -0.0384694, 1.4929E-007, 1.20394E-008
1, 2460.00000, -0.0323422, -0.0239424, -0.0762922, -0.0385899, -0.0471708, -0.0287948, 1.21828E-006, 1.32993E-007
1, 2520.00000, -0.0324118, -0.0240435, -0.0763082, -0.0384697, -0.0470426, -0.0288508, 1.20953E-006, 1.31893E-007
1, 2580.00000, -0.0324133, -0.0240422, -0.0763064, -0.038469, -0.0470429, -0.0288533, 1.20915E-006, 1.31863E-007
1, 2640.00000, -0.0324133, -0.0240421, -0.0763064, -0.038469, -0.047043, -0.0288533, 1.20915E-006, 1.31863E-007
1, 2700.00000, -0.0324133, -0.0240421, -0.0763064, -0.038469, -0.047043, -0.0288533, 1.20915E-006, 1.31863E-007
1, 2760.00000, -0.032381, -0.024031, -0.0763177, -0.0385065, -0.0616953, -0.0336325, 1.19921E-006, 1.15502E-007
1, 2820.00000, -0.0324127, -0.0240431, -0.0763067, -0.0384679, -0.0616732, -0.033662, 1.19303E-006, 1.14982E-007
1, 2880.00000, -0.032413, -0.0240424, -0.0763061, -0.038468, -0.0616736, -0.0336626, 1.19298E-006, 1.1498E-007
1, 2940.00000, -0.0324129, -0.0240424, -0.0763061, -0.0384681, -0.0616736, -0.0336626, 1.19298E-006, 1.1498E-007
1, 3000.00000, -0.0324129, -0.0240424, -0.0763061, -0.0384681, -0.0616736, -0.0336626, 1.19298E-006, 1.1498E-007
1, 3060.00000, -0.0471686, -0.0287954, -0.0615551, -0.0335778, -0.0469909, -0.0290253, 1.61761E-007, 2.75684E-008
1, 3120.00000, -0.0470431, -0.0288481, -0.0616727, -0.0336632, -0.0470459, -0.0288534, 1.70699E-007, 2.87006E-008
1, 3180.00000, -0.0470437, -0.0288513, -0.0616746, -0.0336609, -0.0470433, -0.0288522, 1.70805E-007, 2.87097E-008
1, 3240.00000, -0.0470437, -0.0288513, -0.0616746, -0.0336608, -0.0470433, -0.0288523, 1.70803E-007, 2.87093E-008
1, 3300.00000, -0.0470437, -0.0288513, -0.0616746, -0.0336608, -0.0470433, -0.0288523, 1.70803E-007, 2.87093E-008
1, 3360.00000, -0.0470762, -0.0288707, -0.0616673, -0.0336163, -0.0470151, -0.0288786, 1.66063E-007, 2.2717E-008
1, 3420.00000, -0.0470441, -0.0288506, -0.0616738, -0.0336608, -0.0470437, -0.028853, 1.6705E-007, 2.28171E-008
1, 3480.00000, -0.0470437, -0.0288513, -0.0616745, -0.0336608, -0.0470434, -0.0288523, 1.67098E-007, 2.2822E-008
1, 3540.00000, -0.0470437, -0.0288513, -0.0616745, -0.0336608, -0.0470433, -0.0288523, 1.67098E-007, 2.28219E-008
2, 0.00000, -0.0470437, -0.0288513, -0.0616745, -0.0336608, -0.0470433, -0.0288523, 1.67098E-007, 2.28219E-008
2, 60.00000, -0.096717, -0.0240491, -0.111351, -0.0288448, -0.111341, -0.028852, 1.38466E-007, 2.17265E-008
2, 120.00000, -0.0967151, -0.0240432, -0.111347, -0.028851, -0.111346, -0.0288529, 1.38696E-007, 2.17274E-008
2, 180.00000, -0.0967151, -0.0240432, -0.111347, -0.028851, -0.111346, -0.0288529, 1.38697E-007, 2.17275E-008
2, 240.00000, -0.0967151, -0.0240432, -0.111347, -0.028851, -0.111346, -0.0288529, 1.38697E-007, 2.17275E-008
2, 300.00000, -0.0967151, -0.0240432, -0.111347, -0.028851, -0.111346, -0.0288529, 1.38697E-007, 2.17275E-008
2, 360.00000, -0.0967118, -0.0240364, -0.111343, -0.0288582, -0.111354, -0.0288528, 1.47197E-007, 1.76425E-008
2, 420.00000, -0.0967151, -0.0240432, -0.111347, -0.028851, -0.111347, -0.0288529, 1.4686E-007, 1.76323E-008
2, 480.00000, -0.0967151, -0.0240432, -0.111347, -0.028851, -0.111347, -0.0288529, 1.4686E-007, 1.76322E-008
2, 540.00000, -0.0967151, -0.0240432, -0.111347, -0.028851, -0.111347, -0.0288529, 1.4686E-007, 1.76322E-008
2, 600.00000, -0.0967151, -0.0240432, -0.111347, -0.028851, -0.111347, -0.0288529, 1.4686E-007, 1.76322E-008
2, 660.00000, -0.0967042, -0.0240372, -0.125991, -0.0336755, -0.140613, -0.0384765, 1.07154E-006, 7.60108E-008
2, 720.00000, -0.0967135, -0.0240441, -0.125977, -0.0336572, -0.140609, -0.0384717, 1.06987E-006, 7.58733E-008
2, 780.00000, -0.0967136, -0.0240441, -0.125977, -0.0336572, -0.140609, -0.0384718, 1.06987E-006, 7.58724E-008
2, 840.00000, -0.0967136, -0.0240441, -0.125977, -0.0336572, -0.140609, -0.0384718, 1.06987E-006, 7.58724E-008
2, 900.00000, -0.0967136, -0.0240441, -0.125977, -0.0336572, -0.140609, -0.0384718, 1.06987E-006, 7.58724E-008
2, 960.00000, -0.0967158, -0.0240446, -0.0967135, -0.0240418, -0.125979, -0.0336612, 6.26762E-007, 2.78039E-008
2, 1020.00000, -0.0967151, -0.024045, -0.096715, -0.0240415, -0.125979, -0.0336605, 6.2668E-007, 2.78023E-008
2, 1080.00000, -0.0967151, -0.024045, -0.096715, -0.0240415, -0.125979, -0.0336605, 6.26679E-007, 2.78023E-008
2, 1140.00000, -0.0967151, -0.024045, -0.096715, -0.0240415, -0.125979, -0.0336605, 6.26679E-007, 2.78023E-008
2, 1200.00000, -0.0967151, -0.024045, -0.096715, -0.0240415, -0.125979, -0.0336605, 6.26679E-007, 2.78023E-008
2, 1260.00000, -0.12596, -0.0336579, -0.0821125, -0.0192273, -0.111336, -0.0288521, 1.19162E-006, -5.96697E-009
2, 1320.00000, -0.125978, -0.0336635, -0.0820828, -0.0192365, -0.111346, -0.0288494, 1.19327E-006, -5.92275E-009
2, 1380.00000, -0.125979, -0.0336628, -0.0820838, -0.0192356, -0.111346, -0.0288486, 1.19327E-006, -5.92276E-009
2, 1440.00000, -0.125979, -0.0336628, -0.0820838, -0.0192356, -0.111346, -0.0288486, 1.19327E-006, -5.92276E-009
2, 1500.00000, -0.125979, -0.0336628, -0.0820838, -0.0192356, -0.111346, -0.0288486, 1.19327E-006, -5.92276E-009
2, 1560.00000, -0.0967181, -0.0240431, -0.125975, -0.0336537, -0.125976, -0.0336674, 6.24568E-007, 7.4253E-008
2, 1620.00000, -0.096714, -0.0240431, -0.125977, -0.0336583, -0.125977, -0.0336629, 6.25115E-007, 7.43094E-008
2, 1680.00000, -0.096714, -0.0240432, -0.125978, -0.0336583, -0.125977, -0.0336629, 6.25115E-007, 7.43094E-008
2, 1740.00000, -0.096714, -0.0240432, -0.125978, -0.0336583, -0.125977, -0.0336629, 6.25115E-007, 7.43094E-008
2, 1800.00000, -0.096714, -0.0240432, -0.125978, -0.0336583, -0.125977, -0.0336629, 6.25115E-007, 7.43094E-008
2, 1860.00000, -0.0966677, -0.0240535, -0.111367, -0.0288722, -0.111363, -0.0288274, 1.46932E-007, 2.20768E-008
2, 1920.00000, -0.0967151, -0.0240432, -0.111347, -0.0288509, -0.111346, -0.0288529, 1.4493E-007, 2.18112E-008
2, 1980.00000, -0.0967151, -0.0240432, -0.111347, -0.028851, -0.111346, -0.0288529, 1.44932E-007, 2.18112E-008
2, 2040.00000, -0.0967151, -0.0240432, -0.111347, -0.028851, -0.111346, -0.0288529, 1.44932E-007, 2.18112E-008
2, 2100.00000, -0.0967151, -0.0240432, -0.111347, -0.028851, -0.111346, -0.0288529, 1.44932E-007, 2.18112E-008
2, 2160.00000, -0.111424, -0.0288876, -0.111326, -0.0287666, -0.125905, -0.0336965, 1.52435E-007, -6.97976E-009
2, 2220.00000, -0.111346, -0.0288528, -0.111345, -0.0288509, -0.125977, -0.0336606, 1.55304E-007, -6.78741E-009
2, 2280.00000, -0.111346, -0.028853, -0.111345, -0.028851, -0.125977, -0.0336604, 1.55296E-007, -6.78706E-009
2, 2340.00000, -0.111346, -0.028853, -0.111345, -0.028851, -0.125977, -0.0336604, 1.55296E-007, -6.78706E-009
2, 2400.00000, -0.111346, -0.028853, -0.111345, -0.028851, -0.125977, -0.0336604, 1.55296E-007, -6.78706E-009
2, 2460.00000, -0.0966509, -0.0240154, -0.0967415, -0.0241024, -0.126025, -0.0336333, 6.16818E-007, 3.3156E-008
2, 2520.00000, -0.0967149, -0.0240451, -0.0967152, -0.0240416, -0.125979, -0.0336603, 6.12727E-007, 3.26141E-008
2, 2580.00000, -0.0967151, -0.024045, -0.096715, -0.0240415, -0.125979, -0.0336605, 6.12734E-007, 3.26135E-008
2, 2640.00000, -0.0967151, -0.024045, -0.096715, -0.0240415, -0.125979, -0.0336605, 6.12734E-007, 3.26135E-008
2, 2700.00000, -0.0967151, -0.024045, -0.096715, -0.0240415, -0.125979, -0.0336605, 6.12734E-007, 3.26135E-008
2, 2760.00000, -0.111328, -0.0288099, -0.140566, -0.0384737, -0.126027, -0.0337161, 4.72132E-007, 4.66024E-008
2, 2820.00000, -0.111344, -0.0288506, -0.140608, -0.0384682, -0.125976, -0.0336629, 4.74118E-007, 4.68794E-008
2, 2880.00000, -0.111344, -0.0288508, -0.140608, -0.038468, -0.125976, -0.0336629, 4.74114E-007, 4.68795E-008
2, 2940.00000, -0.111344, -0.0288508, -0.140608, -0.038468, -0.125976, -0.0336629, 4.74114E-007, 4.68795E-008
2, 3000.00000, -0.111344, -0.0288508, -0.140608, -0.038468, -0.125976, -0.0336629, 4.74114E-007, 4.68795E-008
2, 3060.00000, -0.111348, -0.0288462, -0.111343, -0.0288543, -0.111347, -0.0288561, 5.39059E-011, -7.01882E-011
2, 3120.00000, -0.111346, -0.0288518, -0.111346, -0.0288521, -0.111346, -0.0288518, 6.62056E-011, -4.57657E-011
2, 3180.00000, -0.111346, -0.0288518, -0.111346, -0.0288521, -0.111346, -0.0288518, 6.62372E-011, -4.58152E-011
2, 3240.00000, -0.111346, -0.0288518, -0.111346, -0.0288521, -0.111346, -0.0288518, 6.62368E-011, -4.58153E-011
2, 3300.00000, -0.111346, -0.0288518, -0.111346, -0.0288521, -0.111346, -0.0288518, 6.62368E-011, -4.58153E-011
2, 3360.00000, -0.111346, -0.028855, -0.0967152, -0.0240438, -0.111347, -0.0288479, 1.61678E-007, -1.3284E-008
2, 3420.00000, -0.111347, -0.0288528, -0.096715, -0.0240434, -0.111346, -0.0288508, 1.61789E-007, -1.32854E-008
2, 3480.00000, -0.111347, -0.0288528, -0.096715, -0.0240434, -0.111346, -0.0288508, 1.61789E-007, -1.32854E-008
