hour, t(sec), P1 (kW), Q1 (kvar), P2 (kW), Q2 (kvar), P3 (kW), Q3 (kvar), P4 (kW), Q4 (kvar)
0, 60.00000, -0.125402, -0.0412168, -0.109727, -0.0360654, -0.141073, -0.046368, 4.63691E-010, -4.15565E-009
0, 120.00000, -0.1254, -0.041217, -0.109725, -0.0360649, -0.141075, -0.0463691, 4.64087E-010, -4.15682E-009
0, 180.00000, -0.1254, -0.041217, -0.109725, -0.0360649, -0.141075, -0.0463691, 4.64088E-010, -4.15681E-009
0, 240.00000, -0.1254, -0.041217, -0.109725, -0.0360649, -0.141075, -0.0463691, 4.64088E-010, -4.15681E-009
0, 300.00000, -0.1254, -0.041217, -0.109725, -0.0360649, -0.141075, -0.0463691, 4.64088E-010, -4.15681E-009
0, 360.00000, -0.141079, -0.0463731, -0.141054, -0.046364, -0.125409, -0.0412203, 5.02358E-010, -2.27823E-009
0, 420.00000, -0.141075, -0.0463691, -0.141075, -0.0463691, -0.1254, -0.041217, 5.05092E-010, -2.28054E-009
0, 480.00000, -0.141075, -0.0463691, -0.141075, -0.0463691, -0.1254, -0.041217, 5.051E-010, -2.28058E-009
0, 540.00000, -0.141075, -0.0463691, -0.141075, -0.0463691, -0.1254, -0.041217, 5.051E-010, -2.28058E-009
0, 600.00000, -0.141075, -0.0463691, -0.141075, -0.0463691, -0.1254, -0.041217, 5.051E-010, -2.28058E-009
0, 660.00000, -0.141061, -0.0463631, -0.125419, -0.041221, -0.125396, -0.0412153, -5.30687E-010, -2.77551E-009
0, 720.00000, -0.141075, -0.0463691, -0.1254, -0.041217, -0.1254, -0.041217, -5.31027E-010, -2.78059E-009
0, 780.00000, -0.141075, -0.0463691, -0.1254, -0.041217, -0.1254, -0.041217, -5.31034E-010, -2.78057E-009
0, 840.00000, -0.141075, -0.0463691, -0.1254, -0.041217, -0.1254, -0.041217, -5.31034E-010, -2.78057E-009
0, 900.00000, -0.141075, -0.0463691, -0.1254, -0.041217, -0.1254, -0.041217, -5.31034E-010, -2.78057E-009
0, 960.00000, -0.1254, -0.0412169, -0.141075, -0.0463692, -0.1254, -0.041217, 1.12653E-009, -1.01611E-009
0, 1020.00000, -0.1254, -0.041217, -0.141075, -0.0463691, -0.1254, -0.041217, 1.12648E-009, -1.01605E-009
0, 1080.00000, -0.1254, -0.041217, -0.141075, -0.0463691, -0.1254, -0.041217, 1.12648E-009, -1.01605E-009
0, 1140.00000, -0.1254, -0.041217, -0.141075, -0.0463691, -0.1254, -0.041217, 1.12648E-009, -1.01605E-009
0, 1200.00000, -0.1254, -0.041217, -0.141075, -0.0463691, -0.1254, -0.041217, 1.12648E-009, -1.01605E-009
0, 1260.00000, -0.125399, -0.0412165, -0.141076, -0.0463692, -0.1254, -0.041217, 1.23168E-009, -9.10819E-010
0, 1320.00000, -0.1254, -0.041217, -0.141075, -0.0463691, -0.1254, -0.041217, 1.23141E-009, -9.10637E-010
0, 1380.00000, -0.1254, -0.041217, -0.141075, -0.0463691, -0.1254, -0.041217, 1.23141E-009, -9.10636E-010
0, 1440.00000, -0.1254, -0.041217, -0.141075, -0.0463691, -0.1254, -0.041217, 1.23141E-009, -9.10636E-010
0, 1500.00000, -0.1254, -0.041217, -0.141075, -0.0463691, -0.1254, -0.041217, 1.23141E-009, -9.10636E-010
0, 1560.00000, -0.12541, -0.0412195, -0.109727, -0.0360662, -0.12539, -0.0412137, -3.26925E-010, -1.76413E-009
0, 1620.00000, -0.1254, -0.041217, -0.109725, -0.0360649, -0.1254, -0.041217, -3.26682E-010, -1.76346E-009
0, 1680.00000, -0.1254, -0.041217, -0.109725, -0.0360649, -0.1254, -0.041217, -3.26684E-010, -1.76343E-009
0, 1740.00000, -0.1254, -0.041217, -0.109725, -0.0360649, -0.1254, -0.041217, -3.26684E-010, -1.76343E-009
0, 1800.00000, -0.1254, -0.041217, -0.109725, -0.0360649, -0.1254, -0.041217, -3.26684E-010, -1.76343E-009
0, 1860.00000, -0.109711, -0.0360598, -0.141078, -0.046367, -0.125407, -0.0412191, 3.1539E-009, -2.2783E-009
0, 1920.00000, -0.109725, -0.0360648, -0.141075, -0.0463691, -0.1254, -0.041217, 3.15169E-009, -2.2759E-009
0, 1980.00000, -0.109725, -0.0360649, -0.141075, -0.0463691, -0.1254, -0.041217, 3.15166E-009, -2.27587E-009
0, 2040.00000, -0.109725, -0.0360649, -0.141075, -0.0463691, -0.1254, -0.041217, 3.15166E-009, -2.27587E-009
0, 2100.00000, -0.109725, -0.0360649, -0.141075, -0.0463691, -0.1254, -0.041217, 3.15166E-009, -2.27587E-009
0, 2160.00000, -0.14107, -0.0463669, -0.125409, -0.0412179, -0.1254, -0.041217, -2.94968E-010, -2.57285E-009
0, 2220.00000, -0.141075, -0.0463691, -0.1254, -0.041217, -0.1254, -0.041217, -2.94971E-010, -2.5749E-009
0, 2280.00000, -0.141075, -0.0463691, -0.1254, -0.041217, -0.1254, -0.041217, -2.94973E-010, -2.5749E-009
0, 2340.00000, -0.141075, -0.0463691, -0.1254, -0.041217, -0.1254, -0.041217, -2.94974E-010, -2.5749E-009
0, 2400.00000, -0.141075, -0.0463691, -0.1254, -0.041217, -0.1254, -0.041217, -2.94974E-010, -2.5749E-009
0, 2460.00000, -0.109726, -0.0360653, -0.125399, -0.0412169, -0.0940493, -0.0309129, 2.52146E-009, -4.24096E-009
0, 2520.00000, -0.109725, -0.0360648, -0.1254, -0.041217, -0.09405, -0.0309128, 2.52163E-009, -4.24094E-009
0, 2580.00000, -0.109725, -0.0360648, -0.1254, -0.041217, -0.09405, -0.0309128, 2.52163E-009, -4.24094E-009
0, 2640.00000, -0.109725, -0.0360648, -0.1254, -0.041217, -0.09405, -0.0309128, 2.52163E-009, -4.24094E-009
0, 2700.00000, -0.109725, -0.0360648, -0.1254, -0.041217, -0.09405, -0.0309128, 2.52163E-009, -4.24094E-009
0, 2760.00000, -0.14107, -0.0463696, -0.109719, -0.0360627, -0.125413, -0.0412214, 1.24345E-010, -5.762E-009
0, 2820.00000, -0.141075, -0.0463691, -0.109725, -0.0360649, -0.1254, -0.041217, 1.24362E-010, -5.7625E-009
0, 2880.00000, -0.141075, -0.0463691, -0.109725, -0.0360649, -0.1254, -0.041217, 1.24369E-010, -5.76254E-009
0, 2940.00000, -0.141075, -0.0463691, -0.109725, -0.0360649, -0.1254, -0.041217, 1.24369E-010, -5.76254E-009
0, 3000.00000, -0.141075, -0.0463691, -0.109725, -0.0360649, -0.1254, -0.041217, 1.24369E-010, -5.76254E-009
0, 3060.00000, -0.0940489, -0.0309121, -0.125399, -0.0412164, -0.109727, -0.0360656, 2.9126E-009, -2.54071E-009
0, 3120.00000, -0.09405, -0.0309127, -0.1254, -0.041217, -0.109725, -0.0360649, 2.91263E-009, -2.54082E-009
0, 3180.00000, -0.09405, -0.0309127, -0.1254, -0.041217, -0.109725, -0.0360649, 2.91263E-009, -2.54081E-009
0, 3240.00000, -0.09405, -0.0309127, -0.1254, -0.041217, -0.109725, -0.0360649, 2.91263E-009, -2.54081E-009
0, 3300.00000, -0.09405, -0.0309127, -0.1254, -0.041217, -0.109725, -0.0360649, 2.91263E-009, -2.54081E-009
0, 3360.00000, -0.109745, -0.0360719, -0.0940415, -0.0309092, -0.0940386, -0.0309108, -3.14004E-011, -2.18881E-009
0, 3420.00000, -0.109725, -0.0360649, -0.0940499, -0.0309127, -0.09405, -0.0309128, -3.27566E-011, -2.18148E-009
0, 3480.00000, -0.109725, -0.0360648, -0.09405, -0.0309128, -0.09405, -0.0309127, -3.27595E-011, -2.18144E-009
0, 3540.00000, -0.109725, -0.0360648, -0.09405, -0.0309128, -0.09405, -0.0309127, -3.27595E-011, -2.18144E-009
1, 0.00000, -0.109725, -0.0360648, -0.09405, -0.0309128, -0.09405, -0.0309127, -3.27595E-011, -2.18144E-009
1, 60.00000, -0.0940526, -0.0309136, -0.109728, -0.0360658, -0.125403, -0.041218, 1.80306E-009, -2.64628E-009
1, 120.00000, -0.09405, -0.0309128, -0.109725, -0.0360649, -0.1254, -0.041217, 1.80301E-009, -2.64621E-009
1, 180.00000, -0.09405, -0.0309128, -0.109725, -0.0360649, -0.1254, -0.041217, 1.80301E-009, -2.64621E-009
1, 240.00000, -0.09405, -0.0309128, -0.109725, -0.0360649, -0.1254, -0.041217, 1.80301E-009, -2.64621E-009
1, 300.00000, -0.09405, -0.0309128, -0.109725, -0.0360649, -0.1254, -0.041217, 1.80301E-009, -2.64621E-009
1, 360.00000, -0.109724, -0.0360646, -0.1254, -0.0412169, -0.094051, -0.030913, 2.43572E-009, -4.60872E-009
1, 420.00000, -0.109725, -0.0360648, -0.1254, -0.041217, -0.09405, -0.0309128, 2.43578E-009, -4.60907E-009
1, 480.00000, -0.109725, -0.0360648, -0.1254, -0.041217, -0.09405, -0.0309128, 2.43578E-009, -4.60907E-009
1, 540.00000, -0.109725, -0.0360648, -0.1254, -0.041217, -0.09405, -0.0309128, 2.43578E-009, -4.60907E-009
1, 600.00000, -0.109725, -0.0360648, -0.1254, -0.041217, -0.09405, -0.0309128, 2.43578E-009, -4.60907E-009
1, 660.00000, -0.125401, -0.0412171, -0.078375, -0.0257606, -0.109724, -0.0360646, 2.46047E-009, -1.08867E-008
1, 720.00000, -0.1254, -0.041217, -0.078375, -0.0257606, -0.109725, -0.0360648, 2.46043E-009, -1.08865E-008
1, 780.00000, -0.1254, -0.041217, -0.078375, -0.0257606, -0.109725, -0.0360648, 2.46043E-009, -1.08865E-008
1, 840.00000, -0.1254, -0.041217, -0.078375, -0.0257606, -0.109725, -0.0360648, 2.46043E-009, -1.08865E-008
1, 900.00000, -0.1254, -0.041217, -0.078375, -0.0257606, -0.109725, -0.0360648, 2.46043E-009, -1.08865E-008
1, 960.00000, -0.109723, -0.0360643, -0.0940505, -0.0309129, -0.109725, -0.036065, -2.14614E-010, -1.6728E-009
1, 1020.00000, -0.109725, -0.0360649, -0.09405, -0.0309128, -0.109725, -0.0360649, -2.14608E-010, -1.67311E-009
1, 1080.00000, -0.109725, -0.0360649, -0.09405, -0.0309127, -0.109725, -0.0360649, -2.14608E-010, -1.67311E-009
1, 1140.00000, -0.109725, -0.0360649, -0.09405, -0.0309127, -0.109725, -0.0360649, -2.14608E-010, -1.67311E-009
1, 1200.00000, -0.109725, -0.0360649, -0.09405, -0.0309127, -0.109725, -0.0360649, -2.14608E-010, -1.67311E-009
1, 1260.00000, -0.0940511, -0.0309131, -0.09405, -0.0309128, -0.109724, -0.0360645, 4.02588E-010, -7.7009E-010
1, 1320.00000, -0.09405, -0.0309127, -0.09405, -0.0309127, -0.109725, -0.0360649, 4.02723E-010, -7.70264E-010
1, 1380.00000, -0.09405, -0.0309127, -0.09405, -0.0309127, -0.109725, -0.0360649, 4.02724E-010, -7.70264E-010
1, 1440.00000, -0.09405, -0.0309127, -0.09405, -0.0309127, -0.109725, -0.0360649, 4.02724E-010, -7.70264E-010
1, 1500.00000, -0.09405, -0.0309127, -0.09405, -0.0309127, -0.109725, -0.0360649, 4.02724E-010, -7.70264E-010
1, 1560.00000, -0.109724, -0.0360646, -0.0940505, -0.0309129, -0.0783749, -0.0257606, 1.15868E-009, -5.56243E-009
1, 1620.00000, -0.109725, -0.0360648, -0.09405, -0.0309128, -0.078375, -0.0257606, 1.1587E-009, -5.56261E-009
1, 1680.00000, -0.109725, -0.0360648, -0.09405, -0.0309128, -0.078375, -0.0257606, 1.1587E-009, -5.56261E-009
1, 1740.00000, -0.109725, -0.0360648, -0.09405, -0.0309128, -0.078375, -0.0257606, 1.1587E-009, -5.56261E-009
1, 1800.00000, -0.109725, -0.0360648, -0.09405, -0.0309128, -0.078375, -0.0257606, 1.1587E-009, -5.56261E-009
1, 1860.00000, -0.109717, -0.0360625, -0.0783677, -0.0257581, -0.10974, -0.0360695, 1.00903E-009, -6.00417E-009
1, 1920.00000, -0.109725, -0.0360649, -0.078375, -0.0257606, -0.109725, -0.0360649, 1.00757E-009, -6.00144E-009
1, 1980.00000, -0.109725, -0.0360649, -0.078375, -0.0257606, -0.109725, -0.0360648, 1.00756E-009, -6.00144E-009
1, 2040.00000, -0.109725, -0.0360649, -0.078375, -0.0257606, -0.109725, -0.0360648, 1.00756E-009, -6.00144E-009
1, 2100.00000, -0.109725, -0.0360649, -0.078375, -0.0257606, -0.109725, -0.0360648, 1.00756E-009, -6.00144E-009
1, 2160.00000, -0.0940555, -0.0309142, -0.109731, -0.036067, -0.0783643, -0.0257573, 2.37619E-009, -4.42533E-009
1, 2220.00000, -0.09405, -0.0309127, -0.109725, -0.0360649, -0.078375, -0.0257606, 2.37427E-009, -4.4202E-009
1, 2280.00000, -0.09405, -0.0309127, -0.109725, -0.0360649, -0.078375, -0.0257606, 2.37427E-009, -4.42019E-009
1, 2340.00000, -0.09405, -0.0309127, -0.109725, -0.0360649, -0.078375, -0.0257606, 2.37427E-009, -4.42019E-009
1, 2400.00000, -0.09405, -0.0309127, -0.109725, -0.0360649, -0.078375, -0.0257606, 2.37427E-009, -4.42019E-009
1, 2460.00000, -0.0940557, -0.0309144, -0.109733, -0.0360675, -0.0940424, -0.0309103, 1.11581E-009, -9.96815E-010
1, 2520.00000, -0.09405, -0.0309127, -0.109725, -0.0360649, -0.09405, -0.0309127, 1.11496E-009, -9.94725E-010
1, 2580.00000, -0.09405, -0.0309127, -0.109725, -0.0360649, -0.09405, -0.0309128, 1.11497E-009, -9.94723E-010
1, 2640.00000, -0.09405, -0.0309127, -0.109725, -0.0360649, -0.09405, -0.0309128, 1.11497E-009, -9.94723E-010
1, 2700.00000, -0.09405, -0.0309127, -0.109725, -0.0360649, -0.09405, -0.0309128, 1.11497E-009, -9.94723E-010
1, 2760.00000, -0.09405, -0.0309128, -0.109724, -0.0360647, -0.1254, -0.041217, 1.83442E-009, -2.66272E-009
1, 2820.00000, -0.09405, -0.0309128, -0.109725, -0.0360649, -0.1254, -0.041217, 1.83444E-009, -2.66267E-009
1, 2880.00000, -0.09405, -0.0309128, -0.109725, -0.0360649, -0.1254, -0.041217, 1.83444E-009, -2.66267E-009
1, 2940.00000, -0.09405, -0.0309128, -0.109725, -0.0360649, -0.1254, -0.041217, 1.83444E-009, -2.66267E-009
1, 3000.00000, -0.09405, -0.0309128, -0.109725, -0.0360649, -0.1254, -0.041217, 1.83444E-009, -2.66267E-009
1, 3060.00000, -0.0940426, -0.0309105, -0.125403, -0.0412175, -0.0783838, -0.0257636, 5.5476E-009, -9.59813E-009
1, 3120.00000, -0.09405, -0.0309127, -0.1254, -0.041217, -0.078375, -0.0257606, 5.54771E-009, -9.60059E-009
1, 3180.00000, -0.09405, -0.0309127, -0.1254, -0.041217, -0.078375, -0.0257606, 5.54771E-009, -9.60059E-009
1, 3240.00000, -0.09405, -0.0309127, -0.1254, -0.041217, -0.078375, -0.0257606, 5.54771E-009, -9.60059E-009
1, 3300.00000, -0.09405, -0.0309127, -0.1254, -0.041217, -0.078375, -0.0257606, 5.54771E-009, -9.60059E-009
1, 3360.00000, -0.0940509, -0.0309131, -0.125398, -0.0412164, -0.1254, -0.041217, 3.41772E-009, -3.14707E-009
1, 3420.00000, -0.09405, -0.0309127, -0.1254, -0.041217, -0.1254, -0.041217, 3.4181E-009, -3.14754E-009
1, 3480.00000, -0.09405, -0.0309127, -0.1254, -0.041217, -0.1254, -0.041217, 3.4181E-009, -3.14754E-009
1, 3540.00000, -0.09405, -0.0309127, -0.1254, -0.041217, -0.1254, -0.041217, 3.4181E-009, -3.14754E-009
2, 0.00000, -0.09405, -0.0309127, -0.1254, -0.041217, -0.1254, -0.041217, 3.4181E-009, -3.14754E-009
2, 60.00000, -0.109724, -0.0360646, -0.125402, -0.0412175, -0.0783753, -0.0257608, 4.95781E-009, -1.04866E-008
2, 120.00000, -0.109725, -0.0360648, -0.1254, -0.041217, -0.078375, -0.0257606, 4.95756E-009, -1.04863E-008
2, 180.00000, -0.109725, -0.0360648, -0.1254, -0.041217, -0.078375, -0.0257606, 4.95756E-009, -1.04863E-008
2, 240.00000, -0.109725, -0.0360648, -0.1254, -0.041217, -0.078375, -0.0257606, 4.95756E-009, -1.04863E-008
2, 300.00000, -0.109725, -0.0360648, -0.1254, -0.041217, -0.078375, -0.0257606, 4.95756E-009, -1.04863E-008
2, 360.00000, -0.109724, -0.0360647, -0.109726, -0.0360652, -0.0940494, -0.0309126, 5.34977E-010, -2.04211E-009
2, 420.00000, -0.109725, -0.0360648, -0.109725, -0.0360649, -0.09405, -0.0309128, 5.34848E-010, -2.04199E-009
2, 480.00000, -0.109725, -0.0360648, -0.109725, -0.0360649, -0.09405, -0.0309128, 5.34847E-010, -2.04199E-009
2, 540.00000, -0.109725, -0.0360648, -0.109725, -0.0360649, -0.09405, -0.0309128, 5.34847E-010, -2.04199E-009
2, 600.00000, -0.109725, -0.0360648, -0.109725, -0.0360649, -0.09405, -0.0309128, 5.34847E-010, -2.04199E-009
2, 660.00000, -0.0783802, -0.0257621, -0.0783817, -0.025763, -0.094043, -0.0309104, 2.9168E-010, -8.8079E-010
2, 720.00000, -0.078375, -0.0257606, -0.078375, -0.0257606, -0.09405, -0.0309127, 2.92412E-010, -8.82786E-010
2, 780.00000, -0.078375, -0.0257606, -0.078375, -0.0257606, -0.09405, -0.0309127, 2.92416E-010, -8.82794E-010
2, 840.00000, -0.078375, -0.0257606, -0.078375, -0.0257606, -0.09405, -0.0309127, 2.92416E-010, -8.82794E-010
2, 900.00000, -0.078375, -0.0257606, -0.078375, -0.0257606, -0.09405, -0.0309127, 2.92416E-010, -8.82794E-010
2, 960.00000, -0.0627, -0.0206085, -0.125398, -0.0412161, -0.0940513, -0.0309132, 9.42403E-009, -1.37347E-008
2, 1020.00000, -0.0627, -0.0206085, -0.1254, -0.0412169, -0.09405, -0.0309128, 9.42472E-009, -1.3736E-008
2, 1080.00000, -0.0627, -0.0206085, -0.1254, -0.0412169, -0.09405, -0.0309128, 9.42473E-009, -1.3736E-008
2, 1140.00000, -0.0627, -0.0206085, -0.1254, -0.0412169, -0.09405, -0.0309128, 9.42473E-009, -1.3736E-008
2, 1200.00000, -0.0627, -0.0206085, -0.1254, -0.0412169, -0.09405, -0.0309128, 9.42473E-009, -1.3736E-008
2, 1260.00000, -0.0940574, -0.030915, -0.0783782, -0.0257618, -0.0940465, -0.0309115, -6.54385E-011, -1.68615E-009
2, 1320.00000, -0.0940474, -0.0309119, -0.0783732, -0.02576, -0.0940479, -0.0309121, -6.53568E-011, -1.68721E-009
2, 1380.00000, -0.09405, -0.0309127, -0.078375, -0.0257606, -0.09405, -0.0309127, -6.53575E-011, -1.68735E-009
2, 1440.00000, -0.09405, -0.0309127, -0.078375, -0.0257606, -0.09405, -0.0309127, -6.53574E-011, -1.68735E-009
2, 1500.00000, -0.09405, -0.0309127, -0.078375, -0.0257606, -0.09405, -0.0309127, -6.53574E-011, -1.68735E-009
2, 1560.00000, -0.094049, -0.0309123, -0.0627012, -0.0206089, -0.0783746, -0.0257605, 7.49787E-010, -4.96153E-009
2, 1620.00000, -0.09405, -0.0309127, -0.0627, -0.0206085, -0.078375, -0.0257606, 7.4997E-010, -4.96216E-009
2, 1680.00000, -0.09405, -0.0309127, -0.0627, -0.0206085, -0.078375, -0.0257606, 7.49971E-010, -4.96216E-009
2, 1740.00000, -0.09405, -0.0309127, -0.0627, -0.0206085, -0.078375, -0.0257606, 7.49971E-010, -4.96216E-009
2, 1800.00000, -0.09405, -0.0309127, -0.0627, -0.0206085, -0.078375, -0.0257606, 7.49971E-010, -4.96216E-009
2, 1860.00000, -0.109723, -0.0360642, -0.0940405, -0.0309096, -0.10972, -0.0360631, -1.1663E-010, -1.74399E-009
2, 1920.00000, -0.109725, -0.0360649, -0.09405, -0.0309127, -0.109725, -0.0360649, -1.16873E-010, -1.74277E-009
2, 1980.00000, -0.109725, -0.0360649, -0.09405, -0.0309128, -0.109725, -0.0360649, -1.16874E-010, -1.74276E-009
2, 2040.00000, -0.109725, -0.0360649, -0.09405, -0.0309128, -0.109725, -0.0360649, -1.16874E-010, -1.74276E-009
2, 2100.00000, -0.109725, -0.0360649, -0.09405, -0.0309128, -0.109725, -0.0360649, -1.16874E-010, -1.74276E-009
2, 2160.00000, -0.0783717, -0.0257595, -0.078379, -0.0257619, -0.10973, -0.0360666, 1.96595E-009, -4.56238E-009
2, 2220.00000, -0.078375, -0.0257606, -0.078375, -0.0257606, -0.109725, -0.0360649, 1.96513E-009, -4.56111E-009
2, 2280.00000, -0.078375, -0.0257606, -0.078375, -0.0257606, -0.109725, -0.0360648, 1.96513E-009, -4.56111E-009
2, 2340.00000, -0.078375, -0.0257606, -0.078375, -0.0257606, -0.109725, -0.0360648, 1.96513E-009, -4.56111E-009
2, 2400.00000, -0.078375, -0.0257606, -0.078375, -0.0257606, -0.109725, -0.0360648, 1.96513E-009, -4.56111E-009
2, 2460.00000, -0.0783614, -0.0257561, -0.0783821, -0.0257627, -0.109736, -0.0360688, 1.87807E-009, -4.45774E-009
2, 2520.00000, -0.0783749, -0.0257606, -0.0783751, -0.0257606, -0.109725, -0.0360649, 1.87557E-009, -4.45382E-009
2, 2580.00000, -0.078375, -0.0257606, -0.078375, -0.0257606, -0.109725, -0.0360648, 1.87556E-009, -4.45382E-009
2, 2640.00000, -0.078375, -0.0257606, -0.078375, -0.0257606, -0.109725, -0.0360648, 1.87556E-009, -4.45382E-009
2, 2700.00000, -0.078375, -0.0257606, -0.078375, -0.0257606, -0.109725, -0.0360648, 1.87556E-009, -4.45382E-009
2, 2760.00000, -0.0940663, -0.0309184, -0.10971, -0.0360602, -0.0940511, -0.0309127, 1.14067E-009, -9.68782E-010
2, 2820.00000, -0.0940501, -0.0309128, -0.109725, -0.0360648, -0.09405, -0.0309128, 1.14372E-009, -9.71329E-010
2, 2880.00000, -0.09405, -0.0309127, -0.109725, -0.0360649, -0.09405, -0.0309128, 1.14375E-009, -9.71357E-010
2, 2940.00000, -0.09405, -0.0309127, -0.109725, -0.0360649, -0.09405, -0.0309128, 1.14375E-009, -9.71357E-010
2, 3000.00000, -0.09405, -0.0309127, -0.109725, -0.0360649, -0.09405, -0.0309128, 1.14375E-009, -9.71357E-010
2, 3060.00000, -0.0940528, -0.0309136, -0.0783752, -0.0257608, -0.078372, -0.0257596, 1.30663E-011, -2.10811E-009
2, 3120.00000, -0.09405, -0.0309127, -0.078375, -0.0257606, -0.078375, -0.0257606, 1.28503E-011, -2.10717E-009
2, 3180.00000, -0.09405, -0.0309127, -0.078375, -0.0257606, -0.078375, -0.0257606, 1.28486E-011, -2.10716E-009
2, 3240.00000, -0.09405, -0.0309127, -0.078375, -0.0257606, -0.078375, -0.0257606, 1.28486E-011, -2.10716E-009
2, 3300.00000, -0.09405, -0.0309127, -0.078375, -0.0257606, -0.078375, -0.0257606, 1.28486E-011, -2.10716E-009
2, 3360.00000, -0.0940467, -0.0309117, -0.0940494, -0.0309124, -0.0783782, -0.0257617, 5.18259E-010, -1.96278E-009
2, 3420.00000, -0.09405, -0.0309127, -0.09405, -0.0309127, -0.078375, -0.0257606, 5.18547E-010, -1.96398E-009
2, 3480.00000, -0.09405, -0.0309127, -0.09405, -0.0309127, -0.078375, -0.0257606, 5.18548E-010, -1.96398E-009
2, 3540.00000, -0.09405, -0.0309127, -0.09405, -0.0309127, -0.078375, -0.0257606, 5.18548E-010, -1.96398E-009
3, 0.00000, -0.09405, -0.0309127, -0.09405, -0.0309127, -0.078375, -0.0257606, 5.18548E-010, -1.96398E-009
3, 60.00000, -0.0940522, -0.0309135, -0.0783745, -0.0257605, -0.109723, -0.0360642, 1.01639E-009, -4.02417E-009
3, 120.00000, -0.09405, -0.0309128, -0.078375, -0.0257606, -0.109725, -0.0360648, 1.01658E-009, -4.02443E-009
