hour, t(sec), V1, VAngle1, V2, VAngle2, V3, VAngle3, V4, VAngle4, I1, IAngle1, I2, IAngle2, I3, IAngle3, I4, IAngle4
0, 60.00000, 223.227, -30.1758, 223.486, -150.21, 223.657, 89.8328, 4.86806E-005, -139.326, 0.45156, 131.629, 0.451038, 11.5947, 0.394356, -108.362, 0.0293894, -48.9685
0, 120.00000, 223.227, -30.1758, 223.486, -150.21, 223.657, 89.8328, 4.86803E-005, -139.327, 0.451558, 131.629, 0.451036, 11.5947, 0.394354, -108.362, 0.0293892, -48.9686
0, 180.00000, 223.227, -30.1758, 223.486, -150.21, 223.657, 89.8328, 4.86803E-005, -139.327, 0.451558, 131.629, 0.451036, 11.5947, 0.394354, -108.362, 0.0293892, -48.9686
0, 240.00000, 223.227, -30.1758, 223.486, -150.21, 223.657, 89.8328, 4.86803E-005, -139.327, 0.451558, 131.629, 0.451036, 11.5947, 0.394354, -108.362, 0.0293892, -48.9686
0, 300.00000, 223.227, -30.1758, 223.486, -150.21, 223.657, 89.8328, 4.86803E-005, -139.327, 0.451558, 131.629, 0.451036, 11.5947, 0.394354, -108.362, 0.0293892, -48.9686
0, 360.00000, 223.139, -30.2046, 223.627, -150.21, 223.509, 89.8382, 4.8669E-005, -140.752, 0.451728, 131.601, 0.450756, 11.5954, 0.394606, -108.357, 0.0307556, -48.6359
0, 420.00000, 223.139, -30.2046, 223.627, -150.21, 223.509, 89.8382, 4.86629E-005, -140.742, 0.451735, 131.601, 0.45075, 11.5955, 0.394616, -108.357, 0.0307522, -48.6211
0, 480.00000, 223.139, -30.2046, 223.627, -150.21, 223.509, 89.8382, 4.8663E-005, -140.742, 0.451735, 131.601, 0.45075, 11.5955, 0.394616, -108.357, 0.0307522, -48.6211
0, 540.00000, 223.139, -30.2046, 223.627, -150.21, 223.509, 89.8382, 4.8663E-005, -140.742, 0.451735, 131.601, 0.45075, 11.5955, 0.394616, -108.357, 0.0307522, -48.6211
0, 600.00000, 223.139, -30.2046, 223.627, -150.21, 223.509, 89.8382, 4.8663E-005, -140.742, 0.451735, 131.601, 0.45075, 11.5955, 0.394616, -108.357, 0.0307522, -48.6211
0, 660.00000, 223.128, -30.1982, 223.634, -150.209, 223.563, 89.8451, 7.20912E-005, 102.142, 0.338816, 131.607, 0.450741, 11.5966, 0.450885, -108.35, 0.060972, 167.175
0, 720.00000, 223.128, -30.1982, 223.634, -150.209, 223.563, 89.8451, 7.20861E-005, 102.143, 0.338819, 131.607, 0.450737, 11.5966, 0.45088, -108.35, 0.0609675, 167.175
0, 780.00000, 223.128, -30.1982, 223.634, -150.209, 223.563, 89.8451, 7.20861E-005, 102.143, 0.338819, 131.607, 0.450737, 11.5966, 0.45088, -108.35, 0.0609675, 167.175
0, 840.00000, 223.128, -30.1982, 223.634, -150.209, 223.563, 89.8451, 7.20861E-005, 102.143, 0.338819, 131.607, 0.450737, 11.5966, 0.45088, -108.35, 0.0609675, 167.175
0, 900.00000, 223.128, -30.1982, 223.634, -150.209, 223.563, 89.8451, 7.20861E-005, 102.143, 0.338819, 131.607, 0.450737, 11.5966, 0.45088, -108.35, 0.0609675, 167.175
0, 960.00000, 223.272, -30.1639, 223.285, -150.21, 223.577, 89.8072, 0.000155414, -129.871, 0.564334, 131.641, 0.507871, 11.5953, 0.338138, -108.388, 0.118394, -44.9649
0, 1020.00000, 223.272, -30.1639, 223.285, -150.21, 223.577, 89.8072, 0.000155414, -129.871, 0.564334, 131.641, 0.507871, 11.5953, 0.338138, -108.388, 0.118394, -44.9651
0, 1080.00000, 223.272, -30.1639, 223.285, -150.21, 223.577, 89.8072, 0.000155414, -129.871, 0.564334, 131.641, 0.507871, 11.5953, 0.338138, -108.388, 0.118394, -44.9651
0, 1140.00000, 223.272, -30.1639, 223.285, -150.21, 223.577, 89.8072, 0.000155414, -129.871, 0.564334, 131.641, 0.507871, 11.5953, 0.338138, -108.388, 0.118394, -44.9651
0, 1200.00000, 223.272, -30.1639, 223.285, -150.21, 223.577, 89.8072, 0.000155414, -129.871, 0.564334, 131.641, 0.507871, 11.5953, 0.338138, -108.388, 0.118394, -44.9651
0, 1260.00000, 223.251, -30.1596, 223.24, -150.218, 223.65, 89.8109, 0.000133936, 131.423, 0.338633, 131.646, 0.564416, 11.5868, 0.450704, -108.384, 0.104718, -158.05
0, 1320.00000, 223.251, -30.1596, 223.239, -150.218, 223.65, 89.8109, 0.000133936, 131.423, 0.338633, 131.646, 0.564416, 11.5868, 0.450704, -108.384, 0.104718, -158.05
0, 1380.00000, 223.251, -30.1596, 223.239, -150.218, 223.65, 89.8109, 0.000133936, 131.423, 0.338633, 131.646, 0.564416, 11.5868, 0.450704, -108.384, 0.104718, -158.05
0, 1440.00000, 223.251, -30.1596, 223.239, -150.218, 223.65, 89.8109, 0.000133936, 131.423, 0.338633, 131.646, 0.564416, 11.5868, 0.450704, -108.384, 0.104718, -158.05
0, 1500.00000, 223.251, -30.1596, 223.239, -150.218, 223.65, 89.8109, 0.000133936, 131.423, 0.338633, 131.646, 0.564416, 11.5868, 0.450704, -108.384, 0.104718, -158.05
0, 1560.00000, 223.178, -30.1917, 223.642, -150.21, 223.623, 89.8482, 6.28144E-005, 0.276179, 0.451651, 131.613, 0.394402, 11.5953, 0.507101, -108.347, 0.0649125, 80.7857
0, 1620.00000, 223.178, -30.1917, 223.642, -150.21, 223.623, 89.8482, 6.28296E-005, 0.267213, 0.451658, 131.613, 0.39438, 11.5953, 0.507103, -108.347, 0.0649248, 80.778
0, 1680.00000, 223.178, -30.1917, 223.642, -150.21, 223.623, 89.8482, 6.28297E-005, 0.267216, 0.451658, 131.613, 0.39438, 11.5953, 0.507103, -108.347, 0.0649248, 80.778
0, 1740.00000, 223.178, -30.1917, 223.642, -150.21, 223.623, 89.8482, 6.28297E-005, 0.267216, 0.451658, 131.613, 0.39438, 11.5953, 0.507103, -108.347, 0.0649248, 80.778
0, 1800.00000, 223.178, -30.1917, 223.642, -150.21, 223.623, 89.8482, 6.28297E-005, 0.267216, 0.451658, 131.613, 0.39438, 11.5953, 0.507103, -108.347, 0.0649248, 80.778
0, 1860.00000, 223.218, -30.2031, 223.535, -150.198, 223.432, 89.8239, 0.000132264, 3.56066, 0.451578, 131.602, 0.338198, 11.6073, 0.563914, -108.371, 0.122071, 83.2899
0, 1920.00000, 223.218, -30.2031, 223.535, -150.198, 223.432, 89.8239, 0.000132271, 3.56412, 0.451577, 131.602, 0.338202, 11.6073, 0.56393, -108.371, 0.122077, 83.2931
0, 1980.00000, 223.218, -30.2031, 223.535, -150.198, 223.432, 89.8239, 0.000132271, 3.56412, 0.451577, 131.602, 0.338202, 11.6073, 0.56393, -108.371, 0.122077, 83.2931
0, 2040.00000, 223.218, -30.2031, 223.535, -150.198, 223.432, 89.8239, 0.000132271, 3.56412, 0.451577, 131.602, 0.338202, 11.6073, 0.56393, -108.371, 0.122077, 83.2931
0, 2100.00000, 223.218, -30.2031, 223.535, -150.198, 223.432, 89.8239, 0.000132271, 3.56412, 0.451577, 131.602, 0.338202, 11.6073, 0.56393, -108.371, 0.122077, 83.2931
0, 2160.00000, 223.329, -30.1601, 223.379, -150.213, 223.689, 89.8135, 0.000103968, 143.852, 0.39494, 131.645, 0.564057, 11.5918, 0.450639, -108.381, 0.0766769, -146.651
0, 2220.00000, 223.329, -30.1601, 223.379, -150.213, 223.689, 89.8135, 0.000103979, 143.855, 0.394934, 131.645, 0.564064, 11.5918, 0.450625, -108.381, 0.0766849, -146.646
0, 2280.00000, 223.329, -30.1601, 223.379, -150.213, 223.689, 89.8135, 0.000103979, 143.855, 0.394934, 131.645, 0.564064, 11.5918, 0.450625, -108.381, 0.0766849, -146.646
0, 2340.00000, 223.329, -30.1601, 223.379, -150.213, 223.689, 89.8135, 0.000103979, 143.855, 0.394934, 131.645, 0.564064, 11.5918, 0.450625, -108.381, 0.0766849, -146.646
0, 2400.00000, 223.329, -30.1601, 223.379, -150.213, 223.689, 89.8135, 0.000103979, 143.855, 0.394934, 131.645, 0.564064, 11.5918, 0.450625, -108.381, 0.0766849, -146.646
0, 2460.00000, 223.22, -30.2107, 223.676, -150.192, 223.406, 89.8296, 7.83457E-005, -30.4364, 0.395125, 131.594, 0.281657, 11.6134, 0.394796, -108.365, 0.0757429, 55.1747
0, 2520.00000, 223.22, -30.2107, 223.676, -150.192, 223.406, 89.8296, 7.8346E-005, -30.4363, 0.395126, 131.594, 0.281657, 11.6134, 0.394796, -108.365, 0.0757431, 55.1747
0, 2580.00000, 223.22, -30.2107, 223.676, -150.192, 223.406, 89.8296, 7.8346E-005, -30.4363, 0.395126, 131.594, 0.281657, 11.6134, 0.394796, -108.365, 0.0757431, 55.1747
0, 2640.00000, 223.22, -30.2107, 223.676, -150.192, 223.406, 89.8296, 7.8346E-005, -30.4363, 0.395126, 131.594, 0.281657, 11.6134, 0.394796, -108.365, 0.0757431, 55.1747
0, 2700.00000, 223.22, -30.2107, 223.676, -150.192, 223.406, 89.8296, 7.8346E-005, -30.4363, 0.395126, 131.594, 0.281657, 11.6134, 0.394796, -108.365, 0.0757431, 55.1747
0, 2760.00000, 223.234, -30.1919, 223.492, -150.185, 223.431, 89.8249, 3.1342E-005, 111.983, 0.451546, 131.613, 0.507391, 11.6197, 0.507547, -108.37, 0.0284873, 153.237
0, 2820.00000, 223.234, -30.1919, 223.492, -150.185, 223.431, 89.8249, 3.13455E-005, 111.998, 0.451545, 131.613, 0.5074, 11.6197, 0.50754, -108.37, 0.0284854, 153.252
0, 2880.00000, 223.234, -30.1919, 223.492, -150.185, 223.431, 89.8249, 3.13455E-005, 111.998, 0.451545, 131.613, 0.5074, 11.6197, 0.50754, -108.37, 0.0284854, 153.252
0, 2940.00000, 223.234, -30.1919, 223.492, -150.185, 223.431, 89.8249, 3.13455E-005, 111.998, 0.451545, 131.613, 0.5074, 11.6197, 0.50754, -108.37, 0.0284854, 153.252
0, 3000.00000, 223.234, -30.1919, 223.492, -150.185, 223.431, 89.8249, 3.13455E-005, 111.998, 0.451545, 131.613, 0.5074, 11.6197, 0.50754, -108.37, 0.0284854, 153.252
0, 3060.00000, 223.213, -30.1858, 223.522, -150.21, 223.582, 89.8201, 0.000139121, -57.4407, 0.564483, 131.619, 0.338221, 11.5952, 0.45084, -108.375, 0.123802, 26.4464
0, 3120.00000, 223.213, -30.1858, 223.522, -150.21, 223.582, 89.8201, 0.000139121, -57.4407, 0.564483, 131.619, 0.338221, 11.5952, 0.45084, -108.375, 0.123802, 26.4463
0, 3180.00000, 223.213, -30.1858, 223.522, -150.21, 223.582, 89.8201, 0.000139121, -57.4407, 0.564483, 131.619, 0.338221, 11.5952, 0.45084, -108.375, 0.123802, 26.4463
0, 3240.00000, 223.213, -30.1858, 223.522, -150.21, 223.582, 89.8201, 0.000139121, -57.4407, 0.564483, 131.619, 0.338221, 11.5952, 0.45084, -108.375, 0.123802, 26.4463
0, 3300.00000, 223.213, -30.1858, 223.522, -150.21, 223.582, 89.8201, 0.000139121, -57.4407, 0.564483, 131.619, 0.338221, 11.5952, 0.45084, -108.375, 0.123802, 26.4463
0, 3360.00000, 223.332, -30.1809, 223.448, -150.204, 223.538, 89.8125, 8.96621E-005, -141.722, 0.507783, 131.624, 0.507487, 11.6006, 0.39456, -108.382, 0.0623865, -55.8916
0, 3420.00000, 223.332, -30.1809, 223.448, -150.204, 223.538, 89.8125, 8.96578E-005, -141.733, 0.507765, 131.624, 0.5075, 11.6006, 0.394564, -108.382, 0.0623809, -55.9055
0, 3480.00000, 223.332, -30.1809, 223.448, -150.204, 223.538, 89.8125, 8.96578E-005, -141.733, 0.507765, 131.624, 0.5075, 11.6006, 0.394564, -108.382, 0.0623809, -55.9055
0, 3540.00000, 223.332, -30.1809, 223.448, -150.204, 223.538, 89.8125, 8.96578E-005, -141.733, 0.507765, 131.624, 0.5075, 11.6006, 0.394564, -108.382, 0.0623809, -55.9055
1, 0.00000, 223.332, -30.1809, 223.448, -150.204, 223.538, 89.8125, 8.96578E-005, -141.733, 0.507765, 131.624, 0.5075, 11.6006, 0.394564, -108.382, 0.0623809, -55.9055
1, 60.00000, 223.639, -30.15, 223.914, -150.162, 223.876, 89.8611, 3.01534E-005, 30.4947, 0.394388, 131.655, 0.393904, 11.6428, 0.450251, -108.334, 0.03877, 101.949
1, 120.00000, 223.639, -30.15, 223.914, -150.162, 223.876, 89.8611, 3.01542E-005, 30.4938, 0.394387, 131.655, 0.393902, 11.6428, 0.450249, -108.334, 0.0387706, 101.948
1, 180.00000, 223.639, -30.15, 223.914, -150.162, 223.876, 89.8611, 3.01542E-005, 30.4938, 0.394386, 131.655, 0.393902, 11.6428, 0.450249, -108.334, 0.0387706, 101.948
1, 240.00000, 223.639, -30.15, 223.914, -150.162, 223.876, 89.8611, 3.01542E-005, 30.4938, 0.394386, 131.655, 0.393902, 11.6428, 0.450249, -108.334, 0.0387706, 101.948
1, 300.00000, 223.639, -30.15, 223.914, -150.162, 223.876, 89.8611, 3.01542E-005, 30.4938, 0.394386, 131.655, 0.393902, 11.6428, 0.450249, -108.334, 0.0387706, 101.948
1, 360.00000, 223.644, -30.15, 223.868, -150.17, 223.921, 89.8635, 3.90133E-005, -34.4594, 0.450716, 131.655, 0.393982, 11.6347, 0.450158, -108.331, 0.0404226, 55.1614
1, 420.00000, 223.644, -30.15, 223.868, -150.17, 223.921, 89.8635, 3.90138E-005, -34.459, 0.450716, 131.655, 0.393982, 11.6347, 0.450159, -108.331, 0.0404231, 55.1615
1, 480.00000, 223.644, -30.15, 223.868, -150.17, 223.921, 89.8635, 3.90138E-005, -34.459, 0.450716, 131.655, 0.393982, 11.6347, 0.450159, -108.331, 0.0404231, 55.1616
1, 540.00000, 223.644, -30.15, 223.868, -150.17, 223.921, 89.8635, 3.90138E-005, -34.459, 0.450716, 131.655, 0.393982, 11.6347, 0.450159, -108.331, 0.0404231, 55.1616
1, 600.00000, 223.644, -30.15, 223.868, -150.17, 223.921, 89.8635, 3.90138E-005, -34.459, 0.450716, 131.655, 0.393982, 11.6347, 0.450159, -108.331, 0.0404231, 55.1616
1, 660.00000, 223.479, -30.1574, 223.948, -150.177, 223.943, 89.877, 3.92381E-005, -32.4945, 0.338288, 131.648, 0.281315, 11.6282, 0.337585, -108.318, 0.039047, 55.2235
1, 720.00000, 223.479, -30.1574, 223.948, -150.177, 223.943, 89.877, 3.92378E-005, -32.4943, 0.338288, 131.648, 0.281316, 11.6282, 0.337585, -108.318, 0.0390467, 55.2237
1, 780.00000, 223.479, -30.1574, 223.948, -150.177, 223.943, 89.877, 3.92377E-005, -32.4943, 0.338288, 131.648, 0.281316, 11.6282, 0.337585, -108.318, 0.0390467, 55.2237
1, 840.00000, 223.479, -30.1574, 223.948, -150.177, 223.943, 89.877, 3.92377E-005, -32.4943, 0.338288, 131.648, 0.281316, 11.6282, 0.337585, -108.318, 0.0390467, 55.2237
1, 900.00000, 223.479, -30.1574, 223.948, -150.177, 223.943, 89.877, 3.92377E-005, -32.4943, 0.338288, 131.648, 0.281316, 11.6282, 0.337585, -108.318, 0.0390467, 55.2237
1, 960.00000, 223.598, -30.1557, 223.798, -150.18, 223.934, 89.8522, 8.77705E-005, -140.288, 0.394457, 131.649, 0.394105, 11.6246, 0.281333, -108.343, 0.0603372, -57.772
1, 1020.00000, 223.598, -30.1557, 223.798, -150.18, 223.934, 89.8522, 8.77707E-005, -140.287, 0.394457, 131.649, 0.394105, 11.6246, 0.281333, -108.343, 0.0603375, -57.7718
1, 1080.00000, 223.598, -30.1557, 223.798, -150.18, 223.934, 89.8522, 8.77707E-005, -140.287, 0.394457, 131.649, 0.394105, 11.6246, 0.281333, -108.343, 0.0603375, -57.7718
1, 1140.00000, 223.598, -30.1557, 223.798, -150.18, 223.934, 89.8522, 8.77707E-005, -140.287, 0.394457, 131.649, 0.394105, 11.6246, 0.281333, -108.343, 0.0603375, -57.7718
1, 1200.00000, 223.598, -30.1557, 223.798, -150.18, 223.934, 89.8522, 8.77707E-005, -140.287, 0.394457, 131.649, 0.394105, 11.6246, 0.281333, -108.343, 0.0603375, -57.7718
1, 1260.00000, 223.687, -30.1424, 223.747, -150.166, 223.909, 89.8459, 9.95492E-006, -127.757, 0.394301, 131.663, 0.394195, 11.6391, 0.39391, -108.349, 0.00980078, 51.3597
1, 1320.00000, 223.687, -30.1424, 223.747, -150.166, 223.909, 89.8459, 9.95453E-006, -127.756, 0.394301, 131.663, 0.394195, 11.6391, 0.393911, -108.349, 0.00980099, 51.3614
1, 1380.00000, 223.687, -30.1424, 223.747, -150.166, 223.909, 89.8459, 9.95453E-006, -127.756, 0.394301, 131.663, 0.394195, 11.6391, 0.393911, -108.349, 0.00980098, 51.3614
1, 1440.00000, 223.687, -30.1424, 223.747, -150.166, 223.909, 89.8459, 9.95453E-006, -127.756, 0.394301, 131.663, 0.394195, 11.6391, 0.393911, -108.349, 0.00980098, 51.3614
1, 1500.00000, 223.687, -30.1424, 223.747, -150.166, 223.909, 89.8459, 9.95453E-006, -127.756, 0.394301, 131.663, 0.394195, 11.6391, 0.393911, -108.349, 0.00980098, 51.3614
1, 1560.00000, 223.734, -30.1626, 223.946, -150.154, 223.877, 89.8498, 3.29573E-005, 105.008, 0.281584, 131.643, 0.337581, 11.6515, 0.337686, -108.345, 0.0304204, 160.641
1, 1620.00000, 223.734, -30.1626, 223.946, -150.154, 223.877, 89.8498, 3.29574E-005, 105.008, 0.281584, 131.643, 0.337581, 11.6515, 0.337686, -108.345, 0.0304205, 160.641
1, 1680.00000, 223.734, -30.1626, 223.946, -150.154, 223.877, 89.8498, 3.29574E-005, 105.008, 0.281584, 131.643, 0.337581, 11.6515, 0.337686, -108.345, 0.0304205, 160.641
1, 1740.00000, 223.734, -30.1626, 223.946, -150.154, 223.877, 89.8498, 3.29574E-005, 105.008, 0.281584, 131.643, 0.337581, 11.6515, 0.337686, -108.345, 0.0304205, 160.641
1, 1800.00000, 223.734, -30.1626, 223.946, -150.154, 223.877, 89.8498, 3.29574E-005, 105.008, 0.281584, 131.643, 0.337581, 11.6515, 0.337686, -108.345, 0.0304205, 160.641
1, 1860.00000, 223.551, -30.16, 223.879, -150.166, 223.883, 89.8653, 8.81943E-005, -141.33, 0.394535, 131.645, 0.393958, 11.6391, 0.2814, -108.33, 0.0620134, -57.1144
1, 1920.00000, 223.551, -30.16, 223.879, -150.166, 223.883, 89.8654, 8.81997E-005, -141.33, 0.394541, 131.645, 0.393962, 11.6391, 0.281397, -108.33, 0.0620179, -57.1141
1, 1980.00000, 223.551, -30.16, 223.879, -150.166, 223.883, 89.8654, 8.81997E-005, -141.33, 0.394541, 131.645, 0.393962, 11.6391, 0.281397, -108.33, 0.0620179, -57.1141
1, 2040.00000, 223.551, -30.16, 223.879, -150.166, 223.883, 89.8654, 8.81997E-005, -141.33, 0.394541, 131.645, 0.393962, 11.6391, 0.281397, -108.33, 0.0620179, -57.1141
1, 2100.00000, 223.551, -30.16, 223.879, -150.166, 223.883, 89.8654, 8.81997E-005, -141.33, 0.394541, 131.645, 0.393962, 11.6391, 0.281397, -108.33, 0.0620179, -57.1141
1, 2160.00000, 223.694, -30.1474, 223.741, -150.16, 223.857, 89.8456, 5.93407E-005, 67.8753, 0.337967, 131.658, 0.394199, 11.6451, 0.450286, -108.349, 0.0582692, 136.178
1, 2220.00000, 223.694, -30.1474, 223.741, -150.16, 223.857, 89.8456, 5.93456E-005, 67.8804, 0.337961, 131.658, 0.394206, 11.6451, 0.450289, -108.349, 0.0582726, 136.183
1, 2280.00000, 223.694, -30.1474, 223.741, -150.16, 223.857, 89.8456, 5.93456E-005, 67.8804, 0.337961, 131.658, 0.394206, 11.6451, 0.450289, -108.349, 0.0582725, 136.183
1, 2340.00000, 223.694, -30.1474, 223.741, -150.16, 223.857, 89.8456, 5.93456E-005, 67.8804, 0.337961, 131.658, 0.394206, 11.6451, 0.450289, -108.349, 0.0582725, 136.183
1, 2400.00000, 223.694, -30.1474, 223.741, -150.16, 223.857, 89.8456, 5.93456E-005, 67.8804, 0.337961, 131.658, 0.394206, 11.6451, 0.450289, -108.349, 0.0582725, 136.183
1, 2460.00000, 223.735, -30.165, 223.939, -150.142, 223.76, 89.8557, 3.19101E-005, 30.5757, 0.337902, 131.64, 0.3376, 11.6636, 0.394164, -108.339, 0.0383485, 104.441
1, 2520.00000, 223.735, -30.165, 223.939, -150.142, 223.76, 89.8557, 3.192E-005, 30.5715, 0.337899, 131.64, 0.337592, 11.6636, 0.394173, -108.339, 0.0383569, 104.439
1, 2580.00000, 223.735, -30.165, 223.939, -150.142, 223.76, 89.8557, 3.19199E-005, 30.5715, 0.337899, 131.64, 0.337592, 11.6636, 0.394173, -108.339, 0.0383568, 104.439
1, 2640.00000, 223.735, -30.165, 223.939, -150.142, 223.76, 89.8557, 3.19199E-005, 30.5715, 0.337899, 131.64, 0.337592, 11.6636, 0.394173, -108.339, 0.0383568, 104.439
1, 2700.00000, 223.735, -30.165, 223.939, -150.142, 223.76, 89.8557, 3.19199E-005, 30.5715, 0.337899, 131.64, 0.337592, 11.6636, 0.394173, -108.339, 0.0383568, 104.439
1, 2760.00000, 223.705, -30.1445, 223.817, -150.167, 223.964, 89.8465, 4.63566E-005, -91.7145, 0.39427, 131.661, 0.337775, 11.638, 0.337554, -108.348, 0.0391024, 5.91994
1, 2820.00000, 223.705, -30.1445, 223.817, -150.167, 223.964, 89.8465, 4.63563E-005, -91.7148, 0.394269, 131.661, 0.337775, 11.638, 0.337554, -108.348, 0.0391021, 5.91976
1, 2880.00000, 223.705, -30.1445, 223.817, -150.167, 223.964, 89.8465, 4.63563E-005, -91.7148, 0.394269, 131.661, 0.337775, 11.638, 0.337554, -108.348, 0.0391021, 5.91975
1, 2940.00000, 223.705, -30.1445, 223.817, -150.167, 223.964, 89.8465, 4.63563E-005, -91.7148, 0.394269, 131.661, 0.337775, 11.638, 0.337554, -108.348, 0.0391021, 5.91975
1, 3000.00000, 223.705, -30.1445, 223.817, -150.167, 223.964, 89.8465, 4.63563E-005, -91.7148, 0.394269, 131.661, 0.337775, 11.638, 0.337554, -108.348, 0.0391021, 5.91975
1, 3060.00000, 223.591, -30.1692, 224.014, -150.163, 223.878, 89.8657, 8.97817E-006, -125.533, 0.338112, 131.636, 0.337486, 11.642, 0.337683, -108.329, 0.00895034, 52.0203
1, 3120.00000, 223.591, -30.1692, 224.014, -150.163, 223.878, 89.8657, 8.97921E-006, -125.48, 0.338118, 131.636, 0.337478, 11.642, 0.337684, -108.329, 0.00895726, 52.0075
1, 3180.00000, 223.591, -30.1692, 224.014, -150.163, 223.878, 89.8657, 8.97919E-006, -125.48, 0.338118, 131.636, 0.337478, 11.642, 0.337684, -108.329, 0.00895726, 52.0076
1, 3240.00000, 223.591, -30.1692, 224.014, -150.163, 223.878, 89.8657, 8.97919E-006, -125.48, 0.338118, 131.636, 0.337478, 11.642, 0.337684, -108.329, 0.00895726, 52.0076
1, 3300.00000, 223.591, -30.1692, 224.014, -150.163, 223.878, 89.8657, 8.97919E-006, -125.48, 0.338118, 131.636, 0.337478, 11.642, 0.337684, -108.329, 0.00895726, 52.0076
1, 3360.00000, 223.703, -30.1531, 223.857, -150.163, 223.865, 89.8496, 7.08754E-005, 100.856, 0.337948, 131.652, 0.450288, 11.6426, 0.450271, -108.345, 0.06302, 166.795
1, 3420.00000, 223.703, -30.1531, 223.857, -150.162, 223.865, 89.8496, 7.08753E-005, 100.855, 0.337948, 131.652, 0.450288, 11.6426, 0.450271, -108.345, 0.06302, 166.795
