hour, t(sec), P1 (kW), Q1 (kvar), P2 (kW), Q2 (kvar), P3 (kW), Q3 (kvar), P4 (kW), Q4 (kvar)
0, 60.00000, -0.111721, -0.0367204, -0.111722, -0.0367211, -0.125683, -0.0413098, 5.35791E-010, -1.53698E-009
0, 120.00000, -0.11172, -0.0367206, -0.11172, -0.0367206, -0.125685, -0.0413106, 5.36018E-010, -1.53783E-009
0, 180.00000, -0.11172, -0.0367206, -0.11172, -0.0367206, -0.125685, -0.0413106, 5.3602E-010, -1.53783E-009
0, 240.00000, -0.11172, -0.0367206, -0.11172, -0.0367206, -0.125685, -0.0413106, 5.3602E-010, -1.53783E-009
0, 300.00000, -0.11172, -0.0367206, -0.11172, -0.0367206, -0.125685, -0.0413106, 5.3602E-010, -1.53783E-009
0, 360.00000, -0.125688, -0.0413136, -0.111704, -0.0367156, -0.111727, -0.0367231, -1.46317E-010, -2.41625E-009
0, 420.00000, -0.125685, -0.0413106, -0.11172, -0.0367206, -0.11172, -0.0367206, -1.46482E-010, -2.41353E-009
0, 480.00000, -0.125685, -0.0413106, -0.11172, -0.0367206, -0.11172, -0.0367206, -1.4648E-010, -2.41356E-009
0, 540.00000, -0.125685, -0.0413106, -0.11172, -0.0367206, -0.11172, -0.0367206, -1.4648E-010, -2.41356E-009
0, 600.00000, -0.125685, -0.0413106, -0.11172, -0.0367206, -0.11172, -0.0367206, -1.4648E-010, -2.41356E-009
0, 660.00000, -0.125674, -0.0413061, -0.111736, -0.0367251, -0.125681, -0.0413105, 9.59301E-011, -2.16165E-009
0, 720.00000, -0.125685, -0.0413107, -0.11172, -0.0367206, -0.125685, -0.0413106, 9.67601E-011, -2.1679E-009
0, 780.00000, -0.125685, -0.0413107, -0.11172, -0.0367206, -0.125685, -0.0413106, 9.67667E-011, -2.16792E-009
0, 840.00000, -0.125685, -0.0413107, -0.11172, -0.0367206, -0.125685, -0.0413106, 9.67667E-011, -2.16792E-009
0, 900.00000, -0.125685, -0.0413107, -0.11172, -0.0367206, -0.125685, -0.0413106, 9.67667E-011, -2.16792E-009
0, 960.00000, -0.0977549, -0.0321305, -0.11172, -0.0367206, -0.0977549, -0.0321305, 5.93906E-010, -1.2698E-009
0, 1020.00000, -0.097755, -0.0321305, -0.11172, -0.0367206, -0.097755, -0.0321305, 5.93881E-010, -1.26973E-009
0, 1080.00000, -0.097755, -0.0321305, -0.11172, -0.0367206, -0.097755, -0.0321305, 5.93881E-010, -1.26973E-009
0, 1140.00000, -0.097755, -0.0321305, -0.11172, -0.0367206, -0.097755, -0.0321305, 5.93881E-010, -1.26973E-009
0, 1200.00000, -0.097755, -0.0321305, -0.11172, -0.0367206, -0.097755, -0.0321305, 5.93881E-010, -1.26973E-009
0, 1260.00000, -0.125684, -0.0413102, -0.111721, -0.0367209, -0.0837902, -0.0275402, 2.14934E-009, -1.29302E-008
0, 1320.00000, -0.125685, -0.0413106, -0.11172, -0.0367206, -0.0837899, -0.0275405, 2.14943E-009, -1.29309E-008
0, 1380.00000, -0.125685, -0.0413106, -0.11172, -0.0367206, -0.08379, -0.0275405, 2.14942E-009, -1.29309E-008
0, 1440.00000, -0.125685, -0.0413106, -0.11172, -0.0367206, -0.08379, -0.0275405, 2.14942E-009, -1.29309E-008
0, 1500.00000, -0.125685, -0.0413106, -0.11172, -0.0367206, -0.08379, -0.0275405, 2.14942E-009, -1.29309E-008
0, 1560.00000, -0.0698309, -0.0229547, -0.111721, -0.0367216, -0.167571, -0.0550777, 1.75777E-008, -6.07719E-008
0, 1620.00000, -0.069825, -0.0229505, -0.11172, -0.0367205, -0.16758, -0.0550808, 1.75833E-008, -6.07939E-008
0, 1680.00000, -0.069825, -0.0229505, -0.11172, -0.0367205, -0.16758, -0.0550808, 1.75833E-008, -6.07939E-008
0, 1740.00000, -0.069825, -0.0229505, -0.11172, -0.0367205, -0.16758, -0.0550808, 1.75833E-008, -6.07939E-008
0, 1800.00000, -0.069825, -0.0229505, -0.11172, -0.0367205, -0.16758, -0.0550808, 1.75833E-008, -6.07939E-008
0, 1860.00000, -0.125671, -0.041308, -0.139652, -0.0458991, -0.12569, -0.0413127, 6.71583E-010, -1.1767E-009
0, 1920.00000, -0.125685, -0.0413106, -0.13965, -0.0459007, -0.125685, -0.0413107, 6.70548E-010, -1.17575E-009
0, 1980.00000, -0.125685, -0.0413106, -0.13965, -0.0459007, -0.125685, -0.0413107, 6.70538E-010, -1.17573E-009
0, 2040.00000, -0.125685, -0.0413106, -0.13965, -0.0459007, -0.125685, -0.0413107, 6.70538E-010, -1.17573E-009
0, 2100.00000, -0.125685, -0.0413106, -0.13965, -0.0459007, -0.125685, -0.0413107, 6.70538E-010, -1.17573E-009
0, 2160.00000, -0.125681, -0.0413091, -0.125694, -0.0413118, -0.097755, -0.03213, 1.20896E-009, -7.13525E-009
0, 2220.00000, -0.125685, -0.0413106, -0.125685, -0.0413107, -0.0977549, -0.0321305, 1.20824E-009, -7.13401E-009
0, 2280.00000, -0.125685, -0.0413106, -0.125685, -0.0413107, -0.097755, -0.0321305, 1.20823E-009, -7.13398E-009
0, 2340.00000, -0.125685, -0.0413106, -0.125685, -0.0413107, -0.097755, -0.0321305, 1.20823E-009, -7.13398E-009
0, 2400.00000, -0.125685, -0.0413106, -0.125685, -0.0413107, -0.097755, -0.0321305, 1.20823E-009, -7.13398E-009
0, 2460.00000, -0.111721, -0.036721, -0.0837893, -0.0275401, -0.111719, -0.0367204, 1.14382E-009, -7.79014E-009
0, 2520.00000, -0.11172, -0.0367206, -0.08379, -0.0275405, -0.11172, -0.0367205, 1.14375E-009, -7.78955E-009
0, 2580.00000, -0.11172, -0.0367206, -0.08379, -0.0275405, -0.11172, -0.0367205, 1.14375E-009, -7.78955E-009
0, 2640.00000, -0.11172, -0.0367206, -0.08379, -0.0275405, -0.11172, -0.0367205, 1.14375E-009, -7.78955E-009
0, 2700.00000, -0.11172, -0.0367206, -0.08379, -0.0275405, -0.11172, -0.0367205, 1.14375E-009, -7.78955E-009
0, 2760.00000, -0.111716, -0.0367202, -0.0837856, -0.0275396, -0.139662, -0.0459032, 4.76829E-009, -2.14333E-008
0, 2820.00000, -0.11172, -0.0367206, -0.08379, -0.0275405, -0.13965, -0.0459007, 4.76545E-009, -2.14226E-008
0, 2880.00000, -0.11172, -0.0367207, -0.0837899, -0.0275404, -0.13965, -0.0459006, 4.76544E-009, -2.14226E-008
0, 2940.00000, -0.11172, -0.0367207, -0.0837899, -0.0275404, -0.13965, -0.0459006, 4.76544E-009, -2.14226E-008
0, 3000.00000, -0.11172, -0.0367207, -0.0837899, -0.0275404, -0.13965, -0.0459006, 4.76544E-009, -2.14226E-008
0, 3060.00000, -0.097754, -0.0321301, -0.153615, -0.0504899, -0.111722, -0.0367213, 7.42471E-009, -1.93728E-008
0, 3120.00000, -0.0977549, -0.0321305, -0.153615, -0.0504907, -0.11172, -0.0367207, 7.42488E-009, -1.93735E-008
0, 3180.00000, -0.0977549, -0.0321305, -0.153615, -0.0504907, -0.11172, -0.0367207, 7.42488E-009, -1.93735E-008
0, 3240.00000, -0.0977549, -0.0321305, -0.153615, -0.0504907, -0.11172, -0.0367207, 7.42488E-009, -1.93735E-008
0, 3300.00000, -0.0977549, -0.0321305, -0.153615, -0.0504907, -0.11172, -0.0367207, 7.42488E-009, -1.93735E-008
0, 3360.00000, -0.111737, -0.0367254, -0.153602, -0.0504942, -0.13964, -0.0458964, 4.51274E-009, -9.99716E-009
0, 3420.00000, -0.11172, -0.0367206, -0.153615, -0.0504907, -0.13965, -0.0459008, 4.51725E-009, -1.00101E-008
0, 3480.00000, -0.11172, -0.0367206, -0.153615, -0.0504907, -0.13965, -0.0459008, 4.51728E-009, -1.00102E-008
0, 3540.00000, -0.11172, -0.0367206, -0.153615, -0.0504907, -0.13965, -0.0459008, 4.51728E-009, -1.00102E-008
1, 0.00000, -0.11172, -0.0367206, -0.153615, -0.0504907, -0.13965, -0.0459008, 4.51728E-009, -1.00102E-008
1, 60.00000, -0.111723, -0.0367214, -0.111723, -0.0367214, -0.0837917, -0.027541, 1.24283E-009, -7.10991E-009
1, 120.00000, -0.11172, -0.0367205, -0.11172, -0.0367206, -0.08379, -0.0275405, 1.24275E-009, -7.10946E-009
1, 180.00000, -0.11172, -0.0367205, -0.11172, -0.0367206, -0.08379, -0.0275405, 1.24275E-009, -7.10945E-009
1, 240.00000, -0.11172, -0.0367205, -0.11172, -0.0367206, -0.08379, -0.0275405, 1.24275E-009, -7.10945E-009
1, 300.00000, -0.11172, -0.0367205, -0.11172, -0.0367206, -0.08379, -0.0275405, 1.24275E-009, -7.10945E-009
1, 360.00000, -0.111719, -0.0367203, -0.0977551, -0.0321306, -0.0837905, -0.0275407, 5.31195E-010, -5.97972E-009
1, 420.00000, -0.11172, -0.0367205, -0.097755, -0.0321305, -0.08379, -0.0275404, 5.31279E-010, -5.98025E-009
1, 480.00000, -0.11172, -0.0367205, -0.097755, -0.0321305, -0.08379, -0.0275404, 5.31279E-010, -5.98025E-009
1, 540.00000, -0.11172, -0.0367205, -0.097755, -0.0321305, -0.08379, -0.0275404, 5.31279E-010, -5.98025E-009
1, 600.00000, -0.11172, -0.0367205, -0.097755, -0.0321305, -0.08379, -0.0275404, 5.31279E-010, -5.98025E-009
1, 660.00000, -0.0698252, -0.0229505, -0.0837899, -0.0275404, -0.125685, -0.0413104, 6.13673E-009, -2.14294E-008
1, 720.00000, -0.069825, -0.0229504, -0.08379, -0.0275404, -0.125685, -0.0413106, 6.13689E-009, -2.143E-008
1, 780.00000, -0.069825, -0.0229504, -0.08379, -0.0275404, -0.125685, -0.0413106, 6.13689E-009, -2.143E-008
1, 840.00000, -0.069825, -0.0229504, -0.08379, -0.0275404, -0.125685, -0.0413106, 6.13689E-009, -2.143E-008
1, 900.00000, -0.069825, -0.0229504, -0.08379, -0.0275404, -0.125685, -0.0413106, 6.13689E-009, -2.143E-008
1, 960.00000, -0.0698242, -0.0229501, -0.0698253, -0.0229505, -0.0837903, -0.0275405, 4.46829E-010, -1.64317E-009
1, 1020.00000, -0.069825, -0.0229504, -0.069825, -0.0229504, -0.08379, -0.0275404, 4.46771E-010, -1.64308E-009
1, 1080.00000, -0.069825, -0.0229504, -0.069825, -0.0229504, -0.08379, -0.0275404, 4.46771E-010, -1.64308E-009
1, 1140.00000, -0.069825, -0.0229504, -0.069825, -0.0229504, -0.08379, -0.0275404, 4.46771E-010, -1.64308E-009
1, 1200.00000, -0.069825, -0.0229504, -0.069825, -0.0229504, -0.08379, -0.0275404, 4.46771E-010, -1.64308E-009
1, 1260.00000, -0.0837908, -0.0275407, -0.0977549, -0.0321305, -0.125684, -0.0413103, 3.5551E-009, -1.128E-008
1, 1320.00000, -0.08379, -0.0275405, -0.097755, -0.0321305, -0.125685, -0.0413106, 3.55536E-009, -1.12808E-008
1, 1380.00000, -0.08379, -0.0275405, -0.097755, -0.0321305, -0.125685, -0.0413106, 3.55536E-009, -1.12809E-008
1, 1440.00000, -0.08379, -0.0275405, -0.097755, -0.0321305, -0.125685, -0.0413106, 3.55536E-009, -1.12809E-008
1, 1500.00000, -0.08379, -0.0275405, -0.097755, -0.0321305, -0.125685, -0.0413106, 3.55536E-009, -1.12809E-008
1, 1560.00000, -0.0837896, -0.0275403, -0.0977554, -0.0321306, -0.097755, -0.0321305, 7.48161E-010, -1.16548E-009
1, 1620.00000, -0.08379, -0.0275404, -0.097755, -0.0321305, -0.097755, -0.0321305, 7.48109E-010, -1.16537E-009
1, 1680.00000, -0.08379, -0.0275404, -0.097755, -0.0321305, -0.097755, -0.0321305, 7.48109E-010, -1.16537E-009
1, 1740.00000, -0.08379, -0.0275404, -0.097755, -0.0321305, -0.097755, -0.0321305, 7.48109E-010, -1.16537E-009
1, 1800.00000, -0.08379, -0.0275404, -0.097755, -0.0321305, -0.097755, -0.0321305, 7.48109E-010, -1.16537E-009
1, 1860.00000, -0.0977494, -0.0321289, -0.0837824, -0.0275379, -0.0837999, -0.0275435, 2.92384E-011, -2.23251E-009
1, 1920.00000, -0.097755, -0.0321305, -0.08379, -0.0275405, -0.08379, -0.0275404, 2.95094E-011, -2.23434E-009
1, 1980.00000, -0.097755, -0.0321305, -0.08379, -0.0275405, -0.08379, -0.0275404, 2.95107E-011, -2.23435E-009
1, 2040.00000, -0.097755, -0.0321305, -0.08379, -0.0275405, -0.08379, -0.0275404, 2.95107E-011, -2.23435E-009
1, 2100.00000, -0.097755, -0.0321305, -0.08379, -0.0275405, -0.08379, -0.0275404, 2.95107E-011, -2.23435E-009
1, 2160.00000, -0.0977583, -0.0321313, -0.0977611, -0.0321326, -0.0977437, -0.032127, -5.87461E-011, -8.95406E-012
1, 2220.00000, -0.097755, -0.0321305, -0.097755, -0.0321305, -0.097755, -0.0321305, -5.86397E-011, -8.89904E-012
1, 2280.00000, -0.097755, -0.0321305, -0.097755, -0.0321305, -0.097755, -0.0321305, -5.86387E-011, -8.8978E-012
1, 2340.00000, -0.097755, -0.0321305, -0.097755, -0.0321305, -0.097755, -0.0321305, -5.86387E-011, -8.8978E-012
1, 2400.00000, -0.097755, -0.0321305, -0.097755, -0.0321305, -0.097755, -0.0321305, -5.86387E-011, -8.8978E-012
1, 2460.00000, -0.0977601, -0.032132, -0.0837949, -0.0275421, -0.0837843, -0.0275386, 7.6165E-012, -2.22607E-009
1, 2520.00000, -0.097755, -0.0321305, -0.08379, -0.0275405, -0.08379, -0.0275404, 7.42305E-012, -2.22457E-009
1, 2580.00000, -0.097755, -0.0321305, -0.08379, -0.0275405, -0.08379, -0.0275404, 7.42207E-012, -2.22457E-009
1, 2640.00000, -0.097755, -0.0321305, -0.08379, -0.0275405, -0.08379, -0.0275404, 7.42207E-012, -2.22457E-009
1, 2700.00000, -0.097755, -0.0321305, -0.08379, -0.0275405, -0.08379, -0.0275404, 7.42207E-012, -2.22457E-009
1, 2760.00000, -0.125685, -0.0413106, -0.0977547, -0.0321305, -0.069825, -0.0229504, 3.93633E-009, -2.2037E-008
1, 2820.00000, -0.125685, -0.0413106, -0.097755, -0.0321306, -0.0698249, -0.0229504, 3.93634E-009, -2.2037E-008
1, 2880.00000, -0.125685, -0.0413106, -0.097755, -0.0321306, -0.0698249, -0.0229504, 3.93634E-009, -2.2037E-008
1, 2940.00000, -0.125685, -0.0413106, -0.097755, -0.0321306, -0.0698249, -0.0229504, 3.93634E-009, -2.2037E-008
1, 3000.00000, -0.125685, -0.0413106, -0.097755, -0.0321306, -0.0698249, -0.0229504, 3.93634E-009, -2.2037E-008
1, 3060.00000, -0.111714, -0.0367187, -0.0698257, -0.0229505, -0.0837973, -0.0275428, 2.24108E-009, -1.31939E-008
1, 3120.00000, -0.11172, -0.0367206, -0.069825, -0.0229504, -0.08379, -0.0275404, 2.24209E-009, -1.31994E-008
1, 3180.00000, -0.11172, -0.0367206, -0.069825, -0.0229504, -0.08379, -0.0275404, 2.24209E-009, -1.31994E-008
1, 3240.00000, -0.11172, -0.0367206, -0.069825, -0.0229504, -0.08379, -0.0275404, 2.24209E-009, -1.31994E-008
1, 3300.00000, -0.11172, -0.0367206, -0.069825, -0.0229504, -0.08379, -0.0275404, 2.24209E-009, -1.31994E-008
1, 3360.00000, -0.111721, -0.0367209, -0.111719, -0.0367202, -0.0837901, -0.0275405, 1.2297E-009, -7.17686E-009
1, 3420.00000, -0.11172, -0.0367205, -0.11172, -0.0367206, -0.08379, -0.0275405, 1.22976E-009, -7.17691E-009
1, 3480.00000, -0.11172, -0.0367205, -0.11172, -0.0367206, -0.08379, -0.0275405, 1.22976E-009, -7.1769E-009
1, 3540.00000, -0.11172, -0.0367205, -0.11172, -0.0367206, -0.08379, -0.0275405, 1.22976E-009, -7.1769E-009
2, 0.00000, -0.11172, -0.0367205, -0.11172, -0.0367206, -0.08379, -0.0275405, 1.22976E-009, -7.1769E-009
2, 60.00000, -0.0837896, -0.0275403, -0.083791, -0.0275408, -0.0698252, -0.0229505, 2.19554E-010, -1.83169E-009
2, 120.00000, -0.08379, -0.0275404, -0.08379, -0.0275405, -0.069825, -0.0229504, 2.19525E-010, -1.83173E-009
2, 180.00000, -0.08379, -0.0275404, -0.08379, -0.0275405, -0.069825, -0.0229504, 2.19524E-010, -1.83173E-009
2, 240.00000, -0.08379, -0.0275404, -0.08379, -0.0275405, -0.069825, -0.0229504, 2.19524E-010, -1.83173E-009
2, 300.00000, -0.08379, -0.0275404, -0.08379, -0.0275405, -0.069825, -0.0229504, 2.19524E-010, -1.83173E-009
2, 360.00000, -0.0698247, -0.0229503, -0.0698257, -0.0229506, -0.0837895, -0.0275403, 4.9423E-010, -1.61826E-009
2, 420.00000, -0.069825, -0.0229504, -0.069825, -0.0229504, -0.08379, -0.0275404, 4.94256E-010, -1.61844E-009
2, 480.00000, -0.069825, -0.0229504, -0.069825, -0.0229504, -0.08379, -0.0275404, 4.94256E-010, -1.61844E-009
2, 540.00000, -0.069825, -0.0229504, -0.069825, -0.0229504, -0.08379, -0.0275404, 4.94256E-010, -1.61844E-009
2, 600.00000, -0.069825, -0.0229504, -0.069825, -0.0229504, -0.08379, -0.0275404, 4.94256E-010, -1.61844E-009
2, 660.00000, -0.0698297, -0.0229518, -0.0698307, -0.0229524, -0.0837839, -0.0275384, 4.36626E-010, -1.70696E-009
2, 720.00000, -0.069825, -0.0229504, -0.069825, -0.0229504, -0.08379, -0.0275404, 4.37313E-010, -1.70975E-009
2, 780.00000, -0.069825, -0.0229504, -0.069825, -0.0229504, -0.08379, -0.0275404, 4.37317E-010, -1.70976E-009
2, 840.00000, -0.069825, -0.0229504, -0.069825, -0.0229504, -0.08379, -0.0275404, 4.37317E-010, -1.70976E-009
2, 900.00000, -0.069825, -0.0229504, -0.069825, -0.0229504, -0.08379, -0.0275404, 4.37317E-010, -1.70976E-009
2, 960.00000, -0.069825, -0.0229504, -0.0837885, -0.0275399, -0.111722, -0.036721, 3.58202E-009, -1.1185E-008
2, 1020.00000, -0.069825, -0.0229504, -0.08379, -0.0275404, -0.11172, -0.0367206, 3.58179E-009, -1.11839E-008
2, 1080.00000, -0.069825, -0.0229504, -0.08379, -0.0275404, -0.11172, -0.0367206, 3.58179E-009, -1.11839E-008
2, 1140.00000, -0.069825, -0.0229504, -0.08379, -0.0275404, -0.11172, -0.0367206, 3.58179E-009, -1.11839E-008
2, 1200.00000, -0.069825, -0.0229504, -0.08379, -0.0275404, -0.11172, -0.0367206, 3.58179E-009, -1.11839E-008
2, 1260.00000, -0.0837966, -0.0275425, -0.0698274, -0.0229513, -0.0837873, -0.0275395, 1.89774E-010, -2.01527E-009
2, 1320.00000, -0.0837879, -0.0275398, -0.0698236, -0.0229499, -0.0837884, -0.0275399, 1.8998E-010, -2.0163E-009
2, 1380.00000, -0.08379, -0.0275404, -0.069825, -0.0229504, -0.08379, -0.0275404, 1.89989E-010, -2.01643E-009
2, 1440.00000, -0.08379, -0.0275404, -0.069825, -0.0229504, -0.08379, -0.0275404, 1.89989E-010, -2.01644E-009
2, 1500.00000, -0.08379, -0.0275404, -0.069825, -0.0229504, -0.08379, -0.0275404, 1.89989E-010, -2.01644E-009
2, 1560.00000, -0.0837892, -0.0275401, -0.0698263, -0.0229508, -0.0698246, -0.0229503, 6.70253E-011, -2.14057E-009
2, 1620.00000, -0.08379, -0.0275404, -0.069825, -0.0229504, -0.069825, -0.0229504, 6.70765E-011, -2.14093E-009
2, 1680.00000, -0.08379, -0.0275404, -0.069825, -0.0229504, -0.069825, -0.0229504, 6.70766E-011, -2.14093E-009
2, 1740.00000, -0.08379, -0.0275404, -0.069825, -0.0229504, -0.069825, -0.0229504, 6.70766E-011, -2.14093E-009
2, 1800.00000, -0.08379, -0.0275404, -0.069825, -0.0229504, -0.069825, -0.0229504, 6.70766E-011, -2.14093E-009
2, 1860.00000, -0.0698231, -0.0229498, -0.0837829, -0.0275381, -0.0698222, -0.0229494, 6.15016E-010, -1.32737E-009
2, 1920.00000, -0.069825, -0.0229504, -0.08379, -0.0275404, -0.069825, -0.0229504, 6.15408E-010, -1.32836E-009
2, 1980.00000, -0.069825, -0.0229504, -0.08379, -0.0275404, -0.069825, -0.0229504, 6.1541E-010, -1.32836E-009
2, 2040.00000, -0.069825, -0.0229504, -0.08379, -0.0275404, -0.069825, -0.0229504, 6.1541E-010, -1.32836E-009
2, 2100.00000, -0.069825, -0.0229504, -0.08379, -0.0275404, -0.069825, -0.0229504, 6.1541E-010, -1.32836E-009
2, 2160.00000, -0.111716, -0.0367191, -0.0698279, -0.0229513, -0.0558624, -0.0183612, 4.54282E-009, -2.3528E-008
2, 2220.00000, -0.11172, -0.0367205, -0.069825, -0.0229504, -0.05586, -0.0183603, 4.54414E-009, -2.3534E-008
2, 2280.00000, -0.11172, -0.0367205, -0.069825, -0.0229504, -0.05586, -0.0183603, 4.54415E-009, -2.3534E-008
2, 2340.00000, -0.11172, -0.0367205, -0.069825, -0.0229504, -0.05586, -0.0183603, 4.54415E-009, -2.3534E-008
2, 2400.00000, -0.11172, -0.0367205, -0.069825, -0.0229504, -0.05586, -0.0183603, 4.54415E-009, -2.3534E-008
2, 2460.00000, -0.111702, -0.0367147, -0.0977633, -0.0321329, -0.0698312, -0.0229527, 2.26151E-009, -1.27186E-008
2, 2520.00000, -0.11172, -0.0367205, -0.0977551, -0.0321306, -0.069825, -0.0229504, 2.26371E-009, -1.27312E-008
2, 2580.00000, -0.11172, -0.0367205, -0.097755, -0.0321306, -0.069825, -0.0229504, 2.26372E-009, -1.27312E-008
2, 2640.00000, -0.11172, -0.0367205, -0.097755, -0.0321306, -0.069825, -0.0229504, 2.26372E-009, -1.27312E-008
2, 2700.00000, -0.11172, -0.0367205, -0.097755, -0.0321306, -0.069825, -0.0229504, 2.26372E-009, -1.27312E-008
2, 2760.00000, -0.0698361, -0.0229542, -0.0977428, -0.0321266, -0.097756, -0.0321304, 2.45546E-009, -5.73336E-009
2, 2820.00000, -0.069825, -0.0229504, -0.0977549, -0.0321304, -0.0977551, -0.0321306, 2.4581E-009, -5.74056E-009
2, 2880.00000, -0.069825, -0.0229504, -0.097755, -0.0321305, -0.097755, -0.0321305, 2.45811E-009, -5.7406E-009
2, 2940.00000, -0.069825, -0.0229504, -0.097755, -0.0321305, -0.097755, -0.0321305, 2.45811E-009, -5.7406E-009
2, 3000.00000, -0.069825, -0.0229504, -0.097755, -0.0321305, -0.097755, -0.0321305, 2.45811E-009, -5.7406E-009
2, 3060.00000, -0.0698269, -0.0229509, -0.0698252, -0.0229505, -0.0418935, -0.0137697, 1.5004E-009, -6.93015E-009
2, 3120.00000, -0.069825, -0.0229503, -0.069825, -0.0229504, -0.041895, -0.0137702, 1.50016E-009, -6.92891E-009
2, 3180.00000, -0.069825, -0.0229503, -0.069825, -0.0229504, -0.041895, -0.0137702, 1.50015E-009, -6.9289E-009
2, 3240.00000, -0.069825, -0.0229503, -0.069825, -0.0229504, -0.041895, -0.0137702, 1.50015E-009, -6.9289E-009
2, 3300.00000, -0.069825, -0.0229503, -0.069825, -0.0229504, -0.041895, -0.0137702, 1.50015E-009, -6.9289E-009
2, 3360.00000, -0.111716, -0.0367194, -0.0698246, -0.0229502, -0.0698276, -0.0229513, 2.82911E-009, -1.6747E-008
2, 3420.00000, -0.11172, -0.0367205, -0.069825, -0.0229504, -0.069825, -0.0229504, 2.82983E-009, -1.67507E-008
2, 3480.00000, -0.11172, -0.0367205, -0.069825, -0.0229504, -0.069825, -0.0229503, 2.82983E-009, -1.67507E-008
2, 3540.00000, -0.11172, -0.0367205, -0.069825, -0.0229504, -0.069825, -0.0229503, 2.82983E-009, -1.67507E-008
