hour, t(sec), P1 (kW), Q1 (kvar), P2 (kW), Q2 (kvar), P3 (kW), Q3 (kvar), P4 (kW), Q4 (kvar)
0, 60.00000, -0.399763, -0.131394, -0.299824, -0.0985471, -0.449723, -0.147815, 4.1755E-008, -1.51842E-007
0, 120.00000, -0.399761, -0.131395, -0.299819, -0.0985462, -0.44973, -0.147818, 4.17609E-008, -1.51859E-007
0, 180.00000, -0.399761, -0.131395, -0.299819, -0.0985462, -0.44973, -0.147818, 4.17609E-008, -1.51859E-007
0, 240.00000, -0.399761, -0.131395, -0.299819, -0.0985462, -0.44973, -0.147818, 4.17609E-008, -1.51859E-007
0, 300.00000, -0.399761, -0.131395, -0.299819, -0.0985462, -0.44973, -0.147818, 4.17609E-008, -1.51859E-007
0, 360.00000, -0.499688, -0.164249, -0.49965, -0.164233, -0.399788, -0.131405, 2.12782E-008, -8.6706E-008
0, 420.00000, -0.4997, -0.164243, -0.499701, -0.164244, -0.39976, -0.131395, 2.13089E-008, -8.67935E-008
0, 480.00000, -0.4997, -0.164243, -0.499701, -0.164244, -0.399759, -0.131395, 2.1309E-008, -8.67939E-008
0, 540.00000, -0.4997, -0.164243, -0.499701, -0.164244, -0.399759, -0.131395, 2.1309E-008, -8.67939E-008
0, 600.00000, -0.4997, -0.164243, -0.499701, -0.164244, -0.399759, -0.131395, 2.1309E-008, -8.67939E-008
0, 660.00000, -0.399745, -0.131389, -0.34983, -0.114979, -0.499668, -0.16424, 4.55572E-008, -1.47019E-007
0, 720.00000, -0.39976, -0.131395, -0.349789, -0.11497, -0.4997, -0.164243, 4.55935E-008, -1.47141E-007
0, 780.00000, -0.39976, -0.131395, -0.349789, -0.11497, -0.499701, -0.164243, 4.55938E-008, -1.47142E-007
0, 840.00000, -0.39976, -0.131395, -0.349789, -0.11497, -0.499701, -0.164243, 4.55938E-008, -1.47142E-007
0, 900.00000, -0.39976, -0.131395, -0.349789, -0.11497, -0.499701, -0.164243, 4.55938E-008, -1.47142E-007
0, 960.00000, -0.39976, -0.131395, -0.29982, -0.0985465, -0.399759, -0.131394, 2.07459E-008, -9.19847E-008
0, 1020.00000, -0.399761, -0.131395, -0.29982, -0.0985463, -0.39976, -0.131394, 2.07463E-008, -9.19861E-008
0, 1080.00000, -0.399761, -0.131395, -0.29982, -0.0985463, -0.39976, -0.131394, 2.07463E-008, -9.19861E-008
0, 1140.00000, -0.399761, -0.131395, -0.29982, -0.0985463, -0.39976, -0.131394, 2.07463E-008, -9.19861E-008
0, 1200.00000, -0.399761, -0.131395, -0.29982, -0.0985463, -0.39976, -0.131394, 2.07463E-008, -9.19861E-008
0, 1260.00000, -0.299817, -0.0985455, -0.399762, -0.131394, -0.399761, -0.131395, 3.63342E-008, -6.70959E-008
0, 1320.00000, -0.29982, -0.0985463, -0.39976, -0.131394, -0.39976, -0.131395, 3.63316E-008, -6.70903E-008
0, 1380.00000, -0.29982, -0.0985463, -0.39976, -0.131394, -0.39976, -0.131395, 3.63316E-008, -6.70903E-008
0, 1440.00000, -0.29982, -0.0985463, -0.39976, -0.131394, -0.39976, -0.131395, 3.63316E-008, -6.70903E-008
0, 1500.00000, -0.29982, -0.0985463, -0.39976, -0.131394, -0.39976, -0.131395, 3.63316E-008, -6.70903E-008
0, 1560.00000, -0.349816, -0.114979, -0.399755, -0.1314, -0.349775, -0.114966, 9.64558E-009, -1.5139E-008
0, 1620.00000, -0.34979, -0.11497, -0.39976, -0.131395, -0.34979, -0.114971, 9.65098E-009, -1.51416E-008
0, 1680.00000, -0.34979, -0.11497, -0.39976, -0.131395, -0.34979, -0.114971, 9.65107E-009, -1.51418E-008
0, 1740.00000, -0.34979, -0.11497, -0.39976, -0.131395, -0.34979, -0.114971, 9.65107E-009, -1.51418E-008
0, 1800.00000, -0.34979, -0.11497, -0.39976, -0.131395, -0.34979, -0.114971, 9.65107E-009, -1.51418E-008
0, 1860.00000, -0.349746, -0.114955, -0.499714, -0.164236, -0.349793, -0.11497, 7.33984E-008, -1.64158E-007
0, 1920.00000, -0.349789, -0.11497, -0.499701, -0.164243, -0.34979, -0.114971, 7.33669E-008, -1.64092E-007
0, 1980.00000, -0.349789, -0.11497, -0.499701, -0.164243, -0.34979, -0.114971, 7.33667E-008, -1.64091E-007
0, 2040.00000, -0.349789, -0.11497, -0.499701, -0.164243, -0.34979, -0.114971, 7.33667E-008, -1.64091E-007
0, 2100.00000, -0.349789, -0.11497, -0.499701, -0.164243, -0.34979, -0.114971, 7.33667E-008, -1.64091E-007
0, 2160.00000, -0.299821, -0.0985481, -0.449765, -0.147819, -0.399751, -0.131392, 6.18485E-008, -1.20496E-007
0, 2220.00000, -0.299819, -0.0985462, -0.44973, -0.147818, -0.39976, -0.131395, 6.1835E-008, -1.20467E-007
0, 2280.00000, -0.299819, -0.0985462, -0.44973, -0.147818, -0.39976, -0.131395, 6.18349E-008, -1.20467E-007
0, 2340.00000, -0.299819, -0.0985462, -0.44973, -0.147818, -0.39976, -0.131395, 6.18349E-008, -1.20467E-007
0, 2400.00000, -0.299819, -0.0985462, -0.44973, -0.147818, -0.39976, -0.131395, 6.18349E-008, -1.20467E-007
0, 2460.00000, -0.399763, -0.131395, -0.399758, -0.131395, -0.349788, -0.11497, 3.90876E-009, -2.19276E-008
0, 2520.00000, -0.39976, -0.131394, -0.39976, -0.131395, -0.34979, -0.114971, 3.90874E-009, -2.19254E-008
0, 2580.00000, -0.39976, -0.131394, -0.39976, -0.131395, -0.34979, -0.114971, 3.90875E-009, -2.19254E-008
0, 2640.00000, -0.39976, -0.131394, -0.39976, -0.131395, -0.34979, -0.114971, 3.90875E-009, -2.19254E-008
0, 2700.00000, -0.39976, -0.131394, -0.39976, -0.131395, -0.34979, -0.114971, 3.90875E-009, -2.19254E-008
0, 2760.00000, -0.499676, -0.164243, -0.349786, -0.114968, -0.449762, -0.147827, 3.57357E-008, -1.6404E-007
0, 2820.00000, -0.499701, -0.164243, -0.34979, -0.114971, -0.44973, -0.147818, 3.57407E-008, -1.64068E-007
0, 2880.00000, -0.499701, -0.164244, -0.34979, -0.114971, -0.44973, -0.147818, 3.57408E-008, -1.64068E-007
0, 2940.00000, -0.499701, -0.164244, -0.34979, -0.114971, -0.44973, -0.147818, 3.57408E-008, -1.64068E-007
0, 3000.00000, -0.499701, -0.164244, -0.34979, -0.114971, -0.44973, -0.147818, 3.57408E-008, -1.64068E-007
0, 3060.00000, -0.499698, -0.164244, -0.349788, -0.11497, -0.449735, -0.14782, 3.50547E-008, -1.61669E-007
0, 3120.00000, -0.499701, -0.164244, -0.34979, -0.114971, -0.44973, -0.147818, 3.50543E-008, -1.61669E-007
0, 3180.00000, -0.499701, -0.164244, -0.34979, -0.114971, -0.44973, -0.147818, 3.50544E-008, -1.61669E-007
0, 3240.00000, -0.499701, -0.164244, -0.34979, -0.114971, -0.44973, -0.147818, 3.50544E-008, -1.61669E-007
0, 3300.00000, -0.499701, -0.164244, -0.34979, -0.114971, -0.44973, -0.147818, 3.50544E-008, -1.61669E-007
0, 3360.00000, -0.299866, -0.0985648, -0.34975, -0.114966, -0.249841, -0.0821265, 2.13932E-008, -5.79775E-008
0, 3420.00000, -0.29982, -0.0985457, -0.34979, -0.11497, -0.24985, -0.0821222, 2.14144E-008, -5.8009E-008
0, 3480.00000, -0.29982, -0.0985457, -0.34979, -0.11497, -0.24985, -0.082122, 2.14146E-008, -5.80095E-008
0, 3540.00000, -0.29982, -0.0985457, -0.34979, -0.11497, -0.24985, -0.082122, 2.14146E-008, -5.80096E-008
1, 0.00000, -0.29982, -0.0985457, -0.34979, -0.11497, -0.24985, -0.082122, 2.14146E-008, -5.80096E-008
1, 60.00000, -0.349799, -0.114973, -0.249855, -0.0821238, -0.349797, -0.114972, 2.16156E-008, -8.95742E-008
1, 120.00000, -0.349791, -0.114971, -0.24985, -0.0821219, -0.34979, -0.11497, 2.16147E-008, -8.95703E-008
1, 180.00000, -0.34979, -0.114971, -0.24985, -0.0821219, -0.34979, -0.11497, 2.16147E-008, -8.95703E-008
1, 240.00000, -0.34979, -0.114971, -0.24985, -0.0821219, -0.34979, -0.11497, 2.16147E-008, -8.95703E-008
1, 300.00000, -0.34979, -0.114971, -0.24985, -0.0821219, -0.34979, -0.11497, 2.16147E-008, -8.95703E-008
1, 360.00000, -0.349788, -0.114969, -0.34979, -0.11497, -0.299822, -0.0985469, 4.55485E-009, -2.19672E-008
1, 420.00000, -0.34979, -0.11497, -0.34979, -0.114971, -0.29982, -0.0985462, 4.55544E-009, -2.19701E-008
1, 480.00000, -0.34979, -0.11497, -0.34979, -0.114971, -0.29982, -0.0985462, 4.55544E-009, -2.19701E-008
1, 540.00000, -0.34979, -0.11497, -0.34979, -0.114971, -0.29982, -0.0985462, 4.55544E-009, -2.19701E-008
1, 600.00000, -0.34979, -0.11497, -0.34979, -0.114971, -0.29982, -0.0985462, 4.55544E-009, -2.19701E-008
1, 660.00000, -0.349791, -0.114971, -0.34979, -0.11497, -0.349788, -0.11497, -8.17219E-010, -4.39666E-011
1, 720.00000, -0.34979, -0.11497, -0.34979, -0.11497, -0.34979, -0.11497, -8.17061E-010, -4.37524E-011
1, 780.00000, -0.34979, -0.11497, -0.34979, -0.11497, -0.34979, -0.11497, -8.17061E-010, -4.37524E-011
1, 840.00000, -0.34979, -0.11497, -0.34979, -0.11497, -0.34979, -0.11497, -8.17061E-010, -4.37524E-011
1, 900.00000, -0.34979, -0.11497, -0.34979, -0.11497, -0.34979, -0.11497, -8.17061E-010, -4.37524E-011
1, 960.00000, -0.399756, -0.131393, -0.299822, -0.098547, -0.299821, -0.0985463, 1.85498E-008, -9.47089E-008
1, 1020.00000, -0.399761, -0.131394, -0.29982, -0.0985466, -0.29982, -0.0985459, 1.85527E-008, -9.47195E-008
1, 1080.00000, -0.399761, -0.131394, -0.29982, -0.0985466, -0.29982, -0.0985459, 1.85527E-008, -9.47196E-008
1, 1140.00000, -0.399761, -0.131394, -0.29982, -0.0985466, -0.29982, -0.0985459, 1.85527E-008, -9.47196E-008
1, 1200.00000, -0.399761, -0.131394, -0.29982, -0.0985466, -0.29982, -0.0985459, 1.85527E-008, -9.47196E-008
1, 1260.00000, -0.349793, -0.114971, -0.29982, -0.0985465, -0.249848, -0.0821211, 1.4303E-008, -6.8185E-008
1, 1320.00000, -0.34979, -0.11497, -0.29982, -0.0985464, -0.24985, -0.0821217, 1.43013E-008, -6.81783E-008
1, 1380.00000, -0.34979, -0.11497, -0.29982, -0.0985464, -0.24985, -0.0821217, 1.43013E-008, -6.81783E-008
1, 1440.00000, -0.34979, -0.11497, -0.29982, -0.0985464, -0.24985, -0.0821217, 1.43013E-008, -6.81783E-008
1, 1500.00000, -0.34979, -0.11497, -0.29982, -0.0985464, -0.24985, -0.0821217, 1.43013E-008, -6.81783E-008
1, 1560.00000, -0.349789, -0.11497, -0.249851, -0.0821224, -0.29982, -0.0985457, 1.42145E-008, -7.07773E-008
1, 1620.00000, -0.34979, -0.11497, -0.24985, -0.082122, -0.29982, -0.0985457, 1.42155E-008, -7.07807E-008
1, 1680.00000, -0.34979, -0.11497, -0.24985, -0.082122, -0.29982, -0.0985457, 1.42155E-008, -7.07807E-008
1, 1740.00000, -0.34979, -0.11497, -0.24985, -0.082122, -0.29982, -0.0985457, 1.42155E-008, -7.07807E-008
1, 1800.00000, -0.34979, -0.11497, -0.24985, -0.082122, -0.29982, -0.0985457, 1.42155E-008, -7.07807E-008
1, 1860.00000, -0.2998, -0.0985403, -0.349758, -0.114959, -0.299859, -0.0985586, 9.04252E-009, -1.51624E-008
1, 1920.00000, -0.29982, -0.0985459, -0.34979, -0.11497, -0.29982, -0.0985463, 9.05309E-009, -1.51964E-008
1, 1980.00000, -0.29982, -0.0985459, -0.34979, -0.11497, -0.29982, -0.0985463, 9.05309E-009, -1.51964E-008
1, 2040.00000, -0.29982, -0.0985459, -0.34979, -0.11497, -0.29982, -0.0985463, 9.05309E-009, -1.51964E-008
1, 2100.00000, -0.29982, -0.0985459, -0.34979, -0.11497, -0.29982, -0.0985463, 9.05309E-009, -1.51964E-008
1, 2160.00000, -0.449748, -0.147823, -0.299839, -0.0985535, -0.299782, -0.0985342, 4.83126E-008, -2.03638E-007
1, 2220.00000, -0.449731, -0.147819, -0.29982, -0.0985468, -0.299819, -0.0985457, 4.82939E-008, -2.03573E-007
1, 2280.00000, -0.449731, -0.147818, -0.29982, -0.0985468, -0.299819, -0.0985458, 4.82937E-008, -2.03572E-007
1, 2340.00000, -0.449731, -0.147818, -0.29982, -0.0985468, -0.299819, -0.0985458, 4.82937E-008, -2.03572E-007
1, 2400.00000, -0.449731, -0.147818, -0.29982, -0.0985468, -0.299819, -0.0985458, 4.82937E-008, -2.03572E-007
1, 2460.00000, -0.449761, -0.147828, -0.249863, -0.0821268, -0.349764, -0.114961, 6.89017E-008, -2.64368E-007
1, 2520.00000, -0.449731, -0.147819, -0.24985, -0.0821223, -0.349789, -0.11497, 6.88905E-008, -2.64323E-007
1, 2580.00000, -0.449731, -0.147819, -0.24985, -0.0821223, -0.349789, -0.11497, 6.88904E-008, -2.64323E-007
1, 2640.00000, -0.449731, -0.147819, -0.24985, -0.0821223, -0.349789, -0.11497, 6.88904E-008, -2.64323E-007
1, 2700.00000, -0.449731, -0.147819, -0.24985, -0.0821223, -0.349789, -0.11497, 6.88904E-008, -2.64323E-007
1, 2760.00000, -0.29982, -0.0985463, -0.299819, -0.0985456, -0.34979, -0.11497, 7.21558E-009, -1.94762E-008
1, 2820.00000, -0.29982, -0.0985463, -0.29982, -0.098546, -0.34979, -0.11497, 7.21543E-009, -1.94754E-008
1, 2880.00000, -0.29982, -0.0985463, -0.29982, -0.098546, -0.34979, -0.11497, 7.21543E-009, -1.94754E-008
1, 2940.00000, -0.29982, -0.0985463, -0.29982, -0.098546, -0.34979, -0.11497, 7.21543E-009, -1.94754E-008
1, 3000.00000, -0.29982, -0.0985463, -0.29982, -0.098546, -0.34979, -0.11497, 7.21543E-009, -1.94754E-008
1, 3060.00000, -0.299804, -0.0985417, -0.249853, -0.0821226, -0.399794, -0.131405, 4.57903E-008, -1.4504E-007
1, 3120.00000, -0.29982, -0.0985466, -0.24985, -0.0821217, -0.39976, -0.131394, 4.5766E-008, -1.44973E-007
1, 3180.00000, -0.29982, -0.0985466, -0.24985, -0.0821217, -0.39976, -0.131394, 4.5766E-008, -1.44973E-007
1, 3240.00000, -0.29982, -0.0985466, -0.24985, -0.0821217, -0.39976, -0.131394, 4.5766E-008, -1.44973E-007
1, 3300.00000, -0.29982, -0.0985466, -0.24985, -0.0821217, -0.39976, -0.131394, 4.5766E-008, -1.44973E-007
1, 3360.00000, -0.299822, -0.0985473, -0.349786, -0.114969, -0.399761, -0.131395, 2.53143E-008, -5.39012E-008
1, 3420.00000, -0.29982, -0.0985464, -0.34979, -0.11497, -0.39976, -0.131395, 2.53156E-008, -5.39031E-008
1, 3480.00000, -0.29982, -0.0985464, -0.34979, -0.11497, -0.39976, -0.131395, 2.53156E-008, -5.39031E-008
1, 3540.00000, -0.29982, -0.0985464, -0.34979, -0.11497, -0.39976, -0.131395, 2.53156E-008, -5.39031E-008
2, 0.00000, -0.29982, -0.0985464, -0.34979, -0.11497, -0.39976, -0.131395, 2.53156E-008, -5.39031E-008
2, 60.00000, -0.349789, -0.11497, -0.249853, -0.0821229, -0.349791, -0.11497, 2.15429E-008, -8.9264E-008
2, 120.00000, -0.34979, -0.114971, -0.24985, -0.082122, -0.34979, -0.11497, 2.15443E-008, -8.92692E-008
2, 180.00000, -0.34979, -0.114971, -0.24985, -0.0821219, -0.34979, -0.11497, 2.15444E-008, -8.92693E-008
2, 240.00000, -0.34979, -0.114971, -0.24985, -0.0821219, -0.34979, -0.11497, 2.15444E-008, -8.92693E-008
2, 300.00000, -0.34979, -0.114971, -0.24985, -0.0821219, -0.34979, -0.11497, 2.15444E-008, -8.92693E-008
2, 360.00000, -0.399759, -0.131394, -0.199882, -0.0656985, -0.299818, -0.0985449, 7.09888E-008, -2.5984E-007
2, 420.00000, -0.399761, -0.131395, -0.19988, -0.0656979, -0.29982, -0.0985454, 7.09915E-008, -2.59849E-007
2, 480.00000, -0.399761, -0.131395, -0.19988, -0.0656979, -0.29982, -0.0985454, 7.09915E-008, -2.59849E-007
2, 540.00000, -0.399761, -0.131395, -0.19988, -0.0656979, -0.29982, -0.0985454, 7.09915E-008, -2.59849E-007
2, 600.00000, -0.399761, -0.131395, -0.19988, -0.0656979, -0.29982, -0.0985454, 7.09915E-008, -2.59849E-007
2, 660.00000, -0.249866, -0.0821265, -0.299843, -0.0985539, -0.249834, -0.0821166, 8.73895E-009, -1.56977E-008
2, 720.00000, -0.24985, -0.0821216, -0.29982, -0.098546, -0.24985, -0.0821219, 8.73327E-009, -1.56798E-008
2, 780.00000, -0.24985, -0.0821216, -0.29982, -0.098546, -0.24985, -0.0821219, 8.73327E-009, -1.56797E-008
2, 840.00000, -0.24985, -0.0821216, -0.29982, -0.098546, -0.24985, -0.0821219, 8.73327E-009, -1.56797E-008
2, 900.00000, -0.24985, -0.0821216, -0.29982, -0.098546, -0.24985, -0.0821219, 8.73327E-009, -1.56797E-008
2, 960.00000, -0.29982, -0.0985458, -0.399754, -0.131392, -0.249853, -0.0821232, 5.15095E-008, -1.32522E-007
2, 1020.00000, -0.29982, -0.0985456, -0.399761, -0.131395, -0.24985, -0.0821222, 5.15162E-008, -1.3254E-007
2, 1080.00000, -0.29982, -0.0985456, -0.399761, -0.131395, -0.24985, -0.0821222, 5.15162E-008, -1.32541E-007
2, 1140.00000, -0.29982, -0.0985456, -0.399761, -0.131395, -0.24985, -0.0821222, 5.15162E-008, -1.32541E-007
2, 1200.00000, -0.29982, -0.0985456, -0.399761, -0.131395, -0.24985, -0.0821222, 5.15162E-008, -1.32541E-007
2, 1260.00000, -0.299843, -0.0985528, -0.29983, -0.0985497, -0.199874, -0.0656956, 2.36309E-008, -8.35219E-008
2, 1320.00000, -0.299813, -0.0985432, -0.299815, -0.0985444, -0.199876, -0.0656964, 2.36336E-008, -8.35303E-008
2, 1380.00000, -0.29982, -0.0985456, -0.29982, -0.0985463, -0.19988, -0.0656975, 2.36349E-008, -8.35353E-008
2, 1440.00000, -0.29982, -0.0985456, -0.29982, -0.0985463, -0.19988, -0.0656975, 2.36349E-008, -8.35353E-008
2, 1500.00000, -0.29982, -0.0985456, -0.29982, -0.0985463, -0.19988, -0.0656975, 2.36349E-008, -8.35353E-008
2, 1560.00000, -0.249848, -0.0821211, -0.299825, -0.0985474, -0.349789, -0.11497, 2.44715E-008, -5.45395E-008
2, 1620.00000, -0.24985, -0.082122, -0.29982, -0.0985458, -0.34979, -0.11497, 2.44707E-008, -5.45393E-008
2, 1680.00000, -0.24985, -0.082122, -0.29982, -0.0985458, -0.34979, -0.11497, 2.44707E-008, -5.45394E-008
2, 1740.00000, -0.24985, -0.082122, -0.29982, -0.0985458, -0.34979, -0.11497, 2.44707E-008, -5.45394E-008
2, 1800.00000, -0.24985, -0.082122, -0.29982, -0.0985458, -0.34979, -0.11497, 2.44707E-008, -5.45394E-008
2, 1860.00000, -0.299811, -0.0985434, -0.299798, -0.0985388, -0.349776, -0.114965, 7.21506E-009, -1.94416E-008
2, 1920.00000, -0.29982, -0.0985463, -0.29982, -0.098546, -0.34979, -0.11497, 7.21558E-009, -1.94395E-008
2, 1980.00000, -0.29982, -0.0985463, -0.29982, -0.098546, -0.34979, -0.11497, 7.21556E-009, -1.94394E-008
2, 2040.00000, -0.29982, -0.0985463, -0.29982, -0.098546, -0.34979, -0.11497, 7.21556E-009, -1.94394E-008
2, 2100.00000, -0.29982, -0.0985463, -0.29982, -0.098546, -0.34979, -0.11497, 7.21556E-009, -1.94394E-008
2, 2160.00000, -0.249842, -0.0821188, -0.29983, -0.098549, -0.249862, -0.082126, 8.80577E-009, -1.58529E-008
2, 2220.00000, -0.24985, -0.0821216, -0.29982, -0.098546, -0.24985, -0.0821219, 8.80204E-009, -1.58484E-008
2, 2280.00000, -0.24985, -0.0821216, -0.29982, -0.098546, -0.24985, -0.0821219, 8.802E-009, -1.58484E-008
2, 2340.00000, -0.24985, -0.0821216, -0.29982, -0.098546, -0.24985, -0.0821219, 8.802E-009, -1.58484E-008
2, 2400.00000, -0.24985, -0.0821216, -0.29982, -0.098546, -0.24985, -0.0821219, 8.802E-009, -1.58484E-008
2, 2460.00000, -0.299775, -0.098531, -0.299844, -0.0985531, -0.249871, -0.0821297, 4.89853E-009, -2.16557E-008
2, 2520.00000, -0.29982, -0.0985457, -0.299821, -0.0985463, -0.24985, -0.0821218, 4.90208E-009, -2.16899E-008
2, 2580.00000, -0.29982, -0.0985458, -0.29982, -0.0985462, -0.24985, -0.0821218, 4.90205E-009, -2.169E-008
2, 2640.00000, -0.29982, -0.0985458, -0.29982, -0.0985462, -0.24985, -0.0821218, 4.90205E-009, -2.169E-008
2, 2700.00000, -0.29982, -0.0985458, -0.29982, -0.0985462, -0.24985, -0.0821218, 4.90205E-009, -2.169E-008
2, 2760.00000, -0.249887, -0.0821347, -0.299784, -0.0985347, -0.299822, -0.0985457, 9.95553E-009, -1.47459E-008
2, 2820.00000, -0.24985, -0.0821219, -0.29982, -0.0985458, -0.29982, -0.0985462, 9.9751E-009, -1.47819E-008
2, 2880.00000, -0.24985, -0.0821218, -0.29982, -0.0985459, -0.29982, -0.0985462, 9.97519E-009, -1.47821E-008
2, 2940.00000, -0.24985, -0.0821218, -0.29982, -0.0985459, -0.29982, -0.0985462, 9.97519E-009, -1.47821E-008
2, 3000.00000, -0.24985, -0.0821218, -0.29982, -0.0985459, -0.29982, -0.0985462, 9.97519E-009, -1.47821E-008
2, 3060.00000, -0.399771, -0.131398, -0.299821, -0.098547, -0.349778, -0.114966, 1.27442E-008, -7.18066E-008
2, 3120.00000, -0.399761, -0.131395, -0.29982, -0.0985464, -0.34979, -0.11497, 1.27415E-008, -7.17939E-008
2, 3180.00000, -0.399761, -0.131395, -0.29982, -0.0985464, -0.34979, -0.11497, 1.27415E-008, -7.17937E-008
2, 3240.00000, -0.399761, -0.131395, -0.29982, -0.0985464, -0.34979, -0.11497, 1.27415E-008, -7.17937E-008
2, 3300.00000, -0.399761, -0.131395, -0.29982, -0.0985464, -0.34979, -0.11497, 1.27415E-008, -7.17937E-008
2, 3360.00000, -0.34978, -0.114967, -0.299819, -0.0985455, -0.249859, -0.0821248, 1.43174E-008, -6.82949E-008
2, 3420.00000, -0.34979, -0.11497, -0.29982, -0.0985464, -0.24985, -0.0821218, 1.4324E-008, -6.83197E-008
2, 3480.00000, -0.34979, -0.11497, -0.29982, -0.0985464, -0.24985, -0.0821217, 1.43241E-008, -6.83198E-008
2, 3540.00000, -0.34979, -0.11497, -0.29982, -0.0985464, -0.24985, -0.0821217, 1.43241E-008, -6.83198E-008
3, 0.00000, -0.34979, -0.11497, -0.29982, -0.0985464, -0.24985, -0.0821217, 1.43241E-008, -6.83198E-008
3, 60.00000, -0.299826, -0.0985477, -0.299819, -0.0985459, -0.249846, -0.0821206, 4.82539E-009, -2.12827E-008
3, 120.00000, -0.29982, -0.0985458, -0.29982, -0.0985462, -0.24985, -0.0821218, 4.8245E-009, -2.12773E-008
3, 180.00000, -0.29982, -0.0985458, -0.29982, -0.0985462, -0.24985, -0.0821218, 4.8245E-009, -2.12773E-008
3, 240.00000, -0.29982, -0.0985458, -0.29982, -0.0985462, -0.24985, -0.0821218, 4.8245E-009, -2.12773E-008
3, 300.00000, -0.29982, -0.0985458, -0.29982, -0.0985462, -0.24985, -0.0821218, 4.8245E-009, -2.12773E-008
