hour, t(sec), P1 (kW), Q1 (kvar), P2 (kW), Q2 (kvar)
0, 60.00000, 0.0333333, -2.57486E-008, -9.06473E-009, 7.40798E-009
0, 120.00000, 0.0333333, -7.49867E-009, -9.06506E-009, 7.40954E-009
0, 180.00000, 0.0333333, -7.41123E-009, -9.06507E-009, 7.40955E-009
0, 240.00000, 0.0333333, -7.40957E-009, -9.06507E-009, 7.40955E-009
0, 300.00000, 0.0333333, -7.40955E-009, -9.06507E-009, 7.40955E-009
0, 360.00000, 0.0333336, -2.46724E-007, 2.94029E-009, -2.14181E-009
0, 420.00000, 0.0333333, 1.00322E-009, 2.93422E-009, -2.15727E-009
0, 480.00000, 0.0333333, 2.1577E-009, 2.93423E-009, -2.15741E-009
0, 540.00000, 0.0333333, 2.1575E-009, 2.93424E-009, -2.15741E-009
0, 600.00000, 0.0333333, 2.15741E-009, 2.93424E-009, -2.15741E-009
0, 660.00000, 0.0333332, 3.54364E-007, -5.42268E-009, -6.88573E-010
0, 720.00000, 0.0333333, 3.00302E-009, -5.40988E-009, -6.75189E-010
0, 780.00000, 0.0333333, 6.85613E-010, -5.40983E-009, -6.75043E-010
0, 840.00000, 0.0333333, 6.75038E-010, -5.40983E-009, -6.75041E-010
0, 900.00000, 0.0333333, 6.75041E-010, -5.40983E-009, -6.75041E-010
0, 960.00000, 0.0333336, -1.35174E-007, -1.38789E-008, 8.06977E-010
0, 1020.00000, 0.0333333, 1.83419E-009, -1.38723E-008, 8.0173E-010
0, 1080.00000, 0.0333333, -7.77021E-010, -1.38722E-008, 8.01762E-010
0, 1140.00000, 0.0333333, -8.0159E-010, -1.38722E-008, 8.01763E-010
0, 1200.00000, 0.0333333, -8.01762E-010, -1.38722E-008, 8.01763E-010
0, 1260.00000, 0.033333, -4.90381E-007, -1.28165E-008, 1.554E-008
0, 1320.00000, 0.0333333, -1.95956E-008, -1.28414E-008, 1.55358E-008
0, 1380.00000, 0.0333333, -1.55639E-008, -1.28415E-008, 1.55357E-008
0, 1440.00000, 0.0333333, -1.55359E-008, -1.28415E-008, 1.55357E-008
0, 1500.00000, 0.0333333, -1.55357E-008, -1.28415E-008, 1.55357E-008
0, 1560.00000, 0.0333328, -1.76274E-007, -1.03269E-008, 3.04858E-008
0, 1620.00000, 0.0333333, -3.25282E-008, -1.03401E-008, 3.04945E-008
0, 1680.00000, 0.0333333, -3.0515E-008, -1.03402E-008, 3.04946E-008
0, 1740.00000, 0.0333333, -3.04947E-008, -1.03402E-008, 3.04946E-008
0, 1800.00000, 0.0333333, -3.04946E-008, -1.03402E-008, 3.04946E-008
0, 1860.00000, 0.0333338, 1.78445E-007, -1.54953E-008, 7.69464E-010
0, 1920.00000, 0.0333334, 1.53173E-009, -1.54811E-008, 7.61614E-010
0, 1980.00000, 0.0333333, -7.38428E-010, -1.54809E-008, 7.61598E-010
0, 2040.00000, 0.0333333, -7.61402E-010, -1.54809E-008, 7.61598E-010
0, 2100.00000, 0.0333333, -7.61597E-010, -1.54809E-008, 7.61598E-010
0, 2160.00000, 0.0333335, 2.80212E-007, -6.1538E-009, -6.92949E-010
0, 2220.00000, 0.0333333, 2.92773E-009, -6.14054E-009, -6.86775E-010
0, 2280.00000, 0.0333333, 7.00389E-010, -6.14046E-009, -6.86682E-010
0, 2340.00000, 0.0333333, 6.86732E-010, -6.14046E-009, -6.86681E-010
0, 2400.00000, 0.0333333, 6.86681E-010, -6.14046E-009, -6.86681E-010
0, 2460.00000, 0.0333339, 3.62305E-007, 1.34956E-008, 1.08854E-008
0, 2520.00000, 0.0333333, -6.85669E-009, 1.35194E-008, 1.08798E-008
0, 2580.00000, 0.0333333, -1.08443E-008, 1.35196E-008, 1.08798E-008
0, 2640.00000, 0.0333333, -1.08795E-008, 1.35196E-008, 1.08798E-008
0, 2700.00000, 0.0333333, -1.08798E-008, 1.35196E-008, 1.08798E-008
0, 2760.00000, 0.0333338, -5.08585E-008, -1.64679E-008, -1.40469E-008
0, 2820.00000, 0.0333334, 1.44883E-008, -1.64641E-008, -1.40607E-008
0, 2880.00000, 0.0333333, 1.40719E-008, -1.6464E-008, -1.40607E-008
0, 2940.00000, 0.0333333, 1.40609E-008, -1.6464E-008, -1.40607E-008
0, 3000.00000, 0.0333333, 1.40608E-008, -1.6464E-008, -1.40607E-008
0, 3060.00000, 0.0333321, -2.21047E-008, -7.07415E-009, 2.20594E-008
0, 3120.00000, 0.0333333, -2.47194E-008, -7.09156E-009, 2.2092E-008
0, 3180.00000, 0.0333333, -2.21326E-008, -7.0918E-009, 2.20922E-008
0, 3240.00000, 0.0333333, -2.20926E-008, -7.09181E-009, 2.20922E-008
0, 3300.00000, 0.0333333, -2.20922E-008, -7.09181E-009, 2.20922E-008
0, 3360.00000, 0.0333326, -4.32181E-007, -1.08922E-008, 3.04864E-008
0, 3420.00000, 0.0333333, -3.49247E-008, -1.09195E-008, 3.04947E-008
0, 3480.00000, 0.0333333, -3.05344E-008, -1.09197E-008, 3.04947E-008
0, 3540.00000, 0.0333333, -3.04949E-008, -1.09197E-008, 3.04947E-008
1, 0.00000, 0.0333333, -3.04947E-008, -1.09197E-008, 3.04947E-008
1, 60.00000, 0.0300748, 1.40955E-007, 1.89498E-010, 5.38837E-009
1, 120.00000, 0.0300738, -4.33074E-009, 1.92951E-010, 5.39022E-009
1, 180.00000, 0.0300738, -5.38545E-009, 1.92972E-010, 5.39027E-009
1, 240.00000, 0.0300738, -5.39033E-009, 1.92972E-010, 5.39027E-009
1, 300.00000, 0.0300738, -5.39027E-009, 1.92972E-010, 5.39027E-009
1, 360.00000, 0.0300739, -6.69236E-007, -1.07635E-008, 1.40031E-008
1, 420.00000, 0.0300738, -1.92842E-008, -1.07844E-008, 1.39822E-008
1, 480.00000, 0.0300738, -1.39867E-008, -1.07845E-008, 1.39818E-008
1, 540.00000, 0.0300738, -1.39811E-008, -1.07845E-008, 1.39818E-008
1, 600.00000, 0.0300738, -1.39818E-008, -1.07845E-008, 1.39818E-008
1, 660.00000, 0.0300738, 3.25109E-007, -4.21787E-009, -4.79289E-010
1, 720.00000, 0.0300738, 3.34939E-009, -4.20697E-009, -4.70383E-010
1, 780.00000, 0.0300738, 4.7869E-010, -4.20692E-009, -4.70215E-010
1, 840.00000, 0.0300738, 4.69927E-010, -4.20692E-009, -4.70213E-010
1, 900.00000, 0.0300738, 4.70205E-010, -4.20692E-009, -4.70213E-010
1, 960.00000, 0.0300744, -3.28178E-007, -2.07299E-008, 2.01449E-009
1, 1020.00000, 0.0300738, -1.63901E-009, -2.07314E-008, 1.98655E-009
1, 1080.00000, 0.0300738, -1.92343E-009, -2.07312E-008, 1.98623E-009
1, 1140.00000, 0.0300738, -1.98493E-009, -2.07312E-008, 1.98623E-009
1, 1200.00000, 0.0300738, -1.98621E-009, -2.07312E-008, 1.98623E-009
1, 1260.00000, 0.0300735, 6.29731E-007, -2.10228E-008, -1.0986E-008
1, 1320.00000, 0.0300738, 1.49308E-008, -2.10069E-008, -1.0959E-008
1, 1380.00000, 0.0300738, 1.09405E-008, -2.10069E-008, -1.09586E-008
1, 1440.00000, 0.0300738, 1.09575E-008, -2.10069E-008, -1.09586E-008
1, 1500.00000, 0.0300738, 1.09585E-008, -2.10069E-008, -1.09586E-008
1, 1560.00000, 0.0300744, -4.60498E-008, -2.16773E-008, -1.10935E-008
1, 1620.00000, 0.0300738, 1.34901E-008, -2.1671E-008, -1.11107E-008
1, 1680.00000, 0.0300738, 1.11707E-008, -2.16708E-008, -1.11108E-008
1, 1740.00000, 0.0300738, 1.11117E-008, -2.16708E-008, -1.11108E-008
1, 1800.00000, 0.0300738, 1.11109E-008, -2.16708E-008, -1.11108E-008
1, 1860.00000, 0.0300739, -3.74371E-007, -1.91084E-008, -1.83756E-008
1, 1920.00000, 0.0300738, 1.50507E-008, -1.91209E-008, -1.8389E-008
1, 1980.00000, 0.0300738, 1.83847E-008, -1.91209E-008, -1.83893E-008
1, 2040.00000, 0.0300738, 1.83897E-008, -1.91209E-008, -1.83893E-008
1, 2100.00000, 0.0300738, 1.83893E-008, -1.91209E-008, -1.83893E-008
1, 2160.00000, 0.0300736, 3.73883E-007, -1.58246E-009, -7.80311E-009
1, 2220.00000, 0.0300738, 1.04114E-008, -1.57209E-009, -7.78851E-009
1, 2280.00000, 0.0300738, 7.78261E-009, -1.57208E-009, -7.78828E-009
1, 2340.00000, 0.0300738, 7.78772E-009, -1.57209E-009, -7.78828E-009
1, 2400.00000, 0.0300738, 7.78826E-009, -1.57209E-009, -7.78828E-009
1, 2460.00000, 0.0300758, 2.34753E-006, -5.96306E-009, -1.36731E-008
1, 2520.00000, 0.0300738, 4.43885E-008, -5.86054E-009, -1.36402E-008
1, 2580.00000, 0.0300738, 1.38648E-008, -5.85968E-009, -1.3639E-008
1, 2640.00000, 0.0300738, 1.36387E-008, -5.85967E-009, -1.3639E-008
1, 2700.00000, 0.0300738, 1.36389E-008, -5.85967E-009, -1.3639E-008
1, 2760.00000, 0.0300735, -1.76636E-007, 6.05115E-009, -9.11244E-009
1, 2820.00000, 0.0300738, 6.22897E-009, 6.04163E-009, -9.11175E-009
1, 2880.00000, 0.0300738, 9.08149E-009, 6.04152E-009, -9.11182E-009
1, 2940.00000, 0.0300738, 9.11165E-009, 6.04152E-009, -9.11182E-009
1, 3000.00000, 0.0300738, 9.11182E-009, 6.04152E-009, -9.11182E-009
1, 3060.00000, 0.0300741, -2.11805E-007, -9.18441E-009, -6.47833E-009
1, 3120.00000, 0.0300738, 5.75965E-009, -9.1883E-009, -6.49118E-009
1, 3180.00000, 0.0300738, 6.51176E-009, -9.18825E-009, -6.49134E-009
1, 3240.00000, 0.0300738, 6.4919E-009, -9.18825E-009, -6.49134E-009
1, 3300.00000, 0.0300738, 6.49135E-009, -9.18825E-009, -6.49134E-009
1, 3360.00000, 0.0300726, 8.25766E-008, 3.44149E-009, -1.80999E-009
1, 3420.00000, 0.0300738, -3.71886E-009, 3.42771E-009, -1.77635E-009
1, 3480.00000, 0.0300738, 1.64552E-009, 3.4273E-009, -1.77609E-009
1, 3540.00000, 0.0300738, 1.77421E-009, 3.4273E-009, -1.77609E-009
2, 0.00000, 0.0300738, 1.77607E-009, 3.4273E-009, -1.77609E-009
2, 60.00000, 0.0142569, 7.72055E-009, 5.58903E-009, -1.40319E-009
2, 120.00000, 0.0142567, 2.31841E-009, 5.59136E-009, -1.4076E-009
2, 180.00000, 0.0142567, 1.42606E-009, 5.59142E-009, -1.40763E-009
2, 240.00000, 0.0142567, 1.40787E-009, 5.59142E-009, -1.40763E-009
2, 300.00000, 0.0142567, 1.40763E-009, 5.59142E-009, -1.40763E-009
2, 360.00000, 0.0142569, 4.46049E-008, -1.86518E-009, -1.95381E-010
2, 420.00000, 0.0142567, 1.77643E-009, -1.8604E-009, -2.0002E-010
2, 480.00000, 0.0142567, 2.24663E-010, -1.86032E-009, -2.00033E-010
2, 540.00000, 0.0142567, 2.0029E-010, -1.86032E-009, -2.00032E-010
2, 600.00000, 0.0142567, 2.00034E-010, -1.86032E-009, -2.00032E-010
2, 660.00000, 0.0142582, 1.1838E-006, 1.16233E-009, -6.97236E-009
2, 720.00000, 0.0142567, 2.33772E-008, 1.21788E-009, -6.97005E-009
2, 780.00000, 0.0142567, 7.11833E-009, 1.21842E-009, -6.96962E-009
2, 840.00000, 0.0142567, 6.97013E-009, 1.21842E-009, -6.96962E-009
2, 900.00000, 0.0142567, 6.9696E-009, 1.21842E-009, -6.96962E-009
2, 960.00000, 0.0142563, -2.08883E-007, 9.3537E-010, -6.9985E-009
2, 1020.00000, 0.0142567, 3.28604E-009, 9.23298E-010, -6.99546E-009
2, 1080.00000, 0.0142567, 6.95333E-009, 9.23148E-010, -6.99551E-009
2, 1140.00000, 0.0142567, 6.99523E-009, 9.23147E-010, -6.99552E-009
2, 1200.00000, 0.0142567, 6.99552E-009, 9.23147E-010, -6.99552E-009
2, 1260.00000, 0.0142569, 6.67797E-007, 2.50982E-009, 5.36609E-009
2, 1320.00000, 0.0142567, 2.20766E-010, 2.53176E-009, 5.38651E-009
2, 1380.00000, 0.0142567, -5.38113E-009, 2.53183E-009, 5.38687E-009
2, 1440.00000, 0.0142567, -5.38761E-009, 2.53183E-009, 5.38687E-009
2, 1500.00000, 0.0142567, -5.38689E-009, 2.53183E-009, 5.38687E-009
2, 1560.00000, 0.014257, 1.9109E-008, -3.29736E-010, -3.5758E-009
2, 1620.00000, 0.0142567, 5.08695E-009, -3.25461E-010, -3.58227E-009
2, 1680.00000, 0.0142567, 3.61007E-009, -3.25371E-010, -3.5823E-009
2, 1740.00000, 0.0142567, 3.58263E-009, -3.2537E-010, -3.5823E-009
2, 1800.00000, 0.0142567, 3.5823E-009, -3.2537E-010, -3.5823E-009
2, 1860.00000, 0.0142554, -1.53977E-008, 1.28906E-009, 8.77484E-009
2, 1920.00000, 0.0142567, -1.25771E-008, 1.27684E-009, 8.79745E-009
2, 1980.00000, 0.0142567, -8.86907E-009, 1.2766E-009, 8.79756E-009
2, 2040.00000, 0.0142567, -8.79843E-009, 1.2766E-009, 8.79756E-009
2, 2100.00000, 0.0142567, -8.79756E-009, 1.2766E-009, 8.79756E-009
2, 2160.00000, 0.0142575, -2.05775E-007, -5.43524E-009, 4.52339E-010
2, 2220.00000, 0.0142567, 1.42873E-010, -5.43326E-009, 4.28968E-010
2, 2280.00000, 0.0142567, -3.80803E-010, -5.43312E-009, 4.28754E-010
2, 2340.00000, 0.0142567, -4.2786E-010, -5.43312E-009, 4.28753E-010
2, 2400.00000, 0.0142567, -4.28742E-010, -5.43312E-009, 4.28753E-010
2, 2460.00000, 0.0142568, -5.80728E-008, -2.67595E-009, -6.38426E-009
2, 2520.00000, 0.0142567, 6.51536E-009, -2.67616E-009, -6.38975E-009
2, 2580.00000, 0.0142567, 6.40282E-009, -2.67613E-009, -6.3898E-009
2, 2640.00000, 0.0142567, 6.39005E-009, -2.67613E-009, -6.3898E-009
2, 2700.00000, 0.0142567, 6.38981E-009, -2.67613E-009, -6.3898E-009
2, 2760.00000, 0.0142565, 4.83156E-009, 2.00202E-009, -7.89088E-010
2, 2820.00000, 0.0142567, -1.81626E-010, 1.99941E-009, -7.83959E-010
2, 2880.00000, 0.0142567, 7.63822E-010, 1.99935E-009, -7.83925E-010
2, 2940.00000, 0.0142567, 7.83667E-010, 1.99934E-009, -7.83925E-010
2, 3000.00000, 0.0142567, 7.83923E-010, 1.99934E-009, -7.83925E-010
2, 3060.00000, 0.0142567, 3.47877E-007, 6.41982E-009, 4.71602E-009
2, 3120.00000, 0.0142567, -1.43701E-009, 6.43184E-009, 4.72479E-009
2, 3180.00000, 0.0142567, -4.71325E-009, 6.4319E-009, 4.72496E-009
2, 3240.00000, 0.0142567, -4.72523E-009, 6.4319E-009, 4.72496E-009
2, 3300.00000, 0.0142567, -4.72497E-009, 6.4319E-009, 4.72496E-009
2, 3360.00000, 0.0142566, -4.22869E-007, -1.06624E-009, 6.03225E-009
2, 3420.00000, 0.0142567, -9.85702E-009, -1.08078E-009, 6.02218E-009
2, 3480.00000, 0.0142567, -6.03509E-009, -1.08085E-009, 6.02198E-009
2, 3540.00000, 0.0142567, -6.02165E-009, -1.08085E-009, 6.02197E-009
3, 0.00000, 0.0142567, -6.02197E-009, -1.08085E-009, 6.02197E-009
3, 60.00000, 0.0203618, 3.43465E-007, -6.65373E-009, 9.4382E-009
3, 120.00000, 0.0203621, -7.56906E-009, -6.64551E-009, 9.45406E-009
3, 180.00000, 0.0203621, -9.47062E-009, -6.64554E-009, 9.45428E-009
3, 240.00000, 0.0203621, -9.45489E-009, -6.64554E-009, 9.45428E-009
3, 300.00000, 0.0203621, -9.45429E-009, -6.64554E-009, 9.45428E-009
3, 360.00000, 0.0203624, -2.50671E-007, -7.8219E-009, 6.09332E-010
3, 420.00000, 0.0203621, -9.42638E-010, -7.82493E-009, 5.92771E-010
3, 480.00000, 0.0203621, -5.60955E-010, -7.82484E-009, 5.92581E-010
3, 540.00000, 0.0203621, -5.91892E-010, -7.82484E-009, 5.9258E-010
3, 600.00000, 0.0203621, -5.92571E-010, -7.82484E-009, 5.9258E-010
3, 660.00000, 0.0203635, 1.23814E-006, -1.57586E-010, -5.10964E-009
3, 720.00000, 0.0203621, 2.15305E-008, -1.02258E-010, -5.09723E-009
3, 780.00000, 0.0203621, 5.22355E-009, -1.01768E-010, -5.09672E-009
3, 840.00000, 0.0203621, 5.09679E-009, -1.01767E-010, -5.09671E-009
3, 900.00000, 0.0203621, 5.0967E-009, -1.01767E-010, -5.09671E-009
3, 960.00000, 0.0203618, -3.00606E-008, 1.04871E-009, 3.72256E-009
3, 1020.00000, 0.020362, -5.5252E-009, 1.04353E-009, 3.72976E-009
3, 1080.00000, 0.0203621, -3.76148E-009, 1.04343E-009, 3.72979E-009
3, 1140.00000, 0.0203621, -3.73015E-009, 1.04343E-009, 3.72979E-009
3, 1200.00000, 0.0203621, -3.72979E-009, 1.04343E-009, 3.72979E-009
3, 1260.00000, 0.0203623, -2.39916E-007, -2.74021E-009, -2.76792E-010
3, 1320.00000, 0.0203621, -4.20003E-010, -2.74428E-009, -2.90384E-010
3, 1380.00000, 0.0203621, 3.12988E-010, -2.74423E-009, -2.9055E-010
3, 1440.00000, 0.0203621, 2.91105E-010, -2.74422E-009, -2.90551E-010
3, 1500.00000, 0.0203621, 2.90559E-010, -2.74422E-009, -2.90551E-010
3, 1560.00000, 0.020362, 1.08099E-006, -2.77398E-009, -3.18811E-010
3, 1620.00000, 0.020362, 1.23783E-008, -2.73251E-009, -2.99393E-010
3, 1680.00000, 0.0203621, 3.70416E-010, -2.7322E-009, -2.98897E-010
3, 1740.00000, 0.0203621, 2.98488E-010, -2.7322E-009, -2.9889E-010
3, 1800.00000, 0.0203621, 2.98871E-010, -2.7322E-009, -2.9889E-010
3, 1860.00000, 0.0203618, 1.64608E-007, 1.69057E-009, -9.95651E-009
3, 1920.00000, 0.020362, 9.73544E-009, 1.69157E-009, -9.94484E-009
3, 1980.00000, 0.0203621, 9.9171E-009, 1.69149E-009, -9.94473E-009
3, 2040.00000, 0.0203621, 9.94421E-009, 1.69149E-009, -9.94473E-009
3, 2100.00000, 0.0203621, 9.94472E-009, 1.69149E-009, -9.94473E-009
3, 2160.00000, 0.0203622, 2.40886E-007, -4.88937E-010, -5.13247E-009
3, 2220.00000, 0.0203621, 8.35306E-009, -4.78205E-010, -5.13151E-009
3, 2280.00000, 0.0203621, 5.15965E-009, -4.781E-010, -5.13142E-009
3, 2340.00000, 0.0203621, 5.1315E-009, -4.781E-010, -5.13142E-009
3, 2400.00000, 0.0203621, 5.13142E-009, -4.781E-010, -5.13142E-009
3, 2460.00000, 0.0203617, -4.83684E-007, 2.82074E-009, -1.11409E-009
3, 2520.00000, 0.0203621, -5.09083E-009, 2.79915E-009, -1.11724E-009
3, 2580.00000, 0.0203621, 1.06759E-009, 2.79895E-009, -1.11742E-009
3, 2640.00000, 0.0203621, 1.11736E-009, 2.79895E-009, -1.11742E-009
3, 2700.00000, 0.0203621, 1.11743E-009, 2.79895E-009, -1.11742E-009
3, 2760.00000, 0.0203626, -1.33561E-007, -6.10229E-009, -4.27845E-009
3, 2820.00000, 0.0203621, 5.9863E-009, -6.09881E-009, -4.29711E-009
3, 2880.00000, 0.0203621, 4.35232E-009, -6.09864E-009, -4.29727E-009
3, 2940.00000, 0.0203621, 4.29812E-009, -6.09864E-009, -4.29727E-009
3, 3000.00000, 0.0203621, 4.29728E-009, -6.09864E-009, -4.29727E-009
3, 3060.00000, 0.0203623, 4.97231E-007, -4.48002E-009, 4.50516E-009
3, 3120.00000, 0.0203621, 1.27343E-009, -4.45979E-009, 4.51146E-009
3, 3180.00000, 0.0203621, -4.47273E-009, -4.45964E-009, 4.51167E-009
3, 3240.00000, 0.0203621, -4.51176E-009, -4.45964E-009, 4.51168E-009
3, 3300.00000, 0.0203621, -4.51168E-009, -4.45964E-009, 4.51168E-009
3, 3360.00000, 0.0203621, -3.32506E-007, 2.34479E-009, -1.20677E-009
3, 3420.00000, 0.0203621, -1.4513E-009, 2.33448E-009, -1.21718E-009
3, 3480.00000, 0.0203621, 1.21546E-009, 2.33445E-009, -1.21736E-009
3, 3540.00000, 0.0203621, 1.21772E-009, 2.33445E-009, -1.21736E-009
4, 0.00000, 0.0203621, 1.21737E-009, 2.33445E-009, -1.21736E-009
4, 60.00000, 0.0106006, -3.27312E-009, 3.94153E-010, 1.93108E-009
4, 120.00000, 0.0106006, -2.02934E-009, 3.93758E-010, 1.93124E-009
4, 180.00000, 0.0106006, -1.93269E-009, 3.93754E-010, 1.93124E-009
4, 240.00000, 0.0106006, -1.93125E-009, 3.93754E-010, 1.93124E-009
4, 300.00000, 0.0106006, -1.93124E-009, 3.93754E-010, 1.93124E-009
4, 360.00000, 0.0106004, -2.16656E-007, -1.58201E-009, -1.24496E-010
4, 420.00000, 0.0106006, -2.29201E-009, -1.5915E-009, -1.26393E-010
4, 480.00000, 0.0106006, 1.10386E-010, -1.59158E-009, -1.26471E-010
4, 540.00000, 0.0106006, 1.26481E-010, -1.59158E-009, -1.26472E-010
4, 600.00000, 0.0106006, 1.26474E-010, -1.59158E-009, -1.26472E-010
4, 660.00000, 0.0106007, 5.27705E-008, -1.37456E-009, -1.28366E-010
4, 720.00000, 0.0106006, 1.31257E-009, -1.37054E-009, -1.31148E-010
4, 780.00000, 0.0106006, 1.45233E-010, -1.37048E-009, -1.31145E-010
4, 840.00000, 0.0106006, 1.31242E-010, -1.37048E-009, -1.31145E-010
4, 900.00000, 0.0106006, 1.31145E-010, -1.37048E-009, -1.31145E-010
4, 960.00000, 0.0106006, 1.3008E-008, -2.51089E-009, 2.38573E-009
4, 1020.00000, 0.0106006, -2.11632E-009, -2.50999E-009, 2.38535E-009
4, 1080.00000, 0.0106006, -2.38182E-009, -2.50998E-009, 2.38535E-009
4, 1140.00000, 0.0106006, -2.38532E-009, -2.50998E-009, 2.38535E-009
4, 1200.00000, 0.0106006, -2.38535E-009, -2.50998E-009, 2.38535E-009
4, 1260.00000, 0.0106005, 2.21764E-008, -7.67961E-010, 4.46633E-009
4, 1320.00000, 0.0106006, -4.63646E-009, -7.68132E-010, 4.46908E-009
4, 1380.00000, 0.0106006, -4.47598E-009, -7.68153E-010, 4.46911E-009
4, 1440.00000, 0.0106006, -4.46922E-009, -7.68153E-010, 4.46911E-009
4, 1500.00000, 0.0106006, -4.46911E-009, -7.68153E-010, 4.46911E-009
4, 1560.00000, 0.0106007, -2.37943E-008, 3.62871E-010, 1.94232E-009
4, 1620.00000, 0.0106006, -1.49652E-009, 3.63981E-010, 1.9383E-009
4, 1680.00000, 0.0106006, -1.92702E-009, 3.64018E-010, 1.93827E-009
4, 1740.00000, 0.0106006, -1.93812E-009, 3.64019E-010, 1.93827E-009
4, 1800.00000, 0.0106006, -1.93827E-009, 3.64019E-010, 1.93827E-009
4, 1860.00000, 0.0106006, 8.32618E-008, -1.36041E-009, -1.49793E-010
4, 1920.00000, 0.0106006, 1.01943E-009, -1.35686E-009, -1.48844E-010
4, 1980.00000, 0.0106006, 1.0076E-008, -1.35252E-009, -1.47097E-010
4, 2040.00000, 0.0106005, -9.74696E-009, -1.35675E-009, -1.48644E-010
4, 2100.00000, 0.0106006, 8.40698E-009, -1.35323E-009, -1.47376E-010
4, 2160.00000, 0.0106006, -3.01845E-008, 1.51472E-009, -5.84817E-010
4, 2220.00000, 0.0106006, 1.52368E-008, 1.51936E-009, -5.82632E-010
4, 2280.00000, 0.0106006, 5.61023E-009, 1.52148E-009, -5.81531E-010
4, 2340.00000, 0.0106006, 3.92912E-009, 1.52286E-009, -5.80863E-010
4, 2400.00000, 0.0106007, 3.70849E-008, 1.53763E-009, -5.74424E-010
4, 2460.00000, 0.0106004, -3.37835E-008, -2.45375E-009, 2.40409E-009
4, 2520.00000, 0.0106007, 4.43701E-008, -2.43421E-009, 2.41359E-009
4, 2580.00000, 0.0106006, -2.27958E-009, -2.4338E-009, 2.41425E-009
4, 2640.00000, 0.0106006, -2.4002E-009, -2.43379E-009, 2.41427E-009
4, 2700.00000, 0.0106006, -2.40934E-009, -2.43379E-009, 2.41427E-009
4, 2760.00000, 0.0106004, -3.24719E-008, -6.59164E-009, 8.53129E-010
4, 2820.00000, 0.0106006, 2.21424E-008, -6.58261E-009, 8.61843E-010
4, 2880.00000, 0.0106006, 5.23775E-009, -6.5791E-009, 8.63185E-010
4, 2940.00000, 0.0106006, 1.43061E-008, -6.57083E-009, 8.65826E-010
4, 3000.00000, 0.0106006, 1.42561E-008, -6.5625E-009, 8.68563E-010
4, 3060.00000, 0.0106008, -1.40863E-007, -4.13711E-009, 3.80032E-010
4, 3120.00000, 0.0106007, 6.21594E-008, -4.10911E-009, 3.81979E-010
4, 3180.00000, 0.0106005, -1.34195E-008, -4.11455E-009, 3.80553E-010
