hour, t(sec), P1 (kW), Q1 (kvar), P2 (kW), Q2 (kvar)
0, 60.00000, 0.0309603, 4.35952E-007, 7.41574E-007, -5.56613E-007
0, 120.00000, 0.0309604, 5.56689E-007, 7.41648E-007, -5.56669E-007
0, 180.00000, 0.0309604, 5.56669E-007, 7.41648E-007, -5.56669E-007
0, 240.00000, 0.0309604, 5.56669E-007, 7.41648E-007, -5.56669E-007
0, 300.00000, 0.0309604, 5.56669E-007, 7.41648E-007, -5.56669E-007
0, 360.00000, 0.0309616, 1.78379E-007, -6.00595E-007, -2.30894E-007
0, 420.00000, 0.0309617, 2.3104E-007, -6.00785E-007, -2.31129E-007
0, 480.00000, 0.0309617, 2.3113E-007, -6.00785E-007, -2.3113E-007
0, 540.00000, 0.0309617, 2.3113E-007, -6.00785E-007, -2.3113E-007
0, 600.00000, 0.0309617, 2.3113E-007, -6.00785E-007, -2.3113E-007
0, 660.00000, 0.0309608, 5.50332E-007, 3.89459E-007, -4.92578E-007
0, 720.00000, 0.0309607, 4.92461E-007, 3.89573E-007, -4.92335E-007
0, 780.00000, 0.0309607, 4.92334E-007, 3.89573E-007, -4.92334E-007
0, 840.00000, 0.0309607, 4.92334E-007, 3.89573E-007, -4.92334E-007
0, 900.00000, 0.0309607, 4.92334E-007, 3.89573E-007, -4.92334E-007
0, 960.00000, 0.03096, 1.22634E-006, 6.53066E-007, -2.55206E-007
0, 1020.00000, 0.0309605, 2.55351E-007, 6.5405E-007, -2.51143E-007
0, 1080.00000, 0.0309605, 2.51134E-007, 6.54042E-007, -2.51131E-007
0, 1140.00000, 0.0309605, 2.51131E-007, 6.54042E-007, -2.51131E-007
0, 1200.00000, 0.0309605, 2.51131E-007, 6.54042E-007, -2.51131E-007
0, 1260.00000, 0.030962, 4.67832E-007, -8.55467E-007, -4.60088E-007
0, 1320.00000, 0.030962, 4.6023E-007, -8.55232E-007, -4.6019E-007
0, 1380.00000, 0.030962, 4.6019E-007, -8.55233E-007, -4.60191E-007
0, 1440.00000, 0.030962, 4.60191E-007, -8.55233E-007, -4.60191E-007
0, 1500.00000, 0.030962, 4.60191E-007, -8.55233E-007, -4.60191E-007
0, 1560.00000, 0.0309608, 5.29026E-007, 3.86842E-007, -4.80098E-007
0, 1620.00000, 0.0309607, 4.79834E-007, 3.86928E-007, -4.79862E-007
0, 1680.00000, 0.0309607, 4.79861E-007, 3.86928E-007, -4.79861E-007
0, 1740.00000, 0.0309607, 4.79861E-007, 3.86928E-007, -4.79861E-007
0, 1800.00000, 0.0309607, 4.79861E-007, 3.86928E-007, -4.79861E-007
0, 1860.00000, 0.0309612, -2.48454E-007, -1.08042E-007, 2.44134E-007
0, 1920.00000, 0.0309612, -2.44104E-007, -1.0804E-007, 2.44113E-007
0, 1980.00000, 0.0309612, -2.44113E-007, -1.08039E-007, 2.44113E-007
0, 2040.00000, 0.0309612, -2.44113E-007, -1.08039E-007, 2.44113E-007
0, 2100.00000, 0.0309612, -2.44113E-007, -1.08039E-007, 2.44113E-007
0, 2160.00000, 0.0309621, -1.85431E-007, -1.0037E-006, 2.07514E-007
0, 2220.00000, 0.0309621, -2.07491E-007, -1.00371E-006, 2.07596E-007
0, 2280.00000, 0.0309621, -2.07596E-007, -1.00371E-006, 2.07597E-007
0, 2340.00000, 0.0309621, -2.07597E-007, -1.00371E-006, 2.07597E-007
0, 2400.00000, 0.0309621, -2.07597E-007, -1.00371E-006, 2.07597E-007
0, 2460.00000, 0.0309611, 2.25332E-008, -2.04131E-008, -7.54448E-008
0, 2520.00000, 0.0309611, 7.5603E-008, -2.0591E-008, -7.56054E-008
0, 2580.00000, 0.0309611, 7.56061E-008, -2.05906E-008, -7.56054E-008
0, 2640.00000, 0.0309611, 7.56054E-008, -2.05906E-008, -7.56054E-008
0, 2700.00000, 0.0309611, 7.56054E-008, -2.05906E-008, -7.56054E-008
0, 2760.00000, 0.0309615, -1.71243E-008, -3.3662E-007, 1.1895E-008
0, 2820.00000, 0.0309615, -1.17068E-008, -3.3643E-007, 1.18187E-008
0, 2880.00000, 0.0309615, -1.18183E-008, -3.3643E-007, 1.18186E-008
0, 2940.00000, 0.0309615, -1.18186E-008, -3.3643E-007, 1.18186E-008
0, 3000.00000, 0.0309615, -1.18186E-008, -3.3643E-007, 1.18186E-008
0, 3060.00000, 0.0309615, 3.63892E-007, -2.95411E-007, -3.14626E-007
0, 3120.00000, 0.0309614, 3.14292E-007, -2.9521E-007, -3.14367E-007
0, 3180.00000, 0.0309614, 3.14365E-007, -2.9521E-007, -3.14366E-007
0, 3240.00000, 0.0309614, 3.14366E-007, -2.9521E-007, -3.14366E-007
0, 3300.00000, 0.0309614, 3.14366E-007, -2.9521E-007, -3.14366E-007
0, 3360.00000, 0.0309613, -6.37367E-008, -3.27309E-007, 4.73595E-009
0, 3420.00000, 0.0309614, -4.70944E-009, -3.27703E-007, 4.51472E-009
0, 3480.00000, 0.0309614, -4.51481E-009, -3.27704E-007, 4.51391E-009
0, 3540.00000, 0.0309614, -4.51391E-009, -3.27704E-007, 4.51391E-009
1, 0.00000, 0.0309614, -4.51391E-009, -3.27704E-007, 4.51391E-009
1, 60.00000, 0.0210411, -3.02235E-007, 3.28837E-007, 2.86887E-007
1, 120.00000, 0.021041, -2.86554E-007, 3.28958E-007, 2.86746E-007
1, 180.00000, 0.021041, -2.86746E-007, 3.28958E-007, 2.86746E-007
1, 240.00000, 0.021041, -2.86746E-007, 3.28958E-007, 2.86746E-007
1, 300.00000, 0.021041, -2.86746E-007, 3.28958E-007, 2.86746E-007
1, 360.00000, 0.0210413, -4.2205E-007, 9.59662E-008, 3.61534E-007
1, 420.00000, 0.0210413, -3.6116E-007, 9.61434E-008, 3.61292E-007
1, 480.00000, 0.0210413, -3.61291E-007, 9.61438E-008, 3.61292E-007
1, 540.00000, 0.0210413, -3.61292E-007, 9.61438E-008, 3.61292E-007
1, 600.00000, 0.0210413, -3.61292E-007, 9.61438E-008, 3.61292E-007
1, 660.00000, 0.0210414, -4.86834E-007, 2.8422E-008, 5.73343E-007
1, 720.00000, 0.0210413, -5.73631E-007, 2.8404E-008, 5.73631E-007
1, 780.00000, 0.0210413, -5.73632E-007, 2.84035E-008, 5.73631E-007
1, 840.00000, 0.0210413, -5.73631E-007, 2.84035E-008, 5.73631E-007
1, 900.00000, 0.0210413, -5.73631E-007, 2.84035E-008, 5.73631E-007
1, 960.00000, 0.0210411, 2.58309E-007, 2.77553E-007, -3.13138E-007
1, 1020.00000, 0.0210411, 3.13259E-007, 2.77447E-007, -3.13338E-007
1, 1080.00000, 0.0210411, 3.1334E-007, 2.77448E-007, -3.13338E-007
1, 1140.00000, 0.0210411, 3.13338E-007, 2.77448E-007, -3.13338E-007
1, 1200.00000, 0.0210411, 3.13338E-007, 2.77448E-007, -3.13338E-007
1, 1260.00000, 0.0210414, 2.54854E-008, -8.91101E-009, -2.84863E-008
1, 1320.00000, 0.0210414, 2.85756E-008, -8.78151E-009, -2.84864E-008
1, 1380.00000, 0.0210414, 2.84848E-008, -8.7817E-009, -2.84857E-008
1, 1440.00000, 0.0210414, 2.84857E-008, -8.7817E-009, -2.84857E-008
1, 1500.00000, 0.0210414, 2.84857E-008, -8.7817E-009, -2.84857E-008
1, 1560.00000, 0.0210411, -4.62761E-007, 2.62349E-007, 5.08008E-007
1, 1620.00000, 0.0210411, -5.08042E-007, 2.62377E-007, 5.08147E-007
1, 1680.00000, 0.0210411, -5.08146E-007, 2.62377E-007, 5.08147E-007
1, 1740.00000, 0.0210411, -5.08147E-007, 2.62377E-007, 5.08147E-007
1, 1800.00000, 0.0210411, -5.08147E-007, 2.62377E-007, 5.08147E-007
1, 1860.00000, 0.0210411, 3.00548E-007, 2.79542E-007, -3.2921E-007
1, 1920.00000, 0.0210411, 3.29288E-007, 2.79526E-007, -3.29302E-007
1, 1980.00000, 0.0210411, 3.29303E-007, 2.79526E-007, -3.29303E-007
1, 2040.00000, 0.0210411, 3.29303E-007, 2.79526E-007, -3.29303E-007
1, 2100.00000, 0.0210411, 3.29303E-007, 2.79526E-007, -3.29303E-007
1, 2160.00000, 0.0210412, -1.61255E-007, 1.42796E-007, 1.30554E-007
1, 2220.00000, 0.0210412, -1.30509E-007, 1.42801E-007, 1.3047E-007
1, 2280.00000, 0.0210412, -1.30471E-007, 1.42801E-007, 1.3047E-007
1, 2340.00000, 0.0210412, -1.30471E-007, 1.42801E-007, 1.30471E-007
1, 2400.00000, 0.0210412, -1.30471E-007, 1.42801E-007, 1.30471E-007
1, 2460.00000, 0.021041, -7.32344E-007, -5.38048E-007, 3.05976E-007
1, 2520.00000, 0.0210419, -3.05013E-007, -5.40637E-007, 3.04248E-007
1, 2580.00000, 0.0210419, -3.04245E-007, -5.40637E-007, 3.04246E-007
1, 2640.00000, 0.0210419, -3.04246E-007, -5.40637E-007, 3.04246E-007
1, 2700.00000, 0.0210419, -3.04246E-007, -5.40637E-007, 3.04246E-007
1, 2760.00000, 0.0210418, -4.53522E-007, -3.68788E-007, 4.80769E-007
1, 2820.00000, 0.0210417, -4.80887E-007, -3.68697E-007, 4.80899E-007
1, 2880.00000, 0.0210417, -4.80899E-007, -3.68697E-007, 4.80899E-007
1, 2940.00000, 0.0210417, -4.80899E-007, -3.68697E-007, 4.80899E-007
1, 3000.00000, 0.0210417, -4.80899E-007, -3.68697E-007, 4.80899E-007
1, 3060.00000, 0.0210416, -1.5248E-008, -2.34827E-007, 1.64902E-008
1, 3120.00000, 0.0210416, -1.65231E-008, -2.34894E-007, 1.64766E-008
1, 3180.00000, 0.0210416, -1.64757E-008, -2.34893E-007, 1.64763E-008
1, 3240.00000, 0.0210416, -1.64763E-008, -2.34893E-007, 1.64763E-008
1, 3300.00000, 0.0210416, -1.64763E-008, -2.34893E-007, 1.64763E-008
1, 3360.00000, 0.0210416, -5.88862E-008, -2.27628E-007, 2.34115E-008
1, 3420.00000, 0.0210416, -2.35042E-008, -2.27757E-007, 2.33454E-008
1, 3480.00000, 0.0210416, -2.33472E-008, -2.27758E-007, 2.33453E-008
1, 3540.00000, 0.0210416, -2.33453E-008, -2.27758E-007, 2.33453E-008
2, 0.00000, 0.0210416, -2.33453E-008, -2.27758E-007, 2.33453E-008
2, 60.00000, 0.0186749, -8.55175E-008, -6.04254E-008, 1.62942E-007
2, 120.00000, 0.0186749, -1.62982E-007, -6.02607E-008, 1.63135E-007
2, 180.00000, 0.0186749, -1.63135E-007, -6.02609E-008, 1.63135E-007
2, 240.00000, 0.0186749, -1.63135E-007, -6.02609E-008, 1.63135E-007
2, 300.00000, 0.0186749, -1.63135E-007, -6.02609E-008, 1.63135E-007
2, 360.00000, 0.0186748, -2.56041E-007, -5.90086E-008, 1.71756E-007
2, 420.00000, 0.0186749, -1.71565E-007, -5.91444E-008, 1.71504E-007
2, 480.00000, 0.0186749, -1.71502E-007, -5.91437E-008, 1.71504E-007
2, 540.00000, 0.0186749, -1.71504E-007, -5.91437E-008, 1.71504E-007
2, 600.00000, 0.0186749, -1.71504E-007, -5.91437E-008, 1.71504E-007
2, 660.00000, 0.018675, -6.75221E-007, 2.65123E-008, 4.95062E-007
2, 720.00000, 0.0186748, -4.9497E-007, 2.67738E-008, 4.94698E-007
2, 780.00000, 0.0186748, -4.94696E-007, 2.67765E-008, 4.94698E-007
2, 840.00000, 0.0186748, -4.94698E-007, 2.67765E-008, 4.94698E-007
2, 900.00000, 0.0186748, -4.94698E-007, 2.67765E-008, 4.94698E-007
2, 960.00000, 0.0186745, -2.77659E-007, 2.73531E-007, 2.68468E-007
2, 1020.00000, 0.0186745, -2.68572E-007, 2.73482E-007, 2.68463E-007
2, 1080.00000, 0.0186745, -2.68463E-007, 2.73482E-007, 2.68463E-007
2, 1140.00000, 0.0186745, -2.68463E-007, 2.73482E-007, 2.68463E-007
2, 1200.00000, 0.0186745, -2.68463E-007, 2.73482E-007, 2.68463E-007
2, 1260.00000, 0.0186747, 4.56289E-007, 4.3206E-007, -3.33375E-007
2, 1320.00000, 0.0186744, 3.32873E-007, 4.32676E-007, -3.33395E-007
2, 1380.00000, 0.0186744, 3.33392E-007, 4.32675E-007, -3.33396E-007
2, 1440.00000, 0.0186744, 3.33396E-007, 4.32675E-007, -3.33396E-007
2, 1500.00000, 0.0186744, 3.33396E-007, 4.32675E-007, -3.33396E-007
2, 1560.00000, 0.0186749, -3.10777E-007, -1.21405E-007, 3.64403E-007
2, 1620.00000, 0.0186749, -3.64546E-007, -1.21502E-007, 3.64542E-007
2, 1680.00000, 0.0186749, -3.64541E-007, -1.21502E-007, 3.64541E-007
2, 1740.00000, 0.0186749, -3.64541E-007, -1.21502E-007, 3.64541E-007
2, 1800.00000, 0.0186749, -3.64541E-007, -1.21502E-007, 3.64541E-007
2, 1860.00000, 0.0186751, -4.42446E-007, -6.3158E-008, 1.70274E-007
2, 1920.00000, 0.0186749, -1.68691E-007, -6.22741E-008, 1.69102E-007
2, 1980.00000, 0.0186749, -1.69104E-007, -6.22731E-008, 1.69103E-007
2, 2040.00000, 0.0186749, -1.69103E-007, -6.22732E-008, 1.69103E-007
2, 2100.00000, 0.0186749, -1.69103E-007, -6.22732E-008, 1.69103E-007
2, 2160.00000, 0.0186744, 9.0679E-007, 1.47097E-007, 1.17376E-007
2, 2220.00000, 0.0186747, -1.19668E-007, 1.46514E-007, 1.2066E-007
2, 2280.00000, 0.0186747, -1.20667E-007, 1.46507E-007, 1.20662E-007
2, 2340.00000, 0.0186747, -1.20662E-007, 1.46507E-007, 1.20662E-007
2, 2400.00000, 0.0186747, -1.20662E-007, 1.46507E-007, 1.20662E-007
2, 2460.00000, 0.0186746, -2.33498E-007, 2.64918E-007, 2.62894E-007
2, 2520.00000, 0.0186745, -2.62934E-007, 2.64938E-007, 2.62953E-007
2, 2580.00000, 0.0186745, -2.62953E-007, 2.64938E-007, 2.62953E-007
2, 2640.00000, 0.0186745, -2.62953E-007, 2.64938E-007, 2.62953E-007
2, 2700.00000, 0.0186745, -2.62953E-007, 2.64938E-007, 2.62953E-007
2, 2760.00000, 0.0186751, -2.3925E-007, -2.49593E-007, 2.27117E-007
2, 2820.00000, 0.0186751, -2.27023E-007, -2.49501E-007, 2.27066E-007
2, 2880.00000, 0.0186751, -2.27067E-007, -2.49501E-007, 2.27067E-007
2, 2940.00000, 0.0186751, -2.27067E-007, -2.49501E-007, 2.27067E-007
2, 3000.00000, 0.0186751, -2.27067E-007, -2.49501E-007, 2.27067E-007
2, 3060.00000, 0.0186748, 1.50582E-008, -9.87411E-009, -3.54975E-008
2, 3120.00000, 0.0186748, 3.53731E-008, -1.00463E-008, -3.55139E-008
2, 3180.00000, 0.0186748, 3.55136E-008, -1.00462E-008, -3.55139E-008
2, 3240.00000, 0.0186748, 3.55139E-008, -1.00462E-008, -3.55139E-008
2, 3300.00000, 0.0186748, 3.55139E-008, -1.00462E-008, -3.55139E-008
2, 3360.00000, 0.0186746, 6.64766E-008, 1.8195E-007, -7.64907E-008
2, 3420.00000, 0.0186746, 7.65915E-008, 1.82001E-007, -7.65297E-008
2, 3480.00000, 0.0186746, 7.65306E-008, 1.82001E-007, -7.65299E-008
2, 3540.00000, 0.0186746, 7.65299E-008, 1.82001E-007, -7.65299E-008
3, 0.00000, 0.0186746, 7.65299E-008, 1.82001E-007, -7.65299E-008
3, 60.00000, 0.0231287, -2.39568E-007, -8.33309E-008, 2.06254E-007
3, 120.00000, 0.0231287, -2.06273E-007, -8.33822E-008, 2.06185E-007
3, 180.00000, 0.0231287, -2.06186E-007, -8.33822E-008, 2.06185E-007
3, 240.00000, 0.0231287, -2.06185E-007, -8.33823E-008, 2.06185E-007
3, 300.00000, 0.0231287, -2.06185E-007, -8.33823E-008, 2.06185E-007
3, 360.00000, 0.0231293, -7.28871E-008, -7.4395E-007, 1.37175E-007
3, 420.00000, 0.0231293, -1.37183E-007, -7.43874E-007, 1.37333E-007
3, 480.00000, 0.0231293, -1.37332E-007, -7.43874E-007, 1.37333E-007
3, 540.00000, 0.0231293, -1.37333E-007, -7.43874E-007, 1.37333E-007
3, 600.00000, 0.0231293, -1.37333E-007, -7.43874E-007, 1.37333E-007
3, 660.00000, 0.0231292, -9.40691E-007, 4.60196E-007, 7.49098E-007
3, 720.00000, 0.0231281, -7.47204E-007, 4.63792E-007, 7.48906E-007
3, 780.00000, 0.0231281, -7.48906E-007, 4.63798E-007, 7.48912E-007
3, 840.00000, 0.0231281, -7.48912E-007, 4.63798E-007, 7.48912E-007
3, 900.00000, 0.0231281, -7.48912E-007, 4.63798E-007, 7.48912E-007
3, 960.00000, 0.0231279, -4.14732E-008, 6.56705E-007, 1.97633E-008
3, 1020.00000, 0.0231279, -1.96385E-008, 6.56804E-007, 1.97069E-008
3, 1080.00000, 0.0231279, -1.97077E-008, 6.56804E-007, 1.97072E-008
3, 1140.00000, 0.0231279, -1.97072E-008, 6.56804E-007, 1.97072E-008
3, 1200.00000, 0.0231279, -1.97072E-008, 6.56804E-007, 1.97072E-008
3, 1260.00000, 0.0231287, -2.59142E-007, -8.97251E-008, 2.26527E-007
3, 1320.00000, 0.0231287, -2.26327E-007, -8.97098E-008, 2.26402E-007
3, 1380.00000, 0.0231287, -2.26401E-007, -8.97094E-008, 2.26402E-007
3, 1440.00000, 0.0231287, -2.26402E-007, -8.97094E-008, 2.26402E-007
3, 1500.00000, 0.0231287, -2.26402E-007, -8.97094E-008, 2.26402E-007
3, 1560.00000, 0.0231295, -3.19512E-007, 4.04586E-007, 8.71715E-008
3, 1620.00000, 0.0231282, -8.6003E-008, 4.08533E-007, 8.8278E-008
3, 1680.00000, 0.0231282, -8.82786E-008, 4.08541E-007, 8.82882E-008
3, 1740.00000, 0.0231282, -8.82883E-008, 4.08541E-007, 8.82883E-008
3, 1800.00000, 0.0231282, -8.82883E-008, 4.08541E-007, 8.82883E-008
3, 1860.00000, 0.0231289, 3.46657E-007, -3.55964E-007, -3.8474E-007
3, 1920.00000, 0.0231289, 3.84831E-007, -3.55926E-007, -3.84829E-007
3, 1980.00000, 0.0231289, 3.84828E-007, -3.55926E-007, -3.84829E-007
3, 2040.00000, 0.0231289, 3.84829E-007, -3.55926E-007, -3.84829E-007
3, 2100.00000, 0.0231289, 3.84829E-007, -3.55926E-007, -3.84829E-007
3, 2160.00000, 0.0231285, 2.9559E-007, 6.27065E-008, -2.65706E-007
3, 2220.00000, 0.0231285, 2.65629E-007, 6.26868E-008, -2.65615E-007
3, 2280.00000, 0.0231285, 2.65615E-007, 6.26867E-008, -2.65615E-007
3, 2340.00000, 0.0231285, 2.65615E-007, 6.26867E-008, -2.65615E-007
3, 2400.00000, 0.0231285, 2.65615E-007, 6.26867E-008, -2.65615E-007
3, 2460.00000, 0.0231285, 2.97079E-007, 5.39792E-008, -2.82794E-007
3, 2520.00000, 0.0231285, 2.8275E-007, 5.40539E-008, -2.82773E-007
3, 2580.00000, 0.0231285, 2.82773E-007, 5.40536E-008, -2.82774E-007
3, 2640.00000, 0.0231285, 2.82774E-007, 5.40536E-008, -2.82774E-007
3, 2700.00000, 0.0231285, 2.82774E-007, 5.40536E-008, -2.82774E-007
3, 2760.00000, 0.0231284, -1.3231E-007, 1.59218E-007, 1.50891E-007
3, 2820.00000, 0.0231284, -1.50934E-007, 1.59119E-007, 1.50935E-007
3, 2880.00000, 0.0231284, -1.50933E-007, 1.5912E-007, 1.50935E-007
3, 2940.00000, 0.0231284, -1.50935E-007, 1.5912E-007, 1.50935E-007
3, 3000.00000, 0.0231284, -1.50935E-007, 1.5912E-007, 1.50935E-007
3, 3060.00000, 0.0231284, 1.3927E-007, 2.34876E-007, -1.13585E-007
3, 3120.00000, 0.0231283, 1.13616E-007, 2.34978E-007, -1.13504E-007
3, 3180.00000, 0.0231283, 1.13504E-007, 2.34978E-007, -1.13504E-007
3, 3240.00000, 0.0231283, 1.13504E-007, 2.34978E-007, -1.13504E-007
3, 3300.00000, 0.0231283, 1.13504E-007, 2.34978E-007, -1.13504E-007
3, 3360.00000, 0.0231285, -3.17072E-008, -8.16399E-009, -1.91437E-008
3, 3420.00000, 0.0231286, 1.93435E-008, -8.23177E-009, -1.93503E-008
3, 3480.00000, 0.0231286, 1.93514E-008, -8.23153E-009, -1.93506E-008
3, 3540.00000, 0.0231286, 1.93506E-008, -8.23152E-009, -1.93506E-008
4, 0.00000, 0.0231286, 1.93506E-008, -8.23152E-009, -1.93506E-008
4, 60.00000, 0.0139787, 3.11484E-008, -1.50191E-007, 2.63399E-008
4, 120.00000, 0.0139786, -2.63843E-008, -1.50341E-007, 2.65723E-008
4, 180.00000, 0.0139786, -2.65782E-008, -1.50345E-007, 2.65733E-008
4, 240.00000, 0.0139786, -2.65734E-008, -1.50345E-007, 2.65733E-008
4, 300.00000, 0.0139786, -2.65733E-008, -1.50345E-007, 2.65733E-008
4, 360.00000, 0.0139787, -1.89601E-007, -8.41101E-008, 2.70213E-007
4, 420.00000, 0.0139786, -2.69213E-007, -8.3783E-008, 2.70531E-007
4, 480.00000, 0.0139786, -2.70524E-007, -8.37823E-008, 2.70536E-007
4, 540.00000, 0.0139786, -2.70536E-007, -8.37824E-008, 2.70536E-007
4, 600.00000, 0.0139786, -2.70536E-007, -8.37824E-008, 2.70536E-007
4, 660.00000, 0.0139783, -9.40193E-008, 6.62622E-008, 2.42899E-007
4, 720.00000, 0.0139784, -2.43072E-007, 6.58706E-008, 2.43531E-007
4, 780.00000, 0.0139784, -2.43547E-007, 6.58619E-008, 2.43533E-007
4, 840.00000, 0.0139784, -2.43533E-007, 6.58618E-008, 2.43533E-007
4, 900.00000, 0.0139784, -2.43533E-007, 6.58618E-008, 2.43533E-007
4, 960.00000, 0.0139783, 3.87004E-009, 2.94374E-007, -9.78254E-008
4, 1020.00000, 0.0139782, 9.81524E-008, 2.94725E-007, -9.82571E-008
4, 1080.00000, 0.0139782, 9.82713E-008, 2.94731E-007, -9.82582E-008
4, 1140.00000, 0.0139782, 9.82584E-008, 2.94731E-007, -9.82581E-008
4, 1200.00000, 0.0139782, 9.82581E-008, 2.94731E-007, -9.82581E-008
4, 1260.00000, 0.0139782, 2.2495E-007, 1.79318E-007, -1.94557E-007
4, 1320.00000, 0.0139783, 1.93985E-007, 1.78992E-007, -1.94387E-007
4, 1380.00000, 0.0139783, 1.94376E-007, 1.78988E-007, -1.94388E-007
4, 1440.00000, 0.0139783, 1.94388E-007, 1.78988E-007, -1.94388E-007
4, 1500.00000, 0.0139783, 1.94388E-007, 1.78988E-007, -1.94388E-007
4, 1560.00000, 0.0139784, 4.3403E-008, 1.46739E-007, -6.29002E-008
4, 1620.00000, 0.0139783, 6.32846E-008, 1.46935E-007, -6.30048E-008
4, 1680.00000, 0.0139783, 6.30125E-008, 1.46938E-007, -6.3004E-008
4, 1740.00000, 0.0139783, 6.30041E-008, 1.46938E-007, -6.3004E-008
4, 1800.00000, 0.0139783, 6.3004E-008, 1.46938E-007, -6.3004E-008
4, 1860.00000, 0.0139778, 1.01583E-007, 4.37906E-007, -1.35383E-007
4, 1920.00000, 0.013978, 1.33975E-007, 4.37325E-007, -1.35479E-007
4, 1980.00000, 0.0139781, 1.46163E-007, 4.37294E-007, -1.35355E-007
4, 2040.00000, 0.013978, 1.24685E-007, 4.37313E-007, -1.35468E-007
4, 2100.00000, 0.0139781, 1.44373E-007, 4.37298E-007, -1.35376E-007
4, 2160.00000, 0.0139789, 5.0903E-008, -1.59264E-007, 2.05375E-008
4, 2220.00000, 0.0139787, -2.128E-009, -1.58645E-007, 2.09363E-008
4, 2280.00000, 0.0139787, -1.52455E-008, -1.58636E-007, 2.10259E-008
4, 2340.00000, 0.0139787, -1.72446E-008, -1.58629E-007, 2.10728E-008
4, 2400.00000, 0.0139787, 2.01868E-008, -1.58511E-007, 2.14921E-008
4, 2460.00000, 0.0139784, -4.11712E-007, 6.02662E-008, 2.4115E-007
4, 2520.00000, 0.0139786, -1.82019E-007, 6.02582E-008, 2.40939E-007
4, 2580.00000, 0.0139784, -2.40723E-007, 6.02337E-008, 2.41032E-007
4, 2640.00000, 0.0139784, -2.41013E-007, 6.02329E-008, 2.41033E-007
4, 2700.00000, 0.0139784, -2.41026E-007, 6.02329E-008, 2.41033E-007
4, 2760.00000, 0.0139787, 1.15332E-007, -1.51119E-007, 2.88852E-008
4, 2820.00000, 0.0139787, 3.33787E-009, -1.51011E-007, 2.9781E-008
4, 2880.00000, 0.0139787, -2.18347E-008, -1.51014E-007, 2.99134E-008
4, 2940.00000, 0.0139787, -1.01602E-008, -1.50968E-007, 3.01135E-008
4, 3000.00000, 0.0139787, -1.04293E-008, -1.50929E-007, 3.03318E-008
4, 3060.00000, 0.0139781, 1.06559E-007, 1.88137E-007, -1.9759E-007
4, 3120.00000, 0.0139785, 2.66552E-007, 1.87604E-007, -1.97073E-007
4, 3180.00000, 0.0139783, 1.82318E-007, 1.87563E-007, -1.97146E-007
4, 3240.00000, 0.0139784, 2.45295E-007, 1.87572E-007, -1.96584E-007
