hour, t(sec), P1 (kW), Q1 (kvar), P2 (kW), Q2 (kvar)
0, 60.00000, -0.152391, 2.23854E-006, 5.59549E-007, -2.04166E-006
0, 120.00000, -0.152391, 2.0418E-006, 5.59632E-007, -2.04178E-006
0, 180.00000, -0.152391, 2.04178E-006, 5.59632E-007, -2.04178E-006
0, 240.00000, -0.152391, 2.04178E-006, 5.59632E-007, -2.04178E-006
0, 300.00000, -0.152391, 2.04178E-006, 5.59632E-007, -2.04178E-006
0, 360.00000, -0.15239, 3.45349E-007, -3.5592E-008, -3.34367E-007
0, 420.00000, -0.15239, 3.34322E-007, -3.56636E-008, -3.34429E-007
0, 480.00000, -0.15239, 3.34428E-007, -3.56629E-008, -3.3443E-007
0, 540.00000, -0.15239, 3.3443E-007, -3.56629E-008, -3.3443E-007
0, 600.00000, -0.15239, 3.3443E-007, -3.56629E-008, -3.3443E-007
0, 660.00000, -0.15239, -2.29147E-006, 2.49803E-007, 2.29607E-006
0, 720.00000, -0.15239, -2.2961E-006, 2.49873E-007, 2.29612E-006
0, 780.00000, -0.15239, -2.29612E-006, 2.49873E-007, 2.29612E-006
0, 840.00000, -0.15239, -2.29612E-006, 2.49873E-007, 2.29612E-006
0, 900.00000, -0.15239, -2.29612E-006, 2.49873E-007, 2.29612E-006
0, 960.00000, -0.152389, -1.63756E-006, -1.54991E-006, 2.78984E-006
0, 1020.00000, -0.152389, -2.78896E-006, -1.54875E-006, 2.78882E-006
0, 1080.00000, -0.152389, -2.78883E-006, -1.54874E-006, 2.78883E-006
0, 1140.00000, -0.152389, -2.78883E-006, -1.54874E-006, 2.78883E-006
0, 1200.00000, -0.152389, -2.78883E-006, -1.54874E-006, 2.78883E-006
0, 1260.00000, -0.152389, -9.79961E-007, -1.1657E-006, 1.01539E-006
0, 1320.00000, -0.152389, -1.01509E-006, -1.16591E-006, 1.01528E-006
0, 1380.00000, -0.152389, -1.01528E-006, -1.16591E-006, 1.01528E-006
0, 1440.00000, -0.152389, -1.01528E-006, -1.16591E-006, 1.01528E-006
0, 1500.00000, -0.152389, -1.01528E-006, -1.16591E-006, 1.01528E-006
0, 1560.00000, -0.15239, -7.39533E-007, -1.26561E-007, 7.56845E-007
0, 1620.00000, -0.15239, -7.56529E-007, -1.26504E-007, 7.56794E-007
0, 1680.00000, -0.15239, -7.56792E-007, -1.26505E-007, 7.56794E-007
0, 1740.00000, -0.15239, -7.56794E-007, -1.26505E-007, 7.56794E-007
0, 1800.00000, -0.15239, -7.56794E-007, -1.26505E-007, 7.56794E-007
0, 1860.00000, -0.152391, -1.53997E-006, 5.50013E-007, 1.53481E-006
0, 1920.00000, -0.152391, -1.53506E-006, 5.50088E-007, 1.53482E-006
0, 1980.00000, -0.152391, -1.53482E-006, 5.50089E-007, 1.53482E-006
0, 2040.00000, -0.152391, -1.53482E-006, 5.50089E-007, 1.53482E-006
0, 2100.00000, -0.152391, -1.53482E-006, 5.50089E-007, 1.53482E-006
0, 2160.00000, -0.15239, -2.3464E-006, 2.21936E-007, 2.33289E-006
0, 2220.00000, -0.15239, -2.33308E-006, 2.21778E-007, 2.33299E-006
0, 2280.00000, -0.15239, -2.33299E-006, 2.21778E-007, 2.33299E-006
0, 2340.00000, -0.15239, -2.33299E-006, 2.21778E-007, 2.33299E-006
0, 2400.00000, -0.15239, -2.33299E-006, 2.21778E-007, 2.33299E-006
0, 2460.00000, -0.152391, 3.80734E-007, 1.04297E-006, -4.39217E-007
0, 2520.00000, -0.152391, 4.38808E-007, 1.04328E-006, -4.39116E-007
0, 2580.00000, -0.152391, 4.39113E-007, 1.04328E-006, -4.39115E-007
0, 2640.00000, -0.152391, 4.39115E-007, 1.04328E-006, -4.39115E-007
0, 2700.00000, -0.152391, 4.39115E-007, 1.04328E-006, -4.39115E-007
0, 2760.00000, -0.152392, 7.30107E-007, 2.05183E-006, -7.50567E-007
0, 2820.00000, -0.152392, 7.50375E-007, 2.05193E-006, -7.50629E-007
0, 2880.00000, -0.152392, 7.50627E-007, 2.05193E-006, -7.50629E-007
0, 2940.00000, -0.152392, 7.50629E-007, 2.05193E-006, -7.50629E-007
0, 3000.00000, -0.152392, 7.50629E-007, 2.05193E-006, -7.50629E-007
0, 3060.00000, -0.15239, 1.2152E-006, 4.62601E-007, -1.16173E-006
0, 3120.00000, -0.152391, 1.16226E-006, 4.62373E-007, -1.16162E-006
0, 3180.00000, -0.152391, 1.16162E-006, 4.62371E-007, -1.16162E-006
0, 3240.00000, -0.152391, 1.16162E-006, 4.62371E-007, -1.16162E-006
0, 3300.00000, -0.152391, 1.16162E-006, 4.62371E-007, -1.16162E-006
0, 3360.00000, -0.152392, -1.7137E-006, 2.12293E-006, 1.78869E-006
0, 3420.00000, -0.152392, -1.78813E-006, 2.12276E-006, 1.78859E-006
0, 3480.00000, -0.152392, -1.78858E-006, 2.12275E-006, 1.78858E-006
0, 3540.00000, -0.152392, -1.78858E-006, 2.12275E-006, 1.78858E-006
1, 0.00000, -0.152392, -1.78858E-006, 2.12275E-006, 1.78858E-006
1, 60.00000, -0.147135, -2.40545E-007, -7.92339E-007, 2.75916E-008
1, 120.00000, -0.147135, -2.83181E-008, -7.92166E-007, 2.76137E-008
1, 180.00000, -0.147135, -2.76153E-008, -7.92166E-007, 2.76142E-008
1, 240.00000, -0.147135, -2.76142E-008, -7.92166E-007, 2.76142E-008
1, 300.00000, -0.147135, -2.76142E-008, -7.92166E-007, 2.76142E-008
1, 360.00000, -0.147138, -8.13909E-007, 2.17305E-006, 8.84041E-007
1, 420.00000, -0.147138, -8.83885E-007, 2.17299E-006, 8.83769E-007
1, 480.00000, -0.147138, -8.83775E-007, 2.17299E-006, 8.83767E-007
1, 540.00000, -0.147138, -8.83767E-007, 2.17299E-006, 8.83767E-007
1, 600.00000, -0.147138, -8.83767E-007, 2.17299E-006, 8.83767E-007
1, 660.00000, -0.147135, 8.27791E-007, -5.2415E-007, -9.02985E-007
1, 720.00000, -0.147135, 9.02728E-007, -5.24011E-007, -9.02761E-007
1, 780.00000, -0.147135, 9.02763E-007, -5.24012E-007, -9.0276E-007
1, 840.00000, -0.147135, 9.0276E-007, -5.24012E-007, -9.0276E-007
1, 900.00000, -0.147135, 9.0276E-007, -5.24012E-007, -9.0276E-007
1, 960.00000, -0.147133, 4.77113E-007, -2.41905E-006, -4.23835E-007
1, 1020.00000, -0.147133, 4.23538E-007, -2.41898E-006, -4.24082E-007
1, 1080.00000, -0.147133, 4.24071E-007, -2.41898E-006, -4.24083E-007
1, 1140.00000, -0.147133, 4.24082E-007, -2.41898E-006, -4.24083E-007
1, 1200.00000, -0.147133, 4.24083E-007, -2.41898E-006, -4.24083E-007
1, 1260.00000, -0.147136, 1.02191E-006, 2.50085E-007, -1.07923E-006
1, 1320.00000, -0.147136, 1.07923E-006, 2.50022E-007, -1.07899E-006
1, 1380.00000, -0.147136, 1.079E-006, 2.5002E-007, -1.07899E-006
1, 1440.00000, -0.147136, 1.07899E-006, 2.50019E-007, -1.07899E-006
1, 1500.00000, -0.147136, 1.07899E-006, 2.50019E-007, -1.07899E-006
1, 1560.00000, -0.147137, -1.1189E-006, 1.25609E-006, 1.07203E-006
1, 1620.00000, -0.147137, -1.07261E-006, 1.25621E-006, 1.07206E-006
1, 1680.00000, -0.147137, -1.07206E-006, 1.25621E-006, 1.07206E-006
1, 1740.00000, -0.147137, -1.07206E-006, 1.25621E-006, 1.07206E-006
1, 1800.00000, -0.147137, -1.07206E-006, 1.25621E-006, 1.07206E-006
1, 1860.00000, -0.147135, -9.18751E-009, -8.14645E-007, 1.04786E-008
1, 1920.00000, -0.147135, -1.04783E-008, -8.14532E-007, 1.04066E-008
1, 1980.00000, -0.147135, -1.04104E-008, -8.14531E-007, 1.04055E-008
1, 2040.00000, -0.147135, -1.04055E-008, -8.14531E-007, 1.04055E-008
1, 2100.00000, -0.147135, -1.04055E-008, -8.14531E-007, 1.04055E-008
1, 2160.00000, -0.147137, -7.93369E-008, 1.66223E-006, 1.25307E-007
1, 2220.00000, -0.147137, -1.25079E-007, 1.66214E-006, 1.25278E-007
1, 2280.00000, -0.147137, -1.25274E-007, 1.66213E-006, 1.25279E-007
1, 2340.00000, -0.147137, -1.25279E-007, 1.66213E-006, 1.25279E-007
1, 2400.00000, -0.147137, -1.25279E-007, 1.66213E-006, 1.25279E-007
1, 2460.00000, -0.147137, -6.32892E-008, 6.81639E-007, 4.96887E-007
1, 2520.00000, -0.147136, -4.96639E-007, 6.81017E-007, 4.95793E-007
1, 2580.00000, -0.147136, -4.95791E-007, 6.81016E-007, 4.958E-007
1, 2640.00000, -0.147136, -4.958E-007, 6.81016E-007, 4.958E-007
1, 2700.00000, -0.147136, -4.958E-007, 6.81016E-007, 4.958E-007
1, 2760.00000, -0.147137, 2.24074E-006, 1.30686E-006, -2.19007E-006
1, 2820.00000, -0.147137, 2.1904E-006, 1.30673E-006, -2.19012E-006
1, 2880.00000, -0.147137, 2.19012E-006, 1.30673E-006, -2.19012E-006
1, 2940.00000, -0.147137, 2.19012E-006, 1.30673E-006, -2.19012E-006
1, 3000.00000, -0.147137, 2.19012E-006, 1.30673E-006, -2.19012E-006
1, 3060.00000, -0.147134, -9.13393E-007, -1.22413E-006, 8.7088E-007
1, 3120.00000, -0.147134, -8.71146E-007, -1.22404E-006, 8.70876E-007
1, 3180.00000, -0.147134, -8.7088E-007, -1.22404E-006, 8.70875E-007
1, 3240.00000, -0.147134, -8.70875E-007, -1.22404E-006, 8.70875E-007
1, 3300.00000, -0.147134, -8.70875E-007, -1.22404E-006, 8.70875E-007
1, 3360.00000, -0.147136, 5.17608E-007, 1.0294E-006, -4.52965E-007
1, 3420.00000, -0.147136, 4.54036E-007, 1.02923E-006, -4.52885E-007
1, 3480.00000, -0.147136, 4.52901E-007, 1.02923E-006, -4.52886E-007
1, 3540.00000, -0.147136, 4.52886E-007, 1.02923E-006, -4.52886E-007
2, 0.00000, -0.147136, 4.52886E-007, 1.02923E-006, -4.52886E-007
2, 60.00000, -0.143048, 6.74369E-007, -5.84977E-007, -7.62249E-007
2, 120.00000, -0.143048, 7.61733E-007, -5.84881E-007, -7.6223E-007
2, 180.00000, -0.143048, 7.62225E-007, -5.84881E-007, -7.62229E-007
2, 240.00000, -0.143048, 7.62229E-007, -5.84881E-007, -7.62229E-007
2, 300.00000, -0.143048, 7.62229E-007, -5.84881E-007, -7.62229E-007
2, 360.00000, -0.143049, 2.80573E-007, 7.86101E-007, -2.86475E-007
2, 420.00000, -0.143049, 2.86194E-007, 7.85992E-007, -2.86512E-007
2, 480.00000, -0.143049, 2.86507E-007, 7.85993E-007, -2.86511E-007
2, 540.00000, -0.143049, 2.86511E-007, 7.85993E-007, -2.86511E-007
2, 600.00000, -0.143049, 2.86511E-007, 7.85993E-007, -2.86511E-007
2, 660.00000, -0.143047, -3.42334E-006, -2.55E-007, 7.43393E-007
2, 720.00000, -0.143048, -7.49696E-007, -2.62126E-007, 7.47813E-007
2, 780.00000, -0.143048, -7.47823E-007, -2.6213E-007, 7.4782E-007
2, 840.00000, -0.143048, -7.4782E-007, -2.6213E-007, 7.4782E-007
2, 900.00000, -0.143048, -7.4782E-007, -2.6213E-007, 7.4782E-007
2, 960.00000, -0.143051, 1.46436E-006, 2.10174E-006, -1.38855E-006
2, 1020.00000, -0.143051, 1.38934E-006, 2.10153E-006, -1.38864E-006
2, 1080.00000, -0.143051, 1.38864E-006, 2.10153E-006, -1.38864E-006
2, 1140.00000, -0.143051, 1.38864E-006, 2.10153E-006, -1.38864E-006
2, 1200.00000, -0.143051, 1.38864E-006, 2.10153E-006, -1.38864E-006
2, 1260.00000, -0.143049, -6.67887E-007, 4.14111E-007, 1.45588E-006
2, 1320.00000, -0.143049, -1.45332E-006, 4.1299E-007, 1.45354E-006
2, 1380.00000, -0.143049, -1.45353E-006, 4.12988E-007, 1.45354E-006
2, 1440.00000, -0.143049, -1.45354E-006, 4.12987E-007, 1.45354E-006
2, 1500.00000, -0.143049, -1.45354E-006, 4.12987E-007, 1.45354E-006
2, 1560.00000, -0.143048, -8.04288E-007, -2.39924E-007, 7.55993E-007
2, 1620.00000, -0.143048, -7.5651E-007, -2.3975E-007, 7.56001E-007
2, 1680.00000, -0.143048, -7.56007E-007, -2.39749E-007, 7.56002E-007
2, 1740.00000, -0.143048, -7.56002E-007, -2.39749E-007, 7.56002E-007
2, 1800.00000, -0.143048, -7.56002E-007, -2.39749E-007, 7.56002E-007
2, 1860.00000, -0.143052, 6.74453E-007, 1.56287E-006, 1.78172E-007
2, 1920.00000, -0.14305, -1.79578E-007, 1.57055E-006, 1.79962E-007
2, 1980.00000, -0.14305, -1.79951E-007, 1.57055E-006, 1.79966E-007
2, 2040.00000, -0.14305, -1.79966E-007, 1.57055E-006, 1.79966E-007
2, 2100.00000, -0.14305, -1.79966E-007, 1.57055E-006, 1.79966E-007
2, 2160.00000, -0.143048, 1.80765E-007, 3.31251E-007, -1.06673E-006
2, 2220.00000, -0.143049, 1.06568E-006, 3.27413E-007, -1.06669E-006
2, 2280.00000, -0.143049, 1.06668E-006, 3.27413E-007, -1.06669E-006
2, 2340.00000, -0.143049, 1.06669E-006, 3.27413E-007, -1.06669E-006
2, 2400.00000, -0.143049, 1.06669E-006, 3.27413E-007, -1.06669E-006
2, 2460.00000, -0.143049, 2.59187E-006, -1.31277E-007, -2.61413E-006
2, 2520.00000, -0.143049, 2.61389E-006, -1.31245E-007, -2.61416E-006
2, 2580.00000, -0.143049, 2.61415E-006, -1.31244E-007, -2.61416E-006
2, 2640.00000, -0.143049, 2.61416E-006, -1.31244E-007, -2.61416E-006
2, 2700.00000, -0.143049, 2.61416E-006, -1.31244E-007, -2.61416E-006
2, 2760.00000, -0.143048, 7.61747E-007, -6.64246E-007, -7.43609E-007
2, 2820.00000, -0.143048, 7.43908E-007, -6.64258E-007, -7.43599E-007
2, 2880.00000, -0.143048, 7.43604E-007, -6.64259E-007, -7.436E-007
2, 2940.00000, -0.143048, 7.436E-007, -6.64259E-007, -7.436E-007
2, 3000.00000, -0.143048, 7.436E-007, -6.64259E-007, -7.436E-007
2, 3060.00000, -0.14305, 2.10815E-006, 1.28067E-006, -2.14578E-006
2, 3120.00000, -0.14305, 2.1456E-006, 1.28062E-006, -2.14559E-006
2, 3180.00000, -0.14305, 2.14559E-006, 1.28061E-006, -2.14558E-006
2, 3240.00000, -0.14305, 2.14558E-006, 1.28061E-006, -2.14558E-006
2, 3300.00000, -0.14305, 2.14558E-006, 1.28061E-006, -2.14558E-006
2, 3360.00000, -0.143047, -1.00464E-006, -1.95035E-006, 1.08197E-006
2, 3420.00000, -0.143047, -1.08163E-006, -1.95033E-006, 1.0817E-006
2, 3480.00000, -0.143047, -1.08171E-006, -1.95033E-006, 1.0817E-006
2, 3540.00000, -0.143047, -1.0817E-006, -1.95033E-006, 1.0817E-006
3, 0.00000, -0.143047, -1.0817E-006, -1.95033E-006, 1.0817E-006
3, 60.00000, -0.132673, -4.46193E-008, -7.30216E-007, 2.49879E-008
3, 120.00000, -0.132673, -2.48696E-008, -7.30262E-007, 2.51132E-008
3, 180.00000, -0.132673, -2.51071E-008, -7.30264E-007, 2.51142E-008
3, 240.00000, -0.132673, -2.51141E-008, -7.30264E-007, 2.51142E-008
3, 300.00000, -0.132673, -2.51142E-008, -7.30264E-007, 2.51142E-008
3, 360.00000, -0.132672, 1.40721E-006, -1.1936E-006, -1.41468E-006
3, 420.00000, -0.132672, 1.41434E-006, -1.19358E-006, -1.41477E-006
3, 480.00000, -0.132672, 1.41476E-006, -1.19358E-006, -1.41477E-006
3, 540.00000, -0.132672, 1.41477E-006, -1.19358E-006, -1.41477E-006
3, 600.00000, -0.132672, 1.41477E-006, -1.19358E-006, -1.41477E-006
3, 660.00000, -0.132675, -1.60739E-007, 7.54446E-007, -4.13903E-007
3, 720.00000, -0.132674, 4.10829E-007, 7.55445E-007, -4.12529E-007
3, 780.00000, -0.132674, 4.12522E-007, 7.55444E-007, -4.12522E-007
3, 840.00000, -0.132674, 4.12522E-007, 7.55444E-007, -4.12522E-007
3, 900.00000, -0.132674, 4.12522E-007, 7.55444E-007, -4.12522E-007
3, 960.00000, -0.132673, -2.33542E-006, -6.69855E-007, 2.31106E-006
3, 1020.00000, -0.132673, -2.31088E-006, -6.69954E-007, 2.31121E-006
3, 1080.00000, -0.132673, -2.3112E-006, -6.69955E-007, 2.31121E-006
3, 1140.00000, -0.132673, -2.31121E-006, -6.69955E-007, 2.31121E-006
3, 1200.00000, -0.132673, -2.31121E-006, -6.69955E-007, 2.31121E-006
3, 1260.00000, -0.132674, -1.15266E-006, 4.38268E-007, 1.23311E-006
3, 1320.00000, -0.132674, -1.23311E-006, 4.38428E-007, 1.23282E-006
3, 1380.00000, -0.132674, -1.23283E-006, 4.3843E-007, 1.23282E-006
3, 1440.00000, -0.132674, -1.23282E-006, 4.3843E-007, 1.23282E-006
3, 1500.00000, -0.132674, -1.23282E-006, 4.3843E-007, 1.23282E-006
3, 1560.00000, -0.132673, 2.11305E-006, -7.52449E-007, 9.58414E-008
3, 1620.00000, -0.132673, -9.04717E-008, -7.51935E-007, 9.10831E-008
3, 1680.00000, -0.132673, -9.10812E-008, -7.51933E-007, 9.10875E-008
3, 1740.00000, -0.132673, -9.10873E-008, -7.51933E-007, 9.10876E-008
3, 1800.00000, -0.132673, -9.10875E-008, -7.51933E-007, 9.10876E-008
3, 1860.00000, -0.132673, 1.54636E-006, -3.9004E-007, -1.52233E-006
3, 1920.00000, -0.132673, 1.52264E-006, -3.90126E-007, -1.52232E-006
3, 1980.00000, -0.132673, 1.52233E-006, -3.90127E-007, -1.52232E-006
3, 2040.00000, -0.132673, 1.52232E-006, -3.90127E-007, -1.52232E-006
3, 2100.00000, -0.132673, 1.52232E-006, -3.90127E-007, -1.52232E-006
3, 2160.00000, -0.132674, -2.07687E-006, 2.30777E-007, 2.03822E-006
3, 2220.00000, -0.132674, -2.03857E-006, 2.30889E-007, 2.03832E-006
3, 2280.00000, -0.132674, -2.03832E-006, 2.30889E-007, 2.03832E-006
3, 2340.00000, -0.132674, -2.03832E-006, 2.30889E-007, 2.03832E-006
3, 2400.00000, -0.132674, -2.03832E-006, 2.30889E-007, 2.03832E-006
3, 2460.00000, -0.132674, 2.71242E-007, 8.46763E-007, -2.24359E-007
3, 2520.00000, -0.132674, 2.24924E-007, 8.46638E-007, -2.24463E-007
3, 2580.00000, -0.132674, 2.24464E-007, 8.46638E-007, -2.24465E-007
3, 2640.00000, -0.132674, 2.24465E-007, 8.46638E-007, -2.24465E-007
3, 2700.00000, -0.132674, 2.24465E-007, 8.46638E-007, -2.24465E-007
3, 2760.00000, -0.132674, 1.0183E-006, 1.89729E-007, -1.02809E-006
3, 2820.00000, -0.132674, 1.02758E-006, 1.89842E-007, -1.02823E-006
3, 2880.00000, -0.132674, 1.02822E-006, 1.89844E-007, -1.02823E-006
3, 2940.00000, -0.132674, 1.02823E-006, 1.89844E-007, -1.02823E-006
3, 3000.00000, -0.132674, 1.02823E-006, 1.89844E-007, -1.02823E-006
3, 3060.00000, -0.132674, -1.29653E-006, 4.92327E-007, 1.23365E-006
3, 3120.00000, -0.132674, -1.23419E-006, 4.92422E-007, 1.23381E-006
3, 3180.00000, -0.132674, -1.23381E-006, 4.92422E-007, 1.23381E-006
3, 3240.00000, -0.132674, -1.23381E-006, 4.92422E-007, 1.23381E-006
3, 3300.00000, -0.132674, -1.23381E-006, 4.92422E-007, 1.23381E-006
3, 3360.00000, -0.132671, -1.08201E-006, -1.85359E-006, 1.09314E-006
3, 3420.00000, -0.132671, -1.09309E-006, -1.8536E-006, 1.09307E-006
3, 3480.00000, -0.132671, -1.09307E-006, -1.8536E-006, 1.09307E-006
3, 3540.00000, -0.132671, -1.09307E-006, -1.8536E-006, 1.09307E-006
4, 0.00000, -0.132671, -1.09307E-006, -1.8536E-006, 1.09307E-006
4, 60.00000, -0.146141, 1.1488E-006, 1.1856E-006, -1.19021E-006
4, 120.00000, -0.146141, 1.1902E-006, 1.18556E-006, -1.19018E-006
4, 180.00000, -0.146141, 1.19018E-006, 1.18556E-006, -1.19018E-006
4, 240.00000, -0.146141, 1.19018E-006, 1.18556E-006, -1.19018E-006
4, 300.00000, -0.146141, 1.19018E-006, 1.18556E-006, -1.19018E-006
4, 360.00000, -0.14614, -6.72646E-007, -1.55942E-007, 7.01556E-007
4, 420.00000, -0.14614, -7.01482E-007, -1.55771E-007, 7.01484E-007
4, 480.00000, -0.14614, -7.01485E-007, -1.55771E-007, 7.01483E-007
4, 540.00000, -0.14614, -7.01483E-007, -1.55771E-007, 7.01483E-007
4, 600.00000, -0.14614, -7.01483E-007, -1.55771E-007, 7.01483E-007
4, 660.00000, -0.146141, 3.30499E-007, 9.85804E-007, -3.6282E-007
4, 720.00000, -0.146141, 3.62621E-007, 9.85903E-007, -3.62714E-007
4, 780.00000, -0.146141, 3.62718E-007, 9.85902E-007, -3.62713E-007
4, 840.00000, -0.146141, 3.62713E-007, 9.85902E-007, -3.62713E-007
4, 900.00000, -0.146141, 3.62713E-007, 9.85902E-007, -3.62713E-007
4, 960.00000, -0.146138, 6.18131E-007, -1.6554E-006, -6.73605E-007
4, 1020.00000, -0.146138, 6.7322E-007, -1.65545E-006, -6.73561E-007
4, 1080.00000, -0.146138, 6.73554E-007, -1.65545E-006, -6.73561E-007
4, 1140.00000, -0.146138, 6.73561E-007, -1.65545E-006, -6.73561E-007
4, 1200.00000, -0.146138, 6.73561E-007, -1.65545E-006, -6.73561E-007
4, 1260.00000, -0.146141, 5.1685E-007, 1.04291E-006, -4.81765E-007
4, 1320.00000, -0.146141, 4.82183E-007, 1.04287E-006, -4.81741E-007
4, 1380.00000, -0.146141, 4.81748E-007, 1.04287E-006, -4.81741E-007
4, 1440.00000, -0.146141, 4.81741E-007, 1.04287E-006, -4.81741E-007
4, 1500.00000, -0.146141, 4.81741E-007, 1.04287E-006, -4.81741E-007
4, 1560.00000, -0.146139, 6.32866E-007, -1.50669E-006, -6.13832E-007
4, 1620.00000, -0.146139, 6.13498E-007, -1.50649E-006, -6.13963E-007
4, 1680.00000, -0.146139, 6.13956E-007, -1.50649E-006, -6.13963E-007
4, 1740.00000, -0.146139, 6.13963E-007, -1.50649E-006, -6.13963E-007
4, 1800.00000, -0.146139, 6.13963E-007, -1.50649E-006, -6.13963E-007
4, 1860.00000, -0.146139, 8.56363E-007, -5.8958E-007, -8.64904E-007
4, 1920.00000, -0.146139, 8.65249E-007, -5.89742E-007, -8.64834E-007
4, 1980.00000, -0.14614, 8.58358E-007, -5.89805E-007, -8.65343E-007
4, 2040.00000, -0.146139, 8.71752E-007, -5.89715E-007, -8.6483E-007
4, 2100.00000, -0.14614, 8.59511E-007, -5.89795E-007, -8.65259E-007
4, 2160.00000, -0.146139, 9.17588E-007, -6.16122E-007, -9.72145E-007
4, 2220.00000, -0.14614, 9.66872E-007, -6.16254E-007, -9.72808E-007
4, 2280.00000, -0.146139, 9.71104E-007, -6.16245E-007, -9.73053E-007
4, 2340.00000, -0.146139, 9.71959E-007, -6.16251E-007, -9.73214E-007
4, 2400.00000, -0.14614, 9.61983E-007, -6.16433E-007, -9.74944E-007
4, 2460.00000, -0.146141, -3.6979E-007, 6.98211E-007, 4.65476E-007
4, 2520.00000, -0.146141, -4.8383E-007, 6.97502E-007, 4.62448E-007
4, 2580.00000, -0.146141, -4.62885E-007, 6.97663E-007, 4.6243E-007
4, 2640.00000, -0.146141, -4.62437E-007, 6.97663E-007, 4.6243E-007
4, 2700.00000, -0.146141, -4.62432E-007, 6.97663E-007, 4.6243E-007
4, 2760.00000, -0.146139, 8.02074E-007, -6.2897E-007, -8.5308E-007
4, 2820.00000, -0.14614, 8.3666E-007, -6.29159E-007, -8.54129E-007
4, 2880.00000, -0.146139, 8.49779E-007, -6.29134E-007, -8.54454E-007
4, 2940.00000, -0.14614, 8.44157E-007, -6.29179E-007, -8.55281E-007
4, 3000.00000, -0.14614, 8.45016E-007, -6.29205E-007, -8.56101E-007
4, 3060.00000, -0.146139, -1.73693E-006, -1.33268E-006, 1.82512E-006
4, 3120.00000, -0.146139, -1.86862E-006, -1.33279E-006, 1.82063E-006
4, 3180.00000, -0.146139, -1.81192E-006, -1.33252E-006, 1.82155E-006
4, 3240.00000, -0.146139, -1.85108E-006, -1.33272E-006, 1.8187E-006
