hour, t(sec), P1 (kW), Q1 (kvar), P2 (kW), Q2 (kvar)
0, 60.00000, 0.0333334, -1.26788E-008, 1.09639E-008, 4.14464E-009
0, 120.00000, 0.0333333, -3.88404E-009, 1.09654E-008, 4.14412E-009
0, 180.00000, 0.0333333, -4.14164E-009, 1.09654E-008, 4.14412E-009
0, 240.00000, 0.0333333, -4.14411E-009, 1.09654E-008, 4.14412E-009
0, 300.00000, 0.0333333, -4.14412E-009, 1.09654E-008, 4.14412E-009
0, 360.00000, 0.0333327, -4.67264E-008, -3.34012E-009, -1.47409E-009
0, 420.00000, 0.0333333, -1.05584E-010, -3.3506E-009, -1.46107E-009
0, 480.00000, 0.0333333, 1.44014E-009, -3.35073E-009, -1.461E-009
0, 540.00000, 0.0333333, 1.46079E-009, -3.35074E-009, -1.461E-009
0, 600.00000, 0.0333333, 1.461E-009, -3.35074E-009, -1.461E-009
0, 660.00000, 0.0333339, -9.58197E-008, 2.12039E-009, 5.05369E-009
0, 720.00000, 0.0333333, -4.52739E-009, 2.12547E-009, 5.03578E-009
0, 780.00000, 0.0333333, -5.0214E-009, 2.12557E-009, 5.03566E-009
0, 840.00000, 0.0333333, -5.03547E-009, 2.12558E-009, 5.03566E-009
0, 900.00000, 0.0333333, -5.03566E-009, 2.12558E-009, 5.03566E-009
0, 960.00000, 0.0333333, -7.33408E-008, 7.6619E-009, 1.16434E-008
0, 1020.00000, 0.0333333, -1.37493E-008, 7.65414E-009, 1.16404E-008
0, 1080.00000, 0.0333333, -1.16496E-008, 7.6541E-009, 1.16403E-008
0, 1140.00000, 0.0333333, -1.16403E-008, 7.6541E-009, 1.16403E-008
0, 1200.00000, 0.0333333, -1.16403E-008, 7.6541E-009, 1.16403E-008
0, 1260.00000, 0.0333329, 3.74541E-007, 1.98881E-008, 3.27406E-009
0, 1320.00000, 0.0333333, -1.47324E-009, 1.98972E-008, 3.29711E-009
0, 1380.00000, 0.0333333, -3.29641E-009, 1.98972E-008, 3.29732E-009
0, 1440.00000, 0.0333333, -3.29743E-009, 1.98972E-008, 3.29732E-009
0, 1500.00000, 0.0333333, -3.29732E-009, 1.98972E-008, 3.29732E-009
0, 1560.00000, 0.0333334, 3.04776E-007, 3.14587E-008, -6.39665E-009
0, 1620.00000, 0.0333333, 8.80914E-009, 3.14721E-008, -6.39001E-009
0, 1680.00000, 0.0333333, 6.40603E-009, 3.14722E-008, -6.38992E-009
0, 1740.00000, 0.0333333, 6.38999E-009, 3.14722E-008, -6.38992E-009
0, 1800.00000, 0.0333333, 6.38992E-009, 3.14722E-008, -6.38992E-009
0, 1860.00000, 0.0333331, -3.2414E-007, 8.45417E-009, 1.30238E-008
0, 1920.00000, 0.0333333, -1.55362E-008, 8.44018E-009, 1.30158E-008
0, 1980.00000, 0.0333333, -1.30323E-008, 8.44009E-009, 1.30157E-008
0, 2040.00000, 0.0333333, -1.30158E-008, 8.44009E-009, 1.30157E-008
0, 2100.00000, 0.0333333, -1.30157E-008, 8.44009E-009, 1.30157E-008
0, 2160.00000, 0.0333338, -1.71866E-007, 2.48675E-009, 5.67996E-009
0, 2220.00000, 0.0333333, -6.11971E-009, 2.48534E-009, 5.66536E-009
0, 2280.00000, 0.0333333, -5.66044E-009, 2.48538E-009, 5.66524E-009
0, 2340.00000, 0.0333333, -5.66514E-009, 2.48538E-009, 5.66524E-009
0, 2400.00000, 0.0333333, -5.66524E-009, 2.48538E-009, 5.66524E-009
0, 2460.00000, 0.0333334, -4.31003E-007, 2.71417E-009, -1.72046E-008
0, 2520.00000, 0.0333333, 1.41932E-008, 2.6978E-009, -1.72227E-008
0, 2580.00000, 0.0333333, 1.72086E-008, 2.69773E-009, -1.72229E-008
0, 2640.00000, 0.0333333, 1.72229E-008, 2.69773E-009, -1.72229E-008
0, 2700.00000, 0.0333333, 1.72229E-008, 2.69773E-009, -1.72229E-008
0, 2760.00000, 0.0333329, -2.18392E-007, -3.98201E-009, 2.14552E-008
0, 2820.00000, 0.0333333, -2.36209E-008, -3.99618E-009, 2.14595E-008
0, 2880.00000, 0.0333333, -2.14787E-008, -3.9963E-009, 2.14594E-008
0, 2940.00000, 0.0333333, -2.14596E-008, -3.9963E-009, 2.14594E-008
0, 3000.00000, 0.0333333, -2.14594E-008, -3.9963E-009, 2.14594E-008
0, 3060.00000, 0.0333341, 5.92661E-007, 2.26317E-008, -4.88177E-009
0, 3120.00000, 0.0333333, 1.08285E-008, 2.26669E-008, -4.88307E-009
0, 3180.00000, 0.0333333, 4.93245E-009, 2.26672E-008, -4.88296E-009
0, 3240.00000, 0.0333333, 4.88329E-009, 2.26672E-008, -4.88296E-009
0, 3300.00000, 0.0333333, 4.88296E-009, 2.26672E-008, -4.88296E-009
0, 3360.00000, 0.0333332, 5.30652E-007, 3.1686E-008, -5.83068E-009
0, 3420.00000, 0.0333333, 9.66496E-009, 3.17059E-008, -5.81216E-009
0, 3480.00000, 0.0333333, 5.83366E-009, 3.1706E-008, -5.81195E-009
0, 3540.00000, 0.0333333, 5.812E-009, 3.1706E-008, -5.81194E-009
1, 0.00000, 0.0333333, 5.81194E-009, 3.1706E-008, -5.81194E-009
1, 60.00000, 0.0300749, 8.22941E-008, 4.5714E-009, -2.85722E-009
1, 120.00000, 0.0300738, 3.27586E-009, 4.57126E-009, -2.86111E-009
1, 180.00000, 0.0300738, 2.87209E-009, 4.57129E-009, -2.86115E-009
1, 240.00000, 0.0300738, 2.86134E-009, 4.57129E-009, -2.86115E-009
1, 300.00000, 0.0300738, 2.86115E-009, 4.57129E-009, -2.86115E-009
1, 360.00000, 0.0300729, 1.85274E-007, 1.75158E-008, 2.27363E-009
1, 420.00000, 0.0300738, -5.02892E-009, 1.7509E-008, 2.3018E-009
1, 480.00000, 0.0300738, -2.39081E-009, 1.75087E-008, 2.30204E-009
1, 540.00000, 0.0300738, -2.30347E-009, 1.75087E-008, 2.30204E-009
1, 600.00000, 0.0300738, -2.30206E-009, 1.75087E-008, 2.30204E-009
1, 660.00000, 0.0300742, -1.26326E-007, 1.69919E-009, 3.89309E-009
1, 720.00000, 0.0300738, -3.0011E-009, 1.70135E-009, 3.87915E-009
1, 780.00000, 0.0300738, -3.84128E-009, 1.70147E-009, 3.87902E-009
1, 840.00000, 0.0300738, -3.87837E-009, 1.70147E-009, 3.87902E-009
1, 900.00000, 0.0300738, -3.87902E-009, 1.70147E-009, 3.87902E-009
1, 960.00000, 0.0300728, -2.87833E-007, 1.21982E-008, 1.69698E-008
1, 1020.00000, 0.0300738, -2.40649E-008, 1.21755E-008, 1.69862E-008
1, 1080.00000, 0.0300738, -1.7094E-008, 1.21751E-008, 1.69863E-008
1, 1140.00000, 0.0300738, -1.69874E-008, 1.21751E-008, 1.69862E-008
1, 1200.00000, 0.0300738, -1.69863E-008, 1.21751E-008, 1.69862E-008
1, 1260.00000, 0.0300749, -4.47389E-008, 1.00888E-009, 2.3752E-008
1, 1320.00000, 0.0300738, -1.89839E-008, 1.0238E-009, 2.37234E-008
1, 1380.00000, 0.0300738, -2.3619E-008, 1.02416E-009, 2.37232E-008
1, 1440.00000, 0.0300738, -2.37218E-008, 1.02416E-009, 2.37232E-008
1, 1500.00000, 0.0300738, -2.37232E-008, 1.02416E-009, 2.37232E-008
1, 1560.00000, 0.0300733, -3.38489E-007, 1.25994E-009, 2.44408E-008
1, 1620.00000, 0.0300738, -2.97893E-008, 1.24159E-009, 2.4445E-008
1, 1680.00000, 0.0300738, -2.45059E-008, 1.24137E-009, 2.44449E-008
1, 1740.00000, 0.0300738, -2.44453E-008, 1.24137E-009, 2.44449E-008
1, 1800.00000, 0.0300738, -2.44449E-008, 1.24137E-009, 2.44449E-008
1, 1860.00000, 0.0300732, 7.30969E-008, -6.34079E-009, 2.58911E-008
1, 1920.00000, 0.0300738, -2.77213E-008, -6.34592E-009, 2.59095E-008
1, 1980.00000, 0.0300738, -2.59658E-008, -6.3461E-009, 2.59096E-008
1, 2040.00000, 0.0300738, -2.59105E-008, -6.34611E-009, 2.59096E-008
1, 2100.00000, 0.0300738, -2.59096E-008, -6.34611E-009, 2.59096E-008
1, 2160.00000, 0.0300744, -4.08866E-008, -5.98747E-009, 5.29751E-009
1, 2220.00000, 0.0300738, -2.80563E-009, -5.97989E-009, 5.28092E-009
1, 2280.00000, 0.0300738, -5.221E-009, -5.97969E-009, 5.2808E-009
1, 2340.00000, 0.0300738, -5.27993E-009, -5.97969E-009, 5.2808E-009
1, 2400.00000, 0.0300738, -5.28079E-009, -5.97969E-009, 5.2808E-009
1, 2460.00000, 0.0300767, -1.5853E-006, -8.90323E-009, 1.20559E-008
1, 2520.00000, 0.0300738, -1.61383E-008, -8.9274E-009, 1.19484E-008
1, 2580.00000, 0.0300738, -1.17585E-008, -8.92681E-009, 1.1947E-008
1, 2640.00000, 0.0300738, -1.19423E-008, -8.9268E-009, 1.1947E-008
1, 2700.00000, 0.0300738, -1.19469E-008, -8.9268E-009, 1.1947E-008
1, 2760.00000, 0.0300736, 1.90831E-007, -1.09514E-008, -6.84914E-010
1, 2820.00000, 0.0300738, 2.10353E-009, -1.0946E-008, -6.76836E-010
1, 2880.00000, 0.0300738, 6.74971E-010, -1.0946E-008, -6.7671E-010
1, 2940.00000, 0.0300738, 6.76429E-010, -1.0946E-008, -6.76708E-010
1, 3000.00000, 0.0300738, 6.76702E-010, -1.0946E-008, -6.76708E-010
1, 3060.00000, 0.0300734, -7.23916E-008, -1.00682E-009, 1.12436E-008
1, 3120.00000, 0.0300738, -1.41241E-008, -1.016E-009, 1.12537E-008
1, 3180.00000, 0.0300738, -1.13045E-008, -1.01617E-009, 1.12538E-008
1, 3240.00000, 0.0300738, -1.12544E-008, -1.01617E-009, 1.12538E-008
1, 3300.00000, 0.0300738, -1.12538E-008, -1.01617E-009, 1.12538E-008
1, 3360.00000, 0.0300747, 6.52829E-007, -3.28554E-009, -2.0717E-009
1, 3420.00000, 0.0300738, 1.30968E-008, -3.24935E-009, -2.07635E-009
1, 3480.00000, 0.0300738, 2.20185E-009, -3.24892E-009, -2.07612E-009
1, 3540.00000, 0.0300738, 2.07698E-009, -3.24892E-009, -2.07612E-009
2, 0.00000, 0.0300738, 2.07612E-009, -3.24892E-009, -2.07612E-009
2, 60.00000, 0.0142567, -8.81831E-008, -4.01219E-009, -4.13874E-009
2, 120.00000, 0.0142567, 2.63266E-009, -4.01724E-009, -4.13867E-009
2, 180.00000, 0.0142567, 4.12326E-009, -4.01729E-009, -4.13871E-009
2, 240.00000, 0.0142567, 4.13863E-009, -4.01729E-009, -4.13871E-009
2, 300.00000, 0.0142567, 4.13871E-009, -4.01729E-009, -4.13871E-009
2, 360.00000, 0.0142566, -1.46722E-007, 7.66506E-010, 1.71729E-009
2, 420.00000, 0.0142567, -3.55073E-009, 7.60075E-010, 1.71552E-009
2, 480.00000, 0.0142567, -1.72956E-009, 7.60022E-010, 1.71546E-009
2, 540.00000, 0.0142567, -1.71546E-009, 7.60022E-010, 1.71546E-009
2, 600.00000, 0.0142567, -1.71545E-009, 7.60022E-010, 1.71546E-009
2, 660.00000, 0.0142577, -1.11354E-006, -6.64807E-009, 2.48583E-009
2, 720.00000, 0.0142567, -8.69961E-009, -6.67453E-009, 2.43523E-009
2, 780.00000, 0.0142567, -2.39495E-009, -6.67443E-009, 2.43454E-009
2, 840.00000, 0.0142567, -2.43277E-009, -6.67442E-009, 2.43453E-009
2, 900.00000, 0.0142567, -2.4345E-009, -6.67442E-009, 2.43453E-009
2, 960.00000, 0.0142566, 2.80154E-007, -6.52742E-009, 2.69402E-009
2, 1020.00000, 0.0142567, -1.74079E-010, -6.5185E-009, 2.70315E-009
2, 1080.00000, 0.0142567, -2.69605E-009, -6.51847E-009, 2.70331E-009
2, 1140.00000, 0.0142567, -2.70355E-009, -6.51847E-009, 2.70331E-009
2, 1200.00000, 0.0142567, -2.70332E-009, -6.51847E-009, 2.70331E-009
2, 1260.00000, 0.014258, -1.49739E-007, 3.38941E-009, -4.85477E-009
2, 1320.00000, 0.0142567, 7.72882E-009, 3.39613E-009, -4.88333E-009
2, 1380.00000, 0.0142567, 4.97021E-009, 3.3964E-009, -4.88356E-009
2, 1440.00000, 0.0142567, 4.88489E-009, 3.39641E-009, -4.88356E-009
2, 1500.00000, 0.0142567, 4.88357E-009, 3.39641E-009, -4.88356E-009
2, 1560.00000, 0.0142565, -1.64592E-007, -2.93876E-009, 2.08027E-009
2, 1620.00000, 0.0142567, -4.3485E-009, -2.94665E-009, 2.07983E-009
2, 1680.00000, 0.0142567, -2.10061E-009, -2.94672E-009, 2.07977E-009
2, 1740.00000, 0.0142567, -2.07984E-009, -2.94672E-009, 2.07977E-009
2, 1800.00000, 0.0142567, -2.07977E-009, -2.94672E-009, 2.07977E-009
2, 1860.00000, 0.0142567, 5.29305E-007, 6.9579E-009, -5.51157E-009
2, 1920.00000, 0.0142567, 1.13625E-008, 6.98268E-009, -5.51204E-009
2, 1980.00000, 0.0142567, 5.56839E-009, 6.98288E-009, -5.51189E-009
2, 2040.00000, 0.0142567, 5.51214E-009, 6.98288E-009, -5.51189E-009
2, 2100.00000, 0.0142567, 5.51188E-009, 6.98288E-009, -5.51189E-009
2, 2160.00000, 0.0142561, -3.53242E-007, 3.11906E-009, 4.48919E-009
2, 2220.00000, 0.0142567, -9.78017E-009, 3.09806E-009, 4.4997E-009
2, 2280.00000, 0.0142567, -4.5726E-009, 3.09781E-009, 4.49969E-009
2, 2340.00000, 0.0142567, -4.50037E-009, 3.0978E-009, 4.49969E-009
2, 2400.00000, 0.0142567, -4.4997E-009, 3.0978E-009, 4.49969E-009
2, 2460.00000, 0.0142565, -6.46064E-008, -4.20185E-009, 5.53579E-009
2, 2520.00000, 0.0142567, -6.97726E-009, -4.20662E-009, 5.53888E-009
2, 2580.00000, 0.0142567, -5.55911E-009, -4.20669E-009, 5.53887E-009
2, 2640.00000, 0.0142567, -5.53906E-009, -4.20669E-009, 5.53887E-009
2, 2700.00000, 0.0142567, -5.53887E-009, -4.20669E-009, 5.53887E-009
2, 2760.00000, 0.0142568, 1.12977E-007, -1.68842E-009, -1.34038E-009
2, 2820.00000, 0.0142567, 3.06167E-009, -1.68263E-009, -1.34064E-009
2, 2880.00000, 0.0142567, 1.35801E-009, -1.68257E-009, -1.3406E-009
2, 2940.00000, 0.0142567, 1.34069E-009, -1.68257E-009, -1.3406E-009
2, 3000.00000, 0.0142567, 1.3406E-009, -1.68257E-009, -1.3406E-009
2, 3060.00000, 0.0142571, -1.26268E-007, 8.904E-010, -7.92791E-009
2, 3120.00000, 0.0142567, 8.72332E-009, 8.92281E-010, -7.94241E-009
2, 3180.00000, 0.0142567, 7.97979E-009, 8.92401E-010, -7.94254E-009
2, 3240.00000, 0.0142567, 7.94317E-009, 8.92403E-010, -7.94254E-009
2, 3300.00000, 0.0142567, 7.94255E-009, 8.92403E-010, -7.94254E-009
2, 3360.00000, 0.0142562, 1.80306E-007, 5.75888E-009, -2.10363E-009
2, 3420.00000, 0.0142567, 1.27807E-009, 5.75758E-009, -2.08634E-009
2, 3480.00000, 0.0142567, 2.04152E-009, 5.75744E-009, -2.08617E-009
2, 3540.00000, 0.0142567, 2.08539E-009, 5.75743E-009, -2.08617E-009
3, 0.00000, 0.0142567, 2.08617E-009, 5.75743E-009, -2.08617E-009
3, 60.00000, 0.0203627, 8.06229E-009, 1.14916E-008, 1.04593E-009
3, 120.00000, 0.020362, 1.95175E-009, 1.15007E-008, 1.03105E-009
3, 180.00000, 0.020362, -9.71818E-010, 1.15009E-008, 1.03096E-009
3, 240.00000, 0.020362, -1.03023E-009, 1.15009E-008, 1.03096E-009
3, 300.00000, 0.020362, -1.03096E-009, 1.15009E-008, 1.03096E-009
3, 360.00000, 0.0203615, -1.25597E-007, 4.45619E-009, 6.47744E-009
3, 420.00000, 0.020362, -1.03737E-008, 4.44361E-009, 6.48869E-009
3, 480.00000, 0.020362, -6.54902E-009, 4.4434E-009, 6.48871E-009
3, 540.00000, 0.020362, -6.48933E-009, 4.4434E-009, 6.48871E-009
3, 600.00000, 0.020362, -6.48871E-009, 4.4434E-009, 6.48871E-009
3, 660.00000, 0.0203636, -9.35881E-007, -4.35631E-009, 2.70058E-009
3, 720.00000, 0.0203621, -6.98089E-009, -4.37357E-009, 2.64579E-009
3, 780.00000, 0.0203621, -2.57605E-009, -4.37337E-009, 2.6451E-009
3, 840.00000, 0.0203621, -2.64306E-009, -4.37336E-009, 2.64509E-009
3, 900.00000, 0.0203621, -2.64506E-009, -4.37336E-009, 2.64509E-009
3, 960.00000, 0.0203622, 1.88784E-007, 2.69947E-009, -2.77089E-009
3, 1020.00000, 0.0203621, 5.33952E-009, 2.70819E-009, -2.76997E-009
3, 1080.00000, 0.0203621, 2.7927E-009, 2.70827E-009, -2.76989E-009
3, 1140.00000, 0.0203621, 2.76997E-009, 2.70827E-009, -2.76989E-009
3, 1200.00000, 0.0203621, 2.76989E-009, 2.70827E-009, -2.76989E-009
3, 1260.00000, 0.0203616, -7.43265E-008, 1.1373E-009, 2.5151E-009
3, 1320.00000, 0.020362, -5.57702E-009, 1.12763E-009, 2.52556E-009
3, 1380.00000, 0.0203621, -2.57646E-009, 1.12745E-009, 2.52559E-009
3, 1440.00000, 0.0203621, -2.52615E-009, 1.12745E-009, 2.52559E-009
3, 1500.00000, 0.0203621, -2.5256E-009, 1.12745E-009, 2.52559E-009
3, 1560.00000, 0.0203626, -5.39365E-007, 1.11643E-009, 2.56627E-009
3, 1620.00000, 0.0203621, -3.34994E-009, 1.11218E-009, 2.52054E-009
3, 1680.00000, 0.0203621, -2.4303E-009, 1.11245E-009, 2.52002E-009
3, 1740.00000, 0.0203621, -2.51808E-009, 1.11246E-009, 2.52002E-009
3, 1800.00000, 0.0203621, -2.51999E-009, 1.11246E-009, 2.52002E-009
3, 1860.00000, 0.0203625, 1.14425E-007, -9.47388E-009, 3.5151E-009
3, 1920.00000, 0.0203621, -4.82902E-010, -9.46391E-009, 3.50826E-009
3, 1980.00000, 0.0203621, -3.4661E-009, -9.46377E-009, 3.50827E-009
3, 2040.00000, 0.0203621, -3.50788E-009, -9.46377E-009, 3.50827E-009
3, 2100.00000, 0.0203621, -3.50827E-009, -9.46377E-009, 3.50827E-009
3, 2160.00000, 0.0203622, -2.13318E-007, -4.21149E-009, 2.99072E-009
3, 2220.00000, 0.0203621, -4.19514E-009, -4.2161E-009, 2.98083E-009
3, 2280.00000, 0.0203621, -2.97251E-009, -4.21608E-009, 2.9807E-009
3, 2340.00000, 0.0203621, -2.98035E-009, -4.21608E-009, 2.98069E-009
3, 2400.00000, 0.0203621, -2.98069E-009, -4.21608E-009, 2.98069E-009
3, 2460.00000, 0.0203617, 4.01774E-007, -2.37464E-009, -1.88131E-009
3, 2520.00000, 0.020362, 3.90976E-009, -2.36665E-009, -1.86095E-009
3, 2580.00000, 0.0203621, 1.8395E-009, -2.36671E-009, -1.86069E-009
3, 2640.00000, 0.0203621, 1.85995E-009, -2.36671E-009, -1.86069E-009
3, 2700.00000, 0.0203621, 1.86068E-009, -2.36671E-009, -1.86069E-009
3, 2760.00000, 0.0203615, -2.83507E-007, -6.37919E-010, 7.44734E-009
3, 2820.00000, 0.0203621, -1.28629E-008, -6.55955E-010, 7.45417E-009
3, 2880.00000, 0.0203621, -7.52016E-009, -6.56189E-010, 7.45411E-009
3, 2940.00000, 0.0203621, -7.45461E-009, -6.56191E-010, 7.4541E-009
3, 3000.00000, 0.0203621, -7.4541E-009, -6.56191E-010, 7.4541E-009
3, 3060.00000, 0.0203625, -3.40986E-007, 6.17195E-009, 1.63563E-009
3, 3120.00000, 0.0203621, -2.48057E-009, 6.16713E-009, 1.61512E-009
3, 3180.00000, 0.020362, -1.58019E-009, 6.16724E-009, 1.61488E-009
3, 3240.00000, 0.020362, -1.61406E-009, 6.16724E-009, 1.61488E-009
3, 3300.00000, 0.020362, -1.61487E-009, 6.16724E-009, 1.61488E-009
3, 3360.00000, 0.0203616, 8.61035E-008, -2.2316E-009, -1.43175E-009
3, 3420.00000, 0.020362, -8.89844E-011, -2.23556E-009, -1.41752E-009
3, 3480.00000, 0.0203621, 1.3732E-009, -2.2357E-009, -1.4174E-009
3, 3540.00000, 0.0203621, 1.41674E-009, -2.2357E-009, -1.4174E-009
4, 0.00000, 0.0203621, 1.4174E-009, -2.2357E-009, -1.4174E-009
4, 60.00000, 0.0106006, 1.85885E-008, 1.47873E-009, -1.30762E-009
4, 120.00000, 0.0106006, 1.43044E-009, 1.47906E-009, -1.30736E-009
4, 180.00000, 0.0106006, 1.30823E-009, 1.47906E-009, -1.30735E-009
4, 240.00000, 0.0106006, 1.30735E-009, 1.47906E-009, -1.30735E-009
4, 300.00000, 0.0106006, 1.30735E-009, 1.47906E-009, -1.30735E-009
4, 360.00000, 0.0106004, 1.69915E-007, 6.84709E-010, 1.43054E-009
4, 420.00000, 0.0106006, -7.78407E-010, 6.8788E-010, 1.43968E-009
4, 480.00000, 0.0106006, -1.44974E-009, 6.87851E-010, 1.43978E-009
4, 540.00000, 0.0106006, -1.44004E-009, 6.8785E-010, 1.43978E-009
4, 600.00000, 0.0106006, -1.43978E-009, 6.8785E-010, 1.43978E-009
4, 660.00000, 0.0106005, -1.11367E-007, 5.78441E-010, 1.25614E-009
4, 720.00000, 0.0106006, -2.34776E-009, 5.74002E-010, 1.25409E-009
4, 780.00000, 0.0106006, -1.25892E-009, 5.73976E-010, 1.25404E-009
4, 840.00000, 0.0106006, -1.25399E-009, 5.73976E-010, 1.25404E-009
4, 900.00000, 0.0106006, -1.25404E-009, 5.73976E-010, 1.25404E-009
4, 960.00000, 0.0106006, -2.41403E-008, 3.32937E-009, 9.80079E-010
4, 1020.00000, 0.0106006, -1.22506E-009, 3.3286E-009, 9.79507E-010
4, 1080.00000, 0.0106006, -9.8133E-010, 3.3286E-009, 9.79497E-010
4, 1140.00000, 0.0106006, -9.795E-010, 3.3286E-009, 9.79497E-010
4, 1200.00000, 0.0106006, -9.79497E-010, 3.3286E-009, 9.79497E-010
4, 1260.00000, 0.0106006, 3.60597E-008, 4.2545E-009, -1.57165E-009
4, 1320.00000, 0.0106006, 2.28988E-009, 4.2569E-009, -1.57286E-009
4, 1380.00000, 0.0106006, 1.58165E-009, 4.25693E-009, -1.57285E-009
4, 1440.00000, 0.0106006, 1.57292E-009, 4.25693E-009, -1.57285E-009
4, 1500.00000, 0.0106006, 1.57285E-009, 4.25693E-009, -1.57285E-009
4, 1560.00000, 0.0106004, -6.93434E-008, 1.50403E-009, -1.29059E-009
4, 1620.00000, 0.0106006, 1.60471E-010, 1.50003E-009, -1.28956E-009
4, 1680.00000, 0.0106006, 1.27759E-009, 1.49998E-009, -1.28958E-009
4, 1740.00000, 0.0106006, 1.2895E-009, 1.49998E-009, -1.28958E-009
4, 1800.00000, 0.0106006, 1.28958E-009, 1.49998E-009, -1.28958E-009
4, 1860.00000, 0.0106007, -6.07467E-008, 5.52714E-010, 1.25798E-009
4, 1920.00000, 0.0106006, -1.37618E-009, 5.5174E-010, 1.25443E-009
4, 1980.00000, 0.0106006, 7.42623E-009, 5.51073E-010, 1.24976E-009
4, 2040.00000, 0.0106005, -9.8691E-009, 5.51858E-010, 1.25423E-009
4, 2100.00000, 0.0106006, 5.93701E-009, 5.51189E-010, 1.25053E-009
4, 2160.00000, 0.0106005, 2.59849E-008, -1.26849E-009, -1.02259E-009
4, 2220.00000, 0.0106006, 1.40571E-008, -1.26892E-009, -1.02771E-009
4, 2280.00000, 0.0106006, 5.4466E-009, -1.26902E-009, -1.0301E-009
4, 2340.00000, 0.0106006, 3.9623E-009, -1.26913E-009, -1.03163E-009
4, 2400.00000, 0.0106007, 3.28853E-008, -1.27092E-009, -1.04768E-009
4, 2460.00000, 0.0106006, 8.16019E-008, 3.31429E-009, 9.22821E-010
4, 2520.00000, 0.0106007, 4.26467E-008, 3.31262E-009, 9.01051E-010
4, 2580.00000, 0.0106006, -6.65503E-010, 3.31297E-009, 9.00355E-010
4, 2640.00000, 0.0106006, -8.8414E-010, 3.31298E-009, 9.00344E-010
4, 2700.00000, 0.0106006, -8.95841E-010, 3.31298E-009, 9.00342E-010
4, 2760.00000, 0.0106007, 1.31667E-007, 4.03329E-009, 5.26995E-009
4, 2820.00000, 0.0106007, 1.85175E-008, 4.03622E-009, 5.25749E-009
4, 2880.00000, 0.0106006, 3.73696E-010, 4.0356E-009, 5.25376E-009
4, 2940.00000, 0.0106006, 8.63309E-009, 4.03371E-009, 5.24526E-009
4, 3000.00000, 0.0106006, 8.61066E-009, 4.03187E-009, 5.23665E-009
4, 3060.00000, 0.0106003, -5.34696E-008, 2.40944E-009, 3.38969E-009
4, 3120.00000, 0.0106008, 4.4317E-008, 2.3971E-009, 3.36453E-009
4, 3180.00000, 0.0106005, -1.36589E-008, 2.39861E-009, 3.36996E-009
4, 3240.00000, 0.0106007, 3.04321E-008, 2.39433E-009, 3.34893E-009
4, 3300.00000, 0.0106006, 1.94317E-009, 2.39388E-009, 3.3449E-009
