hour, t(sec), P1 (kW), Q1 (kvar), P2 (kW), Q2 (kvar)
1, 0.00000, 0.126734, 0.041647, 8.49419E-010, 2.73916E-009
2, 0.00000, 0.107394, 0.0352989, -8.8108E-010, 3.82704E-009
3, 0.00000, 0.0983378, 0.0323174, -8.6026E-010, 3.29158E-009
4, 0.00000, 0.0952036, 0.0312917, -1.20278E-009, 3.61243E-009
5, 0.00000, 0.0991402, 0.0325875, -1.14976E-009, 3.75055E-009
6, 0.00000, 0.114375, 0.0375968, 2.66129E-010, 2.83064E-009
7, 0.00000, 0.14499, 0.0476556, 2.32261E-009, 2.40308E-009
8, 0.00000, 0.16175, 0.0531683, 1.81431E-009, 4.35693E-009
9, 0.00000, 0.16567, 0.0544534, -3.53902E-009, 1.01715E-008
10, 0.00000, 0.170467, 0.0560302, -5.28198E-009, 1.22632E-008
11, 0.00000, 0.171673, 0.0564295, -1.23375E-008, 1.94516E-008
12, 0.00000, 0.170331, 0.0559881, -1.21704E-008, 1.93012E-008
13, 0.00000, 0.171056, 0.0562223, -1.00699E-008, 1.73903E-008
14, 0.00000, 0.174428, 0.0573316, -2.61702E-009, 9.84541E-009
15, 0.00000, 0.181701, 0.0597023, 2.93824E-009, 4.34002E-009
16, 0.00000, 0.199643, 0.0656163, 7.47491E-009, 1.73642E-009
17, 0.00000, 0.232123, 0.0762943, 1.08151E-008, 2.38095E-009
18, 0.00000, 0.2585, 0.0849648, 1.63723E-008, 4.59678E-010
19, 0.00000, 0.268886, 0.0883786, 1.91201E-008, -6.68793E-010
20, 0.00000, 0.274866, 0.0903542, 2.09533E-008, -1.35581E-009
21, 0.00000, 0.267864, 0.0880436, 2.1944E-008, -4.03959E-009
22, 0.00000, 0.245092, 0.080558, 1.71398E-008, -2.72867E-009
23, 0.00000, 0.208005, 0.0683683, 9.78374E-009, 1.90988E-010
24, 0.00000, 0.163763, 0.0538265, 2.33871E-009, 4.02238E-009
25, 0.00000, 0.126736, 0.0416559, -3.9619E-009, 8.71638E-009
26, 0.00000, 0.107397, 0.0353007, -1.9644E-009, 5.04669E-009
27, 0.00000, 0.0983338, 0.032321, -2.45964E-009, 5.28745E-009
28, 0.00000, 0.0952037, 0.0312923, -1.8081E-009, 4.3413E-009
29, 0.00000, 0.0991411, 0.0325857, -2.46571E-009, 5.38182E-009
30, 0.00000, 0.114379, 0.0375936, -2.62212E-009, 6.40964E-009
31, 0.00000, 0.144989, 0.0476553, -3.72117E-009, 9.76215E-009
32, 0.00000, 0.161758, 0.0531671, -3.53355E-009, 1.07922E-008
33, 0.00000, 0.165668, 0.0544526, -3.52126E-009, 1.04467E-008
34, 0.00000, 0.17047, 0.0560319, -8.2087E-009, 1.58776E-008
35, 0.00000, 0.171675, 0.0564288, -1.25631E-008, 2.05271E-008
36, 0.00000, 0.170323, 0.0559828, -1.21892E-008, 2.0081E-008
37, 0.00000, 0.171053, 0.0562211, -1.08122E-008, 1.89699E-008
38, 0.00000, 0.174429, 0.0573316, -6.67044E-009, 1.4857E-008
39, 0.00000, 0.181689, 0.0597017, -5.30256E-010, 8.688E-009
40, 0.00000, 0.199643, 0.0656184, 2.61267E-009, 7.47345E-009
41, 0.00000, 0.232121, 0.0762952, 8.2268E-009, 5.38516E-009
42, 0.00000, 0.258497, 0.0849637, 1.01741E-008, 7.52052E-009
43, 0.00000, 0.268889, 0.0883788, 1.06036E-008, 9.11383E-009
44, 0.00000, 0.274893, 0.0903514, 1.0802E-008, 9.88981E-009
45, 0.00000, 0.267861, 0.0880429, 9.23256E-009, 1.03622E-008
46, 0.00000, 0.245092, 0.0805584, 6.21548E-009, 9.83497E-009
47, 0.00000, 0.208008, 0.0683681, -3.01799E-010, 1.19886E-008
48, 0.00000, 0.163764, 0.0538272, -5.19975E-009, 1.29034E-008
49, 0.00000, 0.126733, 0.0416557, -2.86419E-009, 7.32051E-009
50, 0.00000, 0.107399, 0.0353012, -2.9569E-009, 6.29507E-009
51, 0.00000, 0.0983345, 0.0323215, -2.47125E-009, 5.28646E-009
52, 0.00000, 0.0952039, 0.0312924, -1.62563E-009, 4.1122E-009
53, 0.00000, 0.0991415, 0.032586, -1.73577E-009, 4.47312E-009
54, 0.00000, 0.114375, 0.0375911, -5.79709E-009, 1.03623E-008
55, 0.00000, 0.14499, 0.0476393, -1.81145E-009, 7.15317E-009
56, 0.00000, 0.161749, 0.0531619, -4.6388E-009, 1.23615E-008
57, 0.00000, 0.165678, 0.054458, -3.29298E-009, 1.04154E-008
58, 0.00000, 0.170469, 0.0560319, -1.01624E-009, 7.9951E-009
59, 0.00000, 0.171674, 0.0564282, 1.27211E-009, 5.16155E-009
60, 0.00000, 0.170313, 0.055977, -9.12051E-009, 1.77107E-008
61, 0.00000, 0.171055, 0.0562221, -9.95684E-009, 1.87941E-008
62, 0.00000, 0.174423, 0.0573293, -6.37819E-009, 1.50636E-008
63, 0.00000, 0.181687, 0.059716, -1.22934E-008, 2.27562E-008
64, 0.00000, 0.199642, 0.0656184, -9.46016E-009, 2.18015E-008
65, 0.00000, 0.232121, 0.076297, -9.23701E-009, 2.5541E-008
66, 0.00000, 0.258269, 0.0848902, -6.71867E-009, 2.74428E-008
67, 0.00000, 0.267296, 0.0878553, -1.22858E-009, 2.27433E-008
68, 0.00000, 0.27144, 0.089212, 7.38406E-010, 2.28512E-008
69, 0.00000, 0.266532, 0.0876087, -1.62069E-009, 2.29734E-008
70, 0.00000, 0.245081, 0.0805543, -1.30489E-008, 3.29675E-008
71, 0.00000, 0.208008, 0.0683695, -9.2761E-009, 2.22843E-008
72, 0.00000, 0.163765, 0.0538279, -5.15428E-009, 1.28113E-008
73, 0.00000, 0.135871, 0.0446607, -4.77667E-009, 1.01301E-008
74, 0.00000, 0.114723, 0.0377095, -2.33639E-009, 5.87371E-009
75, 0.00000, 0.103256, 0.0339391, -2.70364E-009, 5.81327E-009
76, 0.00000, 0.0979884, 0.0322078, -1.56253E-009, 4.15229E-009
77, 0.00000, 0.0979406, 0.0321914, -1.57015E-009, 4.19609E-009
78, 0.00000, 0.103101, 0.0338874, -1.67666E-009, 4.60079E-009
79, 0.00000, 0.115022, 0.0378051, -2.18736E-009, 5.91101E-009
80, 0.00000, 0.137579, 0.0452193, -2.2338E-009, 7.36142E-009
81, 0.00000, 0.173325, 0.0569714, 1.22882E-009, 5.34383E-009
82, 0.00000, 0.206527, 0.0678827, -1.17186E-008, 2.33246E-008
83, 0.00000, 0.224107, 0.0736604, -1.74053E-008, 3.04793E-008
84, 0.00000, 0.230783, 0.0758552, -1.92441E-008, 3.34643E-008
85, 0.00000, 0.233888, 0.0768759, -1.88718E-008, 3.3942E-008
86, 0.00000, 0.238392, 0.0783557, -1.49621E-008, 3.12127E-008
87, 0.00000, 0.242852, 0.0798239, -5.23013E-009, 2.20819E-008
88, 0.00000, 0.247648, 0.081398, 1.6075E-009, 1.54534E-008
89, 0.00000, 0.26008, 0.0854852, 7.59363E-009, 1.08024E-008
90, 0.00000, 0.266986, 0.0877414, 1.45273E-008, 4.05844E-009
91, 0.00000, 0.265609, 0.0872927, 1.60561E-008, 2.20793E-009
92, 0.00000, 0.264557, 0.0869716, 1.13137E-008, 7.4675E-009
93, 0.00000, 0.254543, 0.0836631, 4.75559E-009, 1.30827E-008
94, 0.00000, 0.234928, 0.0772159, -1.08327E-009, 1.66258E-008
95, 0.00000, 0.206711, 0.067943, -9.13237E-009, 2.20077E-008
96, 0.00000, 0.172233, 0.0566109, -7.61162E-009, 1.65239E-008
97, 0.00000, 0.138904, 0.045656, -3.44737E-009, 8.84082E-009
98, 0.00000, 0.116841, 0.0384054, -2.4051E-009, 6.09845E-009
99, 0.00000, 0.104052, 0.0342007, -2.74976E-009, 5.90359E-009
100, 0.00000, 0.0976845, 0.0321079, -1.56881E-009, 4.1413E-009
101, 0.00000, 0.0957342, 0.0314644, -2.28644E-009, 5.00302E-009
102, 0.00000, 0.0989028, 0.0325092, -1.55415E-009, 4.20677E-009
103, 0.00000, 0.109229, 0.0359013, -1.88843E-009, 5.20851E-009
104, 0.00000, 0.127113, 0.0417799, -1.80662E-009, 6.10465E-009
105, 0.00000, 0.160672, 0.0528126, 1.44798E-009, 4.01637E-009
106, 0.00000, 0.19635, 0.0645636, -9.79838E-010, 9.36251E-009
107, 0.00000, 0.218911, 0.0719539, -1.28931E-008, 2.33062E-008
108, 0.00000, 0.22775, 0.074865, -2.17333E-008, 3.23899E-008
109, 0.00000, 0.233375, 0.0767106, -2.09832E-008, 3.22283E-008
110, 0.00000, 0.237157, 0.0779504, 2.74871E-009, 9.81672E-009
111, 0.00000, 0.235944, 0.0775526, 1.21298E-008, 3.86346E-010
112, 0.00000, 0.233912, 0.0768815, 1.82345E-008, -5.96378E-009
113, 0.00000, 0.243665, 0.0800892, 2.0495E-008, -6.89195E-009
114, 0.00000, 0.256634, 0.0843519, 2.35381E-008, -8.07834E-009
115, 0.00000, 0.262956, 0.0864296, 2.48168E-008, -8.32879E-009
116, 0.00000, 0.270867, 0.0890301, 2.64286E-008, -8.60114E-009
117, 0.00000, 0.264724, 0.0870106, 2.26776E-008, -5.42726E-009
118, 0.00000, 0.240559, 0.079067, 1.57106E-008, -1.84705E-009
119, 0.00000, 0.202639, 0.0666031, 6.92736E-009, 2.84273E-009
120, 0.00000, 0.158602, 0.0521302, -4.69715E-009, 1.18946E-008
121, 0.00000, 0.126733, 0.0416555, -2.77328E-009, 7.21924E-009
122, 0.00000, 0.107399, 0.0353012, -2.95712E-009, 6.29654E-009
123, 0.00000, 0.098335, 0.0323219, -1.71626E-009, 4.34348E-009
124, 0.00000, 0.0952049, 0.0312913, -2.2953E-009, 4.96923E-009
125, 0.00000, 0.0991391, 0.0325866, -1.54165E-009, 4.20975E-009
126, 0.00000, 0.114378, 0.0375933, -2.05964E-009, 5.73272E-009
127, 0.00000, 0.144989, 0.0476551, -5.12412E-009, 1.14608E-008
128, 0.00000, 0.16176, 0.053168, -3.56463E-009, 1.08049E-008
129, 0.00000, 0.165668, 0.0544527, 1.50611E-009, 4.44025E-009
130, 0.00000, 0.170469, 0.0560307, 1.09689E-009, 4.83836E-009
131, 0.00000, 0.171668, 0.0564335, -1.23445E-008, 1.88524E-008
132, 0.00000, 0.170321, 0.0559854, -1.416E-008, 2.0791E-008
133, 0.00000, 0.17106, 0.0562273, -1.52268E-008, 2.19108E-008
134, 0.00000, 0.174427, 0.0573315, -4.81947E-010, 6.90732E-009
135, 0.00000, 0.181696, 0.059722, 5.88017E-009, 7.53236E-010
136, 0.00000, 0.199647, 0.065613, 1.52696E-008, -7.48445E-009
137, 0.00000, 0.232126, 0.0762944, 2.15873E-008, -1.01067E-008
138, 0.00000, 0.258503, 0.0849648, 2.89066E-008, -1.39019E-008
139, 0.00000, 0.268887, 0.0883784, 3.19763E-008, -1.53367E-008
140, 0.00000, 0.274862, 0.0903583, 3.34242E-008, -1.56854E-008
141, 0.00000, 0.26789, 0.0880394, 3.10007E-008, -1.44078E-008
142, 0.00000, 0.245089, 0.080558, 2.45838E-008, -1.13183E-008
143, 0.00000, 0.208003, 0.0683688, 1.61851E-008, -7.31299E-009
144, 0.00000, 0.163762, 0.0538269, 7.09392E-009, -1.6606E-009
145, 0.00000, 0.126734, 0.0416554, -3.95936E-009, 8.7137E-009
146, 0.00000, 0.107397, 0.0353007, -1.95945E-009, 5.04062E-009
147, 0.00000, 0.0983338, 0.032321, -2.45569E-009, 5.28259E-009
148, 0.00000, 0.0952102, 0.0312954, -2.35064E-009, 4.99524E-009
149, 0.00000, 0.0991415, 0.032586, -2.45568E-009, 5.36046E-009
150, 0.00000, 0.114379, 0.0375937, -2.56103E-009, 6.33403E-009
151, 0.00000, 0.144989, 0.0476553, -3.67041E-009, 9.70117E-009
152, 0.00000, 0.161754, 0.0531771, -4.08593E-009, 1.11585E-008
153, 0.00000, 0.165682, 0.0544581, -7.55298E-009, 1.4839E-008
154, 0.00000, 0.170463, 0.0560288, -9.70737E-009, 1.77856E-008
155, 0.00000, 0.171675, 0.0564277, -1.14769E-008, 1.92867E-008
156, 0.00000, 0.170323, 0.0559825, -1.18012E-008, 1.96457E-008
157, 0.00000, 0.171055, 0.0562227, -8.07796E-009, 1.5673E-008
158, 0.00000, 0.174429, 0.0573318, -5.50495E-009, 1.34638E-008
159, 0.00000, 0.181691, 0.0597037, -6.18626E-010, 8.82028E-009
160, 0.00000, 0.199643, 0.0656182, 1.67495E-009, 8.57078E-009
161, 0.00000, 0.232121, 0.0762947, 5.2598E-009, 8.80684E-009
162, 0.00000, 0.258498, 0.0849647, 9.99116E-009, 7.74638E-009
163, 0.00000, 0.268866, 0.0883632, 1.71458E-008, 1.37199E-009
164, 0.00000, 0.274893, 0.0903508, 1.49378E-008, 5.25235E-009
165, 0.00000, 0.267861, 0.0880427, 1.29821E-008, 6.12029E-009
166, 0.00000, 0.245092, 0.0805569, 5.01423E-009, 1.1201E-008
167, 0.00000, 0.208008, 0.068368, -1.80028E-009, 1.3736E-008
168, 0.00000, 0.163764, 0.0538273, -5.19647E-009, 1.2893E-008
169, 0.00000, 0.126733, 0.0416557, -2.78303E-009, 7.22167E-009
170, 0.00000, 0.107399, 0.0353012, -2.9558E-009, 6.29482E-009
171, 0.00000, 0.0983351, 0.0323219, -1.6149E-009, 4.21687E-009
172, 0.00000, 0.0952038, 0.0312904, -2.34644E-009, 5.04189E-009
173, 0.00000, 0.0991358, 0.032584, -2.03805E-009, 4.85033E-009
174, 0.00000, 0.114378, 0.037593, -3.15366E-009, 7.08001E-009
175, 0.00000, 0.144978, 0.0476497, -3.90698E-009, 1.01215E-008
176, 0.00000, 0.161757, 0.0531662, -5.16433E-009, 1.27663E-008
177, 0.00000, 0.165668, 0.0544527, -2.17818E-009, 8.67353E-009
178, 0.00000, 0.170469, 0.0560316, -5.69314E-009, 1.26566E-008
179, 0.00000, 0.171673, 0.0564303, -1.21869E-008, 1.92924E-008
180, 0.00000, 0.17031, 0.0559761, -9.45471E-009, 1.70961E-008
181, 0.00000, 0.171055, 0.0562224, -6.4373E-009, 1.37333E-008
182, 0.00000, 0.174415, 0.0573265, -7.5676E-010, 7.97291E-009
183, 0.00000, 0.1817, 0.0597014, 2.26998E-009, 5.12855E-009
184, 0.00000, 0.199643, 0.065616, 5.55356E-009, 3.98938E-009
185, 0.00000, 0.232123, 0.0762946, 9.7658E-009, 3.60067E-009
186, 0.00000, 0.2585, 0.0849646, 1.45782E-008, 2.50796E-009
187, 0.00000, 0.26889, 0.0883787, 1.31529E-008, 6.27746E-009
188, 0.00000, 0.274893, 0.0903505, 1.24237E-008, 8.01061E-009
189, 0.00000, 0.267861, 0.0880423, 8.91435E-009, 1.0737E-008
190, 0.00000, 0.24509, 0.080557, 5.21531E-010, 1.63553E-008
191, 0.00000, 0.208007, 0.0683684, -3.95118E-009, 1.62463E-008
192, 0.00000, 0.163765, 0.0538275, -5.17511E-009, 1.28583E-008
193, 0.00000, 0.126733, 0.0416556, -4.01077E-009, 8.71666E-009
194, 0.00000, 0.1074, 0.0353017, -3.04736E-009, 6.39158E-009
195, 0.00000, 0.0983348, 0.0323217, -2.11166E-009, 4.83616E-009
196, 0.00000, 0.0952076, 0.0312935, -2.32432E-009, 4.9825E-009
197, 0.00000, 0.099139, 0.0325865, -1.56449E-009, 4.23829E-009
198, 0.00000, 0.114376, 0.0375921, -4.00726E-009, 8.14814E-009
199, 0.00000, 0.144979, 0.0476504, -3.67122E-009, 9.81485E-009
200, 0.00000, 0.161756, 0.053178, -4.09335E-009, 1.1167E-008
201, 0.00000, 0.165682, 0.0544586, -4.75564E-009, 1.15781E-008
202, 0.00000, 0.170466, 0.0560302, -5.01012E-009, 1.21468E-008
203, 0.00000, 0.171674, 0.0564277, -8.63819E-009, 1.59131E-008
204, 0.00000, 0.170323, 0.0559826, -8.72962E-009, 1.59888E-008
205, 0.00000, 0.171054, 0.056222, -7.12912E-009, 1.45728E-008
206, 0.00000, 0.174417, 0.0573272, -3.23213E-009, 1.08005E-008
207, 0.00000, 0.181696, 0.059722, -4.08083E-010, 8.5763E-009
208, 0.00000, 0.199643, 0.0656158, 2.48302E-009, 7.59086E-009
209, 0.00000, 0.232122, 0.0762941, 4.66082E-009, 9.49549E-009
210, 0.00000, 0.2585, 0.0849651, 1.03745E-008, 7.32051E-009
211, 0.00000, 0.268888, 0.0883798, 1.40594E-008, 5.18962E-009
212, 0.00000, 0.274893, 0.0903506, 1.34953E-008, 6.80327E-009
213, 0.00000, 0.26786, 0.0880499, 7.50479E-009, 1.19375E-008
214, 0.00000, 0.245089, 0.0805569, -9.64153E-010, 1.8057E-008
215, 0.00000, 0.208006, 0.0683688, -9.21345E-009, 2.22106E-008
216, 0.00000, 0.163765, 0.0538277, -6.85441E-009, 1.48421E-008
217, 0.00000, 0.126733, 0.0416557, -4.0154E-009, 8.71681E-009
218, 0.00000, 0.1074, 0.0353017, -2.97249E-009, 6.29859E-009
219, 0.00000, 0.0983295, 0.0323179, -9.1073E-009, 1.3553E-008
220, 0.00000, 0.0952041, 0.0312925, -8.10392E-009, 1.20909E-008
221, 0.00000, 0.0991412, 0.0325858, -8.6388E-009, 1.2963E-008
222, 0.00000, 0.11438, 0.0375949, -7.10659E-009, 1.18443E-008
223, 0.00000, 0.14499, 0.047639, -3.21353E-009, 8.83453E-009
224, 0.00000, 0.161763, 0.0531571, -3.87435E-010, 6.85271E-009
225, 0.00000, 0.165666, 0.0544527, -8.89854E-010, 7.75989E-009
226, 0.00000, 0.170468, 0.0560315, -3.03129E-009, 1.04305E-008
227, 0.00000, 0.17167, 0.0564259, -5.38782E-009, 1.31645E-008
228, 0.00000, 0.170323, 0.0559831, -1.33279E-008, 2.13926E-008
229, 0.00000, 0.171053, 0.0562212, -9.3712E-009, 1.72704E-008
230, 0.00000, 0.174428, 0.0573314, -1.00858E-008, 1.88428E-008
231, 0.00000, 0.181696, 0.0597219, -2.76662E-009, 1.16056E-008
232, 0.00000, 0.199643, 0.0656186, 1.19615E-009, 9.13858E-009
233, 0.00000, 0.232123, 0.0762964, 1.11344E-008, 2.03919E-009
234, 0.00000, 0.258498, 0.0849642, 1.46764E-008, 2.38303E-009
235, 0.00000, 0.268886, 0.0883784, 1.48799E-008, 4.209E-009
236, 0.00000, 0.274893, 0.0903505, 1.28764E-008, 7.542E-009
237, 0.00000, 0.267862, 0.0880419, 8.94684E-009, 1.06756E-008
238, 0.00000, 0.245089, 0.0805548, -6.03569E-009, 2.38175E-008
239, 0.00000, 0.208006, 0.0683691, -1.16206E-008, 2.49941E-008
240, 0.00000, 0.163765, 0.053828, -5.30778E-009, 1.29848E-008
241, 0.00000, 0.135871, 0.0446607, -4.77903E-009, 1.01307E-008
242, 0.00000, 0.114719, 0.0377064, -7.96396E-009, 1.28333E-008
243, 0.00000, 0.103257, 0.0339394, -7.90296E-009, 1.21859E-008
244, 0.00000, 0.0979881, 0.0322075, -7.33771E-009, 1.12692E-008
245, 0.00000, 0.0979415, 0.0321921, -7.24395E-009, 1.11725E-008
246, 0.00000, 0.103095, 0.0338862, -6.73586E-009, 1.08007E-008
247, 0.00000, 0.115025, 0.0378075, -3.57065E-009, 7.52915E-009
248, 0.00000, 0.13758, 0.04522, -2.51557E-009, 7.68164E-009
249, 0.00000, 0.173322, 0.0569711, -3.24453E-009, 1.06616E-008
250, 0.00000, 0.206535, 0.0678873, -4.66148E-009, 1.49194E-008
251, 0.00000, 0.224105, 0.0736634, -1.20027E-008, 2.41047E-008
252, 0.00000, 0.230785, 0.0758555, -1.59214E-008, 2.94581E-008
253, 0.00000, 0.233884, 0.0768718, -1.29605E-008, 2.7274E-008
254, 0.00000, 0.238393, 0.0783554, -7.96258E-009, 2.29979E-008
255, 0.00000, 0.242852, 0.0798246, -9.3207E-010, 1.66878E-008
256, 0.00000, 0.247644, 0.0813956, 8.90889E-009, 7.03868E-009
257, 0.00000, 0.260079, 0.0854849, 1.36659E-008, 3.86912E-009
258, 0.00000, 0.266985, 0.0877543, 1.65577E-008, 1.88554E-009
259, 0.00000, 0.265591, 0.0872962, 1.56769E-008, 2.65827E-009
260, 0.00000, 0.264599, 0.0869624, 1.67239E-008, 1.24143E-009
261, 0.00000, 0.254543, 0.0836634, 1.15077E-008, 5.36488E-009
262, 0.00000, 0.234926, 0.0772151, 2.31778E-009, 1.26874E-008
263, 0.00000, 0.206714, 0.0679425, -3.71384E-009, 1.58043E-008
264, 0.00000, 0.172232, 0.0566105, -7.58662E-009, 1.65199E-008
265, 0.00000, 0.138904, 0.0456559, -4.82807E-009, 1.05115E-008
266, 0.00000, 0.116842, 0.038406, -2.41832E-009, 6.09557E-009
267, 0.00000, 0.104052, 0.0342007, -2.74976E-009, 5.90352E-009
268, 0.00000, 0.097684, 0.0321075, -2.42766E-009, 5.21444E-009
269, 0.00000, 0.0957366, 0.0314674, -1.45995E-009, 3.93407E-009
270, 0.00000, 0.0989029, 0.0325074, -2.42551E-009, 5.32327E-009
271, 0.00000, 0.10923, 0.0359018, -2.04593E-009, 5.38819E-009
272, 0.00000, 0.12712, 0.0417842, -5.20217E-010, 4.23104E-009
273, 0.00000, 0.160672, 0.0528094, -1.186E-009, 6.40559E-009
274, 0.00000, 0.196365, 0.0645428, -6.5283E-009, 1.43653E-008
275, 0.00000, 0.218895, 0.0719433, 7.81752E-009, -4.40982E-009
276, 0.00000, 0.228281, 0.0750347, 2.01778E-008, -8.79644E-009
277, 0.00000, 0.233395, 0.0767034, 5.71817E-009, -5.39261E-010
278, 0.00000, 0.237164, 0.0779536, 2.37502E-009, 8.40283E-009
279, 0.00000, 0.235948, 0.0775412, 1.18468E-008, -4.39465E-010
280, 0.00000, 0.233916, 0.0768738, 2.42994E-008, -1.30675E-008
281, 0.00000, 0.243666, 0.0800891, 2.68445E-008, -1.42235E-008
282, 0.00000, 0.256636, 0.0843519, 3.04106E-008, -1.59639E-008
283, 0.00000, 0.262957, 0.0864296, 3.22802E-008, -1.6871E-008
284, 0.00000, 0.270869, 0.0890302, 3.4708E-008, -1.80414E-008
285, 0.00000, 0.264735, 0.0869993, 3.30045E-008, -1.73675E-008
286, 0.00000, 0.240556, 0.0790674, 2.6118E-008, -1.38905E-008
287, 0.00000, 0.202635, 0.0666037, 1.74757E-008, -9.57023E-009
288, 0.00000, 0.1586, 0.0521303, 9.97936E-009, -5.62763E-009
289, 0.00000, 0.126732, 0.041655, 4.25555E-009, -1.28491E-009
290, 0.00000, 0.107394, 0.035299, 2.38554E-009, -1.94457E-010
291, 0.00000, 0.0983379, 0.0323154, 1.9268E-009, -1.88063E-010
292, 0.00000, 0.0952043, 0.0312903, 1.70856E-009, -1.39199E-011
293, 0.00000, 0.0991386, 0.03259, 1.51236E-009, 5.00042E-010
294, 0.00000, 0.114372, 0.0376024, 2.87989E-009, -2.90892E-010
295, 0.00000, 0.144991, 0.0476557, 6.07668E-009, -2.12831E-009
296, 0.00000, 0.161762, 0.0531689, -1.56758E-009, 8.0992E-009
297, 0.00000, 0.165675, 0.0544522, 1.59567E-009, 3.40032E-009
298, 0.00000, 0.170464, 0.0560286, -4.95377E-009, 1.07886E-008
299, 0.00000, 0.176724, 0.0580854, 1.15135E-007, -3.53585E-008
300, 0.00000, 0.177602, 0.0583832, 1.4704E-007, -6.24653E-008
301, 0.00000, 0.171441, 0.0563467, 1.23904E-008, -5.0023E-009
302, 0.00000, 0.174429, 0.0573322, 6.69379E-010, 4.84295E-009
303, 0.00000, 0.181689, 0.0597224, 5.94043E-009, 2.20693E-010
304, 0.00000, 0.199648, 0.0656185, 1.70042E-008, -9.45375E-009
305, 0.00000, 0.23212, 0.0762952, 2.36816E-008, -1.25491E-008
306, 0.00000, 0.258497, 0.084965, 3.05443E-008, -1.5804E-008
307, 0.00000, 0.268885, 0.0883787, 3.40843E-008, -1.77536E-008
308, 0.00000, 0.27489, 0.0903523, 3.59547E-008, -1.86195E-008
309, 0.00000, 0.267864, 0.0880423, 3.30463E-008, -1.6734E-008
310, 0.00000, 0.245094, 0.0805577, 2.71392E-008, -1.42561E-008
311, 0.00000, 0.208008, 0.068368, 1.87799E-008, -1.03561E-008
312, 0.00000, 0.163765, 0.0538263, 1.08632E-008, -6.18449E-009
313, 0.00000, 0.126736, 0.0416579, -5.0742E-009, 9.96099E-009
314, 0.00000, 0.107399, 0.035301, -5.76893E-009, 9.74962E-009
315, 0.00000, 0.0983348, 0.0323216, -5.06321E-009, 8.47446E-009
316, 0.00000, 0.0952055, 0.0312916, -5.50399E-009, 8.92313E-009
317, 0.00000, 0.0991379, 0.0325859, -4.97879E-009, 8.44924E-009
318, 0.00000, 0.114378, 0.0375935, -5.27887E-009, 9.65783E-009
319, 0.00000, 0.144979, 0.0476503, -4.90271E-009, 1.12971E-008
320, 0.00000, 0.161758, 0.0531483, -3.33164E-009, 1.02261E-008
321, 0.00000, 0.165673, 0.0544558, -3.68041E-009, 1.09809E-008
