hour, t(sec), P1 (kW), Q1 (kvar), P2 (kW), Q2 (kvar)
0, 60.00000, 0.129201, 0.0424652, -3.21547E-008, -1.04664E-008
0, 120.00000, 0.1292, 0.042466, -3.21736E-008, -1.04853E-008
0, 180.00000, 0.1292, 0.042466, -3.21735E-008, -1.04854E-008
0, 240.00000, 0.1292, 0.042466, -3.21735E-008, -1.04854E-008
0, 300.00000, 0.1292, 0.042466, -3.21735E-008, -1.04854E-008
0, 360.00000, 0.113054, 0.0371579, 2.529E-008, -6.68926E-009
0, 420.00000, 0.11305, 0.0371578, 2.5025E-008, -6.56536E-009
0, 480.00000, 0.11305, 0.0371577, 2.50247E-008, -6.56575E-009
0, 540.00000, 0.11305, 0.0371577, 2.50247E-008, -6.56575E-009
0, 600.00000, 0.11305, 0.0371577, 2.50247E-008, -6.56575E-009
0, 660.00000, 0.161497, 0.0530859, -4.23512E-008, 6.88889E-008
0, 720.00000, 0.1615, 0.0530824, -4.22462E-008, 6.8612E-008
0, 780.00000, 0.1615, 0.0530824, -4.22458E-008, 6.86121E-008
0, 840.00000, 0.1615, 0.0530824, -4.22458E-008, 6.86121E-008
0, 900.00000, 0.1615, 0.0530824, -4.22458E-008, 6.86121E-008
0, 960.00000, 0.1292, 0.0424661, -1.65873E-009, 7.55507E-009
0, 1020.00000, 0.1292, 0.042466, -1.65671E-009, 7.55028E-009
0, 1080.00000, 0.1292, 0.042466, -1.65671E-009, 7.55029E-009
0, 1140.00000, 0.1292, 0.042466, -1.65671E-009, 7.55029E-009
0, 1200.00000, 0.1292, 0.042466, -1.65671E-009, 7.55029E-009
0, 1260.00000, 0.11305, 0.0371577, 3.06858E-008, -3.83375E-008
0, 1320.00000, 0.11305, 0.0371578, 3.06938E-008, -3.83378E-008
0, 1380.00000, 0.11305, 0.0371578, 3.06938E-008, -3.83378E-008
0, 1440.00000, 0.11305, 0.0371578, 3.06938E-008, -3.83378E-008
0, 1500.00000, 0.11305, 0.0371578, 3.06938E-008, -3.83378E-008
0, 1560.00000, 0.113047, 0.0371563, -2.2383E-008, -3.97203E-008
0, 1620.00000, 0.11305, 0.0371578, -2.2113E-008, -3.97555E-008
0, 1680.00000, 0.11305, 0.0371578, -2.21128E-008, -3.97551E-008
0, 1740.00000, 0.11305, 0.0371578, -2.21128E-008, -3.97551E-008
0, 1800.00000, 0.11305, 0.0371578, -2.21128E-008, -3.97551E-008
0, 1860.00000, 0.129201, 0.0424669, 4.92795E-008, 1.13857E-007
0, 1920.00000, 0.1292, 0.0424659, 4.91745E-008, 1.13879E-007
0, 1980.00000, 0.1292, 0.0424659, 4.91743E-008, 1.13879E-007
0, 2040.00000, 0.1292, 0.0424659, 4.91743E-008, 1.13879E-007
0, 2100.00000, 0.1292, 0.0424659, 4.91743E-008, 1.13879E-007
0, 2160.00000, 0.145356, 0.0477793, 2.54933E-010, 7.49276E-009
0, 2220.00000, 0.14535, 0.0477742, -3.02957E-010, 7.34772E-009
0, 2280.00000, 0.14535, 0.0477742, -3.02963E-010, 7.34669E-009
0, 2340.00000, 0.14535, 0.0477742, -3.02962E-010, 7.34669E-009
0, 2400.00000, 0.14535, 0.0477742, -3.02962E-010, 7.34669E-009
0, 2460.00000, 0.0968999, 0.0318497, 2.37852E-008, -5.2756E-009
0, 2520.00000, 0.0969, 0.0318495, 2.37794E-008, -5.28681E-009
0, 2580.00000, 0.0969, 0.0318495, 2.37794E-008, -5.28682E-009
0, 2640.00000, 0.0969, 0.0318495, 2.37794E-008, -5.28682E-009
0, 2700.00000, 0.0969, 0.0318495, 2.37794E-008, -5.28682E-009
0, 2760.00000, 0.0807497, 0.0265414, 5.88708E-008, -2.22331E-008
0, 2820.00000, 0.0807499, 0.0265413, 5.88781E-008, -2.22553E-008
0, 2880.00000, 0.0807499, 0.0265413, 5.88781E-008, -2.22552E-008
0, 2940.00000, 0.0807499, 0.0265413, 5.88781E-008, -2.22552E-008
0, 3000.00000, 0.0807499, 0.0265413, 5.88781E-008, -2.22552E-008
0, 3060.00000, 0.1615, 0.0530824, -1.16894E-007, 6.64027E-008
0, 3120.00000, 0.1615, 0.0530824, -1.1689E-007, 6.64017E-008
0, 3180.00000, 0.1615, 0.0530824, -1.1689E-007, 6.64017E-008
0, 3240.00000, 0.1615, 0.0530824, -1.1689E-007, 6.64017E-008
0, 3300.00000, 0.1615, 0.0530824, -1.1689E-007, 6.64017E-008
0, 3360.00000, 0.0968982, 0.0318494, -7.61176E-010, 3.28842E-008
0, 3420.00000, 0.0969, 0.0318495, -6.97821E-010, 3.28248E-008
0, 3480.00000, 0.0969, 0.0318495, -6.97527E-010, 3.28248E-008
0, 3540.00000, 0.0969, 0.0318495, -6.97526E-010, 3.28248E-008
1, 0.00000, 0.0969, 0.0318495, -6.97526E-010, 3.28248E-008
1, 60.00000, 0.113051, 0.0371577, 2.34784E-009, 6.38721E-009
1, 120.00000, 0.11305, 0.0371577, 2.33551E-009, 6.38724E-009
1, 180.00000, 0.11305, 0.0371577, 2.33548E-009, 6.38701E-009
1, 240.00000, 0.11305, 0.0371577, 2.33548E-009, 6.38701E-009
1, 300.00000, 0.11305, 0.0371577, 2.33548E-009, 6.38701E-009
1, 360.00000, 0.0969001, 0.0318495, 3.5984E-009, -1.94255E-008
1, 420.00000, 0.0969, 0.0318495, 3.59372E-009, -1.9424E-008
1, 480.00000, 0.0969, 0.0318495, 3.59369E-009, -1.94241E-008
1, 540.00000, 0.0969, 0.0318495, 3.59369E-009, -1.94241E-008
1, 600.00000, 0.0969, 0.0318495, 3.59369E-009, -1.94241E-008
1, 660.00000, 0.0968999, 0.0318496, 2.46527E-008, -2.98494E-008
1, 720.00000, 0.0969, 0.0318495, 2.46546E-008, -2.98546E-008
1, 780.00000, 0.0969, 0.0318495, 2.46546E-008, -2.98545E-008
1, 840.00000, 0.0969, 0.0318495, 2.46546E-008, -2.98545E-008
1, 900.00000, 0.0969, 0.0318495, 2.46546E-008, -2.98545E-008
1, 960.00000, 0.0969, 0.0318494, 4.8348E-010, 7.36727E-009
1, 1020.00000, 0.0969, 0.0318495, 4.83433E-010, 7.37201E-009
1, 1080.00000, 0.0969, 0.0318495, 4.83375E-010, 7.37201E-009
1, 1140.00000, 0.0969, 0.0318495, 4.83375E-010, 7.37201E-009
1, 1200.00000, 0.0969, 0.0318495, 4.83375E-010, 7.37201E-009
1, 1260.00000, 0.08075, 0.0265413, 2.12695E-008, -2.49867E-008
1, 1320.00000, 0.08075, 0.0265413, 2.12674E-008, -2.49884E-008
1, 1380.00000, 0.08075, 0.0265413, 2.12674E-008, -2.49884E-008
1, 1440.00000, 0.08075, 0.0265413, 2.12674E-008, -2.49884E-008
1, 1500.00000, 0.08075, 0.0265413, 2.12674E-008, -2.49884E-008
1, 1560.00000, 0.11305, 0.0371577, -2.8686E-008, 5.10103E-008
1, 1620.00000, 0.11305, 0.0371577, -2.86841E-008, 5.10084E-008
1, 1680.00000, 0.11305, 0.0371577, -2.86841E-008, 5.10084E-008
1, 1740.00000, 0.11305, 0.0371577, -2.86841E-008, 5.10084E-008
1, 1800.00000, 0.11305, 0.0371577, -2.86841E-008, 5.10084E-008
1, 1860.00000, 0.113049, 0.0371567, -4.91176E-008, -2.57562E-008
1, 1920.00000, 0.11305, 0.0371578, -4.90228E-008, -2.57008E-008
1, 1980.00000, 0.11305, 0.0371578, -4.90226E-008, -2.57008E-008
1, 2040.00000, 0.11305, 0.0371578, -4.90226E-008, -2.57008E-008
1, 2100.00000, 0.11305, 0.0371578, -4.90226E-008, -2.57008E-008
1, 2160.00000, 0.129199, 0.0424682, -8.70761E-008, -1.28213E-008
1, 2220.00000, 0.1292, 0.042466, -8.71152E-008, -1.29619E-008
1, 2280.00000, 0.1292, 0.042466, -8.71149E-008, -1.2962E-008
1, 2340.00000, 0.1292, 0.042466, -8.71149E-008, -1.2962E-008
1, 2400.00000, 0.1292, 0.042466, -8.71149E-008, -1.2962E-008
1, 2460.00000, 0.113051, 0.0371573, -4.95058E-008, -2.46705E-008
1, 2520.00000, 0.11305, 0.0371578, -4.95049E-008, -2.46489E-008
1, 2580.00000, 0.11305, 0.0371578, -4.95047E-008, -2.46489E-008
1, 2640.00000, 0.11305, 0.0371578, -4.95047E-008, -2.46489E-008
1, 2700.00000, 0.11305, 0.0371578, -4.95047E-008, -2.46489E-008
1, 2760.00000, 0.11305, 0.0371577, -2.0644E-009, 6.53927E-008
1, 2820.00000, 0.11305, 0.0371577, -2.06103E-009, 6.53896E-008
1, 2880.00000, 0.11305, 0.0371577, -2.06097E-009, 6.53896E-008
1, 2940.00000, 0.11305, 0.0371577, -2.06097E-009, 6.53896E-008
1, 3000.00000, 0.11305, 0.0371577, -2.06097E-009, 6.53896E-008
1, 3060.00000, 0.0969003, 0.0318486, 1.7725E-009, 7.57579E-009
1, 3120.00000, 0.0969, 0.0318495, 1.80011E-009, 7.63996E-009
1, 3180.00000, 0.0969, 0.0318495, 1.79995E-009, 7.63983E-009
1, 3240.00000, 0.0969, 0.0318495, 1.79995E-009, 7.63982E-009
1, 3300.00000, 0.0969, 0.0318495, 1.79995E-009, 7.63982E-009
1, 3360.00000, 0.0969001, 0.0318495, -2.05639E-008, -6.8687E-009
1, 3420.00000, 0.0969, 0.0318495, -2.05653E-008, -6.86613E-009
1, 3480.00000, 0.0969, 0.0318495, -2.05654E-008, -6.86614E-009
1, 3540.00000, 0.0969, 0.0318495, -2.05654E-008, -6.86614E-009
2, 0.00000, 0.0969, 0.0318495, -2.05654E-008, -6.86614E-009
2, 60.00000, 0.08075, 0.0265413, 3.01876E-009, -1.32217E-008
2, 120.00000, 0.08075, 0.0265413, 3.01804E-009, -1.32216E-008
2, 180.00000, 0.08075, 0.0265413, 3.01804E-009, -1.32216E-008
2, 240.00000, 0.08075, 0.0265413, 3.01804E-009, -1.32216E-008
2, 300.00000, 0.08075, 0.0265413, 3.01804E-009, -1.32216E-008
2, 360.00000, 0.1292, 0.0424659, -6.02159E-008, 3.88911E-008
2, 420.00000, 0.1292, 0.0424659, -6.02121E-008, 3.88921E-008
2, 480.00000, 0.1292, 0.0424659, -6.02121E-008, 3.88921E-008
2, 540.00000, 0.1292, 0.0424659, -6.02121E-008, 3.88921E-008
2, 600.00000, 0.1292, 0.0424659, -6.02121E-008, 3.88921E-008
2, 660.00000, 0.0807482, 0.0265423, 1.78697E-008, 1.94396E-008
2, 720.00000, 0.08075, 0.0265412, 1.79636E-008, 1.93619E-008
2, 780.00000, 0.08075, 0.0265412, 1.79636E-008, 1.93619E-008
2, 840.00000, 0.08075, 0.0265412, 1.79636E-008, 1.93619E-008
2, 900.00000, 0.08075, 0.0265412, 1.79636E-008, 1.93619E-008
2, 960.00000, 0.11305, 0.0371577, -2.57007E-008, 2.09405E-008
2, 1020.00000, 0.11305, 0.0371577, -2.56979E-008, 2.09402E-008
2, 1080.00000, 0.11305, 0.0371577, -2.56979E-008, 2.09402E-008
2, 1140.00000, 0.11305, 0.0371577, -2.56979E-008, 2.09402E-008
2, 1200.00000, 0.11305, 0.0371577, -2.56979E-008, 2.09402E-008
2, 1260.00000, 0.11305, 0.0371567, -2.69561E-008, 2.32368E-008
2, 1320.00000, 0.11305, 0.0371576, -2.69294E-008, 2.32855E-008
2, 1380.00000, 0.11305, 0.0371577, -2.69294E-008, 2.32857E-008
2, 1440.00000, 0.11305, 0.0371577, -2.69294E-008, 2.32857E-008
2, 1500.00000, 0.11305, 0.0371577, -2.69294E-008, 2.32857E-008
2, 1560.00000, 0.11305, 0.0371578, -2.45791E-008, 2.20054E-008
2, 1620.00000, 0.11305, 0.0371577, -2.45813E-008, 2.20059E-008
2, 1680.00000, 0.11305, 0.0371577, -2.45813E-008, 2.20059E-008
2, 1740.00000, 0.11305, 0.0371577, -2.45813E-008, 2.20059E-008
2, 1800.00000, 0.11305, 0.0371577, -2.45813E-008, 2.20059E-008
2, 1860.00000, 0.0807513, 0.0265412, 2.06913E-008, -2.01953E-009
2, 1920.00000, 0.08075, 0.0265412, 2.05763E-008, -2.01744E-009
2, 1980.00000, 0.08075, 0.0265412, 2.05763E-008, -2.01751E-009
2, 2040.00000, 0.08075, 0.0265412, 2.05763E-008, -2.01751E-009
2, 2100.00000, 0.08075, 0.0265412, 2.05763E-008, -2.01751E-009
2, 2160.00000, 0.096899, 0.0318498, -2.06217E-008, -5.28658E-009
2, 2220.00000, 0.0969, 0.0318495, -2.05568E-008, -5.29515E-009
2, 2280.00000, 0.0969, 0.0318495, -2.05568E-008, -5.2951E-009
2, 2340.00000, 0.0969, 0.0318495, -2.05568E-008, -5.2951E-009
2, 2400.00000, 0.0969, 0.0318495, -2.05568E-008, -5.2951E-009
2, 2460.00000, 0.0807502, 0.026541, 1.8166E-008, 1.83163E-008
2, 2520.00000, 0.08075, 0.0265412, 1.81596E-008, 1.83431E-008
2, 2580.00000, 0.08075, 0.0265412, 1.81595E-008, 1.83431E-008
2, 2640.00000, 0.08075, 0.0265412, 1.81595E-008, 1.83431E-008
2, 2700.00000, 0.08075, 0.0265412, 1.81595E-008, 1.83431E-008
2, 2760.00000, 0.0968993, 0.0318495, 2.2861E-008, 2.35581E-008
2, 2820.00000, 0.0969, 0.0318495, 2.29101E-008, 2.35389E-008
2, 2880.00000, 0.0969, 0.0318495, 2.29102E-008, 2.35389E-008
2, 2940.00000, 0.0969, 0.0318495, 2.29102E-008, 2.35389E-008
2, 3000.00000, 0.0969, 0.0318495, 2.29102E-008, 2.35389E-008
2, 3060.00000, 0.0969, 0.0318495, 2.15127E-009, 9.00167E-009
2, 3120.00000, 0.0969, 0.0318495, 2.15115E-009, 9.00009E-009
2, 3180.00000, 0.0969, 0.0318495, 2.15115E-009, 9.00007E-009
2, 3240.00000, 0.0969, 0.0318495, 2.15115E-009, 9.00007E-009
2, 3300.00000, 0.0969, 0.0318495, 2.15115E-009, 9.00007E-009
2, 3360.00000, 0.08075, 0.0265412, 1.93663E-008, 1.93152E-008
2, 3420.00000, 0.08075, 0.0265412, 1.93668E-008, 1.93173E-008
2, 3480.00000, 0.08075, 0.0265412, 1.93668E-008, 1.93173E-008
2, 3540.00000, 0.08075, 0.0265412, 1.93668E-008, 1.93173E-008
3, 0.00000, 0.08075, 0.0265412, 1.93668E-008, 1.93173E-008
3, 60.00000, 0.0969001, 0.0318495, -2.14265E-008, 1.61888E-008
3, 120.00000, 0.0969, 0.0318495, -2.14272E-008, 1.61885E-008
3, 180.00000, 0.0969, 0.0318495, -2.14273E-008, 1.61885E-008
3, 240.00000, 0.0969, 0.0318495, -2.14273E-008, 1.61885E-008
3, 300.00000, 0.0969, 0.0318495, -2.14273E-008, 1.61885E-008
3, 360.00000, 0.08075, 0.0265412, 1.44589E-009, 4.29584E-009
3, 420.00000, 0.08075, 0.0265412, 1.44719E-009, 4.29542E-009
3, 480.00000, 0.08075, 0.0265412, 1.4472E-009, 4.29542E-009
3, 540.00000, 0.08075, 0.0265412, 1.4472E-009, 4.29542E-009
3, 600.00000, 0.08075, 0.0265412, 1.4472E-009, 4.29542E-009
3, 660.00000, 0.0969004, 0.0318497, -1.89524E-009, 5.55663E-008
3, 720.00000, 0.0969, 0.0318494, -1.91339E-009, 5.55605E-008
3, 780.00000, 0.0969, 0.0318494, -1.9135E-009, 5.55604E-008
3, 840.00000, 0.0969, 0.0318494, -1.9135E-009, 5.55604E-008
3, 900.00000, 0.0969, 0.0318494, -1.9135E-009, 5.55604E-008
3, 960.00000, 0.0646, 0.021233, 1.35054E-009, -1.35743E-008
3, 1020.00000, 0.0646, 0.021233, 1.35026E-009, -1.35766E-008
3, 1080.00000, 0.0646, 0.021233, 1.35027E-009, -1.35765E-008
3, 1140.00000, 0.0646, 0.021233, 1.35027E-009, -1.35765E-008
3, 1200.00000, 0.0646, 0.021233, 1.35027E-009, -1.35765E-008
3, 1260.00000, 0.0969, 0.0318494, -6.89413E-010, 3.06812E-008
3, 1320.00000, 0.0969, 0.0318495, -6.91544E-010, 3.06863E-008
3, 1380.00000, 0.0969, 0.0318495, -6.91555E-010, 3.06863E-008
3, 1440.00000, 0.0969, 0.0318495, -6.91555E-010, 3.06863E-008
3, 1500.00000, 0.0969, 0.0318495, -6.91555E-010, 3.06863E-008
3, 1560.00000, 0.0969, 0.0318495, -4.15099E-010, 4.69666E-009
3, 1620.00000, 0.0969, 0.0318495, -4.14242E-010, 4.69366E-009
3, 1680.00000, 0.0969, 0.0318495, -4.14238E-010, 4.69366E-009
3, 1740.00000, 0.0969, 0.0318495, -4.14238E-010, 4.69366E-009
3, 1800.00000, 0.0969, 0.0318495, -4.14238E-010, 4.69366E-009
3, 1860.00000, 0.0646, 0.021233, 3.047E-008, -1.18321E-008
3, 1920.00000, 0.0646, 0.021233, 3.04703E-008, -1.18319E-008
3, 1980.00000, 0.0646, 0.021233, 3.04703E-008, -1.18319E-008
3, 2040.00000, 0.0646, 0.021233, 3.04703E-008, -1.18319E-008
3, 2100.00000, 0.0646, 0.021233, 3.04703E-008, -1.18319E-008
3, 2160.00000, 0.0969001, 0.0318496, -4.03908E-008, -4.79142E-008
3, 2220.00000, 0.0969, 0.0318495, -4.03926E-008, -4.7915E-008
3, 2280.00000, 0.0969, 0.0318495, -4.03926E-008, -4.7915E-008
3, 2340.00000, 0.0969, 0.0318495, -4.03926E-008, -4.7915E-008
3, 2400.00000, 0.0969, 0.0318495, -4.03926E-008, -4.7915E-008
3, 2460.00000, 0.0807499, 0.0265412, 8.11907E-010, 4.74669E-009
3, 2520.00000, 0.08075, 0.0265412, 8.1354E-010, 4.74626E-009
3, 2580.00000, 0.08075, 0.0265412, 8.13549E-010, 4.74627E-009
3, 2640.00000, 0.08075, 0.0265412, 8.13549E-010, 4.74627E-009
3, 2700.00000, 0.08075, 0.0265412, 8.13549E-010, 4.74627E-009
3, 2760.00000, 0.0646, 0.021233, 2.97339E-008, 5.3243E-009
3, 2820.00000, 0.0646, 0.021233, 2.9734E-008, 5.32603E-009
3, 2880.00000, 0.0646, 0.021233, 2.97339E-008, 5.32604E-009
3, 2940.00000, 0.0646, 0.021233, 2.97339E-008, 5.32604E-009
3, 3000.00000, 0.0646, 0.021233, 2.97339E-008, 5.32604E-009
3, 3060.00000, 0.08075, 0.0265413, 2.06961E-008, -5.76788E-009
3, 3120.00000, 0.08075, 0.0265412, 2.06946E-008, -5.76883E-009
3, 3180.00000, 0.08075, 0.0265412, 2.06946E-008, -5.76884E-009
3, 3240.00000, 0.08075, 0.0265412, 2.06946E-008, -5.76884E-009
3, 3300.00000, 0.08075, 0.0265412, 2.06946E-008, -5.76884E-009
3, 3360.00000, 0.11305, 0.0371577, -3.19104E-008, 7.7038E-008
3, 3420.00000, 0.11305, 0.0371577, -3.19101E-008, 7.70384E-008
3, 3480.00000, 0.11305, 0.0371577, -3.19101E-008, 7.70384E-008
3, 3540.00000, 0.11305, 0.0371577, -3.19101E-008, 7.70384E-008
4, 0.00000, 0.11305, 0.0371575, -3.19104E-008, 7.70393E-008
4, 60.00000, 0.0969, 0.0318494, -1.27333E-009, 1.32258E-009
4, 120.00000, 0.0969, 0.0318495, -1.27074E-009, 1.31978E-009
4, 180.00000, 0.0969, 0.0318495, -1.27069E-009, 1.31974E-009
4, 240.00000, 0.0969, 0.0318495, -1.27069E-009, 1.31974E-009
4, 300.00000, 0.0969, 0.0318495, -1.27069E-009, 1.31974E-009
4, 360.00000, 0.0807499, 0.0265412, 1.78665E-008, -7.62987E-009
4, 420.00000, 0.08075, 0.0265412, 1.78663E-008, -7.62819E-009
4, 480.00000, 0.08075, 0.0265412, 1.78663E-008, -7.62814E-009
4, 540.00000, 0.08075, 0.0265412, 1.78663E-008, -7.62814E-009
4, 600.00000, 0.08075, 0.0265412, 1.78663E-008, -7.62814E-009
4, 660.00000, 0.08075, 0.0265413, 2.95664E-009, -4.04895E-008
4, 720.00000, 0.08075, 0.0265413, 2.9555E-009, -4.04888E-008
4, 780.00000, 0.08075, 0.0265413, 2.95549E-009, -4.04888E-008
4, 840.00000, 0.08075, 0.0265413, 2.95549E-009, -4.04888E-008
4, 900.00000, 0.08075, 0.0265413, 2.95549E-009, -4.04888E-008
4, 960.00000, 0.0807516, 0.0265404, 1.56341E-008, 3.55042E-008
4, 1020.00000, 0.08075, 0.0265412, 1.55791E-008, 3.55669E-008
4, 1080.00000, 0.08075, 0.0265412, 1.55791E-008, 3.55669E-008
4, 1140.00000, 0.0807499, 0.0265412, 1.55792E-008, 3.55675E-008
4, 1200.00000, 0.08075, 0.0265412, 1.55793E-008, 3.55676E-008
4, 1260.00000, 0.113049, 0.0371583, -5.12617E-008, -3.11283E-008
4, 1320.00000, 0.11305, 0.0371578, -5.12337E-008, -3.11696E-008
4, 1380.00000, 0.11305, 0.0371578, -5.12336E-008, -3.11697E-008
4, 1440.00000, 0.11305, 0.0371578, -5.12336E-008, -3.11697E-008
4, 1500.00000, 0.11305, 0.0371578, -5.12336E-008, -3.11697E-008
4, 1560.00000, 0.0969, 0.0318495, -2.18976E-008, -1.24668E-008
4, 1620.00000, 0.0969, 0.0318495, -2.18999E-008, -1.24649E-008
4, 1680.00000, 0.0969, 0.0318495, -2.18999E-008, -1.24649E-008
4, 1740.00000, 0.0969, 0.0318495, -2.18999E-008, -1.24649E-008
4, 1800.00000, 0.0969, 0.0318495, -2.18999E-008, -1.24649E-008
4, 1860.00000, 0.11305, 0.0371578, -5.38929E-008, 2.82198E-008
4, 1920.00000, 0.11305, 0.0371577, -5.38922E-008, 2.82186E-008
4, 1980.00000, 0.11305, 0.0371577, -5.38828E-008, 2.82381E-008
4, 2040.00000, 0.11305, 0.0371577, -5.38926E-008, 2.82184E-008
4, 2100.00000, 0.11305, 0.0371577, -5.38844E-008, 2.82349E-008
4, 2160.00000, 0.0807509, 0.0265408, 2.00841E-008, -2.9516E-008
4, 2220.00000, 0.08075, 0.0265413, 2.00325E-008, -2.94635E-008
4, 2280.00000, 0.08075, 0.0265413, 2.00338E-008, -2.94555E-008
4, 2340.00000, 0.08075, 0.0265413, 2.00347E-008, -2.945E-008
4, 2400.00000, 0.0807501, 0.0265412, 2.00453E-008, -2.93908E-008
4, 2460.00000, 0.0969, 0.0318494, -2.23801E-008, 1.30674E-008
4, 2520.00000, 0.0969002, 0.0318494, -2.23446E-008, 1.31538E-008
4, 2580.00000, 0.0969, 0.0318495, -2.23471E-008, 1.31532E-008
4, 2640.00000, 0.0969, 0.0318495, -2.23471E-008, 1.31532E-008
4, 2700.00000, 0.0969, 0.0318495, -2.23471E-008, 1.31533E-008
4, 2760.00000, 0.0807499, 0.0265413, 1.82467E-008, -7.65099E-009
4, 2820.00000, 0.0807501, 0.0265412, 1.82554E-008, -7.61287E-009
4, 2880.00000, 0.08075, 0.0265412, 1.82569E-008, -7.60287E-009
4, 2940.00000, 0.08075, 0.0265412, 1.82611E-008, -7.57741E-009
4, 3000.00000, 0.08075, 0.0265412, 1.82652E-008, -7.55216E-009
4, 3060.00000, 0.08075, 0.0265412, 1.32053E-009, -1.79683E-008
4, 3120.00000, 0.0807502, 0.0265413, 1.34747E-009, -1.78597E-008
4, 3180.00000, 0.08075, 0.0265413, 1.3399E-009, -1.78841E-008
4, 3240.00000, 0.0807501, 0.0265413, 1.35955E-009, -1.78122E-008
4, 3300.00000, 0.08075, 0.0265413, 1.36142E-009, -1.78029E-008
4, 3360.00000, 0.0807506, 0.026541, 3.83993E-008, -1.63285E-008
4, 3420.00000, 0.0807501, 0.0265413, 3.83829E-008, -1.62423E-008
4, 3480.00000, 0.0807501, 0.0265413, 3.83966E-008, -1.61348E-008
4, 3540.00000, 0.0807491, 0.0265409, 3.73359E-008, -2.0441E-008
5, 0.00000, 0.08075, 0.0265413, 3.73365E-008, -2.04456E-008
5, 60.00000, 0.11305, 0.0371575, -2.83196E-008, -1.86191E-008
5, 120.00000, 0.11305, 0.037158, -2.83184E-008, -1.8586E-008
5, 180.00000, 0.11305, 0.0371583, -2.82841E-008, -1.84888E-008
5, 240.00000, 0.11305, 0.0371581, -2.82598E-008, -1.84136E-008
5, 300.00000, 0.113051, 0.0371588, -2.81873E-008, -1.82094E-008
5, 360.00000, 0.11305, 0.0371582, -5.93538E-009, 5.69985E-008
5, 420.00000, 0.11305, 0.0371581, -5.88958E-009, 5.70902E-008
5, 480.00000, 0.11305, 0.037158, -5.87542E-009, 5.71388E-008
5, 540.00000, 0.113051, 0.0371587, -5.82172E-009, 5.72943E-008
5, 600.00000, 0.113051, 0.0371586, -5.77251E-009, 5.74559E-008
5, 660.00000, 0.0969, 0.0318491, 1.86568E-008, 3.87524E-008
5, 720.00000, 0.0969006, 0.0318505, 1.86968E-008, 3.88897E-008
5, 780.00000, 0.0969003, 0.0318499, 1.87147E-008, 3.8977E-008
5, 840.00000, 0.0969004, 0.0318501, 1.87455E-008, 3.9096E-008
5, 900.00000, 0.0969005, 0.0318504, 1.87884E-008, 3.92634E-008
5, 960.00000, 0.0807497, 0.0265413, 6.2206E-010, -2.11345E-008
5, 1020.00000, 0.0807505, 0.0265421, 6.53694E-010, -2.09468E-008
5, 1080.00000, 0.0807504, 0.0265419, 6.91643E-010, -2.07938E-008
5, 1140.00000, 0.0807504, 0.0265419, 7.28643E-010, -2.06477E-008
5, 1200.00000, 0.0807503, 0.0265418, 7.61959E-010, -2.05153E-008
