hour, t(sec), P1 (kW), Q1 (kvar), P2 (kW), Q2 (kvar)
0, 60.00000, 0.133953, 0.0440246, -1.71697E-008, 8.22586E-008
0, 120.00000, 0.13395, 0.0440272, -1.73177E-008, 8.22084E-008
0, 180.00000, 0.13395, 0.0440272, -1.73177E-008, 8.22074E-008
0, 240.00000, 0.13395, 0.0440272, -1.73177E-008, 8.22074E-008
0, 300.00000, 0.13395, 0.0440272, -1.73177E-008, 8.22074E-008
0, 360.00000, 0.120542, 0.0396265, -4.54514E-008, -1.21257E-008
0, 420.00000, 0.120555, 0.0396245, -4.4787E-008, -1.24758E-008
0, 480.00000, 0.120555, 0.0396245, -4.47841E-008, -1.24727E-008
0, 540.00000, 0.120555, 0.0396245, -4.47841E-008, -1.24726E-008
0, 600.00000, 0.120555, 0.0396245, -4.47841E-008, -1.24726E-008
0, 660.00000, 0.120569, 0.0396169, -4.36442E-008, -1.31503E-008
0, 720.00000, 0.120555, 0.0396246, -4.41638E-008, -1.24999E-008
0, 780.00000, 0.120555, 0.0396245, -4.41682E-008, -1.25017E-008
0, 840.00000, 0.120555, 0.0396245, -4.41682E-008, -1.25017E-008
0, 900.00000, 0.120555, 0.0396245, -4.41682E-008, -1.25017E-008
0, 960.00000, 0.10716, 0.0352218, -1.87451E-008, -2.05233E-009
0, 1020.00000, 0.10716, 0.0352218, -1.87519E-008, -2.04804E-009
0, 1080.00000, 0.10716, 0.0352218, -1.87519E-008, -2.04806E-009
0, 1140.00000, 0.10716, 0.0352218, -1.87519E-008, -2.04806E-009
0, 1200.00000, 0.10716, 0.0352218, -1.87519E-008, -2.04806E-009
0, 1260.00000, 0.0937657, 0.0308186, 3.67843E-008, 4.85238E-009
0, 1320.00000, 0.093765, 0.0308191, 3.67529E-008, 4.89413E-009
0, 1380.00000, 0.093765, 0.0308191, 3.67527E-008, 4.89398E-009
0, 1440.00000, 0.093765, 0.0308191, 3.67527E-008, 4.89398E-009
0, 1500.00000, 0.093765, 0.0308191, 3.67527E-008, 4.89398E-009
0, 1560.00000, 0.120555, 0.0396338, 3.05733E-009, 3.44305E-008
0, 1620.00000, 0.120555, 0.0396245, 2.68798E-009, 3.40441E-008
0, 1680.00000, 0.120555, 0.0396245, 2.6896E-009, 3.40412E-008
0, 1740.00000, 0.120555, 0.0396245, 2.68961E-009, 3.40412E-008
0, 1800.00000, 0.120555, 0.0396245, 2.68961E-009, 3.40412E-008
0, 1860.00000, 0.160744, 0.0528217, -1.09112E-007, 1.22298E-007
0, 1920.00000, 0.16074, 0.0528325, -1.08817E-007, 1.22965E-007
0, 1980.00000, 0.16074, 0.0528326, -1.0882E-007, 1.22968E-007
0, 2040.00000, 0.16074, 0.0528326, -1.0882E-007, 1.22968E-007
0, 2100.00000, 0.16074, 0.0528326, -1.0882E-007, 1.22968E-007
0, 2160.00000, 0.107166, 0.0352136, -1.76724E-008, 2.06613E-008
0, 2220.00000, 0.10716, 0.0352218, -1.7768E-008, 2.09969E-008
0, 2280.00000, 0.10716, 0.0352218, -1.77702E-008, 2.09971E-008
0, 2340.00000, 0.10716, 0.0352218, -1.77702E-008, 2.09971E-008
0, 2400.00000, 0.10716, 0.0352218, -1.77702E-008, 2.09971E-008
0, 2460.00000, 0.0803693, 0.026417, 1.16562E-008, -3.85681E-008
0, 2520.00000, 0.08037, 0.0264164, 1.16694E-008, -3.86135E-008
0, 2580.00000, 0.08037, 0.0264164, 1.16696E-008, -3.86135E-008
0, 2640.00000, 0.08037, 0.0264164, 1.16696E-008, -3.86135E-008
0, 2700.00000, 0.08037, 0.0264164, 1.16696E-008, -3.86135E-008
0, 2760.00000, 0.107157, 0.0352172, 3.52042E-009, 3.10955E-008
0, 2820.00000, 0.10716, 0.0352217, 3.93874E-009, 3.11922E-008
0, 2880.00000, 0.10716, 0.0352218, 3.93924E-009, 3.11948E-008
0, 2940.00000, 0.10716, 0.0352218, 3.93923E-009, 3.11948E-008
0, 3000.00000, 0.10716, 0.0352218, 3.93923E-009, 3.11948E-008
0, 3060.00000, 0.08037, 0.0264151, 6.12097E-008, 7.48038E-010
0, 3120.00000, 0.0803699, 0.0264163, 6.12534E-008, 7.9798E-010
0, 3180.00000, 0.0803699, 0.0264163, 6.12531E-008, 7.98268E-010
0, 3240.00000, 0.0803699, 0.0264163, 6.12531E-008, 7.98267E-010
0, 3300.00000, 0.0803699, 0.0264163, 6.12531E-008, 7.98267E-010
0, 3360.00000, 0.120546, 0.0396433, 9.39648E-009, 8.55761E-008
0, 3420.00000, 0.120555, 0.0396245, 9.11509E-009, 8.46622E-008
0, 3480.00000, 0.120555, 0.0396244, 9.11994E-009, 8.46582E-008
0, 3540.00000, 0.120555, 0.0396244, 9.11997E-009, 8.46583E-008
1, 0.00000, 0.120555, 0.0396244, 9.11997E-009, 8.46583E-008
1, 60.00000, 0.0937661, 0.0308192, 1.98959E-009, 2.58252E-008
1, 120.00000, 0.093765, 0.030819, 1.9866E-009, 2.58262E-008
1, 180.00000, 0.093765, 0.030819, 1.98655E-009, 2.5826E-008
1, 240.00000, 0.093765, 0.030819, 1.98655E-009, 2.5826E-008
1, 300.00000, 0.093765, 0.030819, 1.98655E-009, 2.5826E-008
1, 360.00000, 0.0937652, 0.0308189, -1.40879E-008, 1.75695E-008
1, 420.00000, 0.093765, 0.030819, -1.40906E-008, 1.75892E-008
1, 480.00000, 0.093765, 0.030819, -1.40907E-008, 1.75891E-008
1, 540.00000, 0.093765, 0.030819, -1.40907E-008, 1.75891E-008
1, 600.00000, 0.093765, 0.030819, -1.40907E-008, 1.75891E-008
1, 660.00000, 0.0803699, 0.0264165, 1.4166E-009, 5.9423E-009
1, 720.00000, 0.08037, 0.0264163, 1.41683E-009, 5.93196E-009
1, 780.00000, 0.08037, 0.0264163, 1.41689E-009, 5.93198E-009
1, 840.00000, 0.08037, 0.0264163, 1.41689E-009, 5.93198E-009
1, 900.00000, 0.08037, 0.0264163, 1.41689E-009, 5.93198E-009
1, 960.00000, 0.0937653, 0.030819, -1.6457E-008, -1.73429E-009
1, 1020.00000, 0.093765, 0.0308191, -1.64671E-008, -1.7137E-009
1, 1080.00000, 0.093765, 0.0308191, -1.64672E-008, -1.71365E-009
1, 1140.00000, 0.093765, 0.0308191, -1.64672E-008, -1.71365E-009
1, 1200.00000, 0.093765, 0.0308191, -1.64672E-008, -1.71365E-009
1, 1260.00000, 0.0937649, 0.0308192, -1.44531E-008, 1.73002E-008
1, 1320.00000, 0.093765, 0.030819, -1.44518E-008, 1.72797E-008
1, 1380.00000, 0.093765, 0.030819, -1.44518E-008, 1.72797E-008
1, 1440.00000, 0.093765, 0.030819, -1.44518E-008, 1.72797E-008
1, 1500.00000, 0.093765, 0.030819, -1.44518E-008, 1.72797E-008
1, 1560.00000, 0.0937652, 0.0308191, -1.59514E-008, 1.79172E-008
1, 1620.00000, 0.093765, 0.030819, -1.59629E-008, 1.79226E-008
1, 1680.00000, 0.093765, 0.030819, -1.59629E-008, 1.79226E-008
1, 1740.00000, 0.093765, 0.030819, -1.59629E-008, 1.79226E-008
1, 1800.00000, 0.093765, 0.030819, -1.59629E-008, 1.79226E-008
1, 1860.00000, 0.0937602, 0.0308176, 1.53667E-009, 2.59614E-008
1, 1920.00000, 0.093765, 0.030819, 1.80911E-009, 2.6026E-008
1, 1980.00000, 0.093765, 0.030819, 1.80971E-009, 2.60266E-008
1, 2040.00000, 0.093765, 0.030819, 1.80971E-009, 2.60266E-008
1, 2100.00000, 0.093765, 0.030819, 1.80971E-009, 2.60266E-008
1, 2160.00000, 0.0803731, 0.0264173, 3.25663E-008, 2.02795E-008
1, 2220.00000, 0.08037, 0.0264163, 3.2342E-008, 2.02477E-008
1, 2280.00000, 0.08037, 0.0264163, 3.23417E-008, 2.02471E-008
1, 2340.00000, 0.08037, 0.0264163, 3.23417E-008, 2.02471E-008
1, 2400.00000, 0.08037, 0.0264163, 3.23417E-008, 2.02471E-008
1, 2460.00000, 0.0937679, 0.0308194, 4.35003E-009, 4.55016E-008
1, 2520.00000, 0.093765, 0.030819, 4.20768E-009, 4.54394E-008
1, 2580.00000, 0.093765, 0.030819, 4.2075E-009, 4.54389E-008
1, 2640.00000, 0.093765, 0.030819, 4.2075E-009, 4.54389E-008
1, 2700.00000, 0.093765, 0.030819, 4.2075E-009, 4.54389E-008
1, 2760.00000, 0.10716, 0.0352217, -8.13175E-008, -8.94648E-009
1, 2820.00000, 0.10716, 0.0352218, -8.13131E-008, -8.94573E-009
1, 2880.00000, 0.10716, 0.0352218, -8.13131E-008, -8.94573E-009
1, 2940.00000, 0.10716, 0.0352218, -8.13131E-008, -8.94572E-009
1, 3000.00000, 0.10716, 0.0352218, -8.13131E-008, -8.94572E-009
1, 3060.00000, 0.0669752, 0.0220126, -3.46792E-009, -3.69468E-008
1, 3120.00000, 0.066975, 0.0220137, -3.38736E-009, -3.68483E-008
1, 3180.00000, 0.066975, 0.0220137, -3.38745E-009, -3.68479E-008
1, 3240.00000, 0.066975, 0.0220137, -3.38745E-009, -3.68479E-008
1, 3300.00000, 0.066975, 0.0220137, -3.38745E-009, -3.68479E-008
1, 3360.00000, 0.0803696, 0.0264162, -1.89265E-009, -2.8297E-008
1, 3420.00000, 0.08037, 0.0264164, -1.8716E-009, -2.83055E-008
1, 3480.00000, 0.08037, 0.0264164, -1.8716E-009, -2.83055E-008
1, 3540.00000, 0.08037, 0.0264164, -1.8716E-009, -2.83055E-008
2, 0.00000, 0.08037, 0.0264164, -1.8716E-009, -2.83055E-008
2, 60.00000, 0.0803705, 0.0264164, -1.44763E-008, -2.87072E-009
2, 120.00000, 0.08037, 0.0264163, -1.44913E-008, -2.85701E-009
2, 180.00000, 0.08037, 0.0264163, -1.44913E-008, -2.85698E-009
2, 240.00000, 0.08037, 0.0264163, -1.44913E-008, -2.85698E-009
2, 300.00000, 0.08037, 0.0264163, -1.44913E-008, -2.85698E-009
2, 360.00000, 0.0937654, 0.0308193, 1.57275E-009, 2.35404E-008
2, 420.00000, 0.093765, 0.030819, 1.54952E-009, 2.35432E-008
2, 480.00000, 0.093765, 0.030819, 1.54942E-009, 2.35432E-008
2, 540.00000, 0.093765, 0.030819, 1.54942E-009, 2.35432E-008
2, 600.00000, 0.093765, 0.030819, 1.54942E-009, 2.35432E-008
2, 660.00000, 0.0669774, 0.0220158, -1.24004E-008, -2.268E-009
2, 720.00000, 0.066975, 0.0220136, -1.25256E-008, -2.37684E-009
2, 780.00000, 0.066975, 0.0220136, -1.25259E-008, -2.37759E-009
2, 840.00000, 0.066975, 0.0220136, -1.25259E-008, -2.3776E-009
2, 900.00000, 0.066975, 0.0220136, -1.25259E-008, -2.3776E-009
2, 960.00000, 0.0803693, 0.0264159, -1.33714E-008, 1.41263E-008
2, 1020.00000, 0.08037, 0.0264163, -1.33342E-008, 1.41347E-008
2, 1080.00000, 0.08037, 0.0264163, -1.33341E-008, 1.41348E-008
2, 1140.00000, 0.08037, 0.0264163, -1.33341E-008, 1.41348E-008
2, 1200.00000, 0.08037, 0.0264163, -1.33341E-008, 1.41348E-008
2, 1260.00000, 0.0669759, 0.022015, 2.39797E-008, -1.23915E-008
2, 1320.00000, 0.0669743, 0.0220133, 2.39474E-008, -1.2499E-008
2, 1380.00000, 0.066975, 0.0220136, 2.39473E-008, -1.24937E-008
2, 1440.00000, 0.066975, 0.0220136, 2.39473E-008, -1.24937E-008
2, 1500.00000, 0.066975, 0.0220136, 2.39473E-008, -1.24937E-008
2, 1560.00000, 0.0937659, 0.0308194, -1.61104E-008, 1.56369E-008
2, 1620.00000, 0.093765, 0.0308191, -1.61511E-008, 1.5652E-008
2, 1680.00000, 0.093765, 0.030819, -1.61514E-008, 1.56519E-008
2, 1740.00000, 0.093765, 0.030819, -1.61514E-008, 1.56519E-008
2, 1800.00000, 0.093765, 0.030819, -1.61514E-008, 1.56519E-008
2, 1860.00000, 0.0535776, 0.0176101, 2.01731E-008, 1.64293E-009
2, 1920.00000, 0.05358, 0.0176109, 2.02254E-008, 1.62306E-009
2, 1980.00000, 0.05358, 0.0176109, 2.02258E-008, 1.62313E-009
2, 2040.00000, 0.05358, 0.0176109, 2.02258E-008, 1.62313E-009
2, 2100.00000, 0.05358, 0.0176109, 2.02258E-008, 1.62313E-009
2, 2160.00000, 0.0669767, 0.0220134, 2.79342E-008, 2.88018E-008
2, 2220.00000, 0.066975, 0.0220136, 2.78996E-008, 2.88921E-008
2, 2280.00000, 0.066975, 0.0220136, 2.78991E-008, 2.88925E-008
2, 2340.00000, 0.066975, 0.0220136, 2.78991E-008, 2.88925E-008
2, 2400.00000, 0.066975, 0.0220136, 2.78991E-008, 2.88925E-008
2, 2460.00000, 0.0803745, 0.0264145, -1.43728E-008, -3.28333E-009
2, 2520.00000, 0.0803701, 0.0264163, -1.44651E-008, -2.94935E-009
2, 2580.00000, 0.08037, 0.0264163, -1.4467E-008, -2.94749E-009
2, 2640.00000, 0.08037, 0.0264163, -1.4467E-008, -2.94748E-009
2, 2700.00000, 0.08037, 0.0264163, -1.4467E-008, -2.94748E-009
2, 2760.00000, 0.0669702, 0.0220134, 1.24429E-008, -4.22703E-009
2, 2820.00000, 0.0669749, 0.0220136, 1.26543E-008, -4.43218E-009
2, 2880.00000, 0.066975, 0.0220136, 1.26564E-008, -4.43271E-009
2, 2940.00000, 0.066975, 0.0220136, 1.26564E-008, -4.43271E-009
2, 3000.00000, 0.066975, 0.0220136, 1.26564E-008, -4.43271E-009
2, 3060.00000, 0.0937648, 0.0308201, -1.38782E-008, 3.50224E-008
2, 3120.00000, 0.093765, 0.030819, -1.39085E-008, 3.49343E-008
2, 3180.00000, 0.093765, 0.030819, -1.39084E-008, 3.49336E-008
2, 3240.00000, 0.093765, 0.030819, -1.39084E-008, 3.49336E-008
2, 3300.00000, 0.093765, 0.030819, -1.39084E-008, 3.49336E-008
2, 3360.00000, 0.0803701, 0.0264152, 1.803E-008, 2.78175E-008
2, 3420.00000, 0.08037, 0.0264163, 1.80622E-008, 2.79035E-008
2, 3480.00000, 0.08037, 0.0264163, 1.80621E-008, 2.79041E-008
2, 3540.00000, 0.08037, 0.0264163, 1.80621E-008, 2.79041E-008
3, 0.00000, 0.08037, 0.0264163, 1.80621E-008, 2.79041E-008
3, 60.00000, 0.0803697, 0.0264167, -1.49835E-008, 9.47292E-009
3, 120.00000, 0.08037, 0.0264163, -1.49842E-008, 9.4323E-009
3, 180.00000, 0.08037, 0.0264163, -1.49841E-008, 9.43211E-009
3, 240.00000, 0.08037, 0.0264163, -1.49841E-008, 9.43211E-009
3, 300.00000, 0.08037, 0.0264163, -1.49841E-008, 9.43211E-009
3, 360.00000, 0.0669754, 0.0220135, -1.96797E-009, -1.37342E-008
3, 420.00000, 0.066975, 0.0220136, -1.97818E-009, -1.37049E-008
3, 480.00000, 0.066975, 0.0220136, -1.9783E-009, -1.37048E-008
3, 540.00000, 0.066975, 0.0220136, -1.9783E-009, -1.37048E-008
3, 600.00000, 0.066975, 0.0220136, -1.9783E-009, -1.37048E-008
3, 660.00000, 0.0803735, 0.0264189, 8.77631E-010, 1.74118E-008
3, 720.00000, 0.08037, 0.0264163, 7.03805E-010, 1.73157E-008
3, 780.00000, 0.08037, 0.0264163, 7.03338E-010, 1.73147E-008
3, 840.00000, 0.08037, 0.0264163, 7.03338E-010, 1.73147E-008
3, 900.00000, 0.08037, 0.0264163, 7.03338E-010, 1.73147E-008
3, 960.00000, 0.0803696, 0.0264162, -7.06134E-010, -1.09031E-011
3, 1020.00000, 0.0803694, 0.0264161, -7.10765E-010, -3.71722E-011
3, 1080.00000, 0.08037, 0.0264163, -7.1077E-010, -3.08238E-011
3, 1140.00000, 0.08037, 0.0264163, -7.10794E-010, -3.07766E-011
3, 1200.00000, 0.08037, 0.0264163, -7.10795E-010, -3.07764E-011
3, 1260.00000, 0.0669755, 0.0220134, -1.40223E-009, -1.40155E-008
3, 1320.00000, 0.066975, 0.0220136, -1.41547E-009, -1.39735E-008
3, 1380.00000, 0.066975, 0.0220136, -1.41574E-009, -1.39733E-008
3, 1440.00000, 0.066975, 0.0220136, -1.41575E-009, -1.39732E-008
3, 1500.00000, 0.066975, 0.0220136, -1.41575E-009, -1.39732E-008
3, 1560.00000, 0.0669749, 0.0220138, -1.22754E-009, 7.44629E-010
3, 1620.00000, 0.066975, 0.0220136, -1.23239E-009, 7.28557E-010
3, 1680.00000, 0.066975, 0.0220136, -1.23236E-009, 7.28431E-010
3, 1740.00000, 0.066975, 0.0220136, -1.23236E-009, 7.2843E-010
3, 1800.00000, 0.066975, 0.0220136, -1.23236E-009, 7.2843E-010
3, 1860.00000, 0.0803694, 0.0264164, -1.38328E-008, 9.76747E-009
3, 1920.00000, 0.08037, 0.0264163, -1.38103E-008, 9.73019E-009
3, 1980.00000, 0.08037, 0.0264163, -1.381E-008, 9.73004E-009
3, 2040.00000, 0.08037, 0.0264163, -1.381E-008, 9.73004E-009
3, 2100.00000, 0.08037, 0.0264163, -1.381E-008, 9.73004E-009
3, 2160.00000, 0.0535802, 0.0176113, 1.83172E-008, -1.26524E-008
3, 2220.00000, 0.05358, 0.0176109, 1.82966E-008, -1.2669E-008
3, 2280.00000, 0.05358, 0.0176109, 1.82966E-008, -1.26692E-008
3, 2340.00000, 0.05358, 0.0176109, 1.82966E-008, -1.26692E-008
3, 2400.00000, 0.05358, 0.0176109, 1.82966E-008, -1.26692E-008
3, 2460.00000, 0.0803693, 0.0264151, 3.55281E-009, 5.0133E-008
3, 2520.00000, 0.08037, 0.0264163, 3.61248E-009, 5.01899E-008
3, 2580.00000, 0.08037, 0.0264163, 3.61267E-009, 5.01905E-008
3, 2640.00000, 0.08037, 0.0264163, 3.61267E-009, 5.01905E-008
3, 2700.00000, 0.08037, 0.0264163, 3.61267E-009, 5.01905E-008
3, 2760.00000, 0.0803713, 0.0264165, -1.77973E-008, -2.37509E-008
3, 2820.00000, 0.08037, 0.0264164, -1.78486E-008, -2.37015E-008
3, 2880.00000, 0.08037, 0.0264164, -1.78491E-008, -2.37013E-008
3, 2940.00000, 0.08037, 0.0264164, -1.78491E-008, -2.37013E-008
3, 3000.00000, 0.08037, 0.0264164, -1.78491E-008, -2.37013E-008
3, 3060.00000, 0.0669753, 0.0220145, 2.36978E-008, -2.31227E-009
3, 3120.00000, 0.066975, 0.0220136, 2.36612E-008, -2.36211E-009
3, 3180.00000, 0.066975, 0.0220136, 2.36611E-008, -2.36258E-009
3, 3240.00000, 0.066975, 0.0220136, 2.36611E-008, -2.36258E-009
3, 3300.00000, 0.066975, 0.0220136, 2.36611E-008, -2.36258E-009
3, 3360.00000, 0.0803703, 0.0264158, -3.17557E-008, -1.44434E-008
3, 3420.00000, 0.08037, 0.0264164, -3.17479E-008, -1.43896E-008
3, 3480.00000, 0.08037, 0.0264164, -3.17481E-008, -1.43892E-008
3, 3540.00000, 0.08037, 0.0264164, -3.17481E-008, -1.43892E-008
4, 0.00000, 0.0803684, 0.0264153, -3.29399E-008, -1.77955E-008
4, 60.00000, 0.0669724, 0.0220144, -2.44868E-009, -1.55837E-008
4, 120.00000, 0.066975, 0.0220136, -2.52238E-009, -1.54004E-008
4, 180.00000, 0.066975, 0.0220136, -2.525E-009, -1.53989E-008
4, 240.00000, 0.066975, 0.0220136, -2.52505E-009, -1.53989E-008
4, 300.00000, 0.066975, 0.0220136, -2.52505E-009, -1.53989E-008
4, 360.00000, 0.0937639, 0.0308158, 1.7422E-008, 2.56635E-008
4, 420.00000, 0.093765, 0.030819, 1.72611E-008, 2.54951E-008
4, 480.00000, 0.093765, 0.030819, 1.72607E-008, 2.54914E-008
4, 540.00000, 0.093765, 0.030819, 1.72607E-008, 2.54913E-008
4, 600.00000, 0.093765, 0.030819, 1.72607E-008, 2.54913E-008
4, 660.00000, 0.0803714, 0.0264173, -1.57009E-008, 8.31131E-009
4, 720.00000, 0.08037, 0.0264164, -1.56017E-008, 8.30688E-009
4, 780.00000, 0.08037, 0.0264163, -1.56004E-008, 8.30779E-009
4, 840.00000, 0.08037, 0.0264163, -1.56004E-008, 8.30782E-009
4, 900.00000, 0.08037, 0.0264163, -1.56004E-008, 8.30782E-009
4, 960.00000, 0.0803747, 0.0264189, -1.84907E-009, -1.58777E-009
4, 1020.00000, 0.08037, 0.0264164, -1.71446E-009, -1.56706E-009
4, 1080.00000, 0.08037, 0.0264163, -1.71279E-009, -1.56535E-009
4, 1140.00000, 0.0803699, 0.0264163, -1.71273E-009, -1.56505E-009
4, 1200.00000, 0.08037, 0.0264163, -1.71284E-009, -1.56534E-009
4, 1260.00000, 0.0669698, 0.0220149, 1.16842E-008, 4.18604E-009
4, 1320.00000, 0.0669749, 0.0220136, 1.15934E-008, 4.512E-009
4, 1380.00000, 0.066975, 0.0220136, 1.15889E-008, 4.515E-009
4, 1440.00000, 0.066975, 0.0220136, 1.15888E-008, 4.51499E-009
4, 1500.00000, 0.066975, 0.0220136, 1.15888E-008, 4.51499E-009
4, 1560.00000, 0.0803713, 0.0264165, -3.97456E-009, -1.87316E-008
4, 1620.00000, 0.08037, 0.0264164, -3.90837E-009, -1.87857E-008
4, 1680.00000, 0.08037, 0.0264164, -3.907E-009, -1.87858E-008
4, 1740.00000, 0.08037, 0.0264164, -3.90698E-009, -1.87858E-008
4, 1800.00000, 0.08037, 0.0264164, -3.90698E-009, -1.87858E-008
4, 1860.00000, 0.0669753, 0.0220145, 1.02998E-008, -9.79415E-009
4, 1920.00000, 0.066975, 0.0220136, 1.03396E-008, -9.74419E-009
4, 1980.00000, 0.0669751, 0.0220137, 1.03436E-008, -9.73255E-009
4, 2040.00000, 0.0669748, 0.0220135, 1.03388E-008, -9.74058E-009
4, 2100.00000, 0.0669751, 0.0220137, 1.03429E-008, -9.73425E-009
4, 2160.00000, 0.0803692, 0.0264132, -1.02314E-010, 1.46028E-008
4, 2220.00000, 0.0803703, 0.0264165, -3.27335E-010, 1.44817E-008
4, 2280.00000, 0.0803699, 0.0264162, -3.27606E-010, 1.44919E-008
4, 2340.00000, 0.0803701, 0.0264164, -3.25376E-010, 1.44935E-008
4, 2400.00000, 0.0803707, 0.0264169, -3.0331E-010, 1.45317E-008
4, 2460.00000, 0.0803687, 0.0264157, 2.96448E-008, 1.24696E-008
4, 2520.00000, 0.0803709, 0.026417, 2.95906E-008, 1.2535E-008
4, 2580.00000, 0.08037, 0.0264163, 2.95861E-008, 1.25474E-008
4, 2640.00000, 0.08037, 0.0264163, 2.95859E-008, 1.25476E-008
4, 2700.00000, 0.08037, 0.0264163, 2.95859E-008, 1.25476E-008
4, 2760.00000, 0.0535786, 0.0176101, 1.91995E-008, -2.51854E-009
4, 2820.00000, 0.0535803, 0.0176111, 1.91249E-008, -2.48385E-009
4, 2880.00000, 0.0535801, 0.017611, 1.91249E-008, -2.47535E-009
4, 2940.00000, 0.0535802, 0.0176111, 1.91284E-008, -2.46132E-009
4, 3000.00000, 0.0535802, 0.0176111, 1.91319E-008, -2.44591E-009
4, 3060.00000, 0.0937678, 0.0308183, -1.85899E-008, 8.7192E-009
4, 3120.00000, 0.0937665, 0.0308202, -1.84484E-008, 8.61539E-009
4, 3180.00000, 0.0937647, 0.0308188, -1.84552E-008, 8.61973E-009
4, 3240.00000, 0.093766, 0.0308198, -1.84165E-008, 8.66954E-009
4, 3300.00000, 0.0937652, 0.0308192, -1.84087E-008, 8.69298E-009
4, 3360.00000, 0.0669754, 0.0220167, 1.04813E-008, -9.398E-009
4, 3420.00000, 0.0669756, 0.0220141, 1.06619E-008, -9.20209E-009
4, 3480.00000, 0.066976, 0.0220143, 1.06905E-008, -9.11955E-009
4, 3540.00000, 0.0669753, 0.0220137, 1.07016E-008, -9.07488E-009
5, 0.00000, 0.066975, 0.0220136, 1.07005E-008, -9.07069E-009
5, 60.00000, 0.0669741, 0.0220167, 9.08878E-009, -2.36782E-008
5, 120.00000, 0.0669752, 0.0220139, 9.19865E-009, -2.34231E-008
5, 180.00000, 0.0669757, 0.0220143, 9.21353E-009, -2.33633E-008
5, 240.00000, 0.0669755, 0.0220141, 9.2222E-009, -2.33155E-008
5, 300.00000, 0.0669764, 0.022015, 9.25644E-009, -2.3201E-008
5, 360.00000, 0.0937667, 0.0308158, -3.6326E-008, 1.41927E-010
5, 420.00000, 0.0937659, 0.0308198, -3.63371E-008, -1.01444E-010
5, 480.00000, 0.0937656, 0.0308197, -3.63062E-008, -5.85457E-011
5, 540.00000, 0.0937671, 0.0308211, -3.62119E-008, 7.03224E-011
5, 600.00000, 0.0937671, 0.030821, -3.61178E-008, 2.23531E-010
5, 660.00000, 0.0937649, 0.0308175, -2.21929E-008, -3.08823E-008
5, 720.00000, 0.0937675, 0.0308215, -2.21545E-008, -3.08066E-008
5, 780.00000, 0.0937661, 0.0308202, -2.21048E-008, -3.06819E-008
5, 840.00000, 0.0937667, 0.0308207, -2.20341E-008, -3.05393E-008
5, 900.00000, 0.0937673, 0.0308213, -2.19345E-008, -3.03381E-008
