hour, t(sec), P1 (kW), Q1 (kvar), P2 (kW), Q2 (kvar)
0, 60.00000, 0.292603, 0.0961718, -3.83711E-008, -5.40741E-007
0, 120.00000, 0.2926, 0.0961735, -3.84054E-008, -5.40757E-007
0, 180.00000, 0.2926, 0.0961735, -3.84054E-008, -5.40757E-007
0, 240.00000, 0.2926, 0.0961735, -3.84054E-008, -5.40757E-007
0, 300.00000, 0.2926, 0.0961735, -3.84054E-008, -5.40757E-007
0, 360.00000, 0.33441, 0.109913, -2.22263E-008, -2.04656E-008
0, 420.00000, 0.3344, 0.109912, -2.27806E-008, -2.01791E-008
0, 480.00000, 0.3344, 0.109912, -2.27812E-008, -2.01799E-008
0, 540.00000, 0.3344, 0.109912, -2.27812E-008, -2.01799E-008
0, 600.00000, 0.3344, 0.109912, -2.27812E-008, -2.01799E-008
0, 660.00000, 0.334395, 0.109919, -3.18721E-008, -2.20794E-007
0, 720.00000, 0.3344, 0.109912, -3.17266E-008, -2.21212E-007
0, 780.00000, 0.3344, 0.109912, -3.1726E-008, -2.21212E-007
0, 840.00000, 0.3344, 0.109912, -3.1726E-008, -2.21212E-007
0, 900.00000, 0.3344, 0.109912, -3.1726E-008, -2.21212E-007
0, 960.00000, 0.3762, 0.123651, -4.19142E-007, -1.14479E-008
0, 1020.00000, 0.3762, 0.123651, -4.19138E-007, -1.14587E-008
0, 1080.00000, 0.3762, 0.123651, -4.19138E-007, -1.14587E-008
0, 1140.00000, 0.3762, 0.123651, -4.19138E-007, -1.14587E-008
0, 1200.00000, 0.3762, 0.123651, -4.19138E-007, -1.14587E-008
0, 1260.00000, 0.3762, 0.123651, -2.29034E-007, -1.31571E-007
0, 1320.00000, 0.3762, 0.123651, -2.29015E-007, -1.31572E-007
0, 1380.00000, 0.3762, 0.123651, -2.29015E-007, -1.31572E-007
0, 1440.00000, 0.3762, 0.123651, -2.29015E-007, -1.31572E-007
0, 1500.00000, 0.3762, 0.123651, -2.29015E-007, -1.31572E-007
0, 1560.00000, 0.376191, 0.123647, -4.28642E-007, -2.3747E-007
0, 1620.00000, 0.3762, 0.123651, -4.27999E-007, -2.37576E-007
0, 1680.00000, 0.3762, 0.123651, -4.27999E-007, -2.37575E-007
0, 1740.00000, 0.3762, 0.123651, -4.27999E-007, -2.37575E-007
0, 1800.00000, 0.3762, 0.123651, -4.27999E-007, -2.37575E-007
0, 1860.00000, 0.376202, 0.123654, -2.29173E-007, -1.328E-007
0, 1920.00000, 0.3762, 0.123651, -2.29389E-007, -1.32761E-007
0, 1980.00000, 0.3762, 0.123651, -2.29389E-007, -1.32761E-007
0, 2040.00000, 0.3762, 0.123651, -2.29389E-007, -1.32761E-007
0, 2100.00000, 0.3762, 0.123651, -2.29389E-007, -1.32761E-007
0, 2160.00000, 0.376214, 0.123663, -2.00893E-007, 5.45862E-007
0, 2220.00000, 0.3762, 0.12365, -2.0189E-007, 5.45623E-007
0, 2280.00000, 0.3762, 0.12365, -2.0189E-007, 5.45621E-007
0, 2340.00000, 0.3762, 0.12365, -2.0189E-007, 5.45621E-007
0, 2400.00000, 0.3762, 0.12365, -2.0189E-007, 5.45621E-007
0, 2460.00000, 0.2926, 0.0961739, 1.23903E-007, -2.83795E-007
0, 2520.00000, 0.2926, 0.0961733, 1.23887E-007, -2.83819E-007
0, 2580.00000, 0.2926, 0.0961733, 1.23887E-007, -2.83819E-007
0, 2640.00000, 0.2926, 0.0961733, 1.23887E-007, -2.83819E-007
0, 2700.00000, 0.2926, 0.0961733, 1.23887E-007, -2.83819E-007
0, 2760.00000, 0.334399, 0.109913, -1.91619E-007, 8.68203E-008
0, 2820.00000, 0.3344, 0.109912, -1.916E-007, 8.67433E-008
0, 2880.00000, 0.3344, 0.109912, -1.916E-007, 8.67435E-008
0, 2940.00000, 0.3344, 0.109912, -1.916E-007, 8.67435E-008
0, 3000.00000, 0.3344, 0.109912, -1.916E-007, 8.67435E-008
0, 3060.00000, 0.3344, 0.109912, 1.55017E-007, 7.18733E-008
0, 3120.00000, 0.3344, 0.109912, 1.55024E-007, 7.18703E-008
0, 3180.00000, 0.3344, 0.109912, 1.55024E-007, 7.18703E-008
0, 3240.00000, 0.3344, 0.109912, 1.55024E-007, 7.18703E-008
0, 3300.00000, 0.3344, 0.109912, 1.55024E-007, 7.18703E-008
0, 3360.00000, 0.334394, 0.109911, 3.48453E-007, 5.65382E-007
0, 3420.00000, 0.3344, 0.109911, 3.48599E-007, 5.65228E-007
0, 3480.00000, 0.3344, 0.109911, 3.48599E-007, 5.65228E-007
0, 3540.00000, 0.3344, 0.109911, 3.48599E-007, 5.65228E-007
1, 0.00000, 0.3344, 0.109911, 3.48599E-007, 5.65228E-007
1, 60.00000, 0.250801, 0.0824338, 1.16687E-007, 5.00996E-008
1, 120.00000, 0.2508, 0.0824339, 1.16715E-007, 5.00946E-008
1, 180.00000, 0.2508, 0.0824339, 1.16715E-007, 5.00951E-008
1, 240.00000, 0.2508, 0.0824339, 1.16715E-007, 5.00952E-008
1, 300.00000, 0.2508, 0.0824339, 1.16715E-007, 5.00952E-008
1, 360.00000, 0.209, 0.0686947, 3.20417E-007, 1.60064E-007
1, 420.00000, 0.209, 0.0686948, 3.20427E-007, 1.60059E-007
1, 480.00000, 0.209, 0.0686948, 3.20427E-007, 1.6006E-007
1, 540.00000, 0.209, 0.0686948, 3.20427E-007, 1.6006E-007
1, 600.00000, 0.209, 0.0686948, 3.20427E-007, 1.6006E-007
1, 660.00000, 0.2926, 0.0961733, -2.16303E-008, -2.61514E-008
1, 720.00000, 0.2926, 0.096173, -2.16345E-008, -2.61352E-008
1, 780.00000, 0.2926, 0.096173, -2.16348E-008, -2.61354E-008
1, 840.00000, 0.2926, 0.096173, -2.16348E-008, -2.61354E-008
1, 900.00000, 0.2926, 0.096173, -2.16348E-008, -2.61354E-008
1, 960.00000, 0.3344, 0.109911, -1.81198E-007, 4.72836E-007
1, 1020.00000, 0.3344, 0.109911, -1.81202E-007, 4.72819E-007
1, 1080.00000, 0.3344, 0.109911, -1.81202E-007, 4.72819E-007
1, 1140.00000, 0.3344, 0.109911, -1.81202E-007, 4.72819E-007
1, 1200.00000, 0.3344, 0.109911, -1.81202E-007, 4.72819E-007
1, 1260.00000, 0.3344, 0.109912, -2.80362E-008, -3.31494E-008
1, 1320.00000, 0.3344, 0.109912, -2.80244E-008, -3.31437E-008
1, 1380.00000, 0.3344, 0.109912, -2.80244E-008, -3.31435E-008
1, 1440.00000, 0.3344, 0.109912, -2.80244E-008, -3.31435E-008
1, 1500.00000, 0.3344, 0.109912, -2.80244E-008, -3.31435E-008
1, 1560.00000, 0.2508, 0.0824342, -2.18666E-008, -1.68503E-007
1, 1620.00000, 0.2508, 0.0824341, -2.187E-008, -1.68498E-007
1, 1680.00000, 0.2508, 0.0824341, -2.18701E-008, -1.68498E-007
1, 1740.00000, 0.2508, 0.0824341, -2.18701E-008, -1.68498E-007
1, 1800.00000, 0.2508, 0.0824341, -2.18701E-008, -1.68498E-007
1, 1860.00000, 0.250799, 0.082432, -1.60113E-007, -3.87697E-007
1, 1920.00000, 0.2508, 0.0824344, -1.60304E-007, -3.87843E-007
1, 1980.00000, 0.2508, 0.0824344, -1.60304E-007, -3.87843E-007
1, 2040.00000, 0.2508, 0.0824344, -1.60304E-007, -3.87843E-007
1, 2100.00000, 0.2508, 0.0824344, -1.60304E-007, -3.87843E-007
1, 2160.00000, 0.334396, 0.109916, -3.56876E-007, 3.79291E-007
1, 2220.00000, 0.3344, 0.109912, -3.56823E-007, 3.79676E-007
1, 2280.00000, 0.3344, 0.109912, -3.56823E-007, 3.79676E-007
1, 2340.00000, 0.3344, 0.109912, -3.56823E-007, 3.79676E-007
1, 2400.00000, 0.3344, 0.109912, -3.56823E-007, 3.79676E-007
1, 2460.00000, 0.292603, 0.0961725, -2.14239E-008, -2.62821E-008
1, 2520.00000, 0.2926, 0.096173, -2.13819E-008, -2.63478E-008
1, 2580.00000, 0.2926, 0.096173, -2.13824E-008, -2.63476E-008
1, 2640.00000, 0.2926, 0.096173, -2.13824E-008, -2.63476E-008
1, 2700.00000, 0.2926, 0.096173, -2.13824E-008, -2.63476E-008
1, 2760.00000, 0.2926, 0.0961733, -1.83298E-007, -2.80815E-007
1, 2820.00000, 0.2926, 0.0961732, -1.83305E-007, -2.80804E-007
1, 2880.00000, 0.2926, 0.0961732, -1.83305E-007, -2.80804E-007
1, 2940.00000, 0.2926, 0.0961732, -1.83305E-007, -2.80804E-007
1, 3000.00000, 0.2926, 0.0961732, -1.83305E-007, -2.80804E-007
1, 3060.00000, 0.292602, 0.0961707, -1.3726E-008, 1.48041E-007
1, 3120.00000, 0.2926, 0.0961728, -1.37942E-008, 1.4784E-007
1, 3180.00000, 0.2926, 0.0961728, -1.37936E-008, 1.4784E-007
1, 3240.00000, 0.2926, 0.0961728, -1.37936E-008, 1.4784E-007
1, 3300.00000, 0.2926, 0.0961728, -1.37936E-008, 1.4784E-007
1, 3360.00000, 0.2508, 0.0824342, -2.78048E-008, -3.18737E-007
1, 3420.00000, 0.2508, 0.0824343, -2.78023E-008, -3.18745E-007
1, 3480.00000, 0.2508, 0.0824343, -2.78021E-008, -3.18745E-007
1, 3540.00000, 0.2508, 0.0824343, -2.78021E-008, -3.18745E-007
2, 0.00000, 0.2508, 0.0824343, -2.78021E-008, -3.18745E-007
2, 60.00000, 0.2508, 0.0824345, -1.59772E-007, -3.86796E-007
2, 120.00000, 0.2508, 0.0824344, -1.5977E-007, -3.86797E-007
2, 180.00000, 0.2508, 0.0824344, -1.5977E-007, -3.86797E-007
2, 240.00000, 0.2508, 0.0824344, -1.5977E-007, -3.86797E-007
2, 300.00000, 0.2508, 0.0824344, -1.5977E-007, -3.86797E-007
2, 360.00000, 0.2508, 0.082434, -1.47075E-007, -8.74918E-008
2, 420.00000, 0.2508, 0.0824341, -1.47082E-007, -8.74919E-008
2, 480.00000, 0.2508, 0.0824341, -1.47082E-007, -8.74919E-008
2, 540.00000, 0.2508, 0.0824341, -1.47082E-007, -8.74919E-008
2, 600.00000, 0.2508, 0.0824341, -1.47082E-007, -8.74919E-008
2, 660.00000, 0.250796, 0.0824365, -2.85422E-007, -3.064E-007
2, 720.00000, 0.2508, 0.0824343, -2.85697E-007, -3.062E-007
2, 780.00000, 0.2508, 0.0824343, -2.85697E-007, -3.062E-007
2, 840.00000, 0.2508, 0.0824343, -2.85697E-007, -3.062E-007
2, 900.00000, 0.2508, 0.0824343, -2.85697E-007, -3.062E-007
2, 960.00000, 0.2926, 0.0961729, -3.22267E-007, -1.26245E-008
2, 1020.00000, 0.2926, 0.096173, -3.22274E-007, -1.26222E-008
2, 1080.00000, 0.2926, 0.096173, -3.22274E-007, -1.26222E-008
2, 1140.00000, 0.2926, 0.096173, -3.22274E-007, -1.26222E-008
2, 1200.00000, 0.2926, 0.096173, -3.22274E-007, -1.26222E-008
2, 1260.00000, 0.292602, 0.0961713, -1.74595E-007, -1.06033E-007
2, 1320.00000, 0.2926, 0.0961728, -1.74641E-007, -1.06149E-007
2, 1380.00000, 0.2926, 0.0961731, -1.74641E-007, -1.0615E-007
2, 1440.00000, 0.2926, 0.0961731, -1.74641E-007, -1.0615E-007
2, 1500.00000, 0.2926, 0.0961731, -1.74641E-007, -1.0615E-007
2, 1560.00000, 0.2508, 0.0824342, -2.16913E-008, -1.68688E-007
2, 1620.00000, 0.2508, 0.0824341, -2.16869E-008, -1.6869E-007
2, 1680.00000, 0.2508, 0.0824341, -2.16869E-008, -1.6869E-007
2, 1740.00000, 0.2508, 0.0824341, -2.16869E-008, -1.6869E-007
2, 1800.00000, 0.2508, 0.0824341, -2.16869E-008, -1.6869E-007
2, 1860.00000, 0.209002, 0.0686953, 9.40525E-008, -7.92966E-008
2, 1920.00000, 0.209, 0.0686951, 9.43208E-008, -7.92745E-008
2, 1980.00000, 0.209, 0.0686951, 9.43209E-008, -7.92743E-008
2, 2040.00000, 0.209, 0.0686951, 9.43209E-008, -7.92743E-008
2, 2100.00000, 0.209, 0.0686951, 9.43209E-008, -7.92743E-008
2, 2160.00000, 0.208998, 0.0686954, 9.41792E-008, -7.97258E-008
2, 2220.00000, 0.209, 0.0686951, 9.40528E-008, -7.97205E-008
2, 2280.00000, 0.209, 0.0686951, 9.40527E-008, -7.97206E-008
2, 2340.00000, 0.209, 0.0686951, 9.40527E-008, -7.97206E-008
2, 2400.00000, 0.209, 0.0686951, 9.40527E-008, -7.97206E-008
2, 2460.00000, 0.2508, 0.0824333, 1.16518E-007, 5.03477E-008
2, 2520.00000, 0.2508, 0.0824339, 1.16522E-007, 5.02693E-008
2, 2580.00000, 0.2508, 0.0824339, 1.16522E-007, 5.02691E-008
2, 2640.00000, 0.2508, 0.0824339, 1.16522E-007, 5.02691E-008
2, 2700.00000, 0.2508, 0.0824339, 1.16522E-007, 5.02691E-008
2, 2760.00000, 0.250798, 0.0824338, -9.52745E-009, 1.30002E-007
2, 2820.00000, 0.2508, 0.0824338, -9.64828E-009, 1.30045E-007
2, 2880.00000, 0.2508, 0.0824338, -9.64854E-009, 1.30045E-007
2, 2940.00000, 0.2508, 0.0824338, -9.64854E-009, 1.30045E-007
2, 3000.00000, 0.2508, 0.0824338, -9.64854E-009, 1.30045E-007
2, 3060.00000, 0.2926, 0.0961729, -1.36701E-008, 1.4817E-007
2, 3120.00000, 0.2926, 0.0961728, -1.36685E-008, 1.48175E-007
2, 3180.00000, 0.2926, 0.0961728, -1.36685E-008, 1.48175E-007
2, 3240.00000, 0.2926, 0.0961728, -1.36685E-008, 1.48175E-007
2, 3300.00000, 0.2926, 0.0961728, -1.36685E-008, 1.48175E-007
2, 3360.00000, 0.2508, 0.0824338, -1.41756E-007, 6.13129E-008
2, 3420.00000, 0.2508, 0.0824339, -1.41759E-007, 6.1307E-008
2, 3480.00000, 0.2508, 0.0824339, -1.41759E-007, 6.1307E-008
2, 3540.00000, 0.2508, 0.0824339, -1.41759E-007, 6.1307E-008
3, 0.00000, 0.2508, 0.0824339, -1.41759E-007, 6.1307E-008
3, 60.00000, 0.2508, 0.082434, -1.59308E-008, -1.91297E-008
3, 120.00000, 0.2508, 0.082434, -1.59287E-008, -1.91294E-008
3, 180.00000, 0.2508, 0.082434, -1.59287E-008, -1.91294E-008
3, 240.00000, 0.2508, 0.082434, -1.59287E-008, -1.91294E-008
3, 300.00000, 0.2508, 0.082434, -1.59287E-008, -1.91294E-008
3, 360.00000, 0.2926, 0.0961728, -3.15583E-007, 1.61514E-007
3, 420.00000, 0.2926, 0.0961728, -3.15587E-007, 1.61517E-007
3, 480.00000, 0.2926, 0.0961728, -3.15587E-007, 1.61517E-007
3, 540.00000, 0.2926, 0.0961728, -3.15587E-007, 1.61517E-007
3, 600.00000, 0.2926, 0.0961728, -3.15587E-007, 1.61517E-007
3, 660.00000, 0.250801, 0.0824347, -1.41959E-007, 6.12003E-008
3, 720.00000, 0.2508, 0.0824339, -1.41909E-007, 6.121E-008
3, 780.00000, 0.2508, 0.0824339, -1.41908E-007, 6.12101E-008
3, 840.00000, 0.2508, 0.0824339, -1.41908E-007, 6.12101E-008
3, 900.00000, 0.2508, 0.0824339, -1.41908E-007, 6.12101E-008
3, 960.00000, 0.2508, 0.0824339, 2.49712E-007, 1.19323E-007
3, 1020.00000, 0.2508, 0.0824337, 2.49718E-007, 1.19332E-007
3, 1080.00000, 0.2508, 0.0824339, 2.49718E-007, 1.19332E-007
3, 1140.00000, 0.2508, 0.0824339, 2.49718E-007, 1.19332E-007
3, 1200.00000, 0.2508, 0.0824339, 2.49718E-007, 1.19332E-007
3, 1260.00000, 0.209, 0.0686951, 8.86276E-008, -2.04193E-007
3, 1320.00000, 0.209, 0.0686952, 8.86293E-008, -2.04204E-007
3, 1380.00000, 0.209, 0.0686952, 8.86293E-008, -2.04204E-007
3, 1440.00000, 0.209, 0.0686952, 8.86293E-008, -2.04204E-007
3, 1500.00000, 0.209, 0.0686952, 8.86293E-008, -2.04204E-007
3, 1560.00000, 0.2508, 0.082434, -1.41465E-007, 6.07593E-008
3, 1620.00000, 0.2508, 0.0824339, -1.41466E-007, 6.07666E-008
3, 1680.00000, 0.2508, 0.0824339, -1.41466E-007, 6.07666E-008
3, 1740.00000, 0.2508, 0.0824339, -1.41466E-007, 6.07666E-008
3, 1800.00000, 0.2508, 0.0824339, -1.41466E-007, 6.07666E-008
3, 1860.00000, 0.209, 0.0686949, 9.92069E-008, 4.45E-008
3, 1920.00000, 0.209, 0.0686949, 9.9206E-008, 4.44999E-008
3, 1980.00000, 0.209, 0.0686949, 9.9206E-008, 4.44999E-008
3, 2040.00000, 0.209, 0.0686949, 9.9206E-008, 4.44999E-008
3, 2100.00000, 0.209, 0.0686949, 9.9206E-008, 4.44999E-008
3, 2160.00000, 0.2926, 0.0961729, -1.40639E-008, 1.47913E-007
3, 2220.00000, 0.2926, 0.0961728, -1.4058E-008, 1.47915E-007
3, 2280.00000, 0.2926, 0.0961728, -1.4058E-008, 1.47915E-007
3, 2340.00000, 0.2926, 0.0961728, -1.4058E-008, 1.47915E-007
3, 2400.00000, 0.2926, 0.0961728, -1.4058E-008, 1.47915E-007
3, 2460.00000, 0.2508, 0.0824338, 1.16544E-007, 4.98758E-008
3, 2520.00000, 0.2508, 0.0824339, 1.16539E-007, 4.98776E-008
3, 2580.00000, 0.2508, 0.0824339, 1.16539E-007, 4.98776E-008
3, 2640.00000, 0.2508, 0.0824339, 1.16539E-007, 4.98776E-008
3, 2700.00000, 0.2508, 0.0824339, 1.16539E-007, 4.98776E-008
3, 2760.00000, 0.209, 0.0686949, 9.90939E-008, 4.43669E-008
3, 2820.00000, 0.209, 0.0686949, 9.90927E-008, 4.43615E-008
3, 2880.00000, 0.209, 0.0686949, 9.90928E-008, 4.43615E-008
3, 2940.00000, 0.209, 0.0686949, 9.90928E-008, 4.43615E-008
3, 3000.00000, 0.209, 0.0686949, 9.90928E-008, 4.43615E-008
3, 3060.00000, 0.209, 0.0686953, 8.87815E-008, -2.04453E-007
3, 3120.00000, 0.209, 0.0686952, 8.87856E-008, -2.04451E-007
3, 3180.00000, 0.209, 0.0686952, 8.87856E-008, -2.0445E-007
3, 3240.00000, 0.209, 0.0686952, 8.87856E-008, -2.0445E-007
3, 3300.00000, 0.209, 0.0686952, 8.87856E-008, -2.0445E-007
3, 3360.00000, 0.2508, 0.0824338, -9.33345E-009, 1.29908E-007
3, 3420.00000, 0.2508, 0.0824338, -9.33434E-009, 1.29907E-007
3, 3480.00000, 0.2508, 0.0824338, -9.33433E-009, 1.29907E-007
3, 3540.00000, 0.2508, 0.0824338, -9.33433E-009, 1.29907E-007
4, 0.00000, 0.2508, 0.0824334, -9.3348E-009, 1.29911E-007
4, 60.00000, 0.209, 0.0686948, 2.10803E-007, 1.02855E-007
4, 120.00000, 0.209, 0.0686949, 2.108E-007, 1.02864E-007
4, 180.00000, 0.209, 0.0686949, 2.108E-007, 1.02864E-007
4, 240.00000, 0.209, 0.0686949, 2.108E-007, 1.02864E-007
4, 300.00000, 0.209, 0.0686949, 2.108E-007, 1.02864E-007
4, 360.00000, 0.2508, 0.0824339, -2.81149E-007, -1.57603E-007
4, 420.00000, 0.2508, 0.0824341, -2.81152E-007, -1.57608E-007
4, 480.00000, 0.2508, 0.0824341, -2.81152E-007, -1.57608E-007
4, 540.00000, 0.2508, 0.0824341, -2.81152E-007, -1.57608E-007
4, 600.00000, 0.2508, 0.0824341, -2.81152E-007, -1.57608E-007
4, 660.00000, 0.209, 0.0686952, -1.63007E-008, -1.38257E-007
4, 720.00000, 0.209, 0.0686951, -1.62984E-008, -1.3826E-007
4, 780.00000, 0.209, 0.0686951, -1.62984E-008, -1.3826E-007
4, 840.00000, 0.209, 0.0686951, -1.62984E-008, -1.3826E-007
4, 900.00000, 0.209, 0.0686951, -1.62984E-008, -1.3826E-007
4, 960.00000, 0.292606, 0.0961714, -1.68434E-007, 6.78617E-008
4, 1020.00000, 0.2926, 0.0961729, -1.68216E-007, 6.76823E-008
4, 1080.00000, 0.2926, 0.0961729, -1.68216E-007, 6.76822E-008
4, 1140.00000, 0.2926, 0.096173, -1.68218E-007, 6.76833E-008
4, 1200.00000, 0.2926, 0.0961729, -1.68219E-007, 6.76832E-008
4, 1260.00000, 0.250798, 0.0824349, -1.5421E-007, -2.38452E-007
4, 1320.00000, 0.2508, 0.0824342, -1.54268E-007, -2.38384E-007
4, 1380.00000, 0.2508, 0.0824342, -1.54268E-007, -2.38384E-007
4, 1440.00000, 0.2508, 0.0824342, -1.54268E-007, -2.38384E-007
4, 1500.00000, 0.2508, 0.0824342, -1.54268E-007, -2.38384E-007
4, 1560.00000, 0.2926, 0.0961729, -1.69741E-007, 6.77324E-008
4, 1620.00000, 0.2926, 0.0961729, -1.69737E-007, 6.7725E-008
4, 1680.00000, 0.2926, 0.0961729, -1.69736E-007, 6.7725E-008
4, 1740.00000, 0.2926, 0.0961729, -1.69736E-007, 6.7725E-008
4, 1800.00000, 0.2926, 0.0961729, -1.69736E-007, 6.7725E-008
4, 1860.00000, 0.209, 0.0686949, 1.04609E-007, 1.69122E-007
4, 1920.00000, 0.209, 0.0686948, 1.04609E-007, 1.69124E-007
4, 1980.00000, 0.209, 0.0686948, 1.04638E-007, 1.692E-007
4, 2040.00000, 0.209, 0.0686948, 1.0461E-007, 1.69124E-007
4, 2100.00000, 0.209, 0.0686948, 1.04633E-007, 1.69188E-007
4, 2160.00000, 0.209002, 0.0686943, 9.45828E-008, -7.9757E-008
4, 2220.00000, 0.209, 0.068695, 9.47676E-008, -7.96584E-008
4, 2280.00000, 0.209, 0.068695, 9.47836E-008, -7.96144E-008
4, 2340.00000, 0.209, 0.0686951, 9.47934E-008, -7.95845E-008
4, 2400.00000, 0.209, 0.068695, 9.48986E-008, -7.92556E-008
4, 2460.00000, 0.2508, 0.0824338, -1.56008E-008, -1.76514E-008
4, 2520.00000, 0.250801, 0.082434, -1.53794E-008, -1.7138E-008
4, 2580.00000, 0.2508, 0.082434, -1.53728E-008, -1.7137E-008
4, 2640.00000, 0.2508, 0.082434, -1.53727E-008, -1.71368E-008
4, 2700.00000, 0.2508, 0.082434, -1.53727E-008, -1.71368E-008
4, 2760.00000, 0.2508, 0.0824342, 1.05514E-007, -2.46921E-007
4, 2820.00000, 0.2508, 0.0824342, 1.056E-007, -2.46596E-007
4, 2880.00000, 0.2508, 0.0824342, 1.05623E-007, -2.46515E-007
4, 2940.00000, 0.2508, 0.0824342, 1.05679E-007, -2.46317E-007
4, 3000.00000, 0.2508, 0.0824342, 1.05735E-007, -2.46119E-007
4, 3060.00000, 0.209, 0.0686951, -1.52992E-008, -1.3559E-007
4, 3120.00000, 0.209001, 0.0686952, -1.50648E-008, -1.35001E-007
4, 3180.00000, 0.209, 0.0686951, -1.51094E-008, -1.35121E-007
4, 3240.00000, 0.209, 0.0686952, -1.49508E-008, -1.34714E-007
4, 3300.00000, 0.209, 0.0686951, -1.49232E-008, -1.34647E-007
4, 3360.00000, 0.250802, 0.0824336, -1.46687E-007, -8.44687E-008
4, 3420.00000, 0.250801, 0.0824341, -1.46418E-007, -8.41476E-008
4, 3480.00000, 0.2508, 0.0824343, -1.4608E-007, -8.34178E-008
4, 3540.00000, 0.250798, 0.0824329, -1.46219E-007, -8.32476E-008
5, 0.00000, 0.2508, 0.082434, -1.4623E-007, -8.33161E-008
5, 60.00000, 0.2508, 0.0824335, -1.38361E-008, -1.38823E-008
5, 120.00000, 0.2508, 0.0824344, -1.3785E-008, -1.37123E-008
5, 180.00000, 0.250801, 0.0824351, -1.35911E-008, -1.32572E-008
5, 240.00000, 0.2508, 0.0824348, -1.34501E-008, -1.2917E-008
5, 300.00000, 0.250801, 0.0824363, -1.30405E-008, -1.19582E-008
5, 360.00000, 0.2508, 0.0824352, 1.13854E-007, -9.22551E-008
5, 420.00000, 0.2508, 0.0824349, 1.14028E-007, -9.18348E-008
5, 480.00000, 0.2508, 0.0824347, 1.14115E-007, -9.15416E-008
5, 540.00000, 0.250801, 0.0824362, 1.14423E-007, -9.057E-008
5, 600.00000, 0.250801, 0.0824361, 1.14721E-007, -8.95827E-008
5, 660.00000, 0.2926, 0.0961719, -1.67007E-008, -1.38053E-008
5, 720.00000, 0.292602, 0.0961759, -1.61702E-008, -1.25726E-008
5, 780.00000, 0.292601, 0.0961743, -1.59163E-008, -1.19359E-008
5, 840.00000, 0.292601, 0.096175, -1.55326E-008, -1.10217E-008
5, 900.00000, 0.292602, 0.0961757, -1.49939E-008, -9.73667E-009
5, 960.00000, 0.292599, 0.096173, -1.61021E-007, 8.49464E-008
5, 1020.00000, 0.292602, 0.0961757, -1.60405E-007, 8.62527E-008
5, 1080.00000, 0.292602, 0.0961752, -1.59849E-007, 8.73224E-008
5, 1140.00000, 0.292601, 0.096175, -1.59314E-007, 8.83489E-008
5, 1200.00000, 0.292601, 0.0961748, -1.5883E-007, 8.92776E-008
5, 1260.00000, 0.2508, 0.0824339, 2.56262E-007, 1.38655E-007
5, 1320.00000, 0.2508, 0.082435, 2.5643E-007, 1.39221E-007
5, 1380.00000, 0.250801, 0.082436, 2.56768E-007, 1.40296E-007
5, 1440.00000, 0.250801, 0.0824353, 2.56987E-007, 1.41014E-007
5, 1500.00000, 0.250801, 0.0824362, 2.57368E-007, 1.42232E-007
