hour, t(sec), P1 (kW), Q1 (kvar), P2 (kW), Q2 (kvar)
0, 60.00000, 0.295922, 0.097244, 9.64024E-006, 1.64278E-005
0, 120.00000, 0.295915, 0.0972494, 9.63339E-006, 1.64132E-005
0, 180.00000, 0.295915, 0.0972494, 9.63348E-006, 1.64131E-005
0, 240.00000, 0.295915, 0.0972494, 9.63348E-006, 1.64131E-005
0, 300.00000, 0.295915, 0.0972494, 9.63348E-006, 1.64131E-005
0, 360.00000, 0.380491, 0.125065, -1.78639E-005, 2.0032E-005
0, 420.00000, 0.380493, 0.125036, -1.7868E-005, 1.9969E-005
0, 480.00000, 0.380493, 0.125036, -1.78676E-005, 1.9969E-005
0, 540.00000, 0.380493, 0.125036, -1.78676E-005, 1.9969E-005
0, 600.00000, 0.380493, 0.125036, -1.78676E-005, 1.9969E-005
0, 660.00000, 0.338197, 0.111138, -6.24511E-007, 1.26623E-006
0, 720.00000, 0.338201, 0.11116, -6.07282E-007, 1.31343E-006
0, 780.00000, 0.338201, 0.11116, -6.07593E-007, 1.31351E-006
0, 840.00000, 0.338201, 0.11116, -6.07594E-007, 1.31351E-006
0, 900.00000, 0.338201, 0.11116, -6.07594E-007, 1.31351E-006
0, 960.00000, 0.338203, 0.111136, -3.26381E-006, 2.1348E-005
0, 1020.00000, 0.338203, 0.11114, -3.26253E-006, 2.13572E-005
0, 1080.00000, 0.338203, 0.11114, -3.26259E-006, 2.13572E-005
0, 1140.00000, 0.338203, 0.11114, -3.26259E-006, 2.13572E-005
0, 1200.00000, 0.338203, 0.11114, -3.26259E-006, 2.13572E-005
0, 1260.00000, 0.338194, 0.111175, 7.1106E-006, -1.05674E-005
0, 1320.00000, 0.338193, 0.111172, 7.10554E-006, -1.05795E-005
0, 1380.00000, 0.338193, 0.111172, 7.10561E-006, -1.05795E-005
0, 1440.00000, 0.338193, 0.111172, 7.10561E-006, -1.05795E-005
0, 1500.00000, 0.338193, 0.111172, 7.10561E-006, -1.05795E-005
0, 1560.00000, 0.380511, 0.124991, -1.7139E-005, 2.08479E-005
0, 1620.00000, 0.380492, 0.125035, -1.72009E-005, 2.09308E-005
0, 1680.00000, 0.380492, 0.125035, -1.72015E-005, 2.09306E-005
0, 1740.00000, 0.380492, 0.125035, -1.72015E-005, 2.09306E-005
0, 1800.00000, 0.380492, 0.125035, -1.72015E-005, 2.09306E-005
0, 1860.00000, 0.33821, 0.111141, 1.90407E-006, 2.15124E-005
0, 1920.00000, 0.338198, 0.11114, 1.86435E-006, 2.1514E-005
0, 1980.00000, 0.338198, 0.111139, 1.86433E-006, 2.15138E-005
0, 2040.00000, 0.338198, 0.111139, 1.86433E-006, 2.15138E-005
0, 2100.00000, 0.338198, 0.111139, 1.86433E-006, 2.15138E-005
0, 2160.00000, 0.253622, 0.0833915, 1.98285E-005, -1.66399E-005
0, 2220.00000, 0.25363, 0.0833873, 1.9852E-005, -1.66552E-005
0, 2280.00000, 0.25363, 0.0833874, 1.98521E-005, -1.66551E-005
0, 2340.00000, 0.25363, 0.0833874, 1.98521E-005, -1.66551E-005
0, 2400.00000, 0.25363, 0.0833874, 1.98521E-005, -1.66551E-005
0, 2460.00000, 0.380512, 0.125067, -3.52745E-005, -1.44202E-005
0, 2520.00000, 0.38051, 0.12507, -3.52773E-005, -1.44113E-005
0, 2580.00000, 0.38051, 0.12507, -3.52774E-005, -1.44113E-005
0, 2640.00000, 0.38051, 0.12507, -3.52774E-005, -1.44113E-005
0, 2700.00000, 0.38051, 0.12507, -3.52774E-005, -1.44113E-005
0, 2760.00000, 0.338185, 0.111184, -1.10801E-005, -2.10303E-005
0, 2820.00000, 0.338211, 0.111182, -1.10026E-005, -2.10307E-005
0, 2880.00000, 0.338211, 0.111182, -1.10026E-005, -2.10303E-005
0, 2940.00000, 0.338211, 0.111182, -1.10026E-005, -2.10303E-005
0, 3000.00000, 0.338211, 0.111182, -1.10026E-005, -2.10303E-005
0, 3060.00000, 0.338206, 0.111154, -9.23096E-006, 9.58821E-006
0, 3120.00000, 0.338209, 0.111151, -9.22285E-006, 9.58264E-006
0, 3180.00000, 0.338209, 0.111151, -9.22281E-006, 9.58268E-006
0, 3240.00000, 0.338209, 0.111151, -9.22281E-006, 9.58268E-006
0, 3300.00000, 0.338209, 0.111151, -9.22281E-006, 9.58268E-006
0, 3360.00000, 0.380491, 0.125118, -2.71623E-005, -2.47277E-005
0, 3420.00000, 0.380502, 0.125081, -2.71468E-005, -2.48215E-005
0, 3480.00000, 0.380502, 0.125081, -2.71462E-005, -2.48215E-005
0, 3540.00000, 0.380502, 0.125081, -2.71462E-005, -2.48215E-005
1, 0.00000, 0.380502, 0.125081, -2.71462E-005, -2.48215E-005
1, 60.00000, 0.25366, 0.0833735, 5.37237E-006, -7.50165E-006
1, 120.00000, 0.253645, 0.0833786, 5.32091E-006, -7.51949E-006
1, 180.00000, 0.253645, 0.0833782, 5.32107E-006, -7.52057E-006
1, 240.00000, 0.253645, 0.0833782, 5.32109E-006, -7.52057E-006
1, 300.00000, 0.253645, 0.0833782, 5.32109E-006, -7.52057E-006
1, 360.00000, 0.295948, 0.0972853, -9.90492E-006, -1.89688E-005
1, 420.00000, 0.295935, 0.0972851, -9.94471E-006, -1.89772E-005
1, 480.00000, 0.295935, 0.0972848, -9.94467E-006, -1.89781E-005
1, 540.00000, 0.295935, 0.0972848, -9.94465E-006, -1.89781E-005
1, 600.00000, 0.295935, 0.0972848, -9.94465E-006, -1.89781E-005
1, 660.00000, 0.211361, 0.0694812, 6.47378E-006, 5.23999E-007
1, 720.00000, 0.211368, 0.069475, 6.49689E-006, 5.10734E-007
1, 780.00000, 0.211369, 0.0694751, 6.49722E-006, 5.11153E-007
1, 840.00000, 0.211369, 0.0694751, 6.49721E-006, 5.1116E-007
1, 900.00000, 0.211369, 0.0694751, 6.49721E-006, 5.1116E-007
1, 960.00000, 0.253648, 0.083356, 4.83892E-006, 8.69836E-006
1, 1020.00000, 0.253645, 0.083362, 4.8303E-006, 8.71276E-006
1, 1080.00000, 0.253645, 0.083362, 4.83E-006, 8.71263E-006
1, 1140.00000, 0.253645, 0.083362, 4.83E-006, 8.71262E-006
1, 1200.00000, 0.253645, 0.083362, 4.83E-006, 8.71262E-006
1, 1260.00000, 0.338232, 0.111143, -2.77272E-005, 2.0665E-005
1, 1320.00000, 0.338228, 0.11114, -2.77407E-005, 2.06559E-005
1, 1380.00000, 0.338228, 0.11114, -2.77406E-005, 2.06556E-005
1, 1440.00000, 0.338228, 0.11114, -2.77405E-005, 2.06556E-005
1, 1500.00000, 0.338228, 0.11114, -2.77405E-005, 2.06556E-005
1, 1560.00000, 0.338208, 0.111184, -1.34284E-005, -2.02813E-005
1, 1620.00000, 0.338213, 0.111181, -1.34139E-005, -2.0287E-005
1, 1680.00000, 0.338213, 0.111181, -1.34137E-005, -2.02867E-005
1, 1740.00000, 0.338213, 0.111181, -1.34137E-005, -2.02867E-005
1, 1800.00000, 0.338213, 0.111181, -1.34137E-005, -2.02867E-005
1, 1860.00000, 0.253647, 0.0834143, 5.44365E-006, -2.30819E-005
1, 1920.00000, 0.253644, 0.083394, 5.42771E-006, -2.31437E-005
1, 1980.00000, 0.253645, 0.0833939, 5.42868E-006, -2.31441E-005
1, 2040.00000, 0.253645, 0.0833939, 5.42869E-006, -2.31441E-005
1, 2100.00000, 0.253645, 0.0833939, 5.42869E-006, -2.31441E-005
1, 2160.00000, 0.338228, 0.111205, -3.09109E-005, -1.42367E-005
1, 2220.00000, 0.33823, 0.111175, -3.08981E-005, -1.43147E-005
1, 2280.00000, 0.338231, 0.111175, -3.08967E-005, -1.43144E-005
1, 2340.00000, 0.338231, 0.111175, -3.08967E-005, -1.43143E-005
1, 2400.00000, 0.338231, 0.111175, -3.08967E-005, -1.43143E-005
1, 2460.00000, 0.126806, 0.0416844, 1.55012E-005, 5.34354E-006
1, 2520.00000, 0.126809, 0.04168, 1.55076E-005, 5.32721E-006
1, 2580.00000, 0.126809, 0.04168, 1.55081E-005, 5.32726E-006
1, 2640.00000, 0.126809, 0.04168, 1.55081E-005, 5.32727E-006
1, 2700.00000, 0.126809, 0.04168, 1.55081E-005, 5.32727E-006
1, 2760.00000, 0.295927, 0.0972638, -6.62157E-006, 7.75531E-006
1, 2820.00000, 0.295932, 0.097258, -6.60883E-006, 7.74139E-006
1, 2880.00000, 0.295932, 0.0972581, -6.60853E-006, 7.74159E-006
1, 2940.00000, 0.295932, 0.0972581, -6.60854E-006, 7.7416E-006
1, 3000.00000, 0.295932, 0.0972581, -6.60854E-006, 7.7416E-006
1, 3060.00000, 0.29596, 0.0972503, -7.87294E-006, 8.4794E-006
1, 3120.00000, 0.295933, 0.0972578, -7.9535E-006, 8.50005E-006
1, 3180.00000, 0.295933, 0.0972574, -7.95404E-006, 8.49861E-006
1, 3240.00000, 0.295933, 0.0972573, -7.95402E-006, 8.49859E-006
1, 3300.00000, 0.295933, 0.0972573, -7.95402E-006, 8.49859E-006
1, 3360.00000, 0.253658, 0.0833579, -4.88436E-006, 6.89078E-006
1, 3420.00000, 0.253655, 0.0833639, -4.89427E-006, 6.90632E-006
1, 3480.00000, 0.253655, 0.0833638, -4.8946E-006, 6.90618E-006
1, 3540.00000, 0.253655, 0.0833638, -4.8946E-006, 6.90617E-006
2, 0.00000, 0.253655, 0.0833638, -4.8946E-006, 6.90617E-006
2, 60.00000, 0.211359, 0.0694773, 1.56708E-005, 1.3992E-007
2, 120.00000, 0.211359, 0.0694755, 1.56708E-005, 1.35134E-007
2, 180.00000, 0.211359, 0.0694755, 1.56708E-005, 1.35133E-007
2, 240.00000, 0.211359, 0.0694755, 1.56708E-005, 1.35133E-007
2, 300.00000, 0.211359, 0.0694755, 1.56708E-005, 1.35133E-007
2, 360.00000, 0.253646, 0.0833599, 4.17551E-006, 8.37842E-006
2, 420.00000, 0.253646, 0.0833623, 4.17441E-006, 8.38504E-006
2, 480.00000, 0.253646, 0.0833623, 4.17439E-006, 8.38504E-006
2, 540.00000, 0.253646, 0.0833623, 4.17439E-006, 8.38504E-006
2, 600.00000, 0.253646, 0.0833623, 4.17439E-006, 8.38504E-006
2, 660.00000, 0.253655, 0.0833794, -8.75602E-006, -1.70539E-005
2, 720.00000, 0.253659, 0.0833877, -8.74734E-006, -1.70353E-005
2, 780.00000, 0.253659, 0.0833878, -8.7474E-006, -1.70353E-005
2, 840.00000, 0.253659, 0.0833878, -8.7474E-006, -1.70353E-005
2, 900.00000, 0.253659, 0.0833878, -8.7474E-006, -1.70353E-005
2, 960.00000, 0.253649, 0.0833709, 4.77698E-007, -2.94259E-007
2, 1020.00000, 0.25365, 0.083371, 4.78154E-007, -2.93974E-007
2, 1080.00000, 0.25365, 0.083371, 4.78153E-007, -2.93973E-007
2, 1140.00000, 0.25365, 0.083371, 4.78153E-007, -2.93973E-007
2, 1200.00000, 0.25365, 0.083371, 4.78153E-007, -2.93973E-007
2, 1260.00000, 0.253659, 0.0833864, -1.25868E-005, -8.76961E-006
2, 1320.00000, 0.253662, 0.0833794, -1.2565E-005, -8.78457E-006
2, 1380.00000, 0.253663, 0.0833795, -1.2565E-005, -8.78449E-006
2, 1440.00000, 0.253663, 0.0833795, -1.2565E-005, -8.78449E-006
2, 1500.00000, 0.253663, 0.0833795, -1.2565E-005, -8.78449E-006
2, 1560.00000, 0.253642, 0.0833562, 7.10457E-006, 1.5659E-005
2, 1620.00000, 0.253643, 0.0833551, 7.10836E-006, 1.56567E-005
2, 1680.00000, 0.253643, 0.0833551, 7.10837E-006, 1.56567E-005
2, 1740.00000, 0.253643, 0.0833551, 7.10837E-006, 1.56567E-005
2, 1800.00000, 0.253643, 0.0833551, 7.10837E-006, 1.56567E-005
2, 1860.00000, 0.211371, 0.0694681, 1.06747E-005, 6.95315E-006
2, 1920.00000, 0.211364, 0.0694687, 1.06525E-005, 6.95356E-006
2, 1980.00000, 0.211364, 0.0694686, 1.06525E-005, 6.95349E-006
2, 2040.00000, 0.211364, 0.0694686, 1.06525E-005, 6.95349E-006
2, 2100.00000, 0.211364, 0.0694686, 1.06525E-005, 6.95349E-006
2, 2160.00000, 0.295943, 0.0972784, -2.27612E-005, 1.57239E-005
2, 2220.00000, 0.295948, 0.0972502, -2.27335E-005, 1.56493E-005
2, 2280.00000, 0.295948, 0.0972502, -2.27333E-005, 1.56493E-005
2, 2340.00000, 0.295948, 0.0972502, -2.27333E-005, 1.56493E-005
2, 2400.00000, 0.295948, 0.0972502, -2.27333E-005, 1.56493E-005
2, 2460.00000, 0.211368, 0.0694612, 6.97343E-006, -3.39047E-007
2, 2520.00000, 0.211368, 0.0694759, 6.97417E-006, -2.97482E-007
2, 2580.00000, 0.211368, 0.0694759, 6.97404E-006, -2.97451E-007
2, 2640.00000, 0.211368, 0.0694759, 6.97404E-006, -2.97452E-007
2, 2700.00000, 0.211368, 0.0694759, 6.97404E-006, -2.97452E-007
2, 2760.00000, 0.253633, 0.0833749, 1.20626E-006, -2.74036E-007
2, 2820.00000, 0.253649, 0.0833709, 1.25348E-006, -2.8141E-007
2, 2880.00000, 0.253649, 0.083371, 1.25356E-006, -2.81248E-007
2, 2940.00000, 0.253649, 0.083371, 1.25356E-006, -2.81247E-007
2, 3000.00000, 0.253649, 0.083371, 1.25356E-006, -2.81247E-007
2, 3060.00000, 0.253641, 0.0833528, 8.26873E-006, 1.64126E-005
2, 3120.00000, 0.253642, 0.0833543, 8.27168E-006, 1.64167E-005
2, 3180.00000, 0.253642, 0.0833543, 8.27167E-006, 1.64167E-005
2, 3240.00000, 0.253642, 0.0833543, 8.27167E-006, 1.64167E-005
2, 3300.00000, 0.253642, 0.0833543, 8.27167E-006, 1.64167E-005
2, 3360.00000, 0.253655, 0.0833636, -4.43562E-006, 7.249E-006
2, 3420.00000, 0.253654, 0.0833635, -4.43832E-006, 7.24815E-006
2, 3480.00000, 0.253654, 0.0833635, -4.43832E-006, 7.24814E-006
2, 3540.00000, 0.253654, 0.0833635, -4.43832E-006, 7.24814E-006
3, 0.00000, 0.253654, 0.0833635, -4.43832E-006, 7.24814E-006
3, 60.00000, 0.338233, 0.11113, -3.21288E-005, 2.86083E-005
3, 120.00000, 0.338232, 0.111132, -3.21303E-005, 2.86146E-005
3, 180.00000, 0.338232, 0.111132, -3.21303E-005, 2.86146E-005
3, 240.00000, 0.338232, 0.111132, -3.21303E-005, 2.86146E-005
3, 300.00000, 0.338232, 0.111132, -3.21303E-005, 2.86146E-005
3, 360.00000, 0.169089, 0.0555824, 1.07826E-005, 6.03596E-007
3, 420.00000, 0.169089, 0.0555799, 1.07837E-005, 5.96883E-007
3, 480.00000, 0.169089, 0.0555799, 1.07838E-005, 5.96885E-007
3, 540.00000, 0.169089, 0.0555799, 1.07838E-005, 5.96885E-007
3, 600.00000, 0.169089, 0.0555799, 1.07838E-005, 5.96885E-007
3, 660.00000, 0.253667, 0.0833281, -4.41319E-006, 2.27498E-005
3, 720.00000, 0.253655, 0.083348, -4.45942E-006, 2.28024E-005
3, 780.00000, 0.253654, 0.0833479, -4.45996E-006, 2.28021E-005
3, 840.00000, 0.253654, 0.0833479, -4.45996E-006, 2.28021E-005
3, 900.00000, 0.253654, 0.0833479, -4.45996E-006, 2.28021E-005
3, 960.00000, 0.253653, 0.0833704, -6.70734E-007, 2.91895E-007
3, 1020.00000, 0.253651, 0.0833704, -6.78704E-007, 2.90348E-007
3, 1080.00000, 0.253651, 0.0833704, -6.78698E-007, 2.90299E-007
3, 1140.00000, 0.253651, 0.0833704, -6.78697E-007, 2.90299E-007
3, 1200.00000, 0.253651, 0.0833704, -6.78697E-007, 2.90299E-007
3, 1260.00000, 0.211365, 0.0694816, 1.10959E-005, -6.55763E-006
3, 1320.00000, 0.211364, 0.0694822, 1.10928E-005, -6.5567E-006
3, 1380.00000, 0.211364, 0.0694822, 1.10927E-005, -6.55672E-006
3, 1440.00000, 0.211364, 0.0694822, 1.10927E-005, -6.55672E-006
3, 1500.00000, 0.211364, 0.0694822, 1.10927E-005, -6.55672E-006
3, 1560.00000, 0.253653, 0.0833631, -4.81701E-006, 7.86181E-006
3, 1620.00000, 0.253655, 0.0833628, -4.81007E-006, 7.86246E-006
3, 1680.00000, 0.253655, 0.0833629, -4.81007E-006, 7.86249E-006
3, 1740.00000, 0.253655, 0.0833629, -4.81007E-006, 7.86249E-006
3, 1800.00000, 0.253655, 0.0833629, -4.81007E-006, 7.86249E-006
3, 1860.00000, 0.295949, 0.0972665, -2.22181E-005, -1.78406E-006
3, 1920.00000, 0.295947, 0.0972676, -2.22224E-005, -1.7818E-006
3, 1980.00000, 0.295947, 0.0972676, -2.22224E-005, -1.78182E-006
3, 2040.00000, 0.295947, 0.0972676, -2.22224E-005, -1.78182E-006
3, 2100.00000, 0.295947, 0.0972676, -2.22224E-005, -1.78182E-006
3, 2160.00000, 0.211371, 0.0694814, 3.21972E-006, -5.36178E-006
3, 2220.00000, 0.211372, 0.069481, 3.222E-006, -5.36257E-006
3, 2280.00000, 0.211372, 0.069481, 3.222E-006, -5.36257E-006
3, 2340.00000, 0.211372, 0.069481, 3.222E-006, -5.36256E-006
3, 2400.00000, 0.211372, 0.069481, 3.222E-006, -5.36256E-006
3, 2460.00000, 0.211373, 0.0694705, 2.51551E-006, 6.48607E-006
3, 2520.00000, 0.211372, 0.0694691, 2.51465E-006, 6.48208E-006
3, 2580.00000, 0.211372, 0.0694691, 2.51467E-006, 6.48207E-006
3, 2640.00000, 0.211372, 0.0694691, 2.51467E-006, 6.48207E-006
3, 2700.00000, 0.211372, 0.0694691, 2.51467E-006, 6.48207E-006
3, 2760.00000, 0.211376, 0.069482, -2.32359E-006, -6.76669E-006
3, 2820.00000, 0.211377, 0.0694824, -2.31995E-006, -6.76496E-006
3, 2880.00000, 0.211377, 0.0694824, -2.31995E-006, -6.76494E-006
3, 2940.00000, 0.211377, 0.0694824, -2.31995E-006, -6.76494E-006
3, 3000.00000, 0.211377, 0.0694824, -2.31995E-006, -6.76494E-006
3, 3060.00000, 0.253659, 0.0833723, -9.201E-006, -8.31878E-007
3, 3120.00000, 0.253659, 0.0833716, -9.20059E-006, -8.33726E-007
3, 3180.00000, 0.253659, 0.0833716, -9.20058E-006, -8.33726E-007
3, 3240.00000, 0.253659, 0.0833716, -9.20058E-006, -8.33726E-007
3, 3300.00000, 0.253659, 0.0833716, -9.20058E-006, -8.33726E-007
3, 3360.00000, 0.211372, 0.0694682, 4.43157E-006, 6.59194E-006
3, 3420.00000, 0.211371, 0.069469, 4.42784E-006, 6.59349E-006
3, 3480.00000, 0.211371, 0.069469, 4.42783E-006, 6.59348E-006
3, 3540.00000, 0.211371, 0.069469, 4.42783E-006, 6.59348E-006
4, 0.00000, 0.21137, 0.0694688, 4.42794E-006, 6.59356E-006
4, 60.00000, 0.338235, 0.111153, -3.14884E-005, 6.47067E-006
4, 120.00000, 0.338232, 0.111155, -3.14965E-005, 6.47084E-006
4, 180.00000, 0.338232, 0.111154, -3.14965E-005, 6.47078E-006
4, 240.00000, 0.338232, 0.111154, -3.14965E-005, 6.47078E-006
4, 300.00000, 0.338232, 0.111154, -3.14965E-005, 6.47078E-006
4, 360.00000, 0.169086, 0.0555911, 1.27687E-005, -9.57058E-006
4, 420.00000, 0.169087, 0.0555901, 1.2771E-005, -9.57333E-006
4, 480.00000, 0.169087, 0.0555901, 1.27711E-005, -9.57331E-006
4, 540.00000, 0.169087, 0.0555901, 1.27711E-005, -9.57331E-006
4, 600.00000, 0.169087, 0.0555901, 1.27711E-005, -9.57331E-006
4, 660.00000, 0.253657, 0.0833559, -1.00099E-005, 1.44746E-005
4, 720.00000, 0.25366, 0.0833562, -1.00008E-005, 1.44776E-005
4, 780.00000, 0.25366, 0.0833562, -1.00008E-005, 1.44776E-005
4, 840.00000, 0.25366, 0.0833562, -1.00008E-005, 1.44776E-005
4, 900.00000, 0.25366, 0.0833562, -1.00008E-005, 1.44776E-005
4, 960.00000, 0.253635, 0.0833754, -4.75772E-006, 6.24198E-006
4, 1020.00000, 0.253655, 0.0833644, -4.68789E-006, 6.2203E-006
4, 1080.00000, 0.253655, 0.0833645, -4.68767E-006, 6.22077E-006
4, 1140.00000, 0.253654, 0.0833662, -4.69162E-006, 6.22303E-006
4, 1200.00000, 0.253655, 0.0833645, -4.69084E-006, 6.22361E-006
4, 1260.00000, 0.253665, 0.0833653, -4.27827E-006, 6.92171E-006
4, 1320.00000, 0.253654, 0.0833639, -4.31561E-006, 6.91211E-006
4, 1380.00000, 0.253654, 0.0833638, -4.31559E-006, 6.91193E-006
4, 1440.00000, 0.253654, 0.0833638, -4.31559E-006, 6.91193E-006
4, 1500.00000, 0.253654, 0.0833638, -4.31559E-006, 6.91193E-006
4, 1560.00000, 0.211371, 0.0694834, 4.34287E-006, -7.28082E-006
4, 1620.00000, 0.211371, 0.0694829, 4.34153E-006, -7.28241E-006
4, 1680.00000, 0.211371, 0.0694829, 4.34153E-006, -7.28242E-006
4, 1740.00000, 0.211371, 0.0694829, 4.34153E-006, -7.28242E-006
4, 1800.00000, 0.211371, 0.0694829, 4.34153E-006, -7.28242E-006
4, 1860.00000, 0.25365, 0.0833547, 1.46908E-007, 1.43718E-005
4, 1920.00000, 0.25365, 0.0833563, 1.46977E-007, 1.43766E-005
4, 1980.00000, 0.25365, 0.0833561, 1.45977E-007, 1.438E-005
4, 2040.00000, 0.25365, 0.0833566, 1.46681E-007, 1.43765E-005
4, 2100.00000, 0.25365, 0.0833561, 1.46138E-007, 1.43794E-005
4, 2160.00000, 0.169077, 0.0555725, 1.24455E-005, -9.16798E-006
4, 2220.00000, 0.169088, 0.0555892, 1.2472E-005, -9.11319E-006
4, 2280.00000, 0.169087, 0.0555895, 1.24706E-005, -9.11098E-006
4, 2340.00000, 0.169088, 0.0555895, 1.24697E-005, -9.10956E-006
4, 2400.00000, 0.169088, 0.0555888, 1.24605E-005, -9.09383E-006
4, 2460.00000, 0.211373, 0.0694694, 3.92603E-006, 5.2303E-006
4, 2520.00000, 0.211371, 0.0694693, 3.91378E-006, 5.25165E-006
4, 2580.00000, 0.211371, 0.0694704, 3.91302E-006, 5.25091E-006
4, 2640.00000, 0.211371, 0.0694704, 3.91302E-006, 5.25091E-006
4, 2700.00000, 0.211371, 0.0694704, 3.91302E-006, 5.25091E-006
4, 2760.00000, 0.169091, 0.0555809, 7.40486E-006, 2.27345E-007
4, 2820.00000, 0.169093, 0.0555797, 7.40372E-006, 2.34511E-007
4, 2880.00000, 0.169093, 0.0555801, 7.40229E-006, 2.36587E-007
4, 2940.00000, 0.169093, 0.0555799, 7.39913E-006, 2.41909E-007
4, 3000.00000, 0.169093, 0.0555799, 7.39592E-006, 2.47171E-007
4, 3060.00000, 0.253652, 0.0833707, -9.4087E-007, -1.9144E-006
4, 3120.00000, 0.253651, 0.0833707, -9.48543E-007, -1.87609E-006
4, 3180.00000, 0.253651, 0.083373, -9.49127E-007, -1.88376E-006
4, 3240.00000, 0.253651, 0.0833713, -9.52405E-007, -1.86099E-006
4, 3300.00000, 0.253651, 0.0833724, -9.54123E-007, -1.85798E-006
4, 3360.00000, 0.253638, 0.0833627, 1.05806E-007, 1.56361E-007
4, 3420.00000, 0.25365, 0.0833694, 1.33919E-007, 1.94816E-007
4, 3480.00000, 0.253649, 0.0833726, 2.94709E-007, -3.58744E-007
4, 3540.00000, 0.25365, 0.0833708, 2.90713E-007, -3.45022E-007
5, 0.00000, 0.25365, 0.0833711, 2.91002E-007, -3.45884E-007
5, 60.00000, 0.211369, 0.0694778, 6.60576E-006, -8.77007E-007
5, 120.00000, 0.211369, 0.0694768, 6.60479E-006, -8.63013E-007
5, 180.00000, 0.21137, 0.0694772, 6.59572E-006, -8.45108E-007
5, 240.00000, 0.211369, 0.069477, 6.58855E-006, -8.31682E-007
5, 300.00000, 0.211371, 0.0694779, 6.5695E-006, -7.9416E-007
5, 360.00000, 0.253646, 0.0833783, 4.13129E-006, -8.53696E-006
5, 420.00000, 0.253647, 0.08338, 4.1255E-006, -8.5221E-006
5, 480.00000, 0.253647, 0.0833798, 4.11946E-006, -8.50545E-006
5, 540.00000, 0.253649, 0.083381, 4.10068E-006, -8.45167E-006
5, 600.00000, 0.253648, 0.0833809, 4.08067E-006, -8.39613E-006
5, 660.00000, 0.211361, 0.0694626, 1.41855E-005, 1.33119E-005
5, 720.00000, 0.211363, 0.0694637, 1.41563E-005, 1.33409E-005
5, 780.00000, 0.211362, 0.0694629, 1.41396E-005, 1.33543E-005
5, 840.00000, 0.211362, 0.0694631, 1.41172E-005, 1.33735E-005
5, 900.00000, 0.211363, 0.0694634, 1.40858E-005, 1.34004E-005
5, 960.00000, 0.253649, 0.0833694, -2.46235E-007, 7.5767E-007
5, 1020.00000, 0.253653, 0.0833714, -2.65921E-007, 8.08321E-007
