hour, t(sec), P1 (kW), Q1 (kvar), P2 (kW), Q2 (kvar)
0, 60.00000, 0.13395, 0.044027, -1.98778E-008, 7.68717E-008
0, 120.00000, 0.13395, 0.0440272, -1.98723E-008, 7.68663E-008
0, 180.00000, 0.13395, 0.0440272, -1.98723E-008, 7.68663E-008
0, 240.00000, 0.13395, 0.0440272, -1.98723E-008, 7.68663E-008
0, 300.00000, 0.13395, 0.0440272, -1.98723E-008, 7.68663E-008
0, 360.00000, 0.120556, 0.0396241, -4.73242E-008, -1.84815E-008
0, 420.00000, 0.120555, 0.0396245, -4.73449E-008, -1.84023E-008
0, 480.00000, 0.120555, 0.0396245, -4.73453E-008, -1.84017E-008
0, 540.00000, 0.120555, 0.0396245, -4.73453E-008, -1.84017E-008
0, 600.00000, 0.120555, 0.0396245, -4.73453E-008, -1.84017E-008
0, 660.00000, 0.120555, 0.0396254, -4.65245E-008, -1.80015E-008
0, 720.00000, 0.120555, 0.0396245, -4.65379E-008, -1.80915E-008
0, 780.00000, 0.120555, 0.0396245, -4.65377E-008, -1.80922E-008
0, 840.00000, 0.120555, 0.0396245, -4.65377E-008, -1.80922E-008
0, 900.00000, 0.120555, 0.0396245, -4.65377E-008, -1.80922E-008
0, 960.00000, 0.107161, 0.035222, -2.0592E-008, -6.90696E-009
0, 1020.00000, 0.10716, 0.0352218, -2.06393E-008, -6.92895E-009
0, 1080.00000, 0.10716, 0.0352218, -2.06398E-008, -6.92943E-009
0, 1140.00000, 0.10716, 0.0352218, -2.06398E-008, -6.92943E-009
0, 1200.00000, 0.10716, 0.0352218, -2.06398E-008, -6.92943E-009
0, 1260.00000, 0.0937644, 0.0308178, 3.50993E-008, 5.02045E-010
0, 1320.00000, 0.093765, 0.0308191, 3.51651E-008, 5.70865E-010
0, 1380.00000, 0.093765, 0.0308191, 3.51654E-008, 5.71593E-010
0, 1440.00000, 0.093765, 0.0308191, 3.51654E-008, 5.716E-010
0, 1500.00000, 0.093765, 0.0308191, 3.51654E-008, 5.716E-010
0, 1560.00000, 0.120554, 0.0396237, -6.70292E-011, 2.87894E-008
0, 1620.00000, 0.120555, 0.0396245, 4.69071E-012, 2.8795E-008
0, 1680.00000, 0.120555, 0.0396245, 5.24991E-012, 2.87953E-008
0, 1740.00000, 0.120555, 0.0396245, 5.25342E-012, 2.87953E-008
0, 1800.00000, 0.120555, 0.0396245, 5.25343E-012, 2.87953E-008
0, 1860.00000, 0.160742, 0.0528336, -1.12869E-007, 1.16491E-007
0, 1920.00000, 0.16074, 0.0528326, -1.1297E-007, 1.16477E-007
0, 1980.00000, 0.16074, 0.0528326, -1.1297E-007, 1.16477E-007
0, 2040.00000, 0.16074, 0.0528326, -1.1297E-007, 1.16477E-007
0, 2100.00000, 0.16074, 0.0528326, -1.1297E-007, 1.16477E-007
0, 2160.00000, 0.10716, 0.0352226, -1.9811E-008, 1.63769E-008
0, 2220.00000, 0.10716, 0.0352218, -1.98413E-008, 1.6321E-008
0, 2280.00000, 0.10716, 0.0352218, -1.98413E-008, 1.63204E-008
0, 2340.00000, 0.10716, 0.0352218, -1.98413E-008, 1.63204E-008
0, 2400.00000, 0.10716, 0.0352218, -1.98413E-008, 1.63204E-008
0, 2460.00000, 0.0803709, 0.0264174, 1.07282E-008, -4.26311E-008
0, 2520.00000, 0.08037, 0.0264164, 1.06558E-008, -4.26616E-008
0, 2580.00000, 0.08037, 0.0264164, 1.06553E-008, -4.26621E-008
0, 2640.00000, 0.08037, 0.0264164, 1.06553E-008, -4.26621E-008
0, 2700.00000, 0.08037, 0.0264164, 1.06553E-008, -4.26621E-008
0, 2760.00000, 0.107161, 0.0352219, 2.59157E-009, 2.62841E-008
0, 2820.00000, 0.10716, 0.0352218, 2.5446E-009, 2.63242E-008
0, 2880.00000, 0.10716, 0.0352218, 2.54411E-009, 2.63243E-008
0, 2940.00000, 0.10716, 0.0352218, 2.5441E-009, 2.63243E-008
0, 3000.00000, 0.10716, 0.0352218, 2.5441E-009, 2.63243E-008
0, 3060.00000, 0.0803676, 0.0264157, 6.03392E-008, -2.60408E-009
0, 3120.00000, 0.0803699, 0.0264163, 6.0443E-008, -2.65738E-009
0, 3180.00000, 0.0803699, 0.0264163, 6.0444E-008, -2.6574E-009
0, 3240.00000, 0.0803699, 0.0264163, 6.0444E-008, -2.6574E-009
0, 3300.00000, 0.0803699, 0.0264163, 6.0444E-008, -2.6574E-009
0, 3360.00000, 0.120553, 0.0396227, 6.58263E-009, 8.02412E-008
0, 3420.00000, 0.120555, 0.0396244, 6.70524E-009, 8.02933E-008
0, 3480.00000, 0.120555, 0.0396244, 6.70609E-009, 8.02941E-008
0, 3540.00000, 0.120555, 0.0396244, 6.70609E-009, 8.02941E-008
1, 0.00000, 0.120555, 0.0396244, 6.70609E-009, 8.02941E-008
1, 60.00000, 0.0937676, 0.0308203, 6.55995E-010, 2.2513E-008
1, 120.00000, 0.093765, 0.030819, 6.51382E-010, 2.24939E-008
1, 180.00000, 0.093765, 0.030819, 6.51454E-010, 2.24936E-008
1, 240.00000, 0.093765, 0.030819, 6.51457E-010, 2.24936E-008
1, 300.00000, 0.093765, 0.030819, 6.51457E-010, 2.24936E-008
1, 360.00000, 0.0937659, 0.0308175, -1.57001E-008, 1.39145E-008
1, 420.00000, 0.093765, 0.030819, -1.56827E-008, 1.40547E-008
1, 480.00000, 0.093765, 0.0308191, -1.56835E-008, 1.40562E-008
1, 540.00000, 0.093765, 0.0308191, -1.56835E-008, 1.40562E-008
1, 600.00000, 0.093765, 0.0308191, -1.56835E-008, 1.40562E-008
1, 660.00000, 0.0803697, 0.026417, 1.78697E-010, 2.97659E-009
1, 720.00000, 0.08037, 0.0264163, 1.66383E-010, 2.92041E-009
1, 780.00000, 0.08037, 0.0264163, 1.66649E-010, 2.91975E-009
1, 840.00000, 0.08037, 0.0264163, 1.66656E-010, 2.91974E-009
1, 900.00000, 0.08037, 0.0264163, 1.66656E-010, 2.91974E-009
1, 960.00000, 0.0937669, 0.0308187, -1.79089E-008, -5.61474E-009
1, 1020.00000, 0.0937651, 0.0308191, -1.79822E-008, -5.50812E-009
1, 1080.00000, 0.093765, 0.0308191, -1.79838E-008, -5.50747E-009
1, 1140.00000, 0.093765, 0.0308191, -1.79838E-008, -5.50748E-009
1, 1200.00000, 0.093765, 0.0308191, -1.79838E-008, -5.50748E-009
1, 1260.00000, 0.0937638, 0.0308204, -1.58378E-008, 1.39727E-008
1, 1320.00000, 0.093765, 0.0308191, -1.58214E-008, 1.38263E-008
1, 1380.00000, 0.093765, 0.0308191, -1.58202E-008, 1.38249E-008
1, 1440.00000, 0.093765, 0.0308191, -1.58201E-008, 1.38249E-008
1, 1500.00000, 0.093765, 0.0308191, -1.58201E-008, 1.38249E-008
1, 1560.00000, 0.0937666, 0.0308194, -1.72046E-008, 1.4219E-008
1, 1620.00000, 0.093765, 0.0308191, -1.72783E-008, 1.42647E-008
1, 1680.00000, 0.093765, 0.0308191, -1.72794E-008, 1.42647E-008
1, 1740.00000, 0.093765, 0.0308191, -1.72794E-008, 1.42647E-008
1, 1800.00000, 0.093765, 0.0308191, -1.72794E-008, 1.42647E-008
1, 1860.00000, 0.0937655, 0.0308181, 4.31954E-010, 2.21997E-008
1, 1920.00000, 0.093765, 0.030819, 4.40245E-010, 2.22858E-008
1, 1980.00000, 0.093765, 0.030819, 4.39704E-010, 2.22868E-008
1, 2040.00000, 0.093765, 0.030819, 4.39691E-010, 2.22868E-008
1, 2100.00000, 0.093765, 0.030819, 4.39691E-010, 2.22868E-008
1, 2160.00000, 0.0803693, 0.026417, 3.13519E-008, 1.7254E-008
1, 2220.00000, 0.0803699, 0.0264163, 3.1357E-008, 1.71802E-008
1, 2280.00000, 0.08037, 0.0264163, 3.13576E-008, 1.71794E-008
1, 2340.00000, 0.08037, 0.0264163, 3.13576E-008, 1.71794E-008
1, 2400.00000, 0.08037, 0.0264163, 3.13576E-008, 1.71794E-008
1, 2460.00000, 0.0937684, 0.030827, 3.31066E-009, 4.24393E-008
1, 2520.00000, 0.0937649, 0.0308191, 3.03388E-009, 4.19958E-008
1, 2580.00000, 0.093765, 0.030819, 3.03411E-009, 4.19889E-008
1, 2640.00000, 0.093765, 0.030819, 3.03416E-009, 4.19888E-008
1, 2700.00000, 0.093765, 0.030819, 3.03416E-009, 4.19888E-008
1, 2760.00000, 0.107159, 0.0352209, -8.311E-008, -1.31726E-008
1, 2820.00000, 0.10716, 0.0352218, -8.30679E-008, -1.3144E-008
1, 2880.00000, 0.10716, 0.0352218, -8.30676E-008, -1.31434E-008
1, 2940.00000, 0.10716, 0.0352218, -8.30676E-008, -1.31434E-008
1, 3000.00000, 0.10716, 0.0352218, -8.30676E-008, -1.31434E-008
1, 3060.00000, 0.0669757, 0.0220134, -4.31716E-009, -3.97151E-008
1, 3120.00000, 0.066975, 0.0220137, -4.33338E-009, -3.96726E-008
1, 3180.00000, 0.066975, 0.0220137, -4.33387E-009, -3.96722E-008
1, 3240.00000, 0.066975, 0.0220137, -4.33388E-009, -3.96722E-008
1, 3300.00000, 0.066975, 0.0220137, -4.33388E-009, -3.96722E-008
1, 3360.00000, 0.0803671, 0.0264157, -3.23889E-009, -3.12568E-008
1, 3420.00000, 0.08037, 0.0264164, -3.10764E-009, -3.13315E-008
1, 3480.00000, 0.08037, 0.0264164, -3.10567E-009, -3.13313E-008
1, 3540.00000, 0.08037, 0.0264164, -3.10565E-009, -3.13313E-008
2, 0.00000, 0.08037, 0.0264164, -3.10565E-009, -3.13313E-008
2, 60.00000, 0.0803713, 0.0264168, -1.51753E-008, -4.65548E-009
2, 120.00000, 0.08037, 0.0264164, -1.52158E-008, -4.63717E-009
2, 180.00000, 0.08037, 0.0264163, -1.52163E-008, -4.63728E-009
2, 240.00000, 0.08037, 0.0264163, -1.52163E-008, -4.63729E-009
2, 300.00000, 0.08037, 0.0264163, -1.52163E-008, -4.63729E-009
2, 360.00000, 0.0937662, 0.0308197, 8.66855E-010, 2.14484E-008
2, 420.00000, 0.093765, 0.0308191, 8.00948E-010, 2.14552E-008
2, 480.00000, 0.093765, 0.030819, 8.00223E-010, 2.14548E-008
2, 540.00000, 0.093765, 0.030819, 8.00219E-010, 2.14548E-008
2, 600.00000, 0.093765, 0.030819, 8.00219E-010, 2.14548E-008
2, 660.00000, 0.0669794, 0.02202, -1.27367E-008, -3.62096E-009
2, 720.00000, 0.066975, 0.0220137, -1.30352E-008, -3.87287E-009
2, 780.00000, 0.066975, 0.0220136, -1.30364E-008, -3.87766E-009
2, 840.00000, 0.066975, 0.0220136, -1.30364E-008, -3.87771E-009
2, 900.00000, 0.066975, 0.0220136, -1.30364E-008, -3.87771E-009
2, 960.00000, 0.0803685, 0.0264148, -1.41633E-008, 1.23535E-008
2, 1020.00000, 0.08037, 0.0264163, -1.40636E-008, 1.23955E-008
2, 1080.00000, 0.08037, 0.0264163, -1.40629E-008, 1.23967E-008
2, 1140.00000, 0.08037, 0.0264163, -1.40629E-008, 1.23967E-008
2, 1200.00000, 0.08037, 0.0264163, -1.40629E-008, 1.23967E-008
2, 1260.00000, 0.0669752, 0.0220165, 2.34202E-008, -1.37305E-008
2, 1320.00000, 0.0669749, 0.0220136, 2.33947E-008, -1.39427E-008
2, 1380.00000, 0.066975, 0.0220136, 2.33959E-008, -1.39451E-008
2, 1440.00000, 0.066975, 0.0220136, 2.3396E-008, -1.39451E-008
2, 1500.00000, 0.066975, 0.0220136, 2.3396E-008, -1.39451E-008
2, 1560.00000, 0.0937666, 0.0308196, -1.68471E-008, 1.35289E-008
2, 1620.00000, 0.093765, 0.0308191, -1.69215E-008, 1.35542E-008
2, 1680.00000, 0.093765, 0.0308191, -1.69225E-008, 1.35539E-008
2, 1740.00000, 0.093765, 0.0308191, -1.69225E-008, 1.35539E-008
2, 1800.00000, 0.093765, 0.0308191, -1.69225E-008, 1.35539E-008
2, 1860.00000, 0.0535762, 0.0176096, 1.96875E-008, 4.75642E-010
2, 1920.00000, 0.05358, 0.0176109, 1.97981E-008, 4.31484E-010
2, 1980.00000, 0.05358, 0.0176109, 1.97995E-008, 4.31841E-010
2, 2040.00000, 0.05358, 0.0176109, 1.97995E-008, 4.31855E-010
2, 2100.00000, 0.05358, 0.0176109, 1.97995E-008, 4.31855E-010
2, 2160.00000, 0.066978, 0.0220136, 2.7468E-008, 2.72859E-008
2, 2220.00000, 0.066975, 0.0220136, 2.7375E-008, 2.74084E-008
2, 2280.00000, 0.066975, 0.0220136, 2.73732E-008, 2.7409E-008
2, 2340.00000, 0.066975, 0.0220136, 2.73732E-008, 2.7409E-008
2, 2400.00000, 0.066975, 0.0220136, 2.73732E-008, 2.7409E-008
2, 2460.00000, 0.0803708, 0.0264163, -1.51119E-008, -4.85965E-009
2, 2520.00000, 0.08037, 0.0264164, -1.51402E-008, -4.82055E-009
2, 2580.00000, 0.08037, 0.0264163, -1.51408E-008, -4.82034E-009
2, 2640.00000, 0.08037, 0.0264163, -1.51408E-008, -4.82035E-009
2, 2700.00000, 0.08037, 0.0264163, -1.51408E-008, -4.82035E-009
2, 2760.00000, 0.0669742, 0.0220134, 1.20475E-008, -5.92841E-009
2, 2820.00000, 0.066975, 0.0220136, 1.20857E-008, -5.94661E-009
2, 2880.00000, 0.066975, 0.0220136, 1.20862E-008, -5.94652E-009
2, 2940.00000, 0.066975, 0.0220136, 1.20863E-008, -5.94652E-009
2, 3000.00000, 0.066975, 0.0220136, 1.20863E-008, -5.94652E-009
2, 3060.00000, 0.0937644, 0.030821, -1.45461E-008, 3.30964E-008
2, 3120.00000, 0.093765, 0.030819, -1.45811E-008, 3.29475E-008
2, 3180.00000, 0.093765, 0.030819, -1.45804E-008, 3.29457E-008
2, 3240.00000, 0.093765, 0.030819, -1.45804E-008, 3.29457E-008
2, 3300.00000, 0.093765, 0.030819, -1.45804E-008, 3.29457E-008
2, 3360.00000, 0.0803704, 0.0264143, 1.73174E-008, 2.59644E-008
2, 3420.00000, 0.08037, 0.0264163, 1.73589E-008, 2.61133E-008
2, 3480.00000, 0.08037, 0.0264163, 1.73583E-008, 2.61151E-008
2, 3540.00000, 0.08037, 0.0264163, 1.73583E-008, 2.61151E-008
3, 0.00000, 0.08037, 0.0264163, 1.73583E-008, 2.61151E-008
3, 60.00000, 0.080369, 0.0264173, -1.42566E-008, 1.14948E-008
3, 120.00000, 0.08037, 0.0264163, -1.42383E-008, 1.13881E-008
3, 180.00000, 0.08037, 0.0264163, -1.42374E-008, 1.13872E-008
3, 240.00000, 0.08037, 0.0264163, -1.42374E-008, 1.13872E-008
3, 300.00000, 0.08037, 0.0264163, -1.42374E-008, 1.13872E-008
3, 360.00000, 0.0669762, 0.0220133, -1.29584E-009, -1.20314E-008
3, 420.00000, 0.066975, 0.0220136, -1.33395E-009, -1.19561E-008
3, 480.00000, 0.066975, 0.0220136, -1.33488E-009, -1.19556E-008
3, 540.00000, 0.066975, 0.0220136, -1.33489E-009, -1.19556E-008
3, 600.00000, 0.066975, 0.0220136, -1.33489E-009, -1.19556E-008
3, 660.00000, 0.0803737, 0.026422, 1.64715E-009, 1.96526E-008
3, 720.00000, 0.08037, 0.0264164, 1.42742E-009, 1.93832E-008
3, 780.00000, 0.08037, 0.0264163, 1.42699E-009, 1.93789E-008
3, 840.00000, 0.08037, 0.0264163, 1.42702E-009, 1.93789E-008
3, 900.00000, 0.08037, 0.0264163, 1.42702E-009, 1.93789E-008
3, 960.00000, 0.080369, 0.0264159, 2.3617E-011, 2.01254E-009
3, 1020.00000, 0.08037, 0.0264163, 7.46595E-011, 1.99739E-009
3, 1080.00000, 0.08037, 0.0264163, 7.52798E-011, 1.9976E-009
3, 1140.00000, 0.08037, 0.0264163, 7.52845E-011, 1.99761E-009
3, 1200.00000, 0.08037, 0.0264163, 7.52845E-011, 1.99761E-009
3, 1260.00000, 0.0669759, 0.0220132, -7.00194E-010, -1.22538E-008
3, 1320.00000, 0.066975, 0.0220136, -7.26208E-010, -1.21868E-008
3, 1380.00000, 0.066975, 0.0220136, -7.26949E-010, -1.21863E-008
3, 1440.00000, 0.066975, 0.0220136, -7.2696E-010, -1.21863E-008
3, 1500.00000, 0.066975, 0.0220136, -7.2696E-010, -1.21863E-008
3, 1560.00000, 0.0669739, 0.0220166, -4.5854E-010, 2.71223E-009
3, 1620.00000, 0.066975, 0.0220136, -5.66964E-010, 2.49699E-009
3, 1680.00000, 0.066975, 0.0220136, -5.66646E-010, 2.49406E-009
3, 1740.00000, 0.066975, 0.0220136, -5.66622E-010, 2.49403E-009
3, 1800.00000, 0.066975, 0.0220136, -5.66622E-010, 2.49403E-009
3, 1860.00000, 0.0803689, 0.0264165, -1.30554E-008, 1.17757E-008
3, 1920.00000, 0.08037, 0.0264163, -1.30148E-008, 1.17157E-008
3, 1980.00000, 0.08037, 0.0264163, -1.3014E-008, 1.17154E-008
3, 2040.00000, 0.08037, 0.0264163, -1.3014E-008, 1.17154E-008
3, 2100.00000, 0.08037, 0.0264163, -1.3014E-008, 1.17154E-008
3, 2160.00000, 0.0535802, 0.0176116, 1.87702E-008, -1.12902E-008
3, 2220.00000, 0.05358, 0.0176109, 1.87379E-008, -1.13198E-008
3, 2280.00000, 0.05358, 0.0176109, 1.87378E-008, -1.13204E-008
3, 2340.00000, 0.05358, 0.0176109, 1.87378E-008, -1.13204E-008
3, 2400.00000, 0.05358, 0.0176109, 1.87378E-008, -1.13204E-008
3, 2460.00000, 0.0803692, 0.0264143, 4.39689E-009, 5.2078E-008
3, 2520.00000, 0.08037, 0.0264163, 4.48496E-009, 5.21763E-008
3, 2580.00000, 0.08037, 0.0264163, 4.4852E-009, 5.21779E-008
3, 2640.00000, 0.08037, 0.0264163, 4.4852E-009, 5.21779E-008
3, 2700.00000, 0.08037, 0.0264163, 4.4852E-009, 5.21779E-008
3, 2760.00000, 0.0803721, 0.0264165, -1.68976E-008, -2.15676E-008
3, 2820.00000, 0.08037, 0.0264164, -1.69834E-008, -2.14914E-008
3, 2880.00000, 0.08037, 0.0264164, -1.69848E-008, -2.14912E-008
3, 2940.00000, 0.08037, 0.0264164, -1.69848E-008, -2.14912E-008
3, 3000.00000, 0.08037, 0.0264164, -1.69848E-008, -2.14912E-008
3, 3060.00000, 0.0669753, 0.0220152, 2.42579E-008, -4.82861E-010
3, 3120.00000, 0.066975, 0.0220136, 2.41984E-008, -5.71533E-010
3, 3180.00000, 0.066975, 0.0220136, 2.41984E-008, -5.72857E-010
3, 3240.00000, 0.066975, 0.0220136, 2.41985E-008, -5.7287E-010
3, 3300.00000, 0.066975, 0.0220136, 2.41985E-008, -5.7287E-010
3, 3360.00000, 0.0803705, 0.0264153, -3.0973E-008, -1.22338E-008
3, 3420.00000, 0.08037, 0.0264164, -3.09634E-008, -1.21453E-008
3, 3480.00000, 0.08037, 0.0264164, -3.0964E-008, -1.21443E-008
3, 3540.00000, 0.08037, 0.0264164, -3.0964E-008, -1.21443E-008
4, 0.00000, 0.08037, 0.0264164, -3.0964E-008, -1.21443E-008
4, 60.00000, 0.066975, 0.0220136, -1.26187E-009, -1.16997E-008
4, 120.00000, 0.066975, 0.0220136, -1.25781E-009, -1.16986E-008
4, 180.00000, 0.066975, 0.0220136, -1.25778E-009, -1.16986E-008
4, 240.00000, 0.066975, 0.0220136, -1.25778E-009, -1.16986E-008
4, 300.00000, 0.066975, 0.0220136, -1.25778E-009, -1.16986E-008
4, 360.00000, 0.0937642, 0.0308171, 1.93427E-008, 3.0513E-008
4, 420.00000, 0.093765, 0.030819, 1.94288E-008, 3.06149E-008
4, 480.00000, 0.093765, 0.030819, 1.94289E-008, 3.06164E-008
4, 540.00000, 0.093765, 0.030819, 1.94289E-008, 3.06164E-008
4, 600.00000, 0.093765, 0.030819, 1.94289E-008, 3.06164E-008
4, 660.00000, 0.080371, 0.026417, -1.37687E-008, 1.28762E-008
4, 720.00000, 0.08037, 0.0264163, -1.38265E-008, 1.28731E-008
4, 780.00000, 0.08037, 0.0264163, -1.3827E-008, 1.28726E-008
4, 840.00000, 0.08037, 0.0264163, -1.3827E-008, 1.28726E-008
4, 900.00000, 0.08037, 0.0264163, -1.3827E-008, 1.28726E-008
4, 960.00000, 0.0803703, 0.0264165, -3.51664E-012, 3.04596E-009
4, 1020.00000, 0.08037, 0.0264163, -1.46024E-011, 3.04302E-009
4, 1080.00000, 0.08037, 0.0264163, -1.47046E-011, 3.04294E-009
4, 1140.00000, 0.08037, 0.0264163, -1.47053E-011, 3.04294E-009
4, 1200.00000, 0.08037, 0.0264163, -1.47053E-011, 3.04294E-009
4, 1260.00000, 0.0669745, 0.0220136, 1.29406E-008, 8.2714E-009
4, 1320.00000, 0.066975, 0.0220136, 1.29583E-008, 8.25063E-009
4, 1380.00000, 0.066975, 0.0220136, 1.29586E-008, 8.25056E-009
4, 1440.00000, 0.066975, 0.0220136, 1.29586E-008, 8.25056E-009
4, 1500.00000, 0.066975, 0.0220136, 1.29586E-008, 8.25056E-009
4, 1560.00000, 0.0803708, 0.0264165, -2.18451E-009, -1.41188E-008
4, 1620.00000, 0.08037, 0.0264164, -2.22409E-009, -1.40883E-008
4, 1680.00000, 0.08037, 0.0264164, -2.22466E-009, -1.40883E-008
4, 1740.00000, 0.08037, 0.0264164, -2.22466E-009, -1.40883E-008
4, 1800.00000, 0.08037, 0.0264164, -2.22466E-009, -1.40883E-008
4, 1860.00000, 0.0669752, 0.0220142, 1.15956E-008, -5.84605E-009
4, 1920.00000, 0.066975, 0.0220136, 1.15738E-008, -5.8749E-009
4, 1980.00000, 0.0669751, 0.0220137, 1.15762E-008, -5.86166E-009
4, 2040.00000, 0.0669749, 0.0220135, 1.15744E-008, -5.87697E-009
4, 2100.00000, 0.0669751, 0.0220137, 1.15759E-008, -5.86393E-009
4, 2160.00000, 0.08037, 0.0264161, 1.22948E-009, 1.90459E-008
4, 2220.00000, 0.0803702, 0.0264165, 1.24563E-009, 1.9081E-008
4, 2280.00000, 0.0803701, 0.0264164, 1.24861E-009, 1.90849E-008
4, 2340.00000, 0.08037, 0.0264164, 1.2504E-009, 1.90884E-008
4, 2400.00000, 0.0803705, 0.0264168, 1.2668E-009, 1.91379E-008
4, 2460.00000, 0.0803691, 0.0264158, 3.11314E-008, 1.69407E-008
4, 2520.00000, 0.0803707, 0.0264169, 3.11846E-008, 1.70047E-008
4, 2580.00000, 0.08037, 0.0264163, 3.11869E-008, 1.69955E-008
4, 2640.00000, 0.08037, 0.0264163, 3.1187E-008, 1.69954E-008
4, 2700.00000, 0.08037, 0.0264163, 3.1187E-008, 1.69954E-008
4, 2760.00000, 0.0535791, 0.0176105, 2.02281E-008, 3.82358E-010
4, 2820.00000, 0.0535803, 0.0176111, 2.02802E-008, 3.96908E-010
4, 2880.00000, 0.0535801, 0.0176109, 2.0282E-008, 4.00663E-010
4, 2940.00000, 0.0535802, 0.017611, 2.02848E-008, 4.15601E-010
4, 3000.00000, 0.0535802, 0.017611, 2.02876E-008, 4.29453E-010
4, 3060.00000, 0.0937668, 0.0308185, -1.61856E-008, 1.37907E-008
4, 3120.00000, 0.0937662, 0.0308199, -1.61779E-008, 1.40057E-008
4, 3180.00000, 0.0937648, 0.0308189, -1.61897E-008, 1.39689E-008
4, 3240.00000, 0.0937658, 0.0308197, -1.61525E-008, 1.40443E-008
4, 3300.00000, 0.0937651, 0.0308191, -1.61462E-008, 1.40451E-008
4, 3360.00000, 0.066975, 0.0220139, 1.2164E-008, -5.37801E-009
4, 3420.00000, 0.0669755, 0.022014, 1.21685E-008, -5.34278E-009
4, 3480.00000, 0.0669758, 0.0220143, 1.21923E-008, -5.25974E-009
4, 3540.00000, 0.0669753, 0.0220139, 1.22022E-008, -5.23488E-009
5, 0.00000, 0.066975, 0.0220136, 1.22019E-008, -5.24139E-009
5, 60.00000, 0.0669749, 0.0220138, 9.12248E-009, -2.37514E-008
5, 120.00000, 0.0669753, 0.0220139, 9.11042E-009, -2.37193E-008
5, 180.00000, 0.0669757, 0.0220144, 9.12633E-009, -2.36643E-008
5, 240.00000, 0.0669755, 0.0220142, 9.13519E-009, -2.36162E-008
5, 300.00000, 0.0669764, 0.0220152, 9.16984E-009, -2.35011E-008
5, 360.00000, 0.0937668, 0.0308158, -3.65173E-008, -2.55857E-010
5, 420.00000, 0.0937659, 0.0308198, -3.65283E-008, -5.10012E-010
5, 480.00000, 0.0937656, 0.0308197, -3.64972E-008, -4.67315E-010
5, 540.00000, 0.0937671, 0.0308212, -3.63995E-008, -3.35515E-010
5, 600.00000, 0.093767, 0.0308212, -3.63048E-008, -1.80907E-010
5, 660.00000, 0.0937649, 0.0308175, -2.23881E-008, -3.13184E-008
5, 720.00000, 0.0937675, 0.0308216, -2.23422E-008, -3.12417E-008
5, 780.00000, 0.0937661, 0.0308203, -2.22946E-008, -3.11185E-008
5, 840.00000, 0.0937667, 0.0308209, -2.22222E-008, -3.09738E-008
5, 900.00000, 0.0937673, 0.0308216, -2.21203E-008, -3.07699E-008
