hour, t(sec), P1 (kW), Q1 (kvar), P2 (kW), Q2 (kvar)
0, 60.00000, 0.338583, 0.111295, -3.14796E-006, -1.04411E-005
0, 120.00000, 0.338583, 0.111296, -3.14897E-006, -1.04414E-005
0, 180.00000, 0.338583, 0.111296, -3.14897E-006, -1.04414E-005
0, 240.00000, 0.338583, 0.111296, -3.14897E-006, -1.04414E-005
0, 300.00000, 0.338583, 0.111296, -3.14897E-006, -1.04414E-005
0, 360.00000, 0.300951, 0.0989446, 9.11108E-006, -2.43274E-005
0, 420.00000, 0.300951, 0.0989451, 9.11144E-006, -2.43263E-005
0, 480.00000, 0.300951, 0.0989451, 9.11143E-006, -2.43263E-005
0, 540.00000, 0.300951, 0.0989451, 9.11143E-006, -2.43263E-005
0, 600.00000, 0.300951, 0.0989451, 9.11143E-006, -2.43263E-005
0, 660.00000, 0.263324, 0.0865668, 1.63459E-005, -1.06954E-005
0, 720.00000, 0.263324, 0.0865664, 1.63456E-005, -1.06964E-005
0, 780.00000, 0.263324, 0.0865664, 1.63456E-005, -1.06964E-005
0, 840.00000, 0.263324, 0.0865664, 1.63456E-005, -1.06964E-005
0, 900.00000, 0.263324, 0.0865664, 1.63456E-005, -1.06964E-005
0, 960.00000, 0.376232, 0.123698, -2.92378E-005, -3.77094E-005
0, 1020.00000, 0.376229, 0.123689, -2.92524E-005, -3.77262E-005
0, 1080.00000, 0.376229, 0.123689, -2.92524E-005, -3.77263E-005
0, 1140.00000, 0.376229, 0.123689, -2.92524E-005, -3.77263E-005
0, 1200.00000, 0.376229, 0.123689, -2.92524E-005, -3.77263E-005
0, 1260.00000, 0.338597, 0.111297, -1.6662E-005, -1.04336E-005
0, 1320.00000, 0.338597, 0.111296, -1.66635E-005, -1.0434E-005
0, 1380.00000, 0.338597, 0.111296, -1.66635E-005, -1.0434E-005
0, 1440.00000, 0.338597, 0.111296, -1.66635E-005, -1.0434E-005
0, 1500.00000, 0.338597, 0.111296, -1.66635E-005, -1.0434E-005
0, 1560.00000, 0.263334, 0.086555, 6.19276E-006, 9.41261E-007
0, 1620.00000, 0.263334, 0.0865547, 6.19305E-006, 9.40493E-007
0, 1680.00000, 0.263334, 0.0865547, 6.19305E-006, 9.40494E-007
0, 1740.00000, 0.263334, 0.0865547, 6.19305E-006, 9.40494E-007
0, 1800.00000, 0.263334, 0.0865547, 6.19305E-006, 9.40494E-007
0, 1860.00000, 0.300956, 0.0989535, 3.71371E-006, -3.27965E-005
0, 1920.00000, 0.300956, 0.0989536, 3.71379E-006, -3.27965E-005
0, 1980.00000, 0.300956, 0.0989536, 3.71379E-006, -3.27965E-005
0, 2040.00000, 0.300956, 0.0989536, 3.71379E-006, -3.27965E-005
0, 2100.00000, 0.300956, 0.0989536, 3.71379E-006, -3.27965E-005
0, 2160.00000, 0.18808, 0.0618222, 2.01119E-005, 3.36384E-006
0, 2220.00000, 0.18808, 0.0618221, 2.01118E-005, 3.36365E-006
0, 2280.00000, 0.18808, 0.0618221, 2.01118E-005, 3.36365E-006
0, 2340.00000, 0.18808, 0.0618221, 2.01118E-005, 3.36365E-006
0, 2400.00000, 0.18808, 0.0618221, 2.01118E-005, 3.36365E-006
0, 2460.00000, 0.338585, 0.111276, -4.6711E-006, 9.59688E-006
0, 2520.00000, 0.338585, 0.111276, -4.6707E-006, 9.59807E-006
0, 2580.00000, 0.338585, 0.111276, -4.67071E-006, 9.59807E-006
0, 2640.00000, 0.338585, 0.111276, -4.67071E-006, 9.59807E-006
0, 2700.00000, 0.338585, 0.111276, -4.67071E-006, 9.59807E-006
0, 2760.00000, 0.376227, 0.123629, -2.60896E-005, 2.23413E-005
0, 2820.00000, 0.376226, 0.123629, -2.6091E-005, 2.23413E-005
0, 2880.00000, 0.376226, 0.123629, -2.6091E-005, 2.23413E-005
0, 2940.00000, 0.376226, 0.123629, -2.6091E-005, 2.23413E-005
0, 3000.00000, 0.376226, 0.123629, -2.6091E-005, 2.23413E-005
0, 3060.00000, 0.300969, 0.0989198, -9.0775E-006, 1.31301E-006
0, 3120.00000, 0.300969, 0.0989195, -9.07728E-006, 1.31167E-006
0, 3180.00000, 0.300969, 0.0989195, -9.07727E-006, 1.31167E-006
0, 3240.00000, 0.300969, 0.0989195, -9.07727E-006, 1.31167E-006
0, 3300.00000, 0.300969, 0.0989195, -9.07727E-006, 1.31167E-006
0, 3360.00000, 0.300953, 0.0989035, 6.56082E-006, 1.65901E-005
0, 3420.00000, 0.300953, 0.0989042, 6.56177E-006, 1.65915E-005
0, 3480.00000, 0.300953, 0.0989042, 6.56177E-006, 1.65915E-005
0, 3540.00000, 0.300953, 0.0989042, 6.56177E-006, 1.65915E-005
1, 0.00000, 0.300953, 0.0989042, 6.56177E-006, 1.65915E-005
1, 60.00000, 0.263346, 0.086551, -5.2708E-006, 4.84855E-006
1, 120.00000, 0.263345, 0.0865508, -5.27206E-006, 4.8492E-006
1, 180.00000, 0.263345, 0.0865508, -5.27206E-006, 4.84919E-006
1, 240.00000, 0.263345, 0.0865508, -5.27206E-006, 4.84919E-006
1, 300.00000, 0.263345, 0.0865508, -5.27206E-006, 4.84919E-006
1, 360.00000, 0.338598, 0.111304, -1.67959E-005, -1.82053E-005
1, 420.00000, 0.338597, 0.111304, -1.67982E-005, -1.82038E-005
1, 480.00000, 0.338597, 0.111304, -1.67982E-005, -1.82038E-005
1, 540.00000, 0.338597, 0.111304, -1.67982E-005, -1.82038E-005
1, 600.00000, 0.338597, 0.111304, -1.67982E-005, -1.82038E-005
1, 660.00000, 0.300987, 0.0989165, -2.71238E-005, 5.28242E-006
1, 720.00000, 0.300987, 0.0989155, -2.71229E-005, 5.28027E-006
1, 780.00000, 0.300987, 0.0989155, -2.71229E-005, 5.28027E-006
1, 840.00000, 0.300987, 0.0989155, -2.71229E-005, 5.28027E-006
1, 900.00000, 0.300987, 0.0989155, -2.71229E-005, 5.28027E-006
1, 960.00000, 0.300963, 0.0989329, -2.96256E-006, -1.28626E-005
1, 1020.00000, 0.300963, 0.0989336, -2.96199E-006, -1.28611E-005
1, 1080.00000, 0.300963, 0.0989336, -2.96199E-006, -1.28611E-005
1, 1140.00000, 0.300963, 0.0989336, -2.96199E-006, -1.28611E-005
1, 1200.00000, 0.300963, 0.0989336, -2.96199E-006, -1.28611E-005
1, 1260.00000, 0.188087, 0.0618185, 1.38296E-005, 7.12444E-006
1, 1320.00000, 0.188086, 0.0618184, 1.3829E-005, 7.12432E-006
1, 1380.00000, 0.188086, 0.0618184, 1.3829E-005, 7.12432E-006
1, 1440.00000, 0.188086, 0.0618184, 1.3829E-005, 7.12432E-006
1, 1500.00000, 0.188086, 0.0618184, 1.3829E-005, 7.12432E-006
1, 1560.00000, 0.225716, 0.0741896, 4.20058E-006, 1.43856E-006
1, 1620.00000, 0.225716, 0.0741891, 4.2005E-006, 1.4378E-006
1, 1680.00000, 0.225716, 0.0741891, 4.2005E-006, 1.4378E-006
1, 1740.00000, 0.225716, 0.0741891, 4.2005E-006, 1.4378E-006
1, 1800.00000, 0.225716, 0.0741891, 4.2005E-006, 1.4378E-006
1, 1860.00000, 0.263349, 0.0865546, -8.97417E-006, 6.7244E-007
1, 1920.00000, 0.263349, 0.086555, -8.97428E-006, 6.7323E-007
1, 1980.00000, 0.263349, 0.086555, -8.97428E-006, 6.73231E-007
1, 2040.00000, 0.263349, 0.086555, -8.97428E-006, 6.73231E-007
1, 2100.00000, 0.263349, 0.086555, -8.97428E-006, 6.73231E-007
1, 2160.00000, 0.188086, 0.0618322, 1.36922E-005, -6.95214E-006
1, 2220.00000, 0.188086, 0.0618324, 1.36923E-005, -6.95175E-006
1, 2280.00000, 0.188086, 0.0618324, 1.36923E-005, -6.95175E-006
1, 2340.00000, 0.188086, 0.0618324, 1.36923E-005, -6.95175E-006
1, 2400.00000, 0.188086, 0.0618324, 1.36923E-005, -6.95175E-006
1, 2460.00000, 0.225716, 0.0741881, -2.6251E-007, -2.09612E-006
1, 2520.00000, 0.22572, 0.0741927, -2.55417E-007, -2.08672E-006
1, 2580.00000, 0.22572, 0.0741927, -2.55422E-007, -2.08672E-006
1, 2640.00000, 0.22572, 0.0741927, -2.55422E-007, -2.08672E-006
1, 2700.00000, 0.22572, 0.0741927, -2.55422E-007, -2.08672E-006
1, 2760.00000, 0.188091, 0.061838, 9.33133E-006, -1.23808E-005
1, 2820.00000, 0.188091, 0.0618379, 9.33113E-006, -1.23813E-005
1, 2880.00000, 0.188091, 0.0618379, 9.33114E-006, -1.23813E-005
1, 2940.00000, 0.188091, 0.0618379, 9.33114E-006, -1.23813E-005
1, 3000.00000, 0.188091, 0.0618379, 9.33114E-006, -1.23813E-005
1, 3060.00000, 0.263346, 0.0865367, -6.49943E-006, 1.89403E-005
1, 3120.00000, 0.263346, 0.0865367, -6.49892E-006, 1.89404E-005
1, 3180.00000, 0.263346, 0.0865367, -6.49893E-006, 1.89404E-005
1, 3240.00000, 0.263346, 0.0865367, -6.49893E-006, 1.89404E-005
1, 3300.00000, 0.263346, 0.0865367, -6.49893E-006, 1.89404E-005
1, 3360.00000, 0.300971, 0.098908, -1.10073E-005, 1.21376E-005
1, 3420.00000, 0.300971, 0.0989086, -1.10068E-005, 1.21385E-005
1, 3480.00000, 0.300971, 0.0989086, -1.10068E-005, 1.21385E-005
1, 3540.00000, 0.300971, 0.0989086, -1.10068E-005, 1.21385E-005
2, 0.00000, 0.300971, 0.0989086, -1.10068E-005, 1.21385E-005
2, 60.00000, 0.188102, 0.061836, -2.24656E-006, -9.64333E-006
2, 120.00000, 0.188102, 0.0618351, -2.24723E-006, -9.64474E-006
2, 180.00000, 0.188102, 0.0618351, -2.24722E-006, -9.64474E-006
2, 240.00000, 0.188102, 0.0618351, -2.24722E-006, -9.64474E-006
2, 300.00000, 0.188102, 0.0618351, -2.24722E-006, -9.64474E-006
2, 360.00000, 0.22572, 0.0741779, -1.13337E-007, 1.16233E-005
2, 420.00000, 0.22572, 0.0741789, -1.12945E-007, 1.16253E-005
2, 480.00000, 0.22572, 0.0741789, -1.12951E-007, 1.16253E-005
2, 540.00000, 0.22572, 0.0741789, -1.12951E-007, 1.16253E-005
2, 600.00000, 0.22572, 0.0741789, -1.12951E-007, 1.16253E-005
2, 660.00000, 0.22572, 0.0741882, -1.49893E-007, 3.31071E-008
2, 720.00000, 0.22572, 0.0741905, -1.47288E-007, 3.54065E-008
2, 780.00000, 0.22572, 0.0741905, -1.473E-007, 3.54075E-008
2, 840.00000, 0.22572, 0.0741905, -1.473E-007, 3.54074E-008
2, 900.00000, 0.22572, 0.0741905, -1.473E-007, 3.54074E-008
2, 960.00000, 0.300987, 0.0989248, -2.68039E-005, -4.3399E-006
2, 1020.00000, 0.300987, 0.0989251, -2.68036E-005, -4.33965E-006
2, 1080.00000, 0.300987, 0.0989251, -2.68036E-005, -4.33964E-006
2, 1140.00000, 0.300987, 0.0989251, -2.68036E-005, -4.33964E-006
2, 1200.00000, 0.300987, 0.0989251, -2.68036E-005, -4.33964E-006
2, 1260.00000, 0.300979, 0.0989098, -1.88846E-005, 1.51539E-005
2, 1320.00000, 0.300979, 0.0989056, -1.8883E-005, 1.51474E-005
2, 1380.00000, 0.300979, 0.0989056, -1.8883E-005, 1.51475E-005
2, 1440.00000, 0.300979, 0.0989056, -1.8883E-005, 1.51475E-005
2, 1500.00000, 0.300979, 0.0989056, -1.8883E-005, 1.51475E-005
2, 1560.00000, 0.225725, 0.0741989, -5.21012E-006, -7.74375E-006
2, 1620.00000, 0.225725, 0.0741983, -5.20941E-006, -7.74476E-006
2, 1680.00000, 0.225725, 0.0741983, -5.20941E-006, -7.74476E-006
2, 1740.00000, 0.225725, 0.0741983, -5.20941E-006, -7.74476E-006
2, 1800.00000, 0.225725, 0.0741983, -5.20941E-006, -7.74476E-006
2, 1860.00000, 0.22573, 0.0741948, -7.18886E-006, -5.35061E-006
2, 1920.00000, 0.225727, 0.0741959, -7.19616E-006, -5.34591E-006
2, 1980.00000, 0.225727, 0.0741959, -7.19616E-006, -5.34593E-006
2, 2040.00000, 0.225727, 0.0741959, -7.19616E-006, -5.34593E-006
2, 2100.00000, 0.225727, 0.0741959, -7.19616E-006, -5.34593E-006
2, 2160.00000, 0.300968, 0.0989282, -1.24459E-005, 6.85302E-006
2, 2220.00000, 0.300972, 0.0989139, -1.24423E-005, 6.8265E-006
2, 2280.00000, 0.300972, 0.0989139, -1.24422E-005, 6.82648E-006
2, 2340.00000, 0.300972, 0.0989139, -1.24422E-005, 6.82648E-006
2, 2400.00000, 0.300972, 0.0989139, -1.24422E-005, 6.82648E-006
2, 2460.00000, 0.225725, 0.0741871, -4.70001E-006, 3.91845E-006
2, 2520.00000, 0.225725, 0.0741867, -4.69999E-006, 3.91779E-006
2, 2580.00000, 0.225725, 0.0741867, -4.69999E-006, 3.91779E-006
2, 2640.00000, 0.225725, 0.0741867, -4.69999E-006, 3.91779E-006
2, 2700.00000, 0.225725, 0.0741867, -4.69999E-006, 3.91779E-006
2, 2760.00000, 0.225721, 0.0741912, -8.42039E-007, -6.29624E-007
2, 2820.00000, 0.225721, 0.0741912, -8.42819E-007, -6.29528E-007
2, 2880.00000, 0.225721, 0.0741912, -8.42819E-007, -6.29529E-007
2, 2940.00000, 0.225721, 0.0741912, -8.42819E-007, -6.29529E-007
2, 3000.00000, 0.225721, 0.0741912, -8.42819E-007, -6.29529E-007
2, 3060.00000, 0.26335, 0.0865736, -1.03568E-005, -1.85477E-005
2, 3120.00000, 0.26335, 0.0865742, -1.03552E-005, -1.85471E-005
2, 3180.00000, 0.26335, 0.0865742, -1.03552E-005, -1.85471E-005
2, 3240.00000, 0.26335, 0.0865742, -1.03552E-005, -1.85471E-005
2, 3300.00000, 0.26335, 0.0865742, -1.03552E-005, -1.85471E-005
2, 3360.00000, 0.225722, 0.0741961, -1.72033E-006, -5.54591E-006
2, 3420.00000, 0.225722, 0.0741961, -1.7211E-006, -5.54561E-006
2, 3480.00000, 0.225722, 0.0741961, -1.7211E-006, -5.54561E-006
2, 3540.00000, 0.225722, 0.0741961, -1.7211E-006, -5.54561E-006
3, 0.00000, 0.225722, 0.0741961, -1.7211E-006, -5.54561E-006
3, 60.00000, 0.225721, 0.0741853, -5.13732E-007, 4.97735E-006
3, 120.00000, 0.225721, 0.0741856, -5.13389E-007, 4.97776E-006
3, 180.00000, 0.225721, 0.0741856, -5.13388E-007, 4.97776E-006
3, 240.00000, 0.225721, 0.0741856, -5.13388E-007, 4.97776E-006
3, 300.00000, 0.225721, 0.0741856, -5.13388E-007, 4.97776E-006
3, 360.00000, 0.225719, 0.0741861, 1.10334E-006, 5.18714E-006
3, 420.00000, 0.225719, 0.0741854, 1.10291E-006, 5.18606E-006
3, 480.00000, 0.225719, 0.0741854, 1.10291E-006, 5.18606E-006
3, 540.00000, 0.225719, 0.0741854, 1.10291E-006, 5.18606E-006
3, 600.00000, 0.225719, 0.0741854, 1.10291E-006, 5.18606E-006
3, 660.00000, 0.225731, 0.0741864, -3.22386E-006, 2.95906E-006
3, 720.00000, 0.225723, 0.0741876, -3.23724E-006, 2.96165E-006
3, 780.00000, 0.225723, 0.0741876, -3.23727E-006, 2.96161E-006
3, 840.00000, 0.225723, 0.0741876, -3.23727E-006, 2.96161E-006
3, 900.00000, 0.225723, 0.0741876, -3.23727E-006, 2.96161E-006
3, 960.00000, 0.225731, 0.074197, -1.03587E-005, -6.45437E-006
3, 1020.00000, 0.22573, 0.074197, -1.03595E-005, -6.45418E-006
3, 1080.00000, 0.22573, 0.074197, -1.03595E-005, -6.45418E-006
3, 1140.00000, 0.22573, 0.074197, -1.03595E-005, -6.45418E-006
3, 1200.00000, 0.22573, 0.074197, -1.03595E-005, -6.45418E-006
3, 1260.00000, 0.263356, 0.0865358, -1.55673E-005, 1.96039E-005
3, 1320.00000, 0.263356, 0.0865361, -1.55679E-005, 1.96046E-005
3, 1380.00000, 0.263356, 0.0865361, -1.55679E-005, 1.96046E-005
3, 1440.00000, 0.263356, 0.0865361, -1.55679E-005, 1.96046E-005
3, 1500.00000, 0.263356, 0.0865361, -1.55679E-005, 1.96046E-005
3, 1560.00000, 0.225729, 0.0741813, 1.7183E-006, 5.08432E-006
3, 1620.00000, 0.225718, 0.0741855, 1.70324E-006, 5.08776E-006
3, 1680.00000, 0.225718, 0.0741855, 1.7032E-006, 5.08771E-006
3, 1740.00000, 0.225718, 0.0741855, 1.7032E-006, 5.08771E-006
3, 1800.00000, 0.225718, 0.0741855, 1.7032E-006, 5.08771E-006
3, 1860.00000, 0.225722, 0.0741951, -1.82409E-006, -4.87458E-006
3, 1920.00000, 0.225722, 0.0741955, -1.8244E-006, -4.874E-006
3, 1980.00000, 0.225722, 0.0741955, -1.8244E-006, -4.874E-006
3, 2040.00000, 0.225722, 0.0741955, -1.8244E-006, -4.874E-006
3, 2100.00000, 0.225722, 0.0741955, -1.8244E-006, -4.874E-006
3, 2160.00000, 0.22572, 0.0741911, 7.27626E-008, -2.43986E-007
3, 2220.00000, 0.22572, 0.0741908, 7.30856E-008, -2.44517E-007
3, 2280.00000, 0.22572, 0.0741908, 7.30871E-008, -2.44518E-007
3, 2340.00000, 0.22572, 0.0741908, 7.30871E-008, -2.44518E-007
3, 2400.00000, 0.22572, 0.0741908, 7.30871E-008, -2.44518E-007
3, 2460.00000, 0.22572, 0.0742028, -2.80224E-007, -1.19337E-005
3, 2520.00000, 0.22572, 0.0742025, -2.80718E-007, -1.19341E-005
3, 2580.00000, 0.22572, 0.0742025, -2.80717E-007, -1.19341E-005
3, 2640.00000, 0.22572, 0.0742025, -2.80717E-007, -1.19341E-005
3, 2700.00000, 0.22572, 0.0742025, -2.80717E-007, -1.19341E-005
3, 2760.00000, 0.188096, 0.0618167, 3.55598E-006, 8.80361E-006
3, 2820.00000, 0.188096, 0.0618167, 3.55652E-006, 8.80358E-006
3, 2880.00000, 0.188096, 0.0618167, 3.55651E-006, 8.80359E-006
3, 2940.00000, 0.188096, 0.0618167, 3.55651E-006, 8.80359E-006
3, 3000.00000, 0.188096, 0.0618167, 3.55651E-006, 8.80359E-006
3, 3060.00000, 0.225729, 0.0741811, -8.43474E-006, 9.81757E-006
3, 3120.00000, 0.225728, 0.0741808, -8.43494E-006, 9.81701E-006
3, 3180.00000, 0.225728, 0.0741808, -8.43494E-006, 9.81701E-006
3, 3240.00000, 0.225728, 0.0741808, -8.43494E-006, 9.81701E-006
3, 3300.00000, 0.225728, 0.0741808, -8.43494E-006, 9.81701E-006
3, 3360.00000, 0.188099, 0.0618223, 7.78543E-007, 2.86775E-006
3, 3420.00000, 0.188099, 0.0618226, 7.78303E-007, 2.8685E-006
3, 3480.00000, 0.188099, 0.0618226, 7.78301E-007, 2.8685E-006
3, 3540.00000, 0.188099, 0.0618226, 7.78301E-007, 2.8685E-006
4, 0.00000, 0.188099, 0.0618226, 7.78301E-007, 2.8685E-006
4, 60.00000, 0.263333, 0.0865642, 6.63787E-006, -7.54743E-006
4, 120.00000, 0.263333, 0.0865632, 6.63585E-006, -7.54439E-006
4, 180.00000, 0.263333, 0.0865632, 6.63581E-006, -7.54437E-006
4, 240.00000, 0.263333, 0.0865632, 6.63581E-006, -7.54437E-006
4, 300.00000, 0.263333, 0.0865632, 6.63581E-006, -7.54437E-006
4, 360.00000, 0.22572, 0.0741974, 7.74027E-007, -5.24705E-006
4, 420.00000, 0.225719, 0.0741958, 7.77482E-007, -5.24384E-006
4, 480.00000, 0.225719, 0.0741958, 7.7749E-007, -5.24379E-006
4, 540.00000, 0.225719, 0.0741958, 7.7749E-007, -5.24379E-006
4, 600.00000, 0.225719, 0.0741958, 7.7749E-007, -5.24379E-006
4, 660.00000, 0.188092, 0.0618284, 5.66821E-006, -1.75812E-006
4, 720.00000, 0.188094, 0.0618272, 5.66477E-006, -1.75228E-006
4, 780.00000, 0.188094, 0.0618272, 5.66469E-006, -1.75225E-006
4, 840.00000, 0.188094, 0.0618272, 5.66469E-006, -1.75225E-006
4, 900.00000, 0.188094, 0.0618272, 5.66469E-006, -1.75225E-006
4, 960.00000, 0.225721, 0.0742024, 9.54465E-007, -1.24999E-005
4, 1020.00000, 0.225719, 0.0742031, 9.58375E-007, -1.25046E-005
4, 1080.00000, 0.225719, 0.0742031, 9.58449E-007, -1.25046E-005
4, 1140.00000, 0.225719, 0.0742031, 9.5845E-007, -1.25046E-005
4, 1200.00000, 0.225719, 0.0742031, 9.5845E-007, -1.25046E-005
4, 1260.00000, 0.188093, 0.061826, 6.02751E-006, -6.03134E-007
4, 1320.00000, 0.188094, 0.0618261, 6.02464E-006, -6.01529E-007
4, 1380.00000, 0.188094, 0.0618261, 6.0246E-006, -6.01538E-007
4, 1440.00000, 0.188094, 0.0618261, 6.0246E-006, -6.01539E-007
4, 1500.00000, 0.188094, 0.0618261, 6.0246E-006, -6.01539E-007
4, 1560.00000, 0.225719, 0.0741969, 1.85486E-006, -6.29365E-006
4, 1620.00000, 0.225718, 0.0741969, 1.85703E-006, -6.29489E-006
4, 1680.00000, 0.225718, 0.0741969, 1.85706E-006, -6.29488E-006
4, 1740.00000, 0.225718, 0.0741969, 1.85706E-006, -6.29488E-006
4, 1800.00000, 0.225718, 0.0741969, 1.85706E-006, -6.29488E-006
4, 1860.00000, 0.22572, 0.0741855, -2.58863E-006, 3.63874E-006
4, 1920.00000, 0.225723, 0.0741869, -2.59509E-006, 3.63791E-006
4, 1980.00000, 0.225723, 0.0741872, -2.59558E-006, 3.64437E-006
4, 2040.00000, 0.225722, 0.0741866, -2.59523E-006, 3.63802E-006
4, 2100.00000, 0.225723, 0.0741872, -2.59551E-006, 3.6433E-006
4, 2160.00000, 0.150479, 0.0494628, 2.51708E-006, -1.10265E-006
4, 2220.00000, 0.150478, 0.0494618, 2.52021E-006, -1.09405E-006
4, 2280.00000, 0.150478, 0.0494616, 2.51981E-006, -1.09146E-006
4, 2340.00000, 0.150478, 0.0494615, 2.51957E-006, -1.08983E-006
4, 2400.00000, 0.150478, 0.0494622, 2.51738E-006, -1.07275E-006
4, 2460.00000, 0.225724, 0.0741823, -3.37726E-006, 5.85757E-006
4, 2520.00000, 0.225725, 0.0741862, -3.38001E-006, 5.88206E-006
4, 2580.00000, 0.225723, 0.0741847, -3.38038E-006, 5.883E-006
4, 2640.00000, 0.225723, 0.0741847, -3.38039E-006, 5.88302E-006
4, 2700.00000, 0.225723, 0.0741847, -3.38039E-006, 5.88302E-006
4, 2760.00000, 0.225725, 0.0741903, -5.54874E-006, 2.25726E-006
4, 2820.00000, 0.225726, 0.0741891, -5.54874E-006, 2.2815E-006
4, 2880.00000, 0.225726, 0.0741885, -5.54917E-006, 2.28656E-006
4, 2940.00000, 0.225726, 0.0741888, -5.54957E-006, 2.29785E-006
4, 3000.00000, 0.225726, 0.0741888, -5.55005E-006, 2.30928E-006
4, 3060.00000, 0.263351, 0.0865569, -1.34406E-005, -3.72619E-006
4, 3120.00000, 0.263356, 0.0865615, -1.34458E-005, -3.67838E-006
4, 3180.00000, 0.263353, 0.0865589, -1.34466E-005, -3.68799E-006
4, 3240.00000, 0.263355, 0.0865608, -1.34453E-005, -3.65275E-006
4, 3300.00000, 0.263354, 0.0865595, -1.34454E-005, -3.64633E-006
4, 3360.00000, 0.188102, 0.0618175, -9.65914E-007, 8.31691E-006
4, 3420.00000, 0.188102, 0.0618181, -9.65196E-007, 8.33498E-006
4, 3480.00000, 0.188103, 0.0618187, -9.68101E-007, 8.36915E-006
4, 3540.00000, 0.188102, 0.0618178, -9.69638E-007, 8.38348E-006
5, 0.00000, 0.188101, 0.0618171, -9.69765E-007, 8.38301E-006
5, 60.00000, 0.225713, 0.0741912, 7.05199E-006, -4.1164E-007
5, 120.00000, 0.225714, 0.0741918, 7.04677E-006, -4.02035E-007
5, 180.00000, 0.225715, 0.0741932, 7.04121E-006, -3.72164E-007
5, 240.00000, 0.225714, 0.0741926, 7.03641E-006, -3.49707E-007
5, 300.00000, 0.225717, 0.0741956, 7.02477E-006, -2.86502E-007
5, 360.00000, 0.225721, 0.0741902, 1.26126E-006, -4.11473E-006
5, 420.00000, 0.22572, 0.0741964, 1.26035E-006, -4.1058E-006
5, 480.00000, 0.22572, 0.074196, 1.25849E-006, -4.08655E-006
5, 540.00000, 0.225722, 0.0741993, 1.25259E-006, -4.02206E-006
5, 600.00000, 0.225722, 0.0741992, 1.24554E-006, -3.95627E-006
5, 660.00000, 0.225717, 0.0742083, 6.22907E-006, -1.37694E-005
5, 720.00000, 0.225718, 0.07421, 6.22656E-006, -1.36754E-005
5, 780.00000, 0.225716, 0.0742068, 6.21857E-006, -1.36324E-005
5, 840.00000, 0.225717, 0.074208, 6.20913E-006, -1.35719E-005
5, 900.00000, 0.225718, 0.0742094, 6.19585E-006, -1.34869E-005
