hour, t(sec), P1 (kW), Q1 (kvar), P2 (kW), Q2 (kvar)
0, 60.00000, 0.295916, 0.0972474, 9.61989E-006, 1.65033E-005
0, 120.00000, 0.295915, 0.0972493, 9.61807E-006, 1.65011E-005
0, 180.00000, 0.295915, 0.0972493, 9.61808E-006, 1.65011E-005
0, 240.00000, 0.295915, 0.0972493, 9.61808E-006, 1.65011E-005
0, 300.00000, 0.295915, 0.0972493, 9.61808E-006, 1.65011E-005
0, 360.00000, 0.380493, 0.125035, -1.7908E-005, 2.00805E-005
0, 420.00000, 0.380493, 0.125036, -1.7908E-005, 2.00828E-005
0, 480.00000, 0.380493, 0.125036, -1.7908E-005, 2.00828E-005
0, 540.00000, 0.380493, 0.125036, -1.7908E-005, 2.00828E-005
0, 600.00000, 0.380493, 0.125036, -1.7908E-005, 2.00828E-005
0, 660.00000, 0.338201, 0.11116, -6.34182E-007, 1.40499E-006
0, 720.00000, 0.338201, 0.11116, -6.34516E-007, 1.40234E-006
0, 780.00000, 0.338201, 0.11116, -6.3451E-007, 1.40234E-006
0, 840.00000, 0.338201, 0.11116, -6.3451E-007, 1.40234E-006
0, 900.00000, 0.338201, 0.11116, -6.3451E-007, 1.40234E-006
0, 960.00000, 0.338219, 0.111154, -3.2233E-006, 2.15056E-005
0, 1020.00000, 0.338203, 0.11114, -3.2843E-006, 2.1456E-005
0, 1080.00000, 0.338203, 0.11114, -3.28419E-006, 2.14558E-005
0, 1140.00000, 0.338203, 0.11114, -3.28419E-006, 2.14558E-005
0, 1200.00000, 0.338203, 0.11114, -3.28419E-006, 2.14558E-005
0, 1260.00000, 0.338193, 0.111173, 7.08582E-006, -1.04947E-005
0, 1320.00000, 0.338193, 0.111171, 7.08361E-006, -1.04987E-005
0, 1380.00000, 0.338193, 0.111171, 7.08362E-006, -1.04987E-005
0, 1440.00000, 0.338193, 0.111171, 7.08362E-006, -1.04987E-005
0, 1500.00000, 0.338193, 0.111171, 7.08362E-006, -1.04987E-005
0, 1560.00000, 0.380492, 0.125035, -1.72508E-005, 2.10442E-005
0, 1620.00000, 0.380492, 0.125035, -1.7249E-005, 2.10434E-005
0, 1680.00000, 0.380492, 0.125035, -1.7249E-005, 2.10434E-005
0, 1740.00000, 0.380492, 0.125035, -1.7249E-005, 2.10434E-005
0, 1800.00000, 0.380492, 0.125035, -1.7249E-005, 2.10434E-005
0, 1860.00000, 0.338198, 0.111139, 1.83503E-006, 2.16138E-005
0, 1920.00000, 0.338198, 0.111139, 1.8356E-006, 2.16144E-005
0, 1980.00000, 0.338198, 0.111139, 1.8356E-006, 2.16144E-005
0, 2040.00000, 0.338198, 0.111139, 1.8356E-006, 2.16144E-005
0, 2100.00000, 0.338198, 0.111139, 1.8356E-006, 2.16144E-005
0, 2160.00000, 0.25363, 0.0833876, 1.9846E-005, -1.66042E-005
0, 2220.00000, 0.25363, 0.0833873, 1.98453E-005, -1.6605E-005
0, 2280.00000, 0.25363, 0.0833873, 1.98453E-005, -1.6605E-005
0, 2340.00000, 0.25363, 0.0833873, 1.98453E-005, -1.6605E-005
0, 2400.00000, 0.25363, 0.0833873, 1.98453E-005, -1.6605E-005
0, 2460.00000, 0.380511, 0.125069, -3.533E-005, -1.43272E-005
0, 2520.00000, 0.38051, 0.12507, -3.53307E-005, -1.43237E-005
0, 2580.00000, 0.38051, 0.12507, -3.53307E-005, -1.43237E-005
0, 2640.00000, 0.38051, 0.12507, -3.53307E-005, -1.43237E-005
0, 2700.00000, 0.38051, 0.12507, -3.53307E-005, -1.43237E-005
0, 2760.00000, 0.338212, 0.111182, -1.10342E-005, -2.0952E-005
0, 2820.00000, 0.338211, 0.111182, -1.10367E-005, -2.09534E-005
0, 2880.00000, 0.338211, 0.111182, -1.10367E-005, -2.09534E-005
0, 2940.00000, 0.338211, 0.111182, -1.10367E-005, -2.09534E-005
0, 3000.00000, 0.338211, 0.111182, -1.10367E-005, -2.09534E-005
0, 3060.00000, 0.338209, 0.111152, -9.26361E-006, 9.67905E-006
0, 3120.00000, 0.338209, 0.111151, -9.26143E-006, 9.67733E-006
0, 3180.00000, 0.338209, 0.111151, -9.26142E-006, 9.67733E-006
0, 3240.00000, 0.338209, 0.111151, -9.26142E-006, 9.67733E-006
0, 3300.00000, 0.338209, 0.111151, -9.26142E-006, 9.67733E-006
0, 3360.00000, 0.380501, 0.12508, -2.71982E-005, -2.47446E-005
0, 3420.00000, 0.380502, 0.125081, -2.71972E-005, -2.47425E-005
0, 3480.00000, 0.380502, 0.125081, -2.71972E-005, -2.47425E-005
0, 3540.00000, 0.380502, 0.125081, -2.71972E-005, -2.47425E-005
1, 0.00000, 0.380502, 0.125081, -2.71972E-005, -2.47425E-005
1, 60.00000, 0.253646, 0.0833783, 5.39817E-006, -7.71543E-006
1, 120.00000, 0.253645, 0.0833784, 5.39479E-006, -7.71541E-006
1, 180.00000, 0.253645, 0.0833784, 5.39479E-006, -7.71542E-006
1, 240.00000, 0.253645, 0.0833784, 5.39479E-006, -7.71542E-006
1, 300.00000, 0.253645, 0.0833784, 5.39479E-006, -7.71542E-006
1, 360.00000, 0.295936, 0.0972847, -9.89462E-006, -1.92574E-005
1, 420.00000, 0.295935, 0.0972851, -9.89977E-006, -1.92572E-005
1, 480.00000, 0.295935, 0.0972851, -9.89977E-006, -1.92572E-005
1, 540.00000, 0.295935, 0.0972851, -9.89977E-006, -1.92572E-005
1, 600.00000, 0.295935, 0.0972851, -9.89977E-006, -1.92572E-005
1, 660.00000, 0.211368, 0.0694764, 6.57164E-006, 3.57807E-007
1, 720.00000, 0.211368, 0.0694752, 6.57406E-006, 3.55003E-007
1, 780.00000, 0.211368, 0.0694752, 6.57407E-006, 3.55008E-007
1, 840.00000, 0.211368, 0.0694752, 6.57407E-006, 3.55008E-007
1, 900.00000, 0.211368, 0.0694752, 6.57407E-006, 3.55008E-007
1, 960.00000, 0.253645, 0.083361, 4.89942E-006, 8.54713E-006
1, 1020.00000, 0.253645, 0.0833622, 4.90045E-006, 8.55037E-006
1, 1080.00000, 0.253645, 0.0833622, 4.90043E-006, 8.55038E-006
1, 1140.00000, 0.253645, 0.0833622, 4.90043E-006, 8.55038E-006
1, 1200.00000, 0.253645, 0.0833622, 4.90043E-006, 8.55038E-006
1, 1260.00000, 0.338229, 0.111141, -2.77213E-005, 2.04458E-005
1, 1320.00000, 0.338228, 0.111141, -2.77242E-005, 2.04449E-005
1, 1380.00000, 0.338228, 0.111141, -2.77242E-005, 2.04449E-005
1, 1440.00000, 0.338228, 0.111141, -2.77242E-005, 2.04449E-005
1, 1500.00000, 0.338228, 0.111141, -2.77242E-005, 2.04449E-005
1, 1560.00000, 0.338213, 0.111183, -1.33442E-005, -2.05915E-005
1, 1620.00000, 0.338213, 0.111182, -1.33436E-005, -2.05942E-005
1, 1680.00000, 0.338213, 0.111182, -1.33436E-005, -2.05942E-005
1, 1740.00000, 0.338213, 0.111182, -1.33436E-005, -2.05942E-005
1, 1800.00000, 0.338213, 0.111182, -1.33436E-005, -2.05942E-005
1, 1860.00000, 0.253645, 0.0833935, 5.50834E-006, -2.33956E-005
1, 1920.00000, 0.253644, 0.0833941, 5.50755E-006, -2.3394E-005
1, 1980.00000, 0.253644, 0.0833941, 5.50755E-006, -2.3394E-005
1, 2040.00000, 0.253644, 0.0833941, 5.50755E-006, -2.3394E-005
1, 2100.00000, 0.253644, 0.0833941, 5.50755E-006, -2.3394E-005
1, 2160.00000, 0.338231, 0.111175, -3.08921E-005, -1.46111E-005
1, 2220.00000, 0.338231, 0.111176, -3.08927E-005, -1.46091E-005
1, 2280.00000, 0.338231, 0.111176, -3.08927E-005, -1.46091E-005
1, 2340.00000, 0.338231, 0.111176, -3.08927E-005, -1.46091E-005
1, 2400.00000, 0.338231, 0.111176, -3.08927E-005, -1.46091E-005
1, 2460.00000, 0.126806, 0.0416753, 1.5568E-005, 5.2311E-006
1, 2520.00000, 0.126809, 0.0416801, 1.55735E-005, 5.2441E-006
1, 2580.00000, 0.126809, 0.0416801, 1.55735E-005, 5.24411E-006
1, 2640.00000, 0.126809, 0.0416801, 1.55735E-005, 5.24411E-006
1, 2700.00000, 0.126809, 0.0416801, 1.55735E-005, 5.24411E-006
1, 2760.00000, 0.295932, 0.0972587, -6.54613E-006, 7.53555E-006
1, 2820.00000, 0.295932, 0.0972583, -6.54619E-006, 7.53397E-006
1, 2880.00000, 0.295932, 0.0972583, -6.54618E-006, 7.53397E-006
1, 2940.00000, 0.295932, 0.0972583, -6.54618E-006, 7.53397E-006
1, 3000.00000, 0.295932, 0.0972583, -6.54618E-006, 7.53397E-006
1, 3060.00000, 0.295932, 0.0972574, -7.89897E-006, 8.29699E-006
1, 3120.00000, 0.295933, 0.0972575, -7.89742E-006, 8.29792E-006
1, 3180.00000, 0.295933, 0.0972575, -7.89742E-006, 8.29792E-006
1, 3240.00000, 0.295933, 0.0972575, -7.89742E-006, 8.29792E-006
1, 3300.00000, 0.295933, 0.0972575, -7.89742E-006, 8.29792E-006
1, 3360.00000, 0.253655, 0.0833633, -4.8512E-006, 6.7348E-006
1, 3420.00000, 0.253655, 0.083364, -4.85146E-006, 6.73614E-006
1, 3480.00000, 0.253655, 0.083364, -4.85146E-006, 6.73614E-006
1, 3540.00000, 0.253655, 0.083364, -4.85146E-006, 6.73614E-006
2, 0.00000, 0.253655, 0.083364, -4.85146E-006, 6.73614E-006
2, 60.00000, 0.211359, 0.0694772, 1.56811E-005, 1.79053E-007
2, 120.00000, 0.211359, 0.0694754, 1.56811E-005, 1.74649E-007
2, 180.00000, 0.211359, 0.0694754, 1.56811E-005, 1.74647E-007
2, 240.00000, 0.211359, 0.0694754, 1.56811E-005, 1.74647E-007
2, 300.00000, 0.211359, 0.0694754, 1.56811E-005, 1.74647E-007
2, 360.00000, 0.253646, 0.0833599, 4.16865E-006, 8.44237E-006
2, 420.00000, 0.253646, 0.0833623, 4.16747E-006, 8.44855E-006
2, 480.00000, 0.253646, 0.0833623, 4.16745E-006, 8.44854E-006
2, 540.00000, 0.253646, 0.0833623, 4.16745E-006, 8.44854E-006
2, 600.00000, 0.253646, 0.0833623, 4.16745E-006, 8.44854E-006
2, 660.00000, 0.253656, 0.0833803, -8.78547E-006, -1.70358E-005
2, 720.00000, 0.253659, 0.0833877, -8.77883E-006, -1.70189E-005
2, 780.00000, 0.253659, 0.0833877, -8.77889E-006, -1.70189E-005
2, 840.00000, 0.253659, 0.0833877, -8.77889E-006, -1.70189E-005
2, 900.00000, 0.253659, 0.0833877, -8.77889E-006, -1.70189E-005
2, 960.00000, 0.253649, 0.0833707, 4.62908E-007, -2.47938E-007
2, 1020.00000, 0.25365, 0.083371, 4.63391E-007, -2.47533E-007
2, 1080.00000, 0.25365, 0.083371, 4.63391E-007, -2.47529E-007
2, 1140.00000, 0.25365, 0.083371, 4.6339E-007, -2.47529E-007
2, 1200.00000, 0.25365, 0.083371, 4.6339E-007, -2.47529E-007
2, 1260.00000, 0.253659, 0.0833867, -1.2624E-005, -8.73736E-006
2, 1320.00000, 0.253663, 0.0833795, -1.26047E-005, -8.75096E-006
2, 1380.00000, 0.253663, 0.0833795, -1.26046E-005, -8.75089E-006
2, 1440.00000, 0.253663, 0.0833795, -1.26046E-005, -8.75089E-006
2, 1500.00000, 0.253663, 0.0833795, -1.26046E-005, -8.75089E-006
2, 1560.00000, 0.253642, 0.0833561, 7.09838E-006, 1.57331E-005
2, 1620.00000, 0.253643, 0.083355, 7.10188E-006, 1.57309E-005
2, 1680.00000, 0.253643, 0.083355, 7.10188E-006, 1.57309E-005
2, 1740.00000, 0.253643, 0.083355, 7.10188E-006, 1.57309E-005
2, 1800.00000, 0.253643, 0.083355, 7.10188E-006, 1.57309E-005
2, 1860.00000, 0.21137, 0.0694678, 1.06781E-005, 7.0019E-006
2, 1920.00000, 0.211364, 0.0694686, 1.06568E-005, 7.00311E-006
2, 1980.00000, 0.211364, 0.0694686, 1.06568E-005, 7.00305E-006
2, 2040.00000, 0.211364, 0.0694686, 1.06568E-005, 7.00305E-006
2, 2100.00000, 0.211364, 0.0694686, 1.06568E-005, 7.00305E-006
2, 2160.00000, 0.295943, 0.097278, -2.28228E-005, 1.5807E-005
2, 2220.00000, 0.295948, 0.0972501, -2.27948E-005, 1.57352E-005
2, 2280.00000, 0.295948, 0.0972501, -2.27945E-005, 1.57352E-005
2, 2340.00000, 0.295948, 0.0972501, -2.27945E-005, 1.57352E-005
2, 2400.00000, 0.295948, 0.0972501, -2.27945E-005, 1.57352E-005
2, 2460.00000, 0.211368, 0.0694766, 6.97055E-006, -2.57938E-007
2, 2520.00000, 0.211368, 0.0694759, 6.97159E-006, -2.59539E-007
2, 2580.00000, 0.211368, 0.0694759, 6.9716E-006, -2.59536E-007
2, 2640.00000, 0.211368, 0.0694759, 6.9716E-006, -2.59536E-007
2, 2700.00000, 0.211368, 0.0694759, 6.9716E-006, -2.59536E-007
2, 2760.00000, 0.253649, 0.0833712, 1.23908E-006, -2.31693E-007
2, 2820.00000, 0.253649, 0.083371, 1.2369E-006, -2.3262E-007
2, 2880.00000, 0.253649, 0.083371, 1.2369E-006, -2.32626E-007
2, 2940.00000, 0.253649, 0.083371, 1.2369E-006, -2.32626E-007
2, 3000.00000, 0.253649, 0.083371, 1.2369E-006, -2.32626E-007
2, 3060.00000, 0.253641, 0.0833529, 8.26854E-006, 1.64881E-005
2, 3120.00000, 0.253642, 0.0833542, 8.27148E-006, 1.64919E-005
2, 3180.00000, 0.253642, 0.0833542, 8.27147E-006, 1.64919E-005
2, 3240.00000, 0.253642, 0.0833542, 8.27147E-006, 1.64919E-005
2, 3300.00000, 0.253642, 0.0833542, 8.27147E-006, 1.64919E-005
2, 3360.00000, 0.253655, 0.0833635, -4.45913E-006, 7.31088E-006
2, 3420.00000, 0.253654, 0.0833634, -4.46157E-006, 7.31019E-006
2, 3480.00000, 0.253654, 0.0833634, -4.46157E-006, 7.31019E-006
2, 3540.00000, 0.253654, 0.0833634, -4.46157E-006, 7.31019E-006
3, 0.00000, 0.253654, 0.0833634, -4.46157E-006, 7.31019E-006
3, 60.00000, 0.338232, 0.111132, -3.20815E-005, 2.7775E-005
3, 120.00000, 0.338232, 0.111133, -3.20813E-005, 2.77774E-005
3, 180.00000, 0.338232, 0.111133, -3.20813E-005, 2.77774E-005
3, 240.00000, 0.338232, 0.111133, -3.20813E-005, 2.77774E-005
3, 300.00000, 0.338232, 0.111133, -3.20813E-005, 2.77774E-005
3, 360.00000, 0.169089, 0.0555814, 1.0991E-005, 1.14873E-007
3, 420.00000, 0.169089, 0.0555804, 1.09911E-005, 1.12206E-007
3, 480.00000, 0.169089, 0.0555804, 1.09911E-005, 1.12205E-007
3, 540.00000, 0.169089, 0.0555804, 1.09911E-005, 1.12205E-007
3, 600.00000, 0.169089, 0.0555804, 1.09911E-005, 1.12205E-007
3, 660.00000, 0.253669, 0.0833429, -4.20022E-006, 2.22043E-005
3, 720.00000, 0.253654, 0.0833485, -4.24272E-006, 2.2215E-005
3, 780.00000, 0.253654, 0.0833485, -4.24278E-006, 2.22149E-005
3, 840.00000, 0.253654, 0.0833485, -4.24278E-006, 2.22149E-005
3, 900.00000, 0.253654, 0.0833485, -4.24278E-006, 2.22149E-005
3, 960.00000, 0.253651, 0.0833712, -4.23968E-007, -4.66759E-007
3, 1020.00000, 0.25365, 0.0833712, -4.26687E-007, -4.67536E-007
3, 1080.00000, 0.25365, 0.0833712, -4.26685E-007, -4.67544E-007
3, 1140.00000, 0.25365, 0.0833712, -4.26685E-007, -4.67544E-007
3, 1200.00000, 0.25365, 0.0833712, -4.26685E-007, -4.67544E-007
3, 1260.00000, 0.211364, 0.0694826, 1.13359E-005, -7.24357E-006
3, 1320.00000, 0.211364, 0.0694828, 1.13344E-005, -7.24308E-006
3, 1380.00000, 0.211364, 0.0694828, 1.13344E-005, -7.24309E-006
3, 1440.00000, 0.211364, 0.0694828, 1.13344E-005, -7.24309E-006
3, 1500.00000, 0.211364, 0.0694828, 1.13344E-005, -7.24309E-006
3, 1560.00000, 0.253675, 0.0833502, -4.53366E-006, 7.15211E-006
3, 1620.00000, 0.253655, 0.0833636, -4.59276E-006, 7.17385E-006
3, 1680.00000, 0.253655, 0.0833635, -4.59288E-006, 7.17368E-006
3, 1740.00000, 0.253655, 0.0833635, -4.59288E-006, 7.17368E-006
3, 1800.00000, 0.253655, 0.0833635, -4.59288E-006, 7.17368E-006
3, 1860.00000, 0.295948, 0.0972677, -2.20814E-005, -2.66869E-006
3, 1920.00000, 0.295947, 0.0972685, -2.20838E-005, -2.66714E-006
3, 1980.00000, 0.295947, 0.0972685, -2.20838E-005, -2.66715E-006
3, 2040.00000, 0.295947, 0.0972685, -2.20838E-005, -2.66715E-006
3, 2100.00000, 0.295947, 0.0972685, -2.20838E-005, -2.66715E-006
3, 2160.00000, 0.211371, 0.0694819, 3.43016E-006, -5.99145E-006
3, 2220.00000, 0.211372, 0.0694816, 3.43141E-006, -5.99206E-006
3, 2280.00000, 0.211372, 0.0694816, 3.43142E-006, -5.99206E-006
3, 2340.00000, 0.211372, 0.0694816, 3.43142E-006, -5.99206E-006
3, 2400.00000, 0.211372, 0.0694816, 3.43142E-006, -5.99206E-006
3, 2460.00000, 0.211372, 0.0694704, 2.75036E-006, 5.88835E-006
3, 2520.00000, 0.211372, 0.0694697, 2.75001E-006, 5.88637E-006
3, 2580.00000, 0.211372, 0.0694697, 2.75001E-006, 5.88637E-006
3, 2640.00000, 0.211372, 0.0694697, 2.75001E-006, 5.88637E-006
3, 2700.00000, 0.211372, 0.0694697, 2.75001E-006, 5.88637E-006
3, 2760.00000, 0.211377, 0.0694828, -2.11897E-006, -7.38312E-006
3, 2820.00000, 0.211377, 0.069483, -2.11735E-006, -7.38228E-006
3, 2880.00000, 0.211377, 0.069483, -2.11736E-006, -7.38228E-006
3, 2940.00000, 0.211377, 0.069483, -2.11736E-006, -7.38228E-006
3, 3000.00000, 0.211377, 0.069483, -2.11736E-006, -7.38228E-006
3, 3060.00000, 0.253659, 0.0833727, -8.96043E-006, -1.54425E-006
3, 3120.00000, 0.253659, 0.0833723, -8.96047E-006, -1.5452E-006
3, 3180.00000, 0.253659, 0.0833723, -8.96046E-006, -1.5452E-006
3, 3240.00000, 0.253659, 0.0833723, -8.96046E-006, -1.5452E-006
3, 3300.00000, 0.253659, 0.0833723, -8.96046E-006, -1.5452E-006
3, 3360.00000, 0.211371, 0.0694693, 4.65569E-006, 6.00928E-006
3, 3420.00000, 0.21137, 0.0694696, 4.65461E-006, 6.01004E-006
3, 3480.00000, 0.21137, 0.0694696, 4.65461E-006, 6.01004E-006
3, 3540.00000, 0.21137, 0.0694696, 4.65461E-006, 6.01004E-006
4, 0.00000, 0.21137, 0.0694696, 4.65461E-006, 6.01004E-006
4, 60.00000, 0.338231, 0.111157, -3.14651E-005, 5.68196E-006
4, 120.00000, 0.338231, 0.111155, -3.14732E-005, 5.68857E-006
4, 180.00000, 0.338231, 0.111155, -3.14733E-005, 5.68857E-006
4, 240.00000, 0.338231, 0.111155, -3.14733E-005, 5.68857E-006
4, 300.00000, 0.338231, 0.111155, -3.14733E-005, 5.68857E-006
4, 360.00000, 0.169089, 0.0555926, 1.29956E-005, -1.00551E-005
4, 420.00000, 0.169087, 0.0555906, 1.3E-005, -1.00466E-005
4, 480.00000, 0.169087, 0.0555905, 1.3E-005, -1.00465E-005
4, 540.00000, 0.169087, 0.0555905, 1.3E-005, -1.00465E-005
4, 600.00000, 0.169087, 0.0555905, 1.3E-005, -1.00465E-005
4, 660.00000, 0.253655, 0.0833591, -9.85926E-006, 1.40036E-005
4, 720.00000, 0.25366, 0.0833567, -9.87793E-006, 1.40178E-005
4, 780.00000, 0.25366, 0.0833567, -9.87822E-006, 1.40178E-005
4, 840.00000, 0.25366, 0.0833567, -9.87822E-006, 1.40178E-005
4, 900.00000, 0.25366, 0.0833567, -9.87822E-006, 1.40178E-005
4, 960.00000, 0.253658, 0.0833638, -4.52609E-006, 5.6738E-006
4, 1020.00000, 0.253655, 0.0833651, -4.5112E-006, 5.66469E-006
4, 1080.00000, 0.253655, 0.0833651, -4.51098E-006, 5.66473E-006
4, 1140.00000, 0.253655, 0.0833651, -4.51098E-006, 5.66473E-006
4, 1200.00000, 0.253655, 0.0833651, -4.51098E-006, 5.66473E-006
4, 1260.00000, 0.253651, 0.0833641, -4.14044E-006, 6.37612E-006
4, 1320.00000, 0.253654, 0.0833643, -4.15185E-006, 6.37764E-006
4, 1380.00000, 0.253654, 0.0833643, -4.15197E-006, 6.37756E-006
4, 1440.00000, 0.253654, 0.0833643, -4.15197E-006, 6.37756E-006
4, 1500.00000, 0.253654, 0.0833643, -4.15197E-006, 6.37756E-006
4, 1560.00000, 0.211372, 0.0694836, 4.53037E-006, -7.81871E-006
4, 1620.00000, 0.21137, 0.0694834, 4.53646E-006, -7.81941E-006
4, 1680.00000, 0.21137, 0.0694834, 4.53653E-006, -7.81937E-006
4, 1740.00000, 0.21137, 0.0694834, 4.53653E-006, -7.81937E-006
4, 1800.00000, 0.21137, 0.0694834, 4.53653E-006, -7.81937E-006
4, 1860.00000, 0.253645, 0.0833541, 3.20217E-007, 1.38913E-005
4, 1920.00000, 0.25365, 0.0833568, 3.0331E-007, 1.38825E-005
4, 1980.00000, 0.25365, 0.0833573, 3.02053E-007, 1.38856E-005
4, 2040.00000, 0.253649, 0.0833564, 3.03052E-007, 1.38825E-005
4, 2100.00000, 0.25365, 0.0833572, 3.02241E-007, 1.3885E-005
4, 2160.00000, 0.16909, 0.0555925, 1.26859E-005, -9.56858E-006
4, 2220.00000, 0.169088, 0.0555906, 1.26912E-005, -9.55375E-006
4, 2280.00000, 0.169087, 0.0555902, 1.26897E-005, -9.55103E-006
4, 2340.00000, 0.169087, 0.0555901, 1.26887E-005, -9.54947E-006
4, 2400.00000, 0.169089, 0.0555912, 1.26798E-005, -9.53408E-006
4, 2460.00000, 0.211372, 0.0694671, 4.08802E-006, 4.76661E-006
4, 2520.00000, 0.211373, 0.0694729, 4.08402E-006, 4.76757E-006
4, 2580.00000, 0.211371, 0.0694708, 4.08327E-006, 4.76923E-006
4, 2640.00000, 0.211371, 0.0694708, 4.08324E-006, 4.76925E-006
4, 2700.00000, 0.211371, 0.0694708, 4.08324E-006, 4.76925E-006
4, 2760.00000, 0.169092, 0.0555832, 7.59381E-006, -1.6486E-007
4, 2820.00000, 0.169093, 0.0555815, 7.58552E-006, -1.44289E-007
4, 2880.00000, 0.169093, 0.0555808, 7.58359E-006, -1.41443E-007
4, 2940.00000, 0.169093, 0.0555812, 7.58043E-006, -1.36077E-007
4, 3000.00000, 0.169093, 0.0555812, 7.57707E-006, -1.30483E-007
4, 3060.00000, 0.253647, 0.0833691, -7.86115E-007, -2.48772E-006
4, 3120.00000, 0.253655, 0.0833762, -8.05463E-007, -2.47147E-006
4, 3180.00000, 0.25365, 0.0833726, -8.05105E-007, -2.47601E-006
4, 3240.00000, 0.253653, 0.0833753, -8.09358E-007, -2.45468E-006
4, 3300.00000, 0.253651, 0.0833735, -8.1073E-007, -2.44969E-006
4, 3360.00000, 0.253652, 0.0833719, 2.9768E-007, -4.14657E-007
4, 3420.00000, 0.253652, 0.0833729, 3.00861E-007, -3.95421E-007
4, 3480.00000, 0.253654, 0.0833743, 2.91817E-007, -3.61428E-007
4, 3540.00000, 0.253651, 0.0833724, 2.87163E-007, -3.45863E-007
5, 0.00000, 0.25365, 0.083371, 2.86816E-007, -3.45604E-007
5, 60.00000, 0.211369, 0.0694767, 6.63499E-006, -8.87274E-007
5, 120.00000, 0.211369, 0.0694775, 6.62711E-006, -8.85031E-007
5, 180.00000, 0.211371, 0.0694792, 6.61867E-006, -8.6764E-007
5, 240.00000, 0.21137, 0.0694784, 6.61118E-006, -8.53894E-007
5, 300.00000, 0.211374, 0.0694821, 6.59355E-006, -8.17018E-007
5, 360.00000, 0.253649, 0.0833727, 4.13764E-006, -8.55785E-006
5, 420.00000, 0.253648, 0.0833817, 4.1426E-006, -8.56861E-006
5, 480.00000, 0.253648, 0.0833813, 4.1372E-006, -8.55217E-006
5, 540.00000, 0.253652, 0.083386, 4.1201E-006, -8.49896E-006
5, 600.00000, 0.253652, 0.0833859, 4.10006E-006, -8.44295E-006
5, 660.00000, 0.211364, 0.0694675, 1.42142E-005, 1.33069E-005
5, 720.00000, 0.211367, 0.0694691, 1.41983E-005, 1.33524E-005
5, 780.00000, 0.211363, 0.0694653, 1.418E-005, 1.33675E-005
5, 840.00000, 0.211365, 0.0694668, 1.41581E-005, 1.33866E-005
5, 900.00000, 0.211366, 0.0694686, 1.41273E-005, 1.34133E-005
5, 960.00000, 0.253644, 0.0833613, -2.19101E-007, 7.70315E-007
5, 1020.00000, 0.253657, 0.0833779, -2.58348E-007, 7.88493E-007
