hour, t(sec), P1 (kW), Q1 (kvar), P2 (kW), Q2 (kvar)
0, 60.00000, 0.0578541, 0.0190159, 8.45459E-007, 5.11145E-008
0, 120.00000, 0.0578542, 0.019016, 8.45513E-007, 5.11373E-008
0, 180.00000, 0.0578542, 0.019016, 8.45513E-007, 5.11373E-008
0, 240.00000, 0.0578542, 0.019016, 8.45513E-007, 5.11373E-008
0, 300.00000, 0.0578542, 0.019016, 8.45513E-007, 5.11373E-008
0, 360.00000, 0.0661198, 0.0217326, 1.46148E-007, -4.7198E-008
0, 420.00000, 0.0661199, 0.0217326, 1.4617E-007, -4.72359E-008
0, 480.00000, 0.0661199, 0.0217326, 1.4617E-007, -4.72356E-008
0, 540.00000, 0.0661199, 0.0217326, 1.4617E-007, -4.72356E-008
0, 600.00000, 0.0661199, 0.0217326, 1.4617E-007, -4.72356E-008
0, 660.00000, 0.0826513, 0.0271653, -1.25389E-006, 4.09278E-007
0, 720.00000, 0.0826513, 0.0271653, -1.25392E-006, 4.09324E-007
0, 780.00000, 0.0826513, 0.0271653, -1.25392E-006, 4.09324E-007
0, 840.00000, 0.0826513, 0.0271653, -1.25392E-006, 4.09324E-007
0, 900.00000, 0.0826513, 0.0271653, -1.25392E-006, 4.09324E-007
0, 960.00000, 0.0743864, 0.0244499, -1.56788E-006, -4.8541E-007
0, 1020.00000, 0.0743866, 0.0244497, -1.56725E-006, -4.84917E-007
0, 1080.00000, 0.0743866, 0.0244497, -1.56725E-006, -4.84916E-007
0, 1140.00000, 0.0743866, 0.0244497, -1.56725E-006, -4.84916E-007
0, 1200.00000, 0.0743866, 0.0244497, -1.56725E-006, -4.84916E-007
0, 1260.00000, 0.0743857, 0.0244497, -6.33202E-007, -4.79435E-007
0, 1320.00000, 0.0743856, 0.0244496, -6.33171E-007, -4.79551E-007
0, 1380.00000, 0.0743856, 0.0244496, -6.3317E-007, -4.79552E-007
0, 1440.00000, 0.0743856, 0.0244496, -6.3317E-007, -4.79552E-007
0, 1500.00000, 0.0743856, 0.0244496, -6.3317E-007, -4.79552E-007
0, 1560.00000, 0.0743854, 0.0244491, -3.94629E-007, 1.61225E-008
0, 1620.00000, 0.0743854, 0.0244492, -3.94597E-007, 1.61461E-008
0, 1680.00000, 0.0743854, 0.0244492, -3.94597E-007, 1.61456E-008
0, 1740.00000, 0.0743854, 0.0244492, -3.94597E-007, 1.61456E-008
0, 1800.00000, 0.0743854, 0.0244492, -3.94597E-007, 1.61456E-008
0, 1860.00000, 0.0661206, 0.0217322, -6.35251E-007, 3.90147E-007
0, 1920.00000, 0.0661206, 0.0217322, -6.35249E-007, 3.90182E-007
0, 1980.00000, 0.0661206, 0.0217322, -6.35249E-007, 3.90183E-007
0, 2040.00000, 0.0661206, 0.0217322, -6.35249E-007, 3.90183E-007
0, 2100.00000, 0.0661206, 0.0217322, -6.35249E-007, 3.90183E-007
0, 2160.00000, 0.0743862, 0.0244489, -1.14753E-006, 3.56685E-007
0, 2220.00000, 0.0743861, 0.0244488, -1.1476E-006, 3.56617E-007
0, 2280.00000, 0.0743861, 0.0244488, -1.1476E-006, 3.56617E-007
0, 2340.00000, 0.0743861, 0.0244488, -1.1476E-006, 3.56617E-007
0, 2400.00000, 0.0743861, 0.0244488, -1.1476E-006, 3.56617E-007
0, 2460.00000, 0.0743846, 0.0244486, 3.30853E-007, 4.78625E-007
0, 2520.00000, 0.0743847, 0.0244487, 3.30836E-007, 4.78795E-007
0, 2580.00000, 0.0743847, 0.0244487, 3.30835E-007, 4.78796E-007
0, 2640.00000, 0.0743847, 0.0244487, 3.30835E-007, 4.78796E-007
0, 2700.00000, 0.0743847, 0.0244487, 3.30835E-007, 4.78796E-007
0, 2760.00000, 0.0578545, 0.0190153, 4.61807E-007, 7.41546E-007
0, 2820.00000, 0.0578545, 0.0190153, 4.61839E-007, 7.41582E-007
0, 2880.00000, 0.0578545, 0.0190153, 4.61839E-007, 7.41582E-007
0, 2940.00000, 0.0578545, 0.0190153, 4.61839E-007, 7.41582E-007
0, 3000.00000, 0.0578545, 0.0190153, 4.61839E-007, 7.41582E-007
0, 3060.00000, 0.0661195, 0.0217325, 5.62956E-007, 9.81741E-008
0, 3120.00000, 0.0661194, 0.0217325, 5.62881E-007, 9.80823E-008
0, 3180.00000, 0.0661194, 0.0217325, 5.62881E-007, 9.80812E-008
0, 3240.00000, 0.0661194, 0.0217325, 5.62881E-007, 9.80812E-008
0, 3300.00000, 0.0661194, 0.0217325, 5.62881E-007, 9.80812E-008
0, 3360.00000, 0.0743857, 0.0244479, -6.76234E-007, 1.25745E-006
0, 3420.00000, 0.0743857, 0.0244479, -6.76197E-007, 1.25735E-006
0, 3480.00000, 0.0743857, 0.0244479, -6.76197E-007, 1.25735E-006
0, 3540.00000, 0.0743857, 0.0244479, -6.76197E-007, 1.25735E-006
1, 0.00000, 0.0743857, 0.0244479, -6.76197E-007, 1.25735E-006
1, 60.00000, 0.0578551, 0.0190164, -7.84037E-008, -3.18726E-007
1, 120.00000, 0.0578551, 0.0190163, -7.83979E-008, -3.18654E-007
1, 180.00000, 0.0578551, 0.0190163, -7.83981E-008, -3.18654E-007
1, 240.00000, 0.0578551, 0.0190163, -7.83981E-008, -3.18654E-007
1, 300.00000, 0.0578551, 0.0190163, -7.83981E-008, -3.18654E-007
1, 360.00000, 0.0578552, 0.0190151, -1.73881E-007, 9.53754E-007
1, 420.00000, 0.0578552, 0.0190151, -1.73776E-007, 9.53704E-007
1, 480.00000, 0.0578552, 0.0190151, -1.73775E-007, 9.53704E-007
1, 540.00000, 0.0578552, 0.0190151, -1.73775E-007, 9.53704E-007
1, 600.00000, 0.0578552, 0.0190151, -1.73775E-007, 9.53704E-007
1, 660.00000, 0.0495897, 0.0162997, 2.75611E-007, -2.47855E-007
1, 720.00000, 0.0495897, 0.0162997, 2.75544E-007, -2.47791E-007
1, 780.00000, 0.0495897, 0.0162997, 2.75543E-007, -2.47791E-007
1, 840.00000, 0.0495897, 0.0162997, 2.75543E-007, -2.47791E-007
1, 900.00000, 0.0495897, 0.0162997, 2.75543E-007, -2.47791E-007
1, 960.00000, 0.057855, 0.019017, -3.37719E-008, -1.01526E-006
1, 1020.00000, 0.057855, 0.019017, -3.36663E-008, -1.01526E-006
1, 1080.00000, 0.057855, 0.019017, -3.36658E-008, -1.01526E-006
1, 1140.00000, 0.057855, 0.019017, -3.36659E-008, -1.01526E-006
1, 1200.00000, 0.057855, 0.019017, -3.36659E-008, -1.01526E-006
1, 1260.00000, 0.0495896, 0.0162995, 3.92831E-007, 8.40856E-009
1, 1320.00000, 0.0495896, 0.0162994, 3.92741E-007, 8.40424E-009
1, 1380.00000, 0.0495896, 0.0162994, 3.9274E-007, 8.40363E-009
1, 1440.00000, 0.0495896, 0.0162994, 3.9274E-007, 8.40362E-009
1, 1500.00000, 0.0495896, 0.0162994, 3.9274E-007, 8.40362E-009
1, 1560.00000, 0.0578553, 0.0190154, -3.28173E-007, 5.99882E-007
1, 1620.00000, 0.0578553, 0.0190154, -3.28174E-007, 5.99932E-007
1, 1680.00000, 0.0578553, 0.0190154, -3.28174E-007, 5.99933E-007
1, 1740.00000, 0.0578553, 0.0190154, -3.28174E-007, 5.99933E-007
1, 1800.00000, 0.0578553, 0.0190154, -3.28174E-007, 5.99933E-007
1, 1860.00000, 0.041325, 0.0135831, -5.24274E-008, -2.35555E-007
1, 1920.00000, 0.0413251, 0.0135831, -5.23996E-008, -2.35527E-007
1, 1980.00000, 0.0413251, 0.0135831, -5.23992E-008, -2.35527E-007
1, 2040.00000, 0.0413251, 0.0135831, -5.23992E-008, -2.35527E-007
1, 2100.00000, 0.0413251, 0.0135831, -5.23992E-008, -2.35527E-007
1, 2160.00000, 0.0495899, 0.0162989, 7.74219E-008, 5.86153E-007
1, 2220.00000, 0.0495899, 0.0162989, 7.74255E-008, 5.86119E-007
1, 2280.00000, 0.0495899, 0.0162989, 7.7425E-008, 5.86118E-007
1, 2340.00000, 0.0495899, 0.0162989, 7.7425E-008, 5.86118E-007
1, 2400.00000, 0.0495899, 0.0162989, 7.7425E-008, 5.86118E-007
1, 2460.00000, 0.0578549, 0.0190161, -1.43607E-007, 3.18575E-007
1, 2520.00000, 0.0578551, 0.0190157, -1.43214E-007, 3.18234E-007
1, 2580.00000, 0.0578551, 0.0190157, -1.43217E-007, 3.18234E-007
1, 2640.00000, 0.0578551, 0.0190157, -1.43217E-007, 3.18234E-007
1, 2700.00000, 0.0578551, 0.0190157, -1.43217E-007, 3.18234E-007
1, 2760.00000, 0.0413243, 0.0135826, 7.12678E-007, 2.45631E-007
1, 2820.00000, 0.0413243, 0.0135826, 7.12686E-007, 2.45591E-007
1, 2880.00000, 0.0413243, 0.0135826, 7.12686E-007, 2.45591E-007
1, 2940.00000, 0.0413243, 0.0135826, 7.12686E-007, 2.45591E-007
1, 3000.00000, 0.0413243, 0.0135826, 7.12686E-007, 2.45591E-007
1, 3060.00000, 0.0661205, 0.0217331, -5.22269E-007, -4.83096E-007
1, 3120.00000, 0.0661205, 0.0217331, -5.22258E-007, -4.83054E-007
1, 3180.00000, 0.0661205, 0.0217331, -5.22258E-007, -4.83053E-007
1, 3240.00000, 0.0661205, 0.0217331, -5.22258E-007, -4.83053E-007
1, 3300.00000, 0.0661205, 0.0217331, -5.22258E-007, -4.83053E-007
1, 3360.00000, 0.0495898, 0.0162992, 2.32587E-007, 3.25062E-007
1, 3420.00000, 0.0495898, 0.0162991, 2.32547E-007, 3.25008E-007
1, 3480.00000, 0.0495898, 0.0162991, 2.32547E-007, 3.25007E-007
1, 3540.00000, 0.0495898, 0.0162991, 2.32547E-007, 3.25007E-007
2, 0.00000, 0.0495898, 0.0162991, 2.32547E-007, 3.25007E-007
2, 60.00000, 0.0578547, 0.0190163, 2.66944E-007, -3.10791E-007
2, 120.00000, 0.0578547, 0.0190163, 2.66945E-007, -3.10749E-007
2, 180.00000, 0.0578547, 0.0190163, 2.66944E-007, -3.10749E-007
2, 240.00000, 0.0578547, 0.0190163, 2.66944E-007, -3.10749E-007
2, 300.00000, 0.0578547, 0.0190163, 2.66944E-007, -3.10749E-007
2, 360.00000, 0.0413249, 0.0135827, 1.34081E-007, 2.16328E-007
2, 420.00000, 0.0413249, 0.0135827, 1.34086E-007, 2.16294E-007
2, 480.00000, 0.0413249, 0.0135827, 1.34086E-007, 2.16294E-007
2, 540.00000, 0.0413249, 0.0135827, 1.34086E-007, 2.16294E-007
2, 600.00000, 0.0413249, 0.0135827, 1.34086E-007, 2.16294E-007
2, 660.00000, 0.0495908, 0.0162998, -2.84804E-007, -3.53722E-008
2, 720.00000, 0.0495903, 0.0162995, -2.86912E-007, -3.75911E-008
2, 780.00000, 0.0495903, 0.0162995, -2.86915E-007, -3.75919E-008
2, 840.00000, 0.0495903, 0.0162995, -2.86915E-007, -3.75919E-008
2, 900.00000, 0.0495903, 0.0162995, -2.86915E-007, -3.75919E-008
2, 960.00000, 0.0413245, 0.0135823, 5.44339E-007, 5.39173E-007
2, 1020.00000, 0.0413245, 0.0135823, 5.44352E-007, 5.39103E-007
2, 1080.00000, 0.0413245, 0.0135823, 5.44353E-007, 5.39102E-007
2, 1140.00000, 0.0413245, 0.0135823, 5.44353E-007, 5.39102E-007
2, 1200.00000, 0.0413245, 0.0135823, 5.44353E-007, 5.39102E-007
2, 1260.00000, 0.0578553, 0.0190162, -5.712E-007, 2.99756E-007
2, 1320.00000, 0.0578556, 0.0190157, -5.70317E-007, 2.99093E-007
2, 1380.00000, 0.0578556, 0.0190157, -5.70318E-007, 2.99092E-007
2, 1440.00000, 0.0578556, 0.0190157, -5.70318E-007, 2.99092E-007
2, 1500.00000, 0.0578556, 0.0190157, -5.70318E-007, 2.99092E-007
2, 1560.00000, 0.0578553, 0.019016, -3.36531E-007, -3.40196E-008
2, 1620.00000, 0.0578553, 0.0190161, -3.3652E-007, -3.39467E-008
2, 1680.00000, 0.0578553, 0.0190161, -3.3652E-007, -3.39461E-008
2, 1740.00000, 0.0578553, 0.0190161, -3.3652E-007, -3.39461E-008
2, 1800.00000, 0.0578553, 0.0190161, -3.3652E-007, -3.39461E-008
2, 1860.00000, 0.0413252, 0.0135815, 4.40652E-008, 4.76096E-007
2, 1920.00000, 0.041325, 0.0135824, 4.40028E-008, 4.78498E-007
2, 1980.00000, 0.041325, 0.0135824, 4.40018E-008, 4.78498E-007
2, 2040.00000, 0.041325, 0.0135824, 4.40018E-008, 4.78498E-007
2, 2100.00000, 0.041325, 0.0135824, 4.40018E-008, 4.78498E-007
2, 2160.00000, 0.0413246, 0.0135832, 3.38319E-007, 3.21645E-008
2, 2220.00000, 0.0413247, 0.0135828, 3.38067E-007, 3.10229E-008
2, 2280.00000, 0.0413247, 0.0135828, 3.38067E-007, 3.10228E-008
2, 2340.00000, 0.0413247, 0.0135828, 3.38067E-007, 3.10228E-008
2, 2400.00000, 0.0413247, 0.0135828, 3.38067E-007, 3.10228E-008
2, 2460.00000, 0.0330594, 0.0108664, 6.16301E-007, -1.61505E-007
2, 2520.00000, 0.0330594, 0.0108665, 6.16308E-007, -1.61499E-007
2, 2580.00000, 0.0330594, 0.0108665, 6.16309E-007, -1.61498E-007
2, 2640.00000, 0.0330594, 0.0108665, 6.16309E-007, -1.61498E-007
2, 2700.00000, 0.0330594, 0.0108665, 6.16309E-007, -1.61498E-007
2, 2760.00000, 0.0495898, 0.0162997, 2.16101E-007, -2.9311E-007
2, 2820.00000, 0.0495898, 0.0162997, 2.16096E-007, -2.93114E-007
2, 2880.00000, 0.0495898, 0.0162997, 2.16096E-007, -2.93115E-007
2, 2940.00000, 0.0495898, 0.0162997, 2.16096E-007, -2.93115E-007
2, 3000.00000, 0.0495898, 0.0162997, 2.16096E-007, -2.93115E-007
2, 3060.00000, 0.0330594, 0.0108661, 5.75166E-007, 1.98197E-007
2, 3120.00000, 0.0330594, 0.0108661, 5.75118E-007, 1.98192E-007
2, 3180.00000, 0.0330594, 0.0108661, 5.75117E-007, 1.98192E-007
2, 3240.00000, 0.0330594, 0.0108661, 5.75117E-007, 1.98192E-007
2, 3300.00000, 0.0330594, 0.0108661, 5.75117E-007, 1.98192E-007
2, 3360.00000, 0.0578556, 0.0190167, -6.21357E-007, -7.18387E-007
2, 3420.00000, 0.0578556, 0.0190167, -6.21245E-007, -7.18399E-007
2, 3480.00000, 0.0578556, 0.0190167, -6.21243E-007, -7.18399E-007
2, 3540.00000, 0.0578556, 0.0190167, -6.21243E-007, -7.18399E-007
3, 0.00000, 0.0578556, 0.0190167, -6.21243E-007, -7.18399E-007
3, 60.00000, 0.0495901, 0.0162998, -6.86442E-008, -2.79262E-007
3, 120.00000, 0.0495901, 0.0162997, -6.86963E-008, -2.79269E-007
3, 180.00000, 0.0495901, 0.0162997, -6.86968E-008, -2.7927E-007
3, 240.00000, 0.0495901, 0.0162997, -6.86968E-008, -2.7927E-007
3, 300.00000, 0.0495901, 0.0162997, -6.86968E-008, -2.7927E-007
3, 360.00000, 0.0413246, 0.0135833, 3.73644E-007, -4.77844E-007
3, 420.00000, 0.0413246, 0.0135833, 3.73675E-007, -4.77847E-007
3, 480.00000, 0.0413246, 0.0135833, 3.73676E-007, -4.77847E-007
3, 540.00000, 0.0413246, 0.0135833, 3.73676E-007, -4.77847E-007
3, 600.00000, 0.0413246, 0.0135833, 3.73676E-007, -4.77847E-007
3, 660.00000, 0.0413248, 0.0135827, 1.83418E-007, 2.1422E-007
3, 720.00000, 0.0413248, 0.0135827, 1.83045E-007, 2.14634E-007
3, 780.00000, 0.0413248, 0.0135827, 1.83042E-007, 2.14634E-007
3, 840.00000, 0.0413248, 0.0135827, 1.83042E-007, 2.14634E-007
3, 900.00000, 0.0413248, 0.0135827, 1.83042E-007, 2.14634E-007
3, 960.00000, 0.0578561, 0.0190161, -1.10242E-006, -8.48414E-008
3, 1020.00000, 0.0578561, 0.0190161, -1.1025E-006, -8.48721E-008
3, 1080.00000, 0.0578561, 0.0190161, -1.1025E-006, -8.48725E-008
3, 1140.00000, 0.0578561, 0.0190161, -1.1025E-006, -8.48725E-008
3, 1200.00000, 0.0578561, 0.0190161, -1.1025E-006, -8.48725E-008
3, 1260.00000, 0.0578555, 0.0190157, -5.12347E-007, 3.1293E-007
3, 1320.00000, 0.0578555, 0.0190157, -5.12205E-007, 3.12976E-007
3, 1380.00000, 0.0578555, 0.0190157, -5.12205E-007, 3.12977E-007
3, 1440.00000, 0.0578555, 0.0190157, -5.12205E-007, 3.12977E-007
3, 1500.00000, 0.0578555, 0.0190157, -5.12205E-007, 3.12977E-007
3, 1560.00000, 0.0495894, 0.0163, -9.75895E-008, -2.82318E-007
3, 1620.00000, 0.0495901, 0.0162997, -9.57228E-008, -2.82506E-007
3, 1680.00000, 0.0495901, 0.0162997, -9.57243E-008, -2.82505E-007
3, 1740.00000, 0.0495901, 0.0162997, -9.57243E-008, -2.82505E-007
3, 1800.00000, 0.0495901, 0.0162997, -9.57243E-008, -2.82505E-007
3, 1860.00000, 0.0413245, 0.0135831, 4.62409E-007, -2.27479E-007
3, 1920.00000, 0.0413245, 0.0135831, 4.62398E-007, -2.27506E-007
3, 1980.00000, 0.0413245, 0.0135831, 4.62398E-007, -2.27507E-007
3, 2040.00000, 0.0413245, 0.0135831, 4.62398E-007, -2.27507E-007
3, 2100.00000, 0.0413245, 0.0135831, 4.62398E-007, -2.27507E-007
3, 2160.00000, 0.0578559, 0.0190157, -8.94646E-007, 2.9587E-007
3, 2220.00000, 0.0578559, 0.0190157, -8.94681E-007, 2.9593E-007
3, 2280.00000, 0.0578559, 0.0190157, -8.94682E-007, 2.9593E-007
3, 2340.00000, 0.0578559, 0.0190157, -8.94682E-007, 2.9593E-007
3, 2400.00000, 0.0578559, 0.0190157, -8.94682E-007, 2.9593E-007
3, 2460.00000, 0.0495899, 0.0162991, 1.54789E-007, 3.08409E-007
3, 2520.00000, 0.0495898, 0.0162991, 1.54819E-007, 3.08352E-007
3, 2580.00000, 0.0495898, 0.0162991, 1.5482E-007, 3.08352E-007
3, 2640.00000, 0.0495898, 0.0162991, 1.5482E-007, 3.08352E-007
3, 2700.00000, 0.0495898, 0.0162991, 1.5482E-007, 3.08352E-007
3, 2760.00000, 0.0413246, 0.0135829, 3.42811E-007, -8.1442E-009
3, 2820.00000, 0.0413247, 0.0135829, 3.42864E-007, -8.11701E-009
3, 2880.00000, 0.0413247, 0.0135829, 3.42864E-007, -8.11629E-009
3, 2940.00000, 0.0413247, 0.0135829, 3.42864E-007, -8.11628E-009
3, 3000.00000, 0.0413247, 0.0135829, 3.42864E-007, -8.11628E-009
3, 3060.00000, 0.0578555, 0.0190157, -5.08105E-007, 3.37375E-007
3, 3120.00000, 0.0578555, 0.0190157, -5.08168E-007, 3.37433E-007
3, 3180.00000, 0.0578555, 0.0190157, -5.08169E-007, 3.37433E-007
3, 3240.00000, 0.0578555, 0.0190157, -5.08169E-007, 3.37433E-007
3, 3300.00000, 0.0578555, 0.0190157, -5.08169E-007, 3.37433E-007
3, 3360.00000, 0.0495906, 0.0163001, -5.70769E-007, -6.26695E-007
3, 3420.00000, 0.0495906, 0.0163001, -5.70743E-007, -6.26708E-007
3, 3480.00000, 0.0495906, 0.0163001, -5.70742E-007, -6.26708E-007
3, 3540.00000, 0.0495906, 0.0163001, -5.70742E-007, -6.26708E-007
4, 0.00000, 0.0495906, 0.0163001, -5.70742E-007, -6.26708E-007
4, 60.00000, 0.0413246, 0.0135826, 4.18329E-007, 2.72861E-007
4, 120.00000, 0.0413246, 0.0135826, 4.18317E-007, 2.72852E-007
4, 180.00000, 0.0413246, 0.0135826, 4.18317E-007, 2.72852E-007
4, 240.00000, 0.0413246, 0.0135826, 4.18317E-007, 2.72852E-007
4, 300.00000, 0.0413246, 0.0135826, 4.18317E-007, 2.72852E-007
4, 360.00000, 0.0578553, 0.019016, -2.99485E-007, -3.68354E-009
4, 420.00000, 0.0578553, 0.019016, -2.9944E-007, -3.62023E-009
4, 480.00000, 0.0578553, 0.019016, -2.9944E-007, -3.62017E-009
4, 540.00000, 0.0578553, 0.019016, -2.9944E-007, -3.62017E-009
4, 600.00000, 0.0578553, 0.019016, -2.9944E-007, -3.62017E-009
4, 660.00000, 0.0413248, 0.0135826, 1.66041E-007, 2.65097E-007
4, 720.00000, 0.0413248, 0.0135826, 1.66016E-007, 2.65133E-007
4, 780.00000, 0.0413248, 0.0135826, 1.66016E-007, 2.65132E-007
4, 840.00000, 0.0413248, 0.0135826, 1.66016E-007, 2.65132E-007
4, 900.00000, 0.0413248, 0.0135826, 1.66016E-007, 2.65132E-007
4, 960.00000, 0.0413249, 0.0135834, 9.57255E-008, -5.23797E-007
4, 1020.00000, 0.0413249, 0.0135834, 9.57102E-008, -5.23808E-007
4, 1080.00000, 0.0413249, 0.0135834, 9.57103E-008, -5.23807E-007
4, 1140.00000, 0.0413249, 0.0135834, 9.57103E-008, -5.23807E-007
4, 1200.00000, 0.0413249, 0.0135834, 9.57103E-008, -5.23807E-007
4, 1260.00000, 0.0413248, 0.0135826, 2.04112E-007, 2.7474E-007
4, 1320.00000, 0.0413248, 0.0135826, 2.04102E-007, 2.7473E-007
4, 1380.00000, 0.0413248, 0.0135826, 2.04102E-007, 2.74729E-007
4, 1440.00000, 0.0413248, 0.0135826, 2.04102E-007, 2.74729E-007
4, 1500.00000, 0.0413248, 0.0135826, 2.04102E-007, 2.74729E-007
4, 1560.00000, 0.0495899, 0.0163, 1.04063E-007, -5.7206E-007
4, 1620.00000, 0.0495899, 0.0163, 1.04124E-007, -5.72E-007
4, 1680.00000, 0.0495899, 0.0163, 1.04124E-007, -5.72E-007
4, 1740.00000, 0.0495899, 0.0163, 1.04124E-007, -5.72E-007
4, 1800.00000, 0.0495899, 0.0163, 1.04124E-007, -5.72E-007
4, 1860.00000, 0.0495898, 0.0162997, 2.59333E-007, -2.69538E-007
4, 1920.00000, 0.0495897, 0.0162997, 2.59296E-007, -2.6959E-007
4, 1980.00000, 0.0495897, 0.0162997, 2.59469E-007, -2.69648E-007
4, 2040.00000, 0.0495897, 0.0162997, 2.59297E-007, -2.6958E-007
4, 2100.00000, 0.0495897, 0.0162997, 2.59441E-007, -2.69639E-007
4, 2160.00000, 0.0413248, 0.0135831, 2.45744E-007, -2.38517E-007
4, 2220.00000, 0.0413248, 0.0135831, 2.45928E-007, -2.38595E-007
4, 2280.00000, 0.0413248, 0.0135831, 2.46E-007, -2.38607E-007
4, 2340.00000, 0.0413248, 0.0135831, 2.46046E-007, -2.38618E-007
4, 2400.00000, 0.0413248, 0.0135831, 2.46537E-007, -2.38774E-007
4, 2460.00000, 0.0495901, 0.0162992, -1.11557E-007, 2.77986E-007
4, 2520.00000, 0.0495902, 0.0162992, -1.10549E-007, 2.77513E-007
4, 2580.00000, 0.0495901, 0.0162992, -1.10532E-007, 2.77568E-007
4, 2640.00000, 0.0495901, 0.0162992, -1.10532E-007, 2.77568E-007
4, 2700.00000, 0.0495901, 0.0162992, -1.10531E-007, 2.77568E-007
4, 2760.00000, 0.0495898, 0.0162997, 2.52623E-007, -2.82472E-007
4, 2820.00000, 0.0495898, 0.0162997, 2.52975E-007, -2.82613E-007
4, 2880.00000, 0.0495898, 0.0162997, 2.5309E-007, -2.82627E-007
4, 2940.00000, 0.0495898, 0.0162997, 2.53375E-007, -2.82702E-007
4, 3000.00000, 0.0495898, 0.0162997, 2.5366E-007, -2.8277E-007
4, 3060.00000, 0.066121, 0.021733, -9.81414E-007, -4.42671E-007
4, 3120.00000, 0.066121, 0.021733, -9.79319E-007, -4.43157E-007
4, 3180.00000, 0.066121, 0.021733, -9.79725E-007, -4.42944E-007
4, 3240.00000, 0.066121, 0.021733, -9.78403E-007, -4.43312E-007
4, 3300.00000, 0.066121, 0.021733, -9.782E-007, -4.43293E-007
4, 3360.00000, 0.0413246, 0.0135826, 4.4057E-007, 3.03971E-007
4, 3420.00000, 0.0413246, 0.0135826, 4.41029E-007, 3.03705E-007
4, 3480.00000, 0.0413246, 0.0135826, 4.41912E-007, 3.03223E-007
4, 3540.00000, 0.0413246, 0.0135826, 4.42261E-007, 3.03075E-007
5, 0.00000, 0.0413246, 0.0135826, 4.42237E-007, 3.0311E-007
5, 60.00000, 0.04959, 0.0162993, 1.07773E-007, 3.09407E-007
5, 120.00000, 0.04959, 0.0162992, 1.08339E-007, 3.09564E-007
5, 180.00000, 0.0495901, 0.0162994, 1.09136E-007, 3.09181E-007
5, 240.00000, 0.04959, 0.0162993, 1.09811E-007, 3.08918E-007
5, 300.00000, 0.0495903, 0.0162997, 1.11484E-007, 3.08102E-007
5, 360.00000, 0.0578556, 0.0190161, -2.84182E-007, -3.22739E-007
5, 420.00000, 0.0578554, 0.0190166, -2.82396E-007, -3.23743E-007
5, 480.00000, 0.0578554, 0.0190165, -2.81691E-007, -3.23874E-007
5, 540.00000, 0.0578557, 0.019017, -2.79629E-007, -3.24432E-007
5, 600.00000, 0.0578557, 0.019017, -2.77333E-007, -3.24894E-007
5, 660.00000, 0.0578549, 0.0190163, -1.87375E-007, -2.9969E-007
