hour, t(sec), P1 (kW), Q1 (kvar), P2 (kW), Q2 (kvar)
0, 60.00000, 0.35625, 0.117092, -3.98257E-007, -6.27966E-008
0, 120.00000, 0.35625, 0.117094, -3.98242E-007, -6.28128E-008
0, 180.00000, 0.35625, 0.117094, -3.98242E-007, -6.28128E-008
0, 240.00000, 0.35625, 0.117094, -3.98242E-007, -6.28128E-008
0, 300.00000, 0.35625, 0.117094, -3.98242E-007, -6.28128E-008
0, 360.00000, 0.35625, 0.117093, -5.90978E-007, 3.7883E-008
0, 420.00000, 0.356251, 0.117094, -5.91048E-007, 3.78305E-008
0, 480.00000, 0.356251, 0.117094, -5.91048E-007, 3.78303E-008
0, 540.00000, 0.356251, 0.117094, -5.91048E-007, 3.78303E-008
0, 600.00000, 0.356251, 0.117094, -5.91048E-007, 3.78303E-008
0, 660.00000, 0.391876, 0.128803, -4.85525E-007, 6.3991E-007
0, 720.00000, 0.391875, 0.128802, -4.85467E-007, 6.39974E-007
0, 780.00000, 0.391875, 0.128802, -4.85467E-007, 6.39974E-007
0, 840.00000, 0.391875, 0.128802, -4.85467E-007, 6.39974E-007
0, 900.00000, 0.391875, 0.128802, -4.85467E-007, 6.39974E-007
0, 960.00000, 0.356244, 0.117103, -6.18535E-007, 4.70255E-007
0, 1020.00000, 0.356251, 0.117093, -6.17879E-007, 4.71267E-007
0, 1080.00000, 0.356251, 0.117093, -6.17881E-007, 4.71271E-007
0, 1140.00000, 0.356251, 0.117093, -6.17881E-007, 4.71271E-007
0, 1200.00000, 0.356251, 0.117093, -6.17881E-007, 4.71271E-007
0, 1260.00000, 0.356251, 0.117094, -7.97258E-007, 3.51684E-007
0, 1320.00000, 0.356251, 0.117093, -7.97193E-007, 3.5165E-007
0, 1380.00000, 0.356251, 0.117093, -7.97193E-007, 3.5165E-007
0, 1440.00000, 0.356251, 0.117093, -7.97193E-007, 3.5165E-007
0, 1500.00000, 0.356251, 0.117093, -7.97193E-007, 3.5165E-007
0, 1560.00000, 0.249375, 0.0819664, 5.88791E-009, -3.20782E-007
0, 1620.00000, 0.249375, 0.0819659, 5.91132E-009, -3.2074E-007
0, 1680.00000, 0.249375, 0.0819659, 5.91128E-009, -3.2074E-007
0, 1740.00000, 0.249375, 0.0819659, 5.91128E-009, -3.2074E-007
0, 1800.00000, 0.249375, 0.0819659, 5.91128E-009, -3.2074E-007
0, 1860.00000, 0.285, 0.0936748, -2.55667E-008, 1.45598E-007
0, 1920.00000, 0.285, 0.0936748, -2.55688E-008, 1.45593E-007
0, 1980.00000, 0.285, 0.0936748, -2.55687E-008, 1.45593E-007
0, 2040.00000, 0.285, 0.0936748, -2.55687E-008, 1.45593E-007
0, 2100.00000, 0.285, 0.0936748, -2.55687E-008, 1.45593E-007
0, 2160.00000, 0.285, 0.0936752, -1.33852E-008, -2.78452E-008
0, 2220.00000, 0.285, 0.093675, -1.33794E-008, -2.78274E-008
0, 2280.00000, 0.285, 0.093675, -1.33794E-008, -2.78272E-008
0, 2340.00000, 0.285, 0.093675, -1.33794E-008, -2.78272E-008
0, 2400.00000, 0.285, 0.093675, -1.33794E-008, -2.78272E-008
0, 2460.00000, 0.320625, 0.105383, -1.94142E-007, 5.53432E-008
0, 2520.00000, 0.320625, 0.105384, -1.94196E-007, 5.53086E-008
0, 2580.00000, 0.320625, 0.105384, -1.94195E-007, 5.53086E-008
0, 2640.00000, 0.320625, 0.105384, -1.94195E-007, 5.53086E-008
0, 2700.00000, 0.320625, 0.105384, -1.94195E-007, 5.53086E-008
0, 2760.00000, 0.320626, 0.105384, -1.94211E-007, 5.45315E-008
0, 2820.00000, 0.320625, 0.105384, -1.94165E-007, 5.45016E-008
0, 2880.00000, 0.320625, 0.105384, -1.94165E-007, 5.45016E-008
0, 2940.00000, 0.320625, 0.105384, -1.94165E-007, 5.45016E-008
0, 3000.00000, 0.320625, 0.105384, -1.94165E-007, 5.45016E-008
0, 3060.00000, 0.285, 0.0936757, 1.3958E-007, -1.06987E-007
0, 3120.00000, 0.285, 0.0936751, 1.39633E-007, -1.06936E-007
0, 3180.00000, 0.285, 0.0936751, 1.39633E-007, -1.06936E-007
0, 3240.00000, 0.285, 0.0936751, 1.39633E-007, -1.06936E-007
0, 3300.00000, 0.285, 0.0936751, 1.39633E-007, -1.06936E-007
0, 3360.00000, 0.356249, 0.117093, -5.76756E-007, -1.75829E-007
0, 3420.00000, 0.356251, 0.117094, -5.7688E-007, -1.75863E-007
0, 3480.00000, 0.356251, 0.117094, -5.76881E-007, -1.75863E-007
0, 3540.00000, 0.356251, 0.117094, -5.76881E-007, -1.75863E-007
1, 0.00000, 0.356251, 0.117094, -5.76881E-007, -1.75863E-007
1, 60.00000, 0.249376, 0.0819653, -2.57697E-008, 2.80272E-007
1, 120.00000, 0.249375, 0.0819653, -2.57394E-008, 2.80225E-007
1, 180.00000, 0.249375, 0.0819653, -2.57393E-008, 2.80225E-007
1, 240.00000, 0.249375, 0.0819653, -2.57393E-008, 2.80225E-007
1, 300.00000, 0.249375, 0.0819653, -2.57393E-008, 2.80225E-007
1, 360.00000, 0.213751, 0.070256, -1.08884E-007, -2.14684E-007
1, 420.00000, 0.21375, 0.0702564, -1.08848E-007, -2.1475E-007
1, 480.00000, 0.21375, 0.0702564, -1.08848E-007, -2.1475E-007
1, 540.00000, 0.21375, 0.0702564, -1.08848E-007, -2.1475E-007
1, 600.00000, 0.21375, 0.0702564, -1.08848E-007, -2.1475E-007
1, 660.00000, 0.178125, 0.0585477, 8.97504E-008, -5.89785E-008
1, 720.00000, 0.178125, 0.0585469, 8.97567E-008, -5.89186E-008
1, 780.00000, 0.178125, 0.0585469, 8.97566E-008, -5.89185E-008
1, 840.00000, 0.178125, 0.0585469, 8.97566E-008, -5.89185E-008
1, 900.00000, 0.178125, 0.0585469, 8.97566E-008, -5.89185E-008
1, 960.00000, 0.249375, 0.081965, -5.19535E-007, -1.97836E-007
1, 1020.00000, 0.249376, 0.0819658, -5.19579E-007, -1.97885E-007
1, 1080.00000, 0.249376, 0.0819658, -5.19578E-007, -1.97885E-007
1, 1140.00000, 0.249376, 0.0819658, -5.19578E-007, -1.97885E-007
1, 1200.00000, 0.249376, 0.0819658, -5.19578E-007, -1.97885E-007
1, 1260.00000, 0.213751, 0.0702564, -1.14518E-007, -8.38199E-008
1, 1320.00000, 0.21375, 0.0702563, -1.14485E-007, -8.38272E-008
1, 1380.00000, 0.21375, 0.0702563, -1.14485E-007, -8.3827E-008
1, 1440.00000, 0.21375, 0.0702563, -1.14485E-007, -8.3827E-008
1, 1500.00000, 0.21375, 0.0702563, -1.14485E-007, -8.3827E-008
1, 1560.00000, 0.21375, 0.0702567, 2.14504E-007, -3.01721E-009
1, 1620.00000, 0.21375, 0.0702562, 2.14517E-007, -2.98582E-009
1, 1680.00000, 0.21375, 0.0702562, 2.14517E-007, -2.9858E-009
1, 1740.00000, 0.21375, 0.0702562, 2.14517E-007, -2.9858E-009
1, 1800.00000, 0.21375, 0.0702562, 2.14517E-007, -2.9858E-009
1, 1860.00000, 0.249375, 0.0819651, -1.92777E-008, 1.3027E-007
1, 1920.00000, 0.249375, 0.0819655, -1.92883E-008, 1.30244E-007
1, 1980.00000, 0.249375, 0.0819655, -1.92883E-008, 1.30244E-007
1, 2040.00000, 0.249375, 0.0819655, -1.92883E-008, 1.30244E-007
1, 2100.00000, 0.249375, 0.0819655, -1.92883E-008, 1.30244E-007
1, 2160.00000, 0.21375, 0.0702562, 6.94879E-009, -2.71504E-007
1, 2220.00000, 0.21375, 0.0702565, 6.94624E-009, -2.71525E-007
1, 2280.00000, 0.21375, 0.0702565, 6.94628E-009, -2.71525E-007
1, 2340.00000, 0.21375, 0.0702565, 6.94627E-009, -2.71525E-007
1, 2400.00000, 0.21375, 0.0702565, 6.94627E-009, -2.71525E-007
1, 2460.00000, 0.320615, 0.105374, -5.34346E-007, 2.29167E-007
1, 2520.00000, 0.320626, 0.105384, -5.35373E-007, 2.28817E-007
1, 2580.00000, 0.320626, 0.105384, -5.35373E-007, 2.28816E-007
1, 2640.00000, 0.320626, 0.105384, -5.35373E-007, 2.28816E-007
1, 2700.00000, 0.320626, 0.105384, -5.35373E-007, 2.28816E-007
1, 2760.00000, 0.249375, 0.0819662, -2.30598E-009, -1.70315E-007
1, 2820.00000, 0.249375, 0.0819658, -2.27641E-009, -1.70285E-007
1, 2880.00000, 0.249375, 0.0819658, -2.27645E-009, -1.70285E-007
1, 2940.00000, 0.249375, 0.0819658, -2.27645E-009, -1.70285E-007
1, 3000.00000, 0.249375, 0.0819658, -2.27645E-009, -1.70285E-007
1, 3060.00000, 0.178125, 0.0585469, 1.85069E-007, -1.0732E-007
1, 3120.00000, 0.178125, 0.058547, 1.85054E-007, -1.07319E-007
1, 3180.00000, 0.178125, 0.058547, 1.85054E-007, -1.07319E-007
1, 3240.00000, 0.178125, 0.058547, 1.85054E-007, -1.07319E-007
1, 3300.00000, 0.178125, 0.058547, 1.85054E-007, -1.07319E-007
1, 3360.00000, 0.285, 0.0936742, -3.21098E-007, 1.30574E-007
1, 3420.00000, 0.285, 0.0936748, -3.21141E-007, 1.30561E-007
1, 3480.00000, 0.285, 0.0936748, -3.21141E-007, 1.30561E-007
1, 3540.00000, 0.285, 0.0936748, -3.21141E-007, 1.30561E-007
2, 0.00000, 0.285, 0.0936748, -3.21141E-007, 1.30561E-007
2, 60.00000, 0.178125, 0.058548, 9.52436E-008, -1.66239E-007
2, 120.00000, 0.178125, 0.058547, 9.52878E-008, -1.66199E-007
2, 180.00000, 0.178125, 0.058547, 9.52877E-008, -1.66199E-007
2, 240.00000, 0.178125, 0.058547, 9.52877E-008, -1.66199E-007
2, 300.00000, 0.178125, 0.058547, 9.52877E-008, -1.66199E-007
2, 360.00000, 0.21375, 0.0702552, -1.04326E-009, -1.41344E-007
2, 420.00000, 0.21375, 0.0702564, -1.09268E-009, -1.41411E-007
2, 480.00000, 0.21375, 0.0702564, -1.09247E-009, -1.41411E-007
2, 540.00000, 0.21375, 0.0702564, -1.09247E-009, -1.41411E-007
2, 600.00000, 0.21375, 0.0702564, -1.09247E-009, -1.41411E-007
2, 660.00000, 0.213753, 0.0702545, -1.2254E-007, 4.46381E-008
2, 720.00000, 0.21375, 0.0702562, -1.22529E-007, 4.45159E-008
2, 780.00000, 0.21375, 0.0702562, -1.22529E-007, 4.45157E-008
2, 840.00000, 0.21375, 0.0702562, -1.22529E-007, 4.45157E-008
2, 900.00000, 0.21375, 0.0702562, -1.22529E-007, 4.45157E-008
2, 960.00000, 0.21375, 0.0702561, -1.15885E-007, -8.35017E-008
2, 1020.00000, 0.21375, 0.0702563, -1.15899E-007, -8.35001E-008
2, 1080.00000, 0.21375, 0.0702563, -1.15899E-007, -8.35002E-008
2, 1140.00000, 0.21375, 0.0702563, -1.15899E-007, -8.35002E-008
2, 1200.00000, 0.21375, 0.0702563, -1.15899E-007, -8.35002E-008
2, 1260.00000, 0.178127, 0.0585494, -5.35277E-009, -9.49319E-009
2, 1320.00000, 0.178125, 0.0585469, -5.25383E-009, -9.48164E-009
2, 1380.00000, 0.178125, 0.0585469, -5.25426E-009, -9.48189E-009
2, 1440.00000, 0.178125, 0.0585469, -5.25426E-009, -9.48189E-009
2, 1500.00000, 0.178125, 0.0585469, -5.25426E-009, -9.48189E-009
2, 1560.00000, 0.178125, 0.0585475, 6.85387E-009, -2.224E-007
2, 1620.00000, 0.178125, 0.0585471, 6.83704E-009, -2.22362E-007
2, 1680.00000, 0.178125, 0.0585471, 6.83698E-009, -2.22362E-007
2, 1740.00000, 0.178125, 0.0585471, 6.83698E-009, -2.22362E-007
2, 1800.00000, 0.178125, 0.0585471, 6.83698E-009, -2.22362E-007
2, 1860.00000, 0.213753, 0.0702543, -1.5219E-008, 1.14225E-007
2, 1920.00000, 0.21375, 0.0702561, -1.50492E-008, 1.13909E-007
2, 1980.00000, 0.21375, 0.0702561, -1.50489E-008, 1.13909E-007
2, 2040.00000, 0.21375, 0.0702561, -1.50489E-008, 1.13909E-007
2, 2100.00000, 0.21375, 0.0702561, -1.50489E-008, 1.13909E-007
2, 2160.00000, 0.213744, 0.0702671, -8.23777E-009, -1.41365E-008
2, 2220.00000, 0.21375, 0.0702562, -8.16972E-009, -1.32357E-008
2, 2280.00000, 0.21375, 0.0702562, -8.17171E-009, -1.32348E-008
2, 2340.00000, 0.21375, 0.0702562, -8.17172E-009, -1.32348E-008
2, 2400.00000, 0.21375, 0.0702562, -8.17172E-009, -1.32348E-008
2, 2460.00000, 0.21375, 0.0702566, -7.72558E-009, -1.54973E-008
2, 2520.00000, 0.21375, 0.0702562, -7.71784E-009, -1.54789E-008
2, 2580.00000, 0.21375, 0.0702562, -7.71788E-009, -1.5479E-008
2, 2640.00000, 0.21375, 0.0702562, -7.71788E-009, -1.5479E-008
2, 2700.00000, 0.21375, 0.0702562, -7.71788E-009, -1.5479E-008
2, 2760.00000, 0.21375, 0.0702562, -9.19465E-009, -1.5587E-008
2, 2820.00000, 0.21375, 0.0702562, -9.17004E-009, -1.56047E-008
2, 2880.00000, 0.21375, 0.0702562, -9.17007E-009, -1.56046E-008
2, 2940.00000, 0.21375, 0.0702562, -9.17007E-009, -1.56046E-008
2, 3000.00000, 0.21375, 0.0702562, -9.17007E-009, -1.56046E-008
2, 3060.00000, 0.21375, 0.0702559, 2.72955E-010, -1.42783E-007
2, 3120.00000, 0.21375, 0.0702564, 2.22441E-010, -1.42781E-007
2, 3180.00000, 0.21375, 0.0702564, 2.22482E-010, -1.42781E-007
2, 3240.00000, 0.21375, 0.0702564, 2.22482E-010, -1.42781E-007
2, 3300.00000, 0.21375, 0.0702564, 2.22482E-010, -1.42781E-007
2, 3360.00000, 0.285, 0.0936746, -1.78188E-007, 2.24084E-007
2, 3420.00000, 0.285, 0.0936747, -1.7817E-007, 2.24066E-007
2, 3480.00000, 0.285, 0.0936747, -1.7817E-007, 2.24066E-007
2, 3540.00000, 0.285, 0.0936747, -1.7817E-007, 2.24066E-007
3, 0.00000, 0.285, 0.0936747, -1.7817E-007, 2.24066E-007
3, 60.00000, 0.249375, 0.0819652, -2.70881E-007, -3.18492E-008
3, 120.00000, 0.249375, 0.0819656, -2.70898E-007, -3.18655E-008
3, 180.00000, 0.249375, 0.0819656, -2.70898E-007, -3.18655E-008
3, 240.00000, 0.249375, 0.0819656, -2.70898E-007, -3.18655E-008
3, 300.00000, 0.249375, 0.0819656, -2.70898E-007, -3.18655E-008
3, 360.00000, 0.178125, 0.0585474, -5.84986E-009, -9.94343E-009
3, 420.00000, 0.178125, 0.0585469, -5.82912E-009, -9.91499E-009
3, 480.00000, 0.178125, 0.0585469, -5.82915E-009, -9.91498E-009
3, 540.00000, 0.178125, 0.0585469, -5.82915E-009, -9.91498E-009
3, 600.00000, 0.178125, 0.0585469, -5.82915E-009, -9.91498E-009
3, 660.00000, 0.142507, 0.046838, 7.66441E-008, -1.29963E-007
3, 720.00000, 0.1425, 0.0468376, 7.71026E-008, -1.30139E-007
3, 780.00000, 0.1425, 0.0468376, 7.71038E-008, -1.30138E-007
3, 840.00000, 0.1425, 0.0468376, 7.71038E-008, -1.30138E-007
3, 900.00000, 0.1425, 0.0468376, 7.71038E-008, -1.30138E-007
3, 960.00000, 0.178125, 0.0585469, 2.64417E-010, -1.17755E-007
3, 1020.00000, 0.178125, 0.058547, 2.83417E-010, -1.17769E-007
3, 1080.00000, 0.178125, 0.058547, 2.83405E-010, -1.17769E-007
3, 1140.00000, 0.178125, 0.058547, 2.83405E-010, -1.17769E-007
3, 1200.00000, 0.178125, 0.058547, 2.83405E-010, -1.17769E-007
3, 1260.00000, 0.21375, 0.0702561, -1.07925E-007, -2.12018E-007
3, 1320.00000, 0.21375, 0.0702564, -1.07924E-007, -2.12048E-007
3, 1380.00000, 0.21375, 0.0702564, -1.07924E-007, -2.12048E-007
3, 1440.00000, 0.21375, 0.0702564, -1.07924E-007, -2.12048E-007
3, 1500.00000, 0.21375, 0.0702564, -1.07924E-007, -2.12048E-007
3, 1560.00000, 0.213763, 0.0702561, -2.15209E-007, -2.82558E-007
3, 1620.00000, 0.21375, 0.0702565, -2.14322E-007, -2.8267E-007
3, 1680.00000, 0.21375, 0.0702565, -2.1432E-007, -2.82668E-007
3, 1740.00000, 0.21375, 0.0702565, -2.1432E-007, -2.82668E-007
3, 1800.00000, 0.21375, 0.0702565, -2.1432E-007, -2.82668E-007
3, 1860.00000, 0.178125, 0.0585467, 1.8473E-007, -1.0557E-007
3, 1920.00000, 0.178125, 0.058547, 1.84734E-007, -1.05589E-007
3, 1980.00000, 0.178125, 0.058547, 1.84734E-007, -1.05589E-007
3, 2040.00000, 0.178125, 0.058547, 1.84734E-007, -1.05589E-007
3, 2100.00000, 0.178125, 0.058547, 1.84734E-007, -1.05589E-007
3, 2160.00000, 0.21375, 0.0702566, -1.1478E-007, -8.39102E-008
3, 2220.00000, 0.21375, 0.0702563, -1.14782E-007, -8.38887E-008
3, 2280.00000, 0.21375, 0.0702563, -1.14782E-007, -8.38886E-008
3, 2340.00000, 0.21375, 0.0702563, -1.14782E-007, -8.38886E-008
3, 2400.00000, 0.21375, 0.0702563, -1.14782E-007, -8.38886E-008
3, 2460.00000, 0.178125, 0.0585473, 6.73013E-009, -2.23961E-007
3, 2520.00000, 0.178125, 0.0585471, 6.74483E-009, -2.23956E-007
3, 2580.00000, 0.178125, 0.0585471, 6.74475E-009, -2.23957E-007
3, 2640.00000, 0.178125, 0.0585471, 6.74475E-009, -2.23957E-007
3, 2700.00000, 0.178125, 0.0585471, 6.74475E-009, -2.23957E-007
3, 2760.00000, 0.178125, 0.0585469, 8.45544E-008, 4.8446E-008
3, 2820.00000, 0.178125, 0.0585468, 8.4536E-008, 4.84566E-008
3, 2880.00000, 0.178125, 0.0585468, 8.45361E-008, 4.84565E-008
3, 2940.00000, 0.178125, 0.0585468, 8.45361E-008, 4.84565E-008
3, 3000.00000, 0.178125, 0.0585468, 8.45361E-008, 4.84565E-008
3, 3060.00000, 0.1425, 0.0468377, 1.44542E-007, 8.22646E-010
3, 3120.00000, 0.1425, 0.0468375, 1.44558E-007, 8.31148E-010
3, 3180.00000, 0.1425, 0.0468375, 1.44558E-007, 8.31236E-010
3, 3240.00000, 0.1425, 0.0468375, 1.44558E-007, 8.31236E-010
3, 3300.00000, 0.1425, 0.0468375, 1.44558E-007, 8.31236E-010
3, 3360.00000, 0.178125, 0.0585466, -8.79076E-008, -1.75389E-007
3, 3420.00000, 0.178125, 0.058547, -8.79237E-008, -1.75423E-007
3, 3480.00000, 0.178125, 0.058547, -8.79236E-008, -1.75423E-007
3, 3540.00000, 0.178125, 0.058547, -8.79236E-008, -1.75423E-007
4, 0.00000, 0.178125, 0.058547, -8.79236E-008, -1.75423E-007
4, 60.00000, 0.178125, 0.0585478, -8.93206E-008, -1.7727E-007
4, 120.00000, 0.178125, 0.058547, -8.93499E-008, -1.7719E-007
4, 180.00000, 0.178125, 0.058547, -8.93508E-008, -1.7719E-007
4, 240.00000, 0.178125, 0.058547, -8.93508E-008, -1.7719E-007
4, 300.00000, 0.178125, 0.058547, -8.93508E-008, -1.7719E-007
4, 360.00000, 0.249377, 0.0819674, -1.55023E-007, 1.98161E-007
4, 420.00000, 0.249375, 0.0819654, -1.5486E-007, 1.98258E-007
4, 480.00000, 0.249375, 0.0819654, -1.5486E-007, 1.9826E-007
4, 540.00000, 0.249375, 0.0819654, -1.5486E-007, 1.9826E-007
4, 600.00000, 0.249375, 0.0819654, -1.5486E-007, 1.9826E-007
4, 660.00000, 0.249372, 0.0819675, -2.70167E-007, -3.38473E-008
4, 720.00000, 0.249375, 0.0819656, -2.70279E-007, -3.35516E-008
4, 780.00000, 0.249375, 0.0819656, -2.70283E-007, -3.35497E-008
4, 840.00000, 0.249375, 0.0819656, -2.70283E-007, -3.35497E-008
4, 900.00000, 0.249375, 0.0819656, -2.70283E-007, -3.35497E-008
4, 960.00000, 0.213752, 0.0702555, -1.15967E-007, -8.52472E-008
4, 1020.00000, 0.21375, 0.0702563, -1.15874E-007, -8.54261E-008
4, 1080.00000, 0.21375, 0.0702563, -1.15872E-007, -8.5427E-008
4, 1140.00000, 0.21375, 0.0702563, -1.15872E-007, -8.5427E-008
4, 1200.00000, 0.21375, 0.0702563, -1.15872E-007, -8.5427E-008
4, 1260.00000, 0.178123, 0.0585468, 9.06083E-008, -5.90038E-008
4, 1320.00000, 0.178125, 0.0585469, 9.0526E-008, -5.89338E-008
4, 1380.00000, 0.178125, 0.0585469, 9.05246E-008, -5.89339E-008
4, 1440.00000, 0.178125, 0.0585469, 9.05246E-008, -5.89339E-008
4, 1500.00000, 0.178125, 0.0585469, 9.05246E-008, -5.89339E-008
4, 1560.00000, 0.213751, 0.0702562, -1.23198E-007, 4.34915E-008
4, 1620.00000, 0.21375, 0.0702562, -1.23136E-007, 4.34392E-008
4, 1680.00000, 0.21375, 0.0702562, -1.23135E-007, 4.34392E-008
4, 1740.00000, 0.21375, 0.0702562, -1.23135E-007, 4.34392E-008
4, 1800.00000, 0.21375, 0.0702562, -1.23135E-007, 4.34392E-008
4, 1860.00000, 0.249372, 0.0819634, -3.6322E-008, 4.32831E-007
4, 1920.00000, 0.249375, 0.0819651, -3.65782E-008, 4.32852E-007
4, 1980.00000, 0.249375, 0.0819655, -3.65585E-008, 4.32846E-007
4, 2040.00000, 0.249375, 0.0819648, -3.65813E-008, 4.32856E-007
4, 2100.00000, 0.249375, 0.0819655, -3.65623E-008, 4.32847E-007
4, 2160.00000, 0.178127, 0.0585486, 8.37695E-008, 4.86494E-008
4, 2220.00000, 0.178125, 0.0585472, 8.39503E-008, 4.87198E-008
4, 2280.00000, 0.178125, 0.0585469, 8.39507E-008, 4.87438E-008
4, 2340.00000, 0.178125, 0.0585469, 8.39507E-008, 4.87558E-008
4, 2400.00000, 0.178126, 0.0585477, 8.39592E-008, 4.88552E-008
4, 2460.00000, 0.249376, 0.0819626, -2.71394E-007, -3.38209E-008
4, 2520.00000, 0.249377, 0.0819674, -2.71247E-007, -3.38368E-008
4, 2580.00000, 0.249375, 0.0819656, -2.71241E-007, -3.37893E-008
4, 2640.00000, 0.249375, 0.0819656, -2.71242E-007, -3.37887E-008
4, 2700.00000, 0.249375, 0.0819656, -2.71242E-007, -3.37886E-008
4, 2760.00000, 0.21375, 0.0702586, -1.09129E-007, -2.12808E-007
4, 2820.00000, 0.213751, 0.0702573, -1.09014E-007, -2.12433E-007
4, 2880.00000, 0.21375, 0.0702566, -1.09002E-007, -2.12364E-007
4, 2940.00000, 0.213751, 0.0702569, -1.08961E-007, -2.12254E-007
4, 3000.00000, 0.213751, 0.0702569, -1.08922E-007, -2.12134E-007
4, 3060.00000, 0.213747, 0.0702537, 2.06707E-007, 1.28558E-007
4, 3120.00000, 0.213752, 0.070258, 2.06452E-007, 1.28637E-007
4, 3180.00000, 0.213749, 0.0702557, 2.06452E-007, 1.28643E-007
4, 3240.00000, 0.213751, 0.0702574, 2.06425E-007, 1.28739E-007
4, 3300.00000, 0.21375, 0.0702563, 2.06416E-007, 1.28783E-007
4, 3360.00000, 0.178126, 0.0585472, -6.33214E-009, -8.25661E-009
4, 3420.00000, 0.178126, 0.0585478, -6.21654E-009, -8.16448E-009
4, 3480.00000, 0.178127, 0.0585485, -6.13093E-009, -7.92269E-009
4, 3540.00000, 0.178126, 0.0585475, -6.09859E-009, -7.79369E-009
5, 0.00000, 0.178125, 0.0585468, -6.10161E-009, -7.78208E-009
5, 60.00000, 0.178125, 0.058547, 3.66618E-007, 1.10921E-008
5, 120.00000, 0.178125, 0.0585477, 3.66443E-007, 1.11098E-008
5, 180.00000, 0.178127, 0.0585493, 3.66322E-007, 1.12479E-008
5, 240.00000, 0.178126, 0.0585486, 3.66212E-007, 1.13751E-008
5, 300.00000, 0.178129, 0.058552, 3.65962E-007, 1.16698E-008
5, 360.00000, 0.178127, 0.0585414, 1.27071E-009, -1.14702E-007
5, 420.00000, 0.178127, 0.0585488, 1.18991E-009, -1.1506E-007
5, 480.00000, 0.178126, 0.0585485, 1.22166E-009, -1.14932E-007
5, 540.00000, 0.178129, 0.0585521, 1.33899E-009, -1.14526E-007
5, 600.00000, 0.178129, 0.0585521, 1.42893E-009, -1.14067E-007
5, 660.00000, 0.178129, 0.0585519, 1.08436E-009, -1.14395E-007
5, 720.00000, 0.17813, 0.0585533, 1.63739E-009, -1.13766E-007
5, 780.00000, 0.178127, 0.0585498, 1.65585E-009, -1.13441E-007
5, 840.00000, 0.178128, 0.0585512, 1.72588E-009, -1.13076E-007
5, 900.00000, 0.17813, 0.0585529, 1.82489E-009, -1.12564E-007
5, 960.00000, 0.213743, 0.0702476, -1.27125E-008, 1.19104E-007
5, 1020.00000, 0.213756, 0.0702634, -1.32822E-008, 1.19069E-007
