hour, t(sec), P1 (kW), Q1 (kvar), P2 (kW), Q2 (kvar)
0, 60.00000, 0.13224, 0.0434616, -3.76323E-008, -1.728E-008
0, 120.00000, 0.13224, 0.0434652, -3.75184E-008, -1.73822E-008
0, 180.00000, 0.13224, 0.0434652, -3.75176E-008, -1.73815E-008
0, 240.00000, 0.13224, 0.0434652, -3.75176E-008, -1.73815E-008
0, 300.00000, 0.13224, 0.0434652, -3.75176E-008, -1.73815E-008
0, 360.00000, 0.132239, 0.0434657, -8.86731E-009, -3.18403E-009
0, 420.00000, 0.13224, 0.0434652, -8.83724E-009, -3.23222E-009
0, 480.00000, 0.13224, 0.0434652, -8.83692E-009, -3.23213E-009
0, 540.00000, 0.13224, 0.0434652, -8.83692E-009, -3.23212E-009
0, 600.00000, 0.13224, 0.0434652, -8.83692E-009, -3.23212E-009
0, 660.00000, 0.148764, 0.048916, -3.99349E-008, -2.2707E-008
0, 720.00000, 0.14877, 0.0488984, -4.03062E-008, -2.36216E-008
0, 780.00000, 0.14877, 0.0488984, -4.03017E-008, -2.36252E-008
0, 840.00000, 0.14877, 0.0488984, -4.03017E-008, -2.36252E-008
0, 900.00000, 0.14877, 0.0488984, -4.03017E-008, -2.36252E-008
0, 960.00000, 0.1653, 0.0543316, -1.16509E-007, 6.65453E-008
0, 1020.00000, 0.1653, 0.0543314, -1.16513E-007, 6.65344E-008
0, 1080.00000, 0.1653, 0.0543314, -1.16513E-007, 6.65343E-008
0, 1140.00000, 0.1653, 0.0543314, -1.16513E-007, 6.65343E-008
0, 1200.00000, 0.1653, 0.0543314, -1.16513E-007, 6.65343E-008
0, 1260.00000, 0.14877, 0.0488999, -1.08839E-007, -1.39855E-008
0, 1320.00000, 0.14877, 0.0488983, -1.08865E-007, -1.40587E-008
0, 1380.00000, 0.14877, 0.0488983, -1.08864E-007, -1.40588E-008
0, 1440.00000, 0.14877, 0.0488983, -1.08864E-007, -1.40588E-008
0, 1500.00000, 0.14877, 0.0488983, -1.08864E-007, -1.40588E-008
0, 1560.00000, 0.13224, 0.0434657, 2.33269E-008, 1.30765E-008
0, 1620.00000, 0.13224, 0.0434652, 2.32873E-008, 1.30667E-008
0, 1680.00000, 0.13224, 0.0434652, 2.32873E-008, 1.30665E-008
0, 1740.00000, 0.13224, 0.0434652, 2.32873E-008, 1.30665E-008
0, 1800.00000, 0.13224, 0.0434652, 2.32873E-008, 1.30665E-008
0, 1860.00000, 0.115713, 0.0380379, -6.8037E-009, -3.47145E-009
0, 1920.00000, 0.11571, 0.0380321, -7.29702E-009, -3.52253E-009
0, 1980.00000, 0.11571, 0.038032, -7.2977E-009, -3.52537E-009
0, 2040.00000, 0.11571, 0.038032, -7.29768E-009, -3.52537E-009
0, 2100.00000, 0.11571, 0.038032, -7.29768E-009, -3.52537E-009
0, 2160.00000, 0.11571, 0.0380364, 2.0362E-008, 9.78417E-009
0, 2220.00000, 0.11571, 0.0380321, 2.01158E-008, 9.52364E-009
0, 2280.00000, 0.11571, 0.038032, 2.01168E-008, 9.52167E-009
0, 2340.00000, 0.11571, 0.038032, 2.01168E-008, 9.52167E-009
0, 2400.00000, 0.11571, 0.038032, 2.01168E-008, 9.52167E-009
0, 2460.00000, 0.14877, 0.0488967, 3.36843E-008, 8.89354E-008
0, 2520.00000, 0.14877, 0.0488982, 3.37362E-008, 8.89953E-008
0, 2580.00000, 0.14877, 0.0488982, 3.37359E-008, 8.89955E-008
0, 2640.00000, 0.14877, 0.0488982, 3.37359E-008, 8.89955E-008
0, 2700.00000, 0.14877, 0.0488982, 3.37359E-008, 8.89955E-008
0, 2760.00000, 0.148769, 0.0488984, -1.09568E-007, -1.63436E-008
0, 2820.00000, 0.14877, 0.0488983, -1.09527E-007, -1.63611E-008
0, 2880.00000, 0.14877, 0.0488984, -1.09527E-007, -1.63609E-008
0, 2940.00000, 0.14877, 0.0488984, -1.09527E-007, -1.63609E-008
0, 3000.00000, 0.14877, 0.0488984, -1.09527E-007, -1.63609E-008
0, 3060.00000, 0.115711, 0.0380323, -4.3141E-009, 2.84959E-008
0, 3120.00000, 0.11571, 0.038032, -4.39936E-009, 2.85157E-008
0, 3180.00000, 0.11571, 0.038032, -4.39956E-009, 2.85153E-008
0, 3240.00000, 0.11571, 0.038032, -4.39956E-009, 2.85153E-008
0, 3300.00000, 0.11571, 0.038032, -4.39956E-009, 2.85153E-008
0, 3360.00000, 0.13224, 0.0434666, -4.75282E-009, -2.28938E-009
0, 3420.00000, 0.13224, 0.0434652, -4.81752E-009, -2.3435E-009
0, 3480.00000, 0.13224, 0.0434652, -4.81725E-009, -2.34396E-009
0, 3540.00000, 0.13224, 0.0434652, -4.81724E-009, -2.34396E-009
1, 0.00000, 0.13224, 0.0434652, -4.81724E-009, -2.34396E-009
1, 60.00000, 0.115709, 0.0380323, 4.79426E-009, -3.09517E-008
1, 120.00000, 0.11571, 0.0380321, 4.7596E-009, -3.08876E-008
1, 180.00000, 0.11571, 0.0380321, 4.7593E-009, -3.08874E-008
1, 240.00000, 0.11571, 0.0380321, 4.7593E-009, -3.08874E-008
1, 300.00000, 0.11571, 0.0380321, 4.7593E-009, -3.08874E-008
1, 360.00000, 0.148771, 0.0488992, -1.25095E-007, 4.70988E-008
1, 420.00000, 0.14877, 0.0488983, -1.25004E-007, 4.71131E-008
1, 480.00000, 0.14877, 0.0488983, -1.25003E-007, 4.71134E-008
1, 540.00000, 0.14877, 0.0488983, -1.25003E-007, 4.71134E-008
1, 600.00000, 0.14877, 0.0488983, -1.25003E-007, 4.71134E-008
1, 660.00000, 0.115702, 0.0380278, -1.87821E-008, 1.78473E-008
1, 720.00000, 0.11571, 0.038032, -1.91752E-008, 1.78495E-008
1, 780.00000, 0.11571, 0.038032, -1.91772E-008, 1.78488E-008
1, 840.00000, 0.11571, 0.038032, -1.91772E-008, 1.78488E-008
1, 900.00000, 0.11571, 0.038032, -1.91772E-008, 1.78488E-008
1, 960.00000, 0.13224, 0.0434662, -5.57935E-008, -3.167E-008
1, 1020.00000, 0.13224, 0.0434652, -5.57443E-008, -3.15953E-008
1, 1080.00000, 0.13224, 0.0434652, -5.57442E-008, -3.15947E-008
1, 1140.00000, 0.13224, 0.0434652, -5.57442E-008, -3.15947E-008
1, 1200.00000, 0.13224, 0.0434652, -5.57442E-008, -3.15947E-008
1, 1260.00000, 0.0991793, 0.0325981, -1.78484E-008, -1.2113E-008
1, 1320.00000, 0.09918, 0.0325989, -1.79101E-008, -1.21437E-008
1, 1380.00000, 0.09918, 0.0325989, -1.79103E-008, -1.2144E-008
1, 1440.00000, 0.09918, 0.0325989, -1.79103E-008, -1.2144E-008
1, 1500.00000, 0.09918, 0.0325989, -1.79103E-008, -1.2144E-008
1, 1560.00000, 0.11571, 0.0380325, 5.14977E-009, -1.82885E-010
1, 1620.00000, 0.11571, 0.038032, 5.15793E-009, -1.34561E-010
1, 1680.00000, 0.11571, 0.038032, 5.15787E-009, -1.34307E-010
1, 1740.00000, 0.11571, 0.038032, 5.15787E-009, -1.34306E-010
1, 1800.00000, 0.11571, 0.038032, 5.15787E-009, -1.34306E-010
1, 1860.00000, 0.0661204, 0.0217329, 3.00036E-008, -2.05263E-008
1, 1920.00000, 0.06612, 0.0217326, 3.00332E-008, -2.05203E-008
1, 1980.00000, 0.06612, 0.0217326, 3.00333E-008, -2.05202E-008
1, 2040.00000, 0.06612, 0.0217326, 3.00333E-008, -2.05202E-008
1, 2100.00000, 0.06612, 0.0217326, 3.00333E-008, -2.05202E-008
1, 2160.00000, 0.132239, 0.0434646, -2.02153E-008, 1.96211E-008
1, 2220.00000, 0.13224, 0.0434652, -2.02677E-008, 1.96105E-008
1, 2280.00000, 0.13224, 0.0434652, -2.0268E-008, 1.96103E-008
1, 2340.00000, 0.13224, 0.0434652, -2.0268E-008, 1.96103E-008
1, 2400.00000, 0.13224, 0.0434652, -2.0268E-008, 1.96103E-008
1, 2460.00000, 0.0991745, 0.0325955, 4.94353E-009, -9.08982E-011
1, 2520.00000, 0.09918, 0.0325989, 4.53942E-009, -8.59382E-011
1, 2580.00000, 0.09918, 0.0325989, 4.53735E-009, -8.68504E-011
1, 2640.00000, 0.09918, 0.0325989, 4.53734E-009, -8.68592E-011
1, 2700.00000, 0.09918, 0.0325989, 4.53734E-009, -8.68592E-011
1, 2760.00000, 0.0661208, 0.0217326, 4.50257E-008, -2.98187E-008
1, 2820.00000, 0.06612, 0.0217326, 4.51694E-008, -2.99281E-008
1, 2880.00000, 0.06612, 0.0217326, 4.51704E-008, -2.99283E-008
1, 2940.00000, 0.06612, 0.0217326, 4.51704E-008, -2.99283E-008
1, 3000.00000, 0.06612, 0.0217326, 4.51704E-008, -2.99283E-008
1, 3060.00000, 0.0661234, 0.021735, 2.95687E-008, -3.70605E-008
1, 3120.00000, 0.06612, 0.0217326, 2.97383E-008, -3.6959E-008
1, 3180.00000, 0.06612, 0.0217326, 2.9739E-008, -3.6958E-008
1, 3240.00000, 0.06612, 0.0217326, 2.9739E-008, -3.6958E-008
1, 3300.00000, 0.06612, 0.0217326, 2.9739E-008, -3.6958E-008
1, 3360.00000, 0.0991804, 0.0325982, 3.61462E-009, -2.70324E-008
1, 3420.00000, 0.09918, 0.0325989, 3.6049E-009, -2.71174E-008
1, 3480.00000, 0.09918, 0.0325989, 3.60504E-009, -2.71178E-008
1, 3540.00000, 0.09918, 0.0325989, 3.60505E-009, -2.71178E-008
2, 0.00000, 0.09918, 0.0325989, 3.60505E-009, -2.71178E-008
2, 60.00000, 0.0991799, 0.0325996, -1.91419E-008, -1.22456E-008
2, 120.00000, 0.09918, 0.0325989, -1.91432E-008, -1.21825E-008
2, 180.00000, 0.09918, 0.0325989, -1.91436E-008, -1.21819E-008
2, 240.00000, 0.09918, 0.0325989, -1.91437E-008, -1.21819E-008
2, 300.00000, 0.09918, 0.0325989, -1.91437E-008, -1.21819E-008
2, 360.00000, 0.0826492, 0.027166, 2.25385E-008, 9.17157E-009
2, 420.00000, 0.08265, 0.0271657, 2.2516E-008, 9.22951E-009
2, 480.00000, 0.08265, 0.0271657, 2.25154E-008, 9.22991E-009
2, 540.00000, 0.08265, 0.0271657, 2.25154E-008, 9.22991E-009
2, 600.00000, 0.08265, 0.0271657, 2.25154E-008, 9.22991E-009
2, 660.00000, 0.082643, 0.0271636, 2.26885E-008, -1.36891E-008
2, 720.00000, 0.0826499, 0.0271657, 2.22013E-008, -1.35009E-008
2, 780.00000, 0.08265, 0.0271658, 2.21954E-008, -1.35026E-008
2, 840.00000, 0.08265, 0.0271658, 2.21954E-008, -1.35027E-008
2, 900.00000, 0.08265, 0.0271658, 2.21954E-008, -1.35027E-008
2, 960.00000, 0.0826518, 0.0271659, 2.82545E-009, -2.16695E-008
2, 1020.00000, 0.08265, 0.0271658, 2.9176E-009, -2.17448E-008
2, 1080.00000, 0.08265, 0.0271658, 2.91901E-009, -2.17449E-008
2, 1140.00000, 0.08265, 0.0271658, 2.91902E-009, -2.17449E-008
2, 1200.00000, 0.08265, 0.0271658, 2.91902E-009, -2.17449E-008
2, 1260.00000, 0.0991779, 0.0325955, 5.75806E-009, -6.71455E-010
2, 1320.00000, 0.09918, 0.0325988, 5.43071E-009, -7.94778E-010
2, 1380.00000, 0.09918, 0.0325989, 5.42846E-009, -7.98158E-010
2, 1440.00000, 0.09918, 0.0325989, 5.42846E-009, -7.98204E-010
2, 1500.00000, 0.09918, 0.0325989, 5.42846E-009, -7.98205E-010
2, 1560.00000, 0.0991793, 0.0325996, 4.8773E-009, -1.24239E-009
2, 1620.00000, 0.09918, 0.0325989, 4.86291E-009, -1.15551E-009
2, 1680.00000, 0.09918, 0.0325989, 4.86221E-009, -1.15481E-009
2, 1740.00000, 0.09918, 0.0325989, 4.8622E-009, -1.15481E-009
2, 1800.00000, 0.09918, 0.0325989, 4.8622E-009, -1.15481E-009
2, 1860.00000, 0.0991788, 0.0325958, -1.89423E-008, -9.92582E-009
2, 1920.00000, 0.0991801, 0.0325989, -1.89133E-008, -1.01635E-008
2, 1980.00000, 0.09918, 0.0325989, -1.89113E-008, -1.01655E-008
2, 2040.00000, 0.09918, 0.0325989, -1.89113E-008, -1.01655E-008
2, 2100.00000, 0.09918, 0.0325989, -1.89113E-008, -1.01655E-008
2, 2160.00000, 0.132242, 0.0434698, -1.74571E-008, 8.79705E-008
2, 2220.00000, 0.13224, 0.0434651, -1.73148E-008, 8.82635E-008
2, 2280.00000, 0.13224, 0.0434651, -1.73155E-008, 8.82672E-008
2, 2340.00000, 0.13224, 0.0434651, -1.73155E-008, 8.82672E-008
2, 2400.00000, 0.13224, 0.0434651, -1.73155E-008, 8.82672E-008
2, 2460.00000, 0.11571, 0.0380329, -1.96E-008, 1.57242E-008
2, 2520.00000, 0.11571, 0.038032, -1.95677E-008, 1.57915E-008
2, 2580.00000, 0.11571, 0.038032, -1.95678E-008, 1.57923E-008
2, 2640.00000, 0.11571, 0.038032, -1.95679E-008, 1.57924E-008
2, 2700.00000, 0.11571, 0.038032, -1.95679E-008, 1.57924E-008
2, 2760.00000, 0.0991806, 0.0325984, -4.00316E-008, 3.74529E-009
2, 2820.00000, 0.0991801, 0.0325989, -4.00275E-008, 3.68038E-009
2, 2880.00000, 0.09918, 0.0325989, -4.0027E-008, 3.6798E-009
2, 2940.00000, 0.09918, 0.0325989, -4.0027E-008, 3.67979E-009
2, 3000.00000, 0.09918, 0.0325989, -4.0027E-008, 3.67979E-009
2, 3060.00000, 0.0991778, 0.0325969, -4.20997E-008, -2.36465E-008
2, 3120.00000, 0.09918, 0.0325989, -4.22629E-008, -2.36907E-008
2, 3180.00000, 0.09918, 0.0325989, -4.22641E-008, -2.36922E-008
2, 3240.00000, 0.09918, 0.0325989, -4.22641E-008, -2.36922E-008
2, 3300.00000, 0.09918, 0.0325989, -4.22641E-008, -2.36922E-008
2, 3360.00000, 0.132244, 0.0434682, -4.83451E-008, 3.7286E-008
2, 3420.00000, 0.13224, 0.0434652, -4.80779E-008, 3.73386E-008
2, 3480.00000, 0.13224, 0.0434651, -4.80758E-008, 3.73408E-008
2, 3540.00000, 0.13224, 0.0434651, -4.80758E-008, 3.73409E-008
3, 0.00000, 0.13224, 0.0434651, -4.80758E-008, 3.73409E-008
3, 60.00000, 0.0991789, 0.032597, 6.76696E-009, 2.41338E-008
3, 120.00000, 0.09918, 0.0325988, 6.65916E-009, 2.4051E-008
3, 180.00000, 0.09918, 0.0325989, 6.65873E-009, 2.40496E-008
3, 240.00000, 0.09918, 0.0325989, 6.65873E-009, 2.40496E-008
3, 300.00000, 0.09918, 0.0325989, 6.65873E-009, 2.40496E-008
3, 360.00000, 0.0826503, 0.0271672, 2.1101E-008, -1.3689E-008
3, 420.00000, 0.08265, 0.0271658, 2.1163E-008, -1.35975E-008
3, 480.00000, 0.08265, 0.0271658, 2.1163E-008, -1.35962E-008
3, 540.00000, 0.08265, 0.0271658, 2.1163E-008, -1.35962E-008
3, 600.00000, 0.08265, 0.0271658, 2.1163E-008, -1.35962E-008
3, 660.00000, 0.115704, 0.0380282, -1.72424E-008, 1.69342E-008
3, 720.00000, 0.11571, 0.0380319, -1.77801E-008, 1.70413E-008
3, 780.00000, 0.11571, 0.038032, -1.77858E-008, 1.70389E-008
3, 840.00000, 0.11571, 0.038032, -1.77858E-008, 1.70388E-008
3, 900.00000, 0.11571, 0.038032, -1.77858E-008, 1.70388E-008
3, 960.00000, 0.0991807, 0.0325984, -4.15233E-008, 3.16734E-009
3, 1020.00000, 0.0991801, 0.0325989, -4.1508E-008, 3.10179E-009
3, 1080.00000, 0.09918, 0.0325989, -4.15074E-008, 3.1013E-009
3, 1140.00000, 0.09918, 0.0325989, -4.15074E-008, 3.1013E-009
3, 1200.00000, 0.09918, 0.0325989, -4.15074E-008, 3.1013E-009
3, 1260.00000, 0.0991804, 0.0326003, 6.08794E-009, 2.43784E-008
3, 1320.00000, 0.09918, 0.0325989, 6.16006E-009, 2.44631E-008
3, 1380.00000, 0.09918, 0.0325989, 6.16016E-009, 2.44644E-008
3, 1440.00000, 0.09918, 0.0325989, 6.16015E-009, 2.44644E-008
3, 1500.00000, 0.09918, 0.0325989, 6.16015E-009, 2.44644E-008
3, 1560.00000, 0.0826434, 0.0271617, 2.19373E-008, -1.20524E-008
3, 1620.00000, 0.0826499, 0.0271657, 2.16251E-008, -1.20631E-008
3, 1680.00000, 0.08265, 0.0271658, 2.16221E-008, -1.20652E-008
3, 1740.00000, 0.08265, 0.0271658, 2.16221E-008, -1.20652E-008
3, 1800.00000, 0.08265, 0.0271658, 2.16221E-008, -1.20652E-008
3, 1860.00000, 0.11571, 0.0380307, -4.63637E-008, 2.26985E-009
3, 1920.00000, 0.11571, 0.038032, -4.64131E-008, 2.1725E-009
3, 1980.00000, 0.11571, 0.038032, -4.64129E-008, 2.17131E-009
3, 2040.00000, 0.11571, 0.038032, -4.64129E-008, 2.1713E-009
3, 2100.00000, 0.11571, 0.038032, -4.64129E-008, 2.1713E-009
3, 2160.00000, 0.0991785, 0.0325983, 5.49486E-009, -8.97588E-010
3, 2220.00000, 0.09918, 0.0325989, 5.41523E-009, -8.70746E-010
3, 2280.00000, 0.09918, 0.0325989, 5.41432E-009, -8.71017E-010
3, 2340.00000, 0.09918, 0.0325989, 5.41431E-009, -8.71025E-010
3, 2400.00000, 0.09918, 0.0325989, 5.41431E-009, -8.71025E-010
3, 2460.00000, 0.115713, 0.0380334, -1.93767E-008, 1.69265E-008
3, 2520.00000, 0.11571, 0.038032, -1.91806E-008, 1.68726E-008
3, 2580.00000, 0.11571, 0.038032, -1.91785E-008, 1.68733E-008
3, 2640.00000, 0.11571, 0.038032, -1.91784E-008, 1.68733E-008
3, 2700.00000, 0.11571, 0.038032, -1.91784E-008, 1.68733E-008
3, 2760.00000, 0.0991795, 0.0326006, -1.86601E-008, -1.2389E-008
3, 2820.00000, 0.09918, 0.0325989, -1.86277E-008, -1.22417E-008
3, 2880.00000, 0.09918, 0.0325989, -1.86284E-008, -1.224E-008
3, 2940.00000, 0.09918, 0.0325989, -1.86284E-008, -1.224E-008
3, 3000.00000, 0.09918, 0.0325989, -1.86284E-008, -1.224E-008
3, 3060.00000, 0.115707, 0.0380303, -1.77832E-008, 4.64811E-008
3, 3120.00000, 0.11571, 0.038032, -1.79741E-008, 4.6499E-008
3, 3180.00000, 0.11571, 0.038032, -1.79759E-008, 4.64979E-008
3, 3240.00000, 0.11571, 0.038032, -1.79759E-008, 4.64979E-008
3, 3300.00000, 0.11571, 0.038032, -1.79759E-008, 4.64979E-008
3, 3360.00000, 0.082651, 0.0271669, 2.1831E-009, -2.23342E-008
3, 3420.00000, 0.08265, 0.0271658, 2.27007E-009, -2.22953E-008
3, 3480.00000, 0.08265, 0.0271658, 2.27062E-009, -2.22944E-008
3, 3540.00000, 0.0826491, 0.0271654, 2.28551E-009, -2.23419E-008
4, 0.00000, 0.08265, 0.0271658, 2.29839E-009, -2.23322E-008
4, 60.00000, 0.0826491, 0.0271624, 2.11898E-008, -1.28518E-008
4, 120.00000, 0.08265, 0.0271657, 2.10407E-008, -1.30445E-008
4, 180.00000, 0.08265, 0.0271658, 2.10407E-008, -1.30484E-008
4, 240.00000, 0.08265, 0.0271658, 2.10408E-008, -1.30484E-008
4, 300.00000, 0.08265, 0.0271658, 2.10408E-008, -1.30484E-008
4, 360.00000, 0.0991836, 0.0326007, -1.86885E-008, -1.15307E-008
4, 420.00000, 0.0991801, 0.0325989, -1.84535E-008, -1.15844E-008
4, 480.00000, 0.09918, 0.0325989, -1.84499E-008, -1.15827E-008
4, 540.00000, 0.09918, 0.0325989, -1.84499E-008, -1.15827E-008
4, 600.00000, 0.09918, 0.0325989, -1.84499E-008, -1.15827E-008
4, 660.00000, 0.0991784, 0.0325993, -2.02343E-008, -3.78068E-008
4, 720.00000, 0.09918, 0.0325989, -2.02923E-008, -3.76983E-008
4, 780.00000, 0.09918, 0.0325989, -2.02942E-008, -3.76975E-008
4, 840.00000, 0.09918, 0.0325989, -2.02942E-008, -3.76975E-008
4, 900.00000, 0.09918, 0.0325989, -2.02942E-008, -3.76975E-008
4, 960.00000, 0.0991808, 0.0326001, -2.12066E-008, -3.80344E-008
4, 1020.00000, 0.09918, 0.0325989, -2.13132E-008, -3.78947E-008
4, 1080.00000, 0.09918, 0.0325989, -2.13162E-008, -3.78939E-008
4, 1140.00000, 0.09918, 0.0325989, -2.13162E-008, -3.78939E-008
4, 1200.00000, 0.09918, 0.0325989, -2.13162E-008, -3.78939E-008
4, 1260.00000, 0.0991759, 0.0325916, -1.60983E-008, 1.37933E-008
4, 1320.00000, 0.0991801, 0.0325988, -1.64391E-008, 1.34364E-008
4, 1380.00000, 0.09918, 0.0325989, -1.64395E-008, 1.34283E-008
4, 1440.00000, 0.09918, 0.0325989, -1.64394E-008, 1.34282E-008
4, 1500.00000, 0.09918, 0.0325989, -1.64394E-008, 1.34282E-008
4, 1560.00000, 0.0661196, 0.0217333, 3.20216E-008, -2.06285E-008
4, 1620.00000, 0.06612, 0.0217326, 3.20333E-008, -2.05596E-008
4, 1680.00000, 0.06612, 0.0217326, 3.20327E-008, -2.05586E-008
4, 1740.00000, 0.06612, 0.0217326, 3.20327E-008, -2.05586E-008
4, 1800.00000, 0.06612, 0.0217326, 3.20327E-008, -2.05586E-008
4, 1860.00000, 0.0826489, 0.0271652, 2.20971E-008, -1.30936E-008
4, 1920.00000, 0.08265, 0.0271657, 2.20201E-008, -1.30821E-008
4, 1980.00000, 0.0826502, 0.0271659, 2.19992E-008, -1.30824E-008
4, 2040.00000, 0.0826498, 0.0271656, 2.20166E-008, -1.3085E-008
4, 2100.00000, 0.0826501, 0.0271658, 2.20024E-008, -1.30825E-008
4, 2160.00000, 0.0991867, 0.0326006, 2.70361E-008, 1.14786E-008
4, 2220.00000, 0.0991804, 0.0325991, 2.72743E-008, 1.13126E-008
4, 2280.00000, 0.0991801, 0.0325989, 2.72624E-008, 1.13083E-008
4, 2340.00000, 0.0991801, 0.0325989, 2.72528E-008, 1.13063E-008
4, 2400.00000, 0.0991808, 0.0325993, 2.71635E-008, 1.12981E-008
4, 2460.00000, 0.0991809, 0.0325984, 5.16361E-009, 3.76526E-010
4, 2520.00000, 0.0991812, 0.0325995, 5.08397E-009, 2.90283E-010
4, 2580.00000, 0.09918, 0.0325989, 5.07201E-009, 2.7881E-010
4, 2640.00000, 0.09918, 0.0325989, 5.0719E-009, 2.78518E-010
4, 2700.00000, 0.09918, 0.0325989, 5.07188E-009, 2.7851E-010
4, 2760.00000, 0.0991816, 0.032598, 6.91961E-009, 2.56391E-008
4, 2820.00000, 0.0991807, 0.0325992, 6.91146E-009, 2.54907E-008
4, 2880.00000, 0.0991802, 0.032599, 6.89257E-009, 2.54835E-008
4, 2940.00000, 0.0991804, 0.0325991, 6.85465E-009, 2.54777E-008
4, 3000.00000, 0.0991804, 0.0325991, 6.81452E-009, 2.54705E-008
4, 3060.00000, 0.0826505, 0.0271681, 2.12812E-008, 7.32817E-009
4, 3120.00000, 0.0826511, 0.0271664, 2.12552E-008, 7.45961E-009
4, 3180.00000, 0.0826497, 0.0271656, 2.12629E-008, 7.4544E-009
4, 3240.00000, 0.0826507, 0.0271662, 2.11805E-008, 7.45183E-009
4, 3300.00000, 0.0826501, 0.0271658, 2.11547E-008, 7.44501E-009
4, 3360.00000, 0.0991737, 0.0325963, -1.91173E-008, -1.27278E-008
4, 3420.00000, 0.0991807, 0.0325993, -1.95039E-008, -1.2626E-008
4, 3480.00000, 0.0991814, 0.0325997, -1.96495E-008, -1.26287E-008
4, 3540.00000, 0.0991806, 0.0325992, -1.97209E-008, -1.26375E-008
5, 0.00000, 0.09918, 0.0325989, -1.97257E-008, -1.2642E-008
5, 60.00000, 0.0826454, 0.0271621, 2.88793E-009, -8.99087E-010
5, 120.00000, 0.0826503, 0.0271659, 2.55983E-009, -9.34056E-010
5, 180.00000, 0.082651, 0.0271663, 2.47717E-009, -9.45083E-010
5, 240.00000, 0.0826507, 0.0271662, 2.41448E-009, -9.56982E-010
5, 300.00000, 0.082652, 0.0271669, 2.25025E-009, -9.70472E-010
5, 360.00000, 0.115714, 0.0380364, 5.84179E-009, 5.68772E-008
5, 420.00000, 0.115711, 0.0380326, 6.08513E-009, 5.6972E-008
5, 480.00000, 0.115711, 0.0380324, 6.00869E-009, 5.69518E-008
5, 540.00000, 0.115712, 0.0380335, 5.77075E-009, 5.68891E-008
5, 600.00000, 0.115712, 0.0380335, 5.50939E-009, 5.68073E-008
5, 660.00000, 0.0991816, 0.0326, 4.8592E-008, 2.03555E-008
5, 720.00000, 0.0991824, 0.0326004, 4.84289E-008, 2.03247E-008
5, 780.00000, 0.099181, 0.0325995, 4.826E-008, 2.02924E-008
5, 840.00000, 0.0991816, 0.0325999, 4.80482E-008, 2.02646E-008
5, 900.00000, 0.0991822, 0.0326003, 4.77499E-008, 2.02252E-008
5, 960.00000, 0.0826499, 0.027163, 1.60775E-008, -5.53449E-008
5, 1020.00000, 0.0826521, 0.0271671, 1.5766E-008, -5.54647E-008
