hour, t(sec), V0, VAngle0, V1, VAngle1, V2, VAngle2, I0, IAngle0, I1, IAngle1, I2, IAngle2, 
0, 60.00000, 0.0513786, 98.6973, 224.578, -30.3195, 0.0182172, -100.639, 0.984766, 78.2257, 86.83, 131.6, 1.02817, -175.074
0, 120.00000, 0.0513814, 98.6995, 224.578, -30.3195, 0.0182193, -100.643, 0.984877, 78.2286, 86.8305, 131.6, 1.02829, -175.078
0, 180.00000, 0.0513814, 98.6996, 224.578, -30.3195, 0.0182193, -100.643, 0.984877, 78.2286, 86.8305, 131.6, 1.02829, -175.078
0, 240.00000, 0.0513814, 98.6996, 224.578, -30.3195, 0.0182193, -100.643, 0.984877, 78.2286, 86.8305, 131.6, 1.02829, -175.078
0, 300.00000, 0.0513814, 98.6996, 224.578, -30.3195, 0.0182193, -100.643, 0.984877, 78.2286, 86.8305, 131.6, 1.02829, -175.078
0, 360.00000, 0.0402885, 102.091, 224.556, -30.3276, 0.0124965, -115.943, 0.653335, 95.4646, 88.9916, 131.594, 0.705298, 169.622
0, 420.00000, 0.0402966, 102.098, 224.556, -30.3276, 0.012503, -115.946, 0.653666, 95.4659, 88.9917, 131.594, 0.705662, 169.619
0, 480.00000, 0.0402966, 102.098, 224.556, -30.3276, 0.012503, -115.946, 0.653669, 95.466, 88.9917, 131.594, 0.705664, 169.619
0, 540.00000, 0.0402966, 102.098, 224.556, -30.3276, 0.012503, -115.946, 0.653669, 95.466, 88.9917, 131.594, 0.705664, 169.619
0, 600.00000, 0.0402966, 102.098, 224.556, -30.3276, 0.012503, -115.946, 0.653669, 95.466, 88.9917, 131.594, 0.705664, 169.619
0, 660.00000, 0.0440112, 113.494, 224.569, -30.3226, 0.0165261, -130.707, 0.902501, 109.319, 87.6669, 131.598, 0.932724, 154.857
0, 720.00000, 0.0440007, 113.493, 224.569, -30.3226, 0.0165192, -130.716, 0.902153, 109.329, 87.6669, 131.598, 0.932334, 154.849
0, 780.00000, 0.0440006, 113.493, 224.569, -30.3226, 0.0165192, -130.716, 0.90215, 109.329, 87.6669, 131.598, 0.932331, 154.849
0, 840.00000, 0.0440006, 113.493, 224.569, -30.3226, 0.0165192, -130.716, 0.90215, 109.329, 87.6669, 131.598, 0.932331, 154.849
0, 900.00000, 0.0440006, 113.493, 224.569, -30.3226, 0.0165192, -130.716, 0.90215, 109.329, 87.6669, 131.598, 0.932331, 154.849
0, 960.00000, 0.0385535, 69.2445, 224.56, -30.326, 0.0102788, -32.7087, 0.547446, 8.22237, 88.5814, 131.594, 0.580135, -107.144
0, 1020.00000, 0.0385559, 69.2352, 224.56, -30.326, 0.0102821, -32.691, 0.547621, 8.20538, 88.5814, 131.594, 0.58032, -107.126
0, 1080.00000, 0.0385559, 69.2352, 224.56, -30.326, 0.0102821, -32.6909, 0.547622, 8.20532, 88.5814, 131.594, 0.580321, -107.126
0, 1140.00000, 0.0385559, 69.2352, 224.56, -30.326, 0.0102821, -32.6909, 0.547622, 8.20532, 88.5814, 131.594, 0.580321, -107.126
0, 1200.00000, 0.0385559, 69.2352, 224.56, -30.326, 0.0102821, -32.6909, 0.547622, 8.20532, 88.5814, 131.594, 0.580321, -107.126
0, 1260.00000, 0.0579164, 83.4154, 224.56, -30.3262, 0.0215302, -72.5855, 1.13986, 49.0562, 88.6381, 131.594, 1.21516, -147.021
0, 1320.00000, 0.0579282, 83.4271, 224.56, -30.3262, 0.0215384, -72.608, 1.14028, 49.0779, 88.6381, 131.594, 1.21562, -147.043
0, 1380.00000, 0.0579283, 83.4272, 224.56, -30.3262, 0.0215385, -72.6082, 1.14028, 49.0781, 88.6381, 131.594, 1.21562, -147.043
0, 1440.00000, 0.0579283, 83.4272, 224.56, -30.3262, 0.0215385, -72.6082, 1.14028, 49.0781, 88.6381, 131.594, 1.21562, -147.043
0, 1500.00000, 0.0579283, 83.4272, 224.56, -30.3262, 0.0215385, -72.6082, 1.14028, 49.0781, 88.6381, 131.594, 1.21562, -147.043
0, 1560.00000, 0.0544255, 102.252, 224.58, -30.3187, 0.0211736, -105.371, 1.13171, 83.4923, 86.6195, 131.601, 1.19503, -179.806
0, 1620.00000, 0.0544259, 102.249, 224.58, -30.3187, 0.0211735, -105.365, 1.1317, 83.4866, 86.6194, 131.601, 1.19502, -179.801
0, 1680.00000, 0.0544259, 102.249, 224.58, -30.3187, 0.0211735, -105.365, 1.1317, 83.4866, 86.6194, 131.601, 1.19502, -179.801
0, 1740.00000, 0.0544259, 102.249, 224.58, -30.3187, 0.0211735, -105.365, 1.1317, 83.4866, 86.6194, 131.601, 1.19502, -179.801
0, 1800.00000, 0.0544259, 102.249, 224.58, -30.3187, 0.0211735, -105.365, 1.1317, 83.4866, 86.6194, 131.601, 1.19502, -179.801
0, 1860.00000, 0.0359782, 112.261, 224.553, -30.3289, 0.0117962, -139.387, 0.633036, 119.868, 89.3462, 131.595, 0.665768, 146.178
0, 1920.00000, 0.0359724, 112.27, 224.553, -30.3289, 0.0117952, -139.414, 0.633013, 119.894, 89.3464, 131.595, 0.665712, 146.151
0, 1980.00000, 0.0359723, 112.27, 224.553, -30.3289, 0.0117952, -139.414, 0.633012, 119.894, 89.3464, 131.595, 0.665711, 146.151
0, 2040.00000, 0.0359723, 112.27, 224.553, -30.3289, 0.0117952, -139.414, 0.633012, 119.894, 89.3464, 131.595, 0.665711, 146.151
0, 2100.00000, 0.0359723, 112.27, 224.553, -30.3289, 0.0117952, -139.414, 0.633012, 119.894, 89.3464, 131.595, 0.665711, 146.151
0, 2160.00000, 0.0411661, 65.3322, 224.573, -30.3212, 0.0124465, -28.9996, 0.670569, 4.08284, 87.2851, 131.598, 0.70248, -103.435
0, 2220.00000, 0.0411632, 65.3214, 224.573, -30.3212, 0.0124471, -28.9732, 0.670608, 4.05776, 87.285, 131.598, 0.702513, -103.409
0, 2280.00000, 0.0411632, 65.3213, 224.573, -30.3212, 0.0124471, -28.973, 0.670609, 4.05758, 87.285, 131.598, 0.702514, -103.408
0, 2340.00000, 0.0411632, 65.3213, 224.573, -30.3212, 0.0124471, -28.973, 0.670609, 4.05758, 87.285, 131.598, 0.702514, -103.408
0, 2400.00000, 0.0411632, 65.3213, 224.573, -30.3212, 0.0124471, -28.973, 0.670609, 4.05758, 87.285, 131.598, 0.702514, -103.408
0, 2460.00000, 0.0164837, 136.91, 224.56, -30.3261, 0.0125638, 145.915, 0.710417, -168.041, 88.6112, 131.595, 0.70909, 71.4796
0, 2520.00000, 0.0164786, 136.937, 224.56, -30.3261, 0.0125692, 145.898, 0.710689, -168.026, 88.6113, 131.595, 0.709391, 71.4622
0, 2580.00000, 0.0164786, 136.937, 224.56, -30.3261, 0.0125692, 145.897, 0.71069, -168.025, 88.6113, 131.595, 0.709392, 71.462
0, 2640.00000, 0.0164786, 136.937, 224.56, -30.3261, 0.0125692, 145.897, 0.71069, -168.025, 88.6113, 131.595, 0.709392, 71.462
0, 2700.00000, 0.0164786, 136.937, 224.56, -30.3261, 0.0125692, 145.897, 0.71069, -168.025, 88.6113, 131.595, 0.709392, 71.462
0, 2760.00000, 0.0309721, 135.62, 224.571, -30.3218, 0.0161493, -175.45, 0.882325, 153.82, 87.4643, 131.598, 0.91145, 110.115
0, 2820.00000, 0.0309797, 135.634, 224.571, -30.3218, 0.0161566, -175.447, 0.882705, 153.817, 87.4643, 131.598, 0.911867, 110.117
0, 2880.00000, 0.0309797, 135.634, 224.571, -30.3218, 0.0161567, -175.448, 0.882708, 153.817, 87.4643, 131.598, 0.91187, 110.117
0, 2940.00000, 0.0309797, 135.634, 224.571, -30.3218, 0.0161567, -175.448, 0.882708, 153.817, 87.4643, 131.598, 0.91187, 110.117
0, 3000.00000, 0.0309797, 135.634, 224.571, -30.3218, 0.0161567, -175.448, 0.882708, 153.817, 87.4643, 131.598, 0.91187, 110.117
0, 3060.00000, 0.0149195, 106.751, 224.558, -30.3268, 0.00808184, 131.434, 0.463094, -154.375, 88.7925, 131.596, 0.456128, 56.9984
0, 3120.00000, 0.0149153, 106.696, 224.558, -30.3268, 0.00807626, 131.37, 0.462822, -154.318, 88.7926, 131.596, 0.455814, 56.9347
0, 3180.00000, 0.0149153, 106.695, 224.558, -30.3268, 0.00807619, 131.37, 0.462818, -154.317, 88.7926, 131.596, 0.45581, 56.9344
0, 3240.00000, 0.0149153, 106.695, 224.558, -30.3268, 0.00807619, 131.37, 0.462818, -154.317, 88.7926, 131.596, 0.45581, 56.9344
0, 3300.00000, 0.0149153, 106.695, 224.558, -30.3268, 0.00807619, 131.37, 0.462818, -154.317, 88.7926, 131.596, 0.45581, 56.9344
0, 3360.00000, 0.0413777, 63.6984, 224.56, -30.326, 0.0133129, -26.2407, 0.695526, 1.44529, 88.5777, 131.595, 0.751381, -100.676
0, 3420.00000, 0.0413998, 63.7018, 224.56, -30.326, 0.0133253, -26.278, 0.696168, 1.48211, 88.5778, 131.595, 0.752081, -100.713
0, 3480.00000, 0.0413999, 63.7019, 224.56, -30.326, 0.0133254, -26.2784, 0.696171, 1.48248, 88.5778, 131.595, 0.752085, -100.714
0, 3540.00000, 0.0413999, 63.7019, 224.56, -30.326, 0.0133254, -26.2784, 0.696171, 1.48248, 88.5778, 131.595, 0.752085, -100.714
1, 0.00000, 0.0413999, 63.7019, 224.56, -30.326, 0.0133254, -26.2784, 0.696171, 1.48248, 88.5778, 131.595, 0.752085, -100.714
1, 60.00000, 0.0139597, 65.8323, 224.725, -30.2635, 0.00602179, 72.9277, 0.337944, -97.9063, 71.9335, 131.636, 0.339865, -1.50889
1, 120.00000, 0.0139452, 65.8052, 224.725, -30.2635, 0.00603028, 72.9717, 0.338449, -97.9467, 71.9327, 131.636, 0.340344, -1.46485
1, 180.00000, 0.0139451, 65.8049, 224.725, -30.2635, 0.00603034, 72.9718, 0.338453, -97.9468, 71.9327, 131.636, 0.340348, -1.4647
1, 240.00000, 0.0139451, 65.8049, 224.725, -30.2635, 0.00603034, 72.9718, 0.338453, -97.9468, 71.9327, 131.636, 0.340348, -1.4647
1, 300.00000, 0.0139451, 65.8049, 224.725, -30.2635, 0.00603034, 72.9718, 0.338453, -97.9468, 71.9327, 131.636, 0.340348, -1.4647
1, 360.00000, 0.0448978, 85.0878, 224.72, -30.2654, 0.0159418, -74.6434, 0.850242, 51.7336, 72.4215, 131.635, 0.899753, -149.079
1, 420.00000, 0.0449107, 85.1015, 224.72, -30.2654, 0.0159501, -74.6675, 0.850704, 51.7595, 72.4215, 131.635, 0.90022, -149.103
1, 480.00000, 0.0449108, 85.1016, 224.72, -30.2654, 0.0159501, -74.6677, 0.850706, 51.7597, 72.4215, 131.635, 0.900222, -149.103
1, 540.00000, 0.0449108, 85.1016, 224.72, -30.2654, 0.0159501, -74.6677, 0.850706, 51.7597, 72.4215, 131.635, 0.900222, -149.103
1, 600.00000, 0.0449108, 85.1016, 224.72, -30.2654, 0.0159501, -74.6677, 0.850706, 51.7597, 72.4215, 131.635, 0.900222, -149.103
1, 660.00000, 0.0342912, 121.137, 224.718, -30.266, 0.0143572, -144.04, 0.790569, 122.146, 72.5778, 131.633, 0.810312, 141.525
1, 720.00000, 0.0342819, 121.145, 224.718, -30.266, 0.0143542, -144.062, 0.790394, 122.169, 72.5778, 131.633, 0.810141, 141.503
1, 780.00000, 0.0342819, 121.145, 224.718, -30.266, 0.0143542, -144.062, 0.790392, 122.169, 72.5778, 131.633, 0.81014, 141.503
1, 840.00000, 0.0342819, 121.145, 224.718, -30.266, 0.0143542, -144.062, 0.790392, 122.169, 72.5778, 131.633, 0.810139, 141.503
1, 900.00000, 0.0342819, 121.145, 224.718, -30.266, 0.0143542, -144.062, 0.790392, 122.169, 72.5778, 131.633, 0.810139, 141.503
1, 960.00000, 0.0452539, 103.799, 224.696, -30.2745, 0.0172973, -109.004, 0.931624, 86.7097, 74.865, 131.63, 0.976252, 176.561
1, 1020.00000, 0.0452606, 103.804, 224.696, -30.2745, 0.0173022, -109.01, 0.931898, 86.7152, 74.8651, 131.63, 0.976527, 176.555
1, 1080.00000, 0.0452606, 103.804, 224.696, -30.2745, 0.0173022, -109.01, 0.9319, 86.7153, 74.8651, 131.63, 0.976529, 176.555
1, 1140.00000, 0.0452606, 103.804, 224.696, -30.2745, 0.0173022, -109.01, 0.9319, 86.7153, 74.8651, 131.63, 0.976529, 176.555
1, 1200.00000, 0.0452606, 103.804, 224.696, -30.2745, 0.0173022, -109.01, 0.9319, 86.7153, 74.8651, 131.63, 0.976529, 176.555
1, 1260.00000, 0.0288086, 98.3143, 224.713, -30.2678, 0.00653141, -117.315, 0.347241, 95.7869, 73.0647, 131.633, 0.368629, 168.251
1, 1320.00000, 0.0288017, 98.306, 224.713, -30.2678, 0.00652627, -117.313, 0.346953, 95.7866, 73.0646, 131.633, 0.36834, 168.252
1, 1380.00000, 0.0288016, 98.3059, 224.713, -30.2678, 0.00652624, -117.313, 0.346951, 95.7865, 73.0646, 131.633, 0.368338, 168.252
1, 1440.00000, 0.0288016, 98.3059, 224.713, -30.2678, 0.00652624, -117.313, 0.346951, 95.7865, 73.0646, 131.633, 0.368338, 168.252
1, 1500.00000, 0.0288016, 98.3059, 224.713, -30.2678, 0.00652624, -117.313, 0.346951, 95.7865, 73.0646, 131.633, 0.368338, 168.252
1, 1560.00000, 0.0231936, 163.774, 224.717, -30.2664, 0.0181791, 162.731, 1.00704, 175.441, 72.7038, 131.636, 1.02601, 88.2954
1, 1620.00000, 0.0231984, 163.79, 224.717, -30.2664, 0.0181842, 162.728, 1.00733, 175.443, 72.7038, 131.636, 1.0263, 88.2929
1, 1680.00000, 0.0231984, 163.79, 224.717, -30.2664, 0.0181842, 162.728, 1.00733, 175.443, 72.7038, 131.636, 1.0263, 88.2929
1, 1740.00000, 0.0231984, 163.79, 224.717, -30.2664, 0.0181842, 162.728, 1.00733, 175.443, 72.7038, 131.636, 1.0263, 88.2929
1, 1800.00000, 0.0231984, 163.79, 224.717, -30.2664, 0.0181842, 162.728, 1.00733, 175.443, 72.7038, 131.636, 1.0263, 88.2929
1, 1860.00000, 0.0422945, 133.047, 224.714, -30.2677, 0.0213809, -149.992, 1.1658, 128.063, 73.0376, 131.634, 1.20672, 135.573
1, 1920.00000, 0.0423023, 133.044, 224.714, -30.2677, 0.0213846, -149.982, 1.166, 128.053, 73.0375, 131.634, 1.20693, 135.582
1, 1980.00000, 0.0423024, 133.044, 224.714, -30.2677, 0.0213846, -149.982, 1.16601, 128.053, 73.0375, 131.634, 1.20693, 135.582
1, 2040.00000, 0.0423024, 133.044, 224.714, -30.2677, 0.0213846, -149.982, 1.16601, 128.053, 73.0375, 131.634, 1.20693, 135.582
1, 2100.00000, 0.0423024, 133.044, 224.714, -30.2677, 0.0213846, -149.982, 1.16601, 128.053, 73.0375, 131.634, 1.20693, 135.582
1, 2160.00000, 0.0336224, 107.677, 224.712, -30.2683, 0.0111673, -126.251, 0.599643, 104.214, 73.1953, 131.633, 0.630275, 159.314
1, 2220.00000, 0.0336191, 107.669, 224.712, -30.2683, 0.011164, -126.244, 0.599457, 104.207, 73.1953, 131.633, 0.630087, 159.321
1, 2280.00000, 0.0336191, 107.669, 224.712, -30.2683, 0.0111639, -126.244, 0.599456, 104.207, 73.1953, 131.633, 0.630086, 159.321
1, 2340.00000, 0.0336191, 107.669, 224.712, -30.2683, 0.0111639, -126.244, 0.599456, 104.207, 73.1953, 131.633, 0.630086, 159.321
1, 2400.00000, 0.0336191, 107.669, 224.712, -30.2683, 0.0111639, -126.244, 0.599456, 104.207, 73.1953, 131.633, 0.630086, 159.321
1, 2460.00000, 0.0217064, 133.588, 224.725, -30.2633, 0.0111836, 175.998, 0.619272, 162.959, 71.858, 131.637, 0.631191, 101.562
1, 2520.00000, 0.0216635, 133.639, 224.725, -30.2633, 0.0111814, 175.849, 0.619171, 163.113, 71.8567, 131.637, 0.631068, 101.414
1, 2580.00000, 0.0216632, 133.639, 224.725, -30.2633, 0.0111813, 175.848, 0.619166, 163.114, 71.8567, 131.637, 0.631063, 101.413
1, 2640.00000, 0.0216632, 133.639, 224.725, -30.2633, 0.0111813, 175.848, 0.619166, 163.114, 71.8567, 131.637, 0.631062, 101.413
1, 2700.00000, 0.0216632, 133.639, 224.725, -30.2633, 0.0111813, 175.848, 0.619166, 163.114, 71.8567, 131.637, 0.631062, 101.413
1, 2760.00000, 0.0218136, 117.357, 224.716, -30.267, 0.00771496, -176.48, 0.423303, 155.64, 72.8558, 131.637, 0.435423, 109.085
1, 2820.00000, 0.0218041, 117.361, 224.715, -30.267, 0.00771367, -176.521, 0.423256, 155.689, 72.8583, 131.637, 0.43535, 109.044
1, 2880.00000, 0.0218041, 117.361, 224.715, -30.267, 0.00771369, -176.521, 0.423256, 155.689, 72.8583, 131.637, 0.435351, 109.044
1, 2940.00000, 0.0218041, 117.361, 224.715, -30.267, 0.00771369, -176.521, 0.423256, 155.689, 72.8583, 131.637, 0.435351, 109.044
1, 3000.00000, 0.0218041, 117.361, 224.715, -30.267, 0.00771369, -176.521, 0.423256, 155.689, 72.8583, 131.637, 0.435351, 109.044
1, 3060.00000, 0.0278893, 156.629, 224.714, -30.2676, 0.0187562, 172.322, 1.03881, 165.922, 73.0137, 131.635, 1.05859, 97.8867
1, 3120.00000, 0.0279277, 156.661, 224.714, -30.2676, 0.0187807, 172.353, 1.04019, 165.892, 73.0134, 131.635, 1.05997, 97.918
1, 3180.00000, 0.0279279, 156.661, 224.714, -30.2676, 0.0187809, 172.354, 1.0402, 165.892, 73.0134, 131.635, 1.05998, 97.9182
1, 3240.00000, 0.0279279, 156.661, 224.714, -30.2676, 0.0187809, 172.354, 1.0402, 165.892, 73.0134, 131.635, 1.05998, 97.9182
1, 3300.00000, 0.0279279, 156.661, 224.714, -30.2676, 0.0187809, 172.354, 1.0402, 165.892, 73.0134, 131.635, 1.05998, 97.9182
1, 3360.00000, 0.0225349, 77.4716, 224.713, -30.268, 0.00212655, -17.5061, 0.099859, -12.9168, 73.1104, 131.634, 0.120028, -91.9423
1, 3420.00000, 0.0225453, 77.4415, 224.713, -30.268, 0.00213649, -17.4992, 0.100414, -12.878, 73.1105, 131.634, 0.120589, -91.9353
1, 3480.00000, 0.0225454, 77.4413, 224.713, -30.268, 0.00213655, -17.4997, 0.100417, -12.8772, 73.1105, 131.634, 0.120592, -91.9358
1, 3540.00000, 0.0225454, 77.4413, 224.713, -30.268, 0.00213655, -17.4997, 0.100417, -12.8772, 73.1105, 131.634, 0.120592, -91.9358
2, 0.00000, 0.0225454, 77.4413, 224.713, -30.268, 0.00213655, -17.4997, 0.100417, -12.8772, 73.1105, 131.634, 0.120592, -91.9358
2, 60.00000, 0.0395639, 132.067, 224.777, -30.2437, 0.0196292, -148.594, 1.08328, 126.257, 66.6422, 131.65, 1.10786, 136.971
2, 120.00000, 0.0395657, 132.082, 224.777, -30.2437, 0.0196332, -148.609, 1.08351, 126.272, 66.642, 131.65, 1.10808, 136.956
2, 180.00000, 0.0395657, 132.082, 224.777, -30.2437, 0.0196332, -148.609, 1.08351, 126.272, 66.642, 131.65, 1.10808, 136.956
2, 240.00000, 0.0395657, 132.082, 224.777, -30.2437, 0.0196332, -148.609, 1.08351, 126.272, 66.642, 131.65, 1.10808, 136.956
2, 300.00000, 0.0395657, 132.082, 224.777, -30.2437, 0.0196332, -148.609, 1.08351, 126.272, 66.642, 131.65, 1.10808, 136.956
2, 360.00000, 0.0146442, 92.0091, 224.779, -30.2427, 0.00290204, 133.178, 0.174489, -154.011, 66.3795, 131.65, 0.163783, 58.7421
2, 420.00000, 0.0146466, 91.9904, 224.779, -30.2427, 0.00289946, 133.146, 0.174325, -153.978, 66.3795, 131.65, 0.163638, 58.7103
2, 480.00000, 0.0146467, 91.9904, 224.779, -30.2427, 0.00289945, 133.146, 0.174325, -153.978, 66.3795, 131.65, 0.163637, 58.7103
2, 540.00000, 0.0146467, 91.9904, 224.779, -30.2427, 0.00289945, 133.146, 0.174325, -153.978, 66.3795, 131.65, 0.163637, 58.7103
2, 600.00000, 0.0146467, 91.9904, 224.779, -30.2427, 0.00289945, 133.146, 0.174325, -153.978, 66.3795, 131.65, 0.163637, 58.7103
2, 660.00000, 0.028644, 113.673, 224.793, -30.2376, 0.00938274, -139.565, 0.515931, 117.569, 65.0302, 131.653, 0.529554, 146
2, 720.00000, 0.0286299, 113.75, 224.793, -30.2376, 0.00938995, -139.704, 0.516396, 117.721, 65.0287, 131.653, 0.529962, 145.861
2, 780.00000, 0.0286296, 113.751, 224.793, -30.2376, 0.00938986, -139.705, 0.516391, 117.722, 65.0287, 131.653, 0.529957, 145.86
2, 840.00000, 0.0286296, 113.751, 224.793, -30.2376, 0.00938986, -139.705, 0.516391, 117.722, 65.0287, 131.653, 0.529957, 145.86
2, 900.00000, 0.0286296, 113.751, 224.793, -30.2376, 0.00938986, -139.705, 0.516391, 117.722, 65.0287, 131.653, 0.529957, 145.86
2, 960.00000, 0.0164839, 87.6771, 224.773, -30.2451, 0.00144558, 122.549, 0.103646, -146.008, 67.0149, 131.648, 0.0815817, 48.1117
2, 1020.00000, 0.0164911, 87.6613, 224.773, -30.2451, 0.00144065, 122.501, 0.103354, -145.972, 67.0149, 131.648, 0.0813038, 48.0631
2, 1080.00000, 0.0164912, 87.6613, 224.773, -30.2451, 0.00144062, 122.501, 0.103352, -145.972, 67.0149, 131.648, 0.081302, 48.0633
2, 1140.00000, 0.0164912, 87.6613, 224.773, -30.2451, 0.00144062, 122.501, 0.103352, -145.972, 67.0149, 131.648, 0.081302, 48.0633
2, 1200.00000, 0.0164912, 87.6613, 224.773, -30.2451, 0.00144062, 122.501, 0.103352, -145.972, 67.0149, 131.648, 0.081302, 48.0633
2, 1260.00000, 0.0203458, 52.5646, 224.783, -30.2412, 0.00714351, 24.1026, 0.399914, -49.4549, 65.9734, 131.651, 0.403179, -50.3337
2, 1320.00000, 0.0203225, 52.5566, 224.783, -30.2412, 0.00713944, 24.2078, 0.399698, -49.5684, 65.9728, 131.651, 0.40295, -50.2285
2, 1380.00000, 0.0203223, 52.5564, 224.783, -30.2412, 0.00713945, 24.2083, 0.399699, -49.569, 65.9728, 131.651, 0.402951, -50.2279
2, 1440.00000, 0.0203223, 52.5564, 224.783, -30.2412, 0.00713945, 24.2083, 0.399699, -49.569, 65.9728, 131.651, 0.402951, -50.2279
2, 1500.00000, 0.0203223, 52.5564, 224.783, -30.2412, 0.00713945, 24.2083, 0.399699, -49.569, 65.9728, 131.651, 0.402951, -50.2279
2, 1560.00000, 0.0191305, 128.894, 224.782, -30.2417, 0.00906001, 175.156, 0.503549, 163.261, 66.1109, 131.649, 0.511336, 100.72
2, 1620.00000, 0.0191286, 128.914, 224.782, -30.2417, 0.00906329, 175.141, 0.503745, 163.278, 66.1109, 131.649, 0.511521, 100.705
2, 1680.00000, 0.0191286, 128.914, 224.782, -30.2417, 0.00906331, 175.14, 0.503746, 163.278, 66.1109, 131.649, 0.511522, 100.705
2, 1740.00000, 0.0191286, 128.914, 224.782, -30.2417, 0.00906331, 175.14, 0.503746, 163.278, 66.1109, 131.649, 0.511522, 100.705
2, 1800.00000, 0.0191286, 128.914, 224.782, -30.2417, 0.00906331, 175.14, 0.503746, 163.278, 66.1109, 131.649, 0.511522, 100.705
2, 1860.00000, 0.0105856, 99.6627, 224.784, -30.2409, 0.00578844, 121.317, 0.331077, -143.899, 65.8874, 131.652, 0.326691, 46.8813
2, 1920.00000, 0.0105763, 99.4451, 224.784, -30.2409, 0.00578216, 121.083, 0.330675, -143.652, 65.8883, 131.652, 0.326336, 46.6466
2, 1980.00000, 0.0105763, 99.4445, 224.784, -30.2409, 0.00578211, 121.082, 0.330672, -143.651, 65.8883, 131.652, 0.326333, 46.646
2, 2040.00000, 0.0105763, 99.4445, 224.784, -30.2409, 0.00578211, 121.082, 0.330672, -143.651, 65.8883, 131.652, 0.326333, 46.646
