hour, t(sec), V1.re, V1.im, V2.re, V2.im, V3.re, V3.im, V4.re, V4.im, I1.re, I1.im, I2.re, I2.im, I3.re, I3.im, I4.re, I4.im
1, 0.00000, 192.741, -112.92, -194.354, -110.517, 1.39205, 223.631, 0.00115946, -0.00345086, -0.151374, 0.171451, 0.22398, 0.0452779, -0.0726815, -0.216578, 7.5783E-005, -0.000150466
2, 0.00000, 193.129, -112.886, -194.489, -110.861, 1.17294, 223.911, 0.000983594, -0.00291659, -0.128241, 0.144955, 0.189521, 0.0385176, -0.0613344, -0.183365, 5.47179E-005, -0.000107313
3, 0.00000, 193.311, -112.87, -194.552, -111.022, 1.07064, 224.041, 0.000901034, -0.00266716, -0.117404, 0.13258, 0.173408, 0.0353304, -0.0560494, -0.167821, 4.59221E-005, -8.9337E-005
4, 0.00000, 193.373, -112.864, -194.573, -111.077, 1.03542, 224.086, 0.000872519, -0.00258124, -0.113664, 0.128314, 0.16785, 0.0342276, -0.0542294, -0.162458, 4.3265E-005, -8.40297E-005
5, 0.00000, 193.295, -112.871, -194.546, -111.008, 1.0797, 224.03, 0.000908391, -0.00268929, -0.11837, 0.133682, 0.174844, 0.0356149, -0.0565202, -0.169207, 4.63539E-005, -9.00026E-005
6, 0.00000, 192.989, -112.898, -194.44, -110.737, 1.25197, 223.81, 0.00104719, -0.0031093, -0.136599, 0.154515, 0.201961, 0.0409669, -0.065424, -0.195361, 6.18624E-005, -0.000121648
7, 0.00000, 192.371, -112.952, -194.225, -110.19, 1.60005, 223.365, 0.00132515, -0.00395806, -0.17323, 0.196585, 0.256615, 0.0516106, -0.0834839, -0.247997, 9.88187E-005, -0.000198886
8, 0.00000, 192.205, -112.886, -194.095, -110.075, 1.63349, 223.203, 0.00173202, -0.00435183, -0.193396, 0.219524, 0.286528, 0.0575783, -0.0932509, -0.27687, 0.000119217, -0.000232151
9, 0.00000, 193.715, -112.012, -193.946, -111.706, 0.230679, 223.898, 0.00410726, -0.0037576, -0.198814, 0.222615, 0.292151, 0.0607361, -0.093426, -0.283275, 8.84246E-005, -7.56761E-005
10, 0.00000, 194.311, -111.63, -193.852, -112.364, -0.351331, 224.153, 0.00518617, -0.00356851, -0.204911, 0.228151, 0.300098, 0.0632507, -0.0952622, -0.29139, 7.52681E-005, -1.13889E-005
11, 0.00000, 196.858, -110.132, -193.574, -115.126, -2.74248, 225.321, 0.00913549, -0.00231263, -0.207591, 0.225915, 0.299925, 0.0667384, -0.0923254, -0.292902, -9.15348E-006, 0.000249142
12, 0.00000, 197, -110.059, -193.569, -115.276, -2.8681, 225.393, 0.00930488, -0.00221359, -0.206016, 0.223935, 0.297441, 0.0663693, -0.0914106, -0.290565, -1.44142E-005, 0.000260836
13, 0.00000, 196.036, -110.625, -193.673, -114.231, -1.96293, 224.949, 0.00783775, -0.00272963, -0.206462, 0.226356, 0.299606, 0.0655224, -0.0931638, -0.292045, 1.97421E-005, 0.000166557
14, 0.00000, 193.679, -111.951, -193.874, -111.699, 0.202889, 223.837, 0.00439439, -0.00393757, -0.209423, 0.234418, 0.307683, 0.0640086, -0.0983558, -0.29835, 9.56698E-005, -7.6411E-005
15, 0.00000, 192.317, -112.638, -193.917, -110.268, 1.39387, 223.157, 0.00266721, -0.00468709, -0.217557, 0.246347, 0.321848, 0.0650576, -0.10443, -0.311169, 0.000138739, -0.000236401
16, 0.00000, 191.25, -113.049, -193.834, -109.198, 2.22939, 222.559, 0.00181863, -0.00549251, -0.238722, 0.272511, 0.354881, 0.0702604, -0.116344, -0.34238, 0.000185091, -0.000392014
17, 0.00000, 190.573, -113.106, -193.598, -108.6, 2.60838, 222.073, 0.00210998, -0.00641618, -0.27769, 0.318134, 0.413697, 0.0811187, -0.136254, -0.39871, 0.000247893, -0.000542096
18, 0.00000, 190.02, -113.152, -193.403, -108.109, 2.91879, 221.673, 0.00234473, -0.00717276, -0.309363, 0.355458, 0.461695, 0.0898094, -0.15264, -0.444593, 0.000307516, -0.000674253
19, 0.00000, 189.804, -113.169, -193.326, -107.917, 3.04132, 221.514, 0.00243661, -0.00747174, -0.321835, 0.370212, 0.48064, 0.0932007, -0.159141, -0.462685, 0.000336367, -0.000727662
20, 0.00000, 189.678, -113.179, -193.282, -107.806, 3.11224, 221.422, 0.00248977, -0.00764495, -0.32905, 0.378762, 0.49161, 0.095154, -0.162916, -0.473158, 0.000356095, -0.000758878
21, 0.00000, 189.825, -113.168, -193.334, -107.936, 3.0293, 221.53, 0.00242764, -0.00744211, -0.320601, 0.368752, 0.478764, 0.0928648, -0.158499, -0.460896, 0.000335209, -0.00072103
22, 0.00000, 190.301, -113.129, -193.502, -108.359, 2.76071, 221.877, 0.00222563, -0.00678714, -0.293246, 0.336441, 0.437251, 0.0854009, -0.144281, -0.421236, 0.000275645, -0.000606384
23, 0.00000, 191.076, -113.064, -193.774, -109.045, 2.32659, 222.435, 0.00189365, -0.00572943, -0.248742, 0.284213, 0.369981, 0.0730684, -0.121439, -0.356851, 0.000200168, -0.000430317
24, 0.00000, 191.988, -112.985, -194.092, -109.851, 1.81512, 223.09, 0.00149503, -0.0044825, -0.195712, 0.222547, 0.290267, 0.0580674, -0.0946809, -0.280355, 0.000125659, -0.000259432
25, 0.00000, 192.741, -112.92, -194.354, -110.517, 1.3921, 223.631, 0.00115947, -0.00345098, -0.151376, 0.171453, 0.223982, 0.0452782, -0.0726821, -0.21658, 7.5939E-005, -0.000151606
26, 0.00000, 193.129, -112.886, -194.489, -110.861, 1.17294, 223.911, 0.000983594, -0.00291659, -0.128241, 0.144955, 0.189521, 0.0385176, -0.0613344, -0.183365, 5.47183E-005, -0.000107314
27, 0.00000, 193.311, -112.87, -194.552, -111.022, 1.07064, 224.041, 0.000901034, -0.00266716, -0.117404, 0.13258, 0.173408, 0.0353304, -0.0560494, -0.167821, 4.59221E-005, -8.9337E-005
28, 0.00000, 193.373, -112.864, -194.573, -111.077, 1.03542, 224.086, 0.000872519, -0.00258124, -0.113664, 0.128314, 0.16785, 0.0342276, -0.0542294, -0.162458, 4.3265E-005, -8.40297E-005
29, 0.00000, 193.295, -112.871, -194.546, -111.008, 1.0797, 224.03, 0.000908391, -0.00268929, -0.11837, 0.133682, 0.174844, 0.0356149, -0.0565202, -0.169207, 4.63539E-005, -9.00026E-005
30, 0.00000, 192.989, -112.898, -194.44, -110.737, 1.25197, 223.81, 0.00104719, -0.0031093, -0.136599, 0.154515, 0.201961, 0.0409669, -0.065424, -0.195361, 6.18624E-005, -0.000121648
31, 0.00000, 192.371, -112.952, -194.225, -110.19, 1.60005, 223.365, 0.00132515, -0.00395806, -0.17323, 0.196585, 0.256615, 0.0516106, -0.0834839, -0.247997, 9.88187E-005, -0.000198886
32, 0.00000, 192.203, -112.887, -194.095, -110.072, 1.63561, 223.202, 0.0017286, -0.00435284, -0.193395, 0.219528, 0.28653, 0.0575757, -0.093254, -0.276871, 0.000119263, -0.000232399
33, 0.00000, 193.167, -112.319, -193.991, -111.117, 0.732872, 223.639, 0.00329309, -0.00400634, -0.198559, 0.223414, 0.292628, 0.060109, -0.0941713, -0.283389, 0.000102136, -0.000133256
34, 0.00000, 193.939, -111.841, -193.886, -111.963, -0.00810234, 223.979, 0.00462758, -0.00374346, -0.204734, 0.22871, 0.300432, 0.0628122, -0.0957837, -0.291471, 8.60132E-005, -5.09546E-005
35, 0.00000, 195.077, -111.179, -193.769, -113.195, -1.07027, 224.504, 0.00639277, -0.00322093, -0.206741, 0.228603, 0.301533, 0.0646211, -0.0948449, -0.293293, 5.26046E-005, 6.93385E-005
36, 0.00000, 195.261, -111.086, -193.762, -113.389, -1.23207, 224.596, 0.00662018, -0.00310628, -0.205194, 0.226543, 0.299002, 0.0643161, -0.0938548, -0.290946, 4.65059E-005, 8.64251E-005
37, 0.00000, 194.579, -111.472, -193.822, -112.654, -0.602912, 224.275, 0.00561278, -0.0034519, -0.205766, 0.228548, 0.300914, 0.063796, -0.0952162, -0.292361, 6.73133E-005, 1.74281E-005
38, 0.00000, 193.325, -112.149, -193.903, -111.319, 0.527304, 223.671, 0.00386792, -0.00409991, -0.209251, 0.234963, 0.308008, 0.0635824, -0.098863, -0.298429, 0.000105643, -0.00011596
39, 0.00000, 191.966, -112.83, -193.941, -109.894, 1.71051, 222.99, 0.00215705, -0.00483879, -0.217378, 0.246908, 0.322183, 0.0646191, -0.104951, -0.311249, 0.000146718, -0.000278593
40, 0.00000, 191.25, -113.049, -193.834, -109.198, 2.22931, 222.559, 0.00181866, -0.00549234, -0.23872, 0.272507, 0.354877, 0.0702608, -0.116342, -0.342377, 0.000185188, -0.000390407
41, 0.00000, 190.573, -113.106, -193.598, -108.6, 2.60838, 222.073, 0.00210998, -0.00641618, -0.27769, 0.318134, 0.413697, 0.0811187, -0.136254, -0.39871, 0.000247893, -0.000542096
42, 0.00000, 190.02, -113.152, -193.403, -108.109, 2.91879, 221.673, 0.00234473, -0.00717276, -0.309363, 0.355458, 0.461695, 0.0898094, -0.15264, -0.444593, 0.000307516, -0.000674253
43, 0.00000, 189.804, -113.169, -193.326, -107.917, 3.04132, 221.514, 0.00243661, -0.00747174, -0.321835, 0.370212, 0.48064, 0.0932007, -0.159141, -0.462685, 0.000336367, -0.000727662
44, 0.00000, 189.678, -113.179, -193.282, -107.806, 3.11224, 221.422, 0.00248977, -0.00764495, -0.32905, 0.378762, 0.49161, 0.095154, -0.162916, -0.473158, 0.000356095, -0.000758878
45, 0.00000, 189.825, -113.168, -193.334, -107.936, 3.0293, 221.53, 0.00242764, -0.00744211, -0.320601, 0.368752, 0.478764, 0.0928648, -0.158499, -0.460896, 0.000335209, -0.00072103
46, 0.00000, 190.301, -113.129, -193.502, -108.359, 2.76071, 221.877, 0.00222563, -0.00678714, -0.293246, 0.336441, 0.437251, 0.0854009, -0.144281, -0.421236, 0.000275645, -0.000606384
47, 0.00000, 191.076, -113.064, -193.774, -109.045, 2.32659, 222.435, 0.00189365, -0.00572943, -0.248742, 0.284213, 0.369981, 0.0730684, -0.121439, -0.356851, 0.000200168, -0.000430317
48, 0.00000, 191.988, -112.985, -194.092, -109.851, 1.81512, 223.09, 0.00149503, -0.0044825, -0.195712, 0.222547, 0.290267, 0.0580674, -0.0946809, -0.280355, 0.000125659, -0.000259432
49, 0.00000, 192.741, -112.92, -194.354, -110.517, 1.3921, 223.631, 0.00115947, -0.00345098, -0.151376, 0.171453, 0.223982, 0.0452782, -0.0726821, -0.21658, 7.5939E-005, -0.000151606
50, 0.00000, 193.129, -112.886, -194.489, -110.861, 1.17294, 223.911, 0.000983594, -0.00291659, -0.128241, 0.144955, 0.189521, 0.0385176, -0.0613344, -0.183365, 5.47183E-005, -0.000107314
51, 0.00000, 193.311, -112.87, -194.552, -111.022, 1.07064, 224.041, 0.000901034, -0.00266716, -0.117404, 0.13258, 0.173408, 0.0353304, -0.0560494, -0.167821, 4.59221E-005, -8.9337E-005
52, 0.00000, 193.373, -112.864, -194.573, -111.077, 1.03542, 224.086, 0.000872519, -0.00258124, -0.113664, 0.128314, 0.16785, 0.0342276, -0.0542294, -0.162458, 4.3265E-005, -8.40297E-005
53, 0.00000, 193.295, -112.871, -194.546, -111.008, 1.0797, 224.03, 0.000908391, -0.00268929, -0.11837, 0.133682, 0.174844, 0.0356149, -0.0565202, -0.169207, 4.63539E-005, -9.00026E-005
54, 0.00000, 192.989, -112.898, -194.44, -110.737, 1.25197, 223.81, 0.00104719, -0.0031093, -0.136599, 0.154515, 0.201961, 0.0409669, -0.065424, -0.195361, 6.18624E-005, -0.000121648
55, 0.00000, 192.371, -112.952, -194.225, -110.19, 1.60005, 223.365, 0.00132515, -0.00395806, -0.17323, 0.196585, 0.256615, 0.0516106, -0.0834839, -0.247997, 9.88187E-005, -0.000198886
56, 0.00000, 192.03, -112.982, -194.106, -109.887, 1.79209, 223.119, 0.00147698, -0.00442633, -0.193316, 0.219773, 0.286676, 0.0573827, -0.093483, -0.276905, 0.000122614, -0.0002507
57, 0.00000, 192.461, -112.709, -194.043, -110.362, 1.37464, 223.305, 0.00225634, -0.00431699, -0.198231, 0.224441, 0.293241, 0.0593033, -0.0951285, -0.283536, 0.000118141, -0.000208726
58, 0.00000, 192.706, -112.53, -193.985, -110.642, 1.1191, 223.398, 0.00280077, -0.00430175, -0.204146, 0.230558, 0.301536, 0.0613625, -0.0975069, -0.291736, 0.000117596, -0.000184667
59, 0.00000, 193.025, -112.342, -193.951, -110.988, 0.820092, 223.543, 0.0033174, -0.00418298, -0.205757, 0.231701, 0.303384, 0.0621878, -0.0977382, -0.293739, 0.000111122, -0.000149906
60, 0.00000, 193.052, -112.34, -193.96, -111.011, 0.805312, 223.562, 0.00330424, -0.00414572, -0.204142, 0.229851, 0.300979, 0.0617166, -0.0969456, -0.291422, 0.000109193, -0.000146487
61, 0.00000, 192.866, -112.436, -193.968, -110.815, 0.969936, 223.47, 0.00305828, -0.00424265, -0.204947, 0.231125, 0.302454, 0.0617729, -0.0976213, -0.292731, 0.000114329, -0.000166728
62, 0.00000, 192.455, -112.631, -193.97, -110.388, 1.31968, 223.259, 0.00258637, -0.00448768, -0.208827, 0.2363, 0.308807, 0.0625357, -0.100108, -0.298621, 0.000127474, -0.000214549
63, 0.00000, 192.307, -112.643, -193.918, -110.258, 1.40227, 223.153, 0.00265365, -0.00469114, -0.217552, 0.246362, 0.321857, 0.065046, -0.104444, -0.311171, 0.000138957, -0.00023754
64, 0.00000, 191.25, -113.049, -193.834, -109.198, 2.22939, 222.559, 0.00181863, -0.00549251, -0.238722, 0.272511, 0.354881, 0.0702604, -0.116344, -0.34238, 0.000185091, -0.000392018
65, 0.00000, 190.573, -113.106, -193.598, -108.6, 2.60838, 222.073, 0.00210998, -0.00641618, -0.27769, 0.318134, 0.413697, 0.0811187, -0.136254, -0.39871, 0.000247893, -0.000542096
66, 0.00000, 190.02, -113.152, -193.403, -108.109, 2.91879, 221.673, 0.00234473, -0.00717276, -0.309363, 0.355458, 0.461695, 0.0898094, -0.15264, -0.444593, 0.000307516, -0.000674253
67, 0.00000, 189.804, -113.169, -193.326, -107.917, 3.04132, 221.514, 0.00243661, -0.00747174, -0.321835, 0.370212, 0.48064, 0.0932007, -0.159141, -0.462685, 0.000336367, -0.000727662
68, 0.00000, 189.678, -113.179, -193.282, -107.806, 3.11224, 221.422, 0.00248977, -0.00764495, -0.32905, 0.378762, 0.49161, 0.095154, -0.162916, -0.473158, 0.000356095, -0.000758878
69, 0.00000, 189.825, -113.168, -193.334, -107.936, 3.0293, 221.53, 0.00242764, -0.00744211, -0.320601, 0.368752, 0.478764, 0.0928648, -0.158499, -0.460896, 0.000335209, -0.00072103
70, 0.00000, 190.301, -113.129, -193.502, -108.359, 2.76071, 221.877, 0.00222563, -0.00678714, -0.293246, 0.336441, 0.437251, 0.0854009, -0.144281, -0.421236, 0.000275645, -0.000606384
71, 0.00000, 191.076, -113.064, -193.774, -109.045, 2.32659, 222.435, 0.00189365, -0.00572943, -0.248742, 0.284213, 0.369981, 0.0730684, -0.121439, -0.356851, 0.000200168, -0.000430317
72, 0.00000, 191.988, -112.985, -194.092, -109.851, 1.81512, 223.09, 0.00149503, -0.0044825, -0.195712, 0.222547, 0.290267, 0.0580674, -0.0946809, -0.280355, 0.000125659, -0.000259432
73, 0.00000, 192.556, -112.936, -194.29, -110.354, 1.49595, 223.498, 0.00124233, -0.00370421, -0.1623, 0.184004, 0.240284, 0.04845, -0.0780715, -0.232279, 8.70581E-005, -0.000174996
74, 0.00000, 192.983, -112.899, -194.438, -110.731, 1.25577, 223.805, 0.00105022, -0.00311855, -0.136998, 0.154972, 0.202555, 0.0410835, -0.0656192, -0.195932, 6.23426E-005, -0.000123021
75, 0.00000, 193.212, -112.878, -194.518, -110.935, 1.12617, 223.97, 0.000945885, -0.00280255, -0.12329, 0.139298, 0.182156, 0.0370629, -0.0589173, -0.176262, 5.05956E-005, -9.88337E-005
76, 0.00000, 193.318, -112.869, -194.554, -111.028, 1.06683, 224.046, 0.000897912, -0.00265779, -0.116994, 0.132111, 0.172797, 0.0352096, -0.0558489, -0.167232, 4.5954E-005, -8.95446E-005
77, 0.00000, 193.319, -112.869, -194.554, -111.029, 1.06622, 224.047, 0.000897463, -0.00265638, -0.116936, 0.132046, 0.172712, 0.0351924, -0.0558215, -0.16715, 4.55314E-005, -8.8497E-005
78, 0.00000, 193.216, -112.878, -194.519, -110.938, 1.12435, 223.973, 0.000944467, -0.00279818, -0.123104, 0.139086, 0.181882, 0.0370083, -0.0588276, -0.175997, 5.00283E-005, -9.73668E-005
79, 0.00000, 192.976, -112.899, -194.436, -110.726, 1.25926, 223.8, 0.00105305, -0.00312707, -0.137369, 0.155396, 0.203107, 0.041192, -0.0658011, -0.196465, 6.25644E-005, -0.000123127
80, 0.00000, 192.689, -112.847, -194.266, -110.502, 1.36331, 223.553, 0.00150299, -0.00368077, -0.164428, 0.186174, 0.243245, 0.0492068, -0.078903, -0.235217, 8.62118E-005, -0.000163575
81, 0.00000, 192.989, -112.346, -193.939, -110.956, 0.841331, 223.518, 0.00332864, -0.00423033, -0.207742, 0.233982, 0.306346, 0.0627627, -0.0987183, -0.29659, 0.000113673, -0.000154573
82, 0.00000, 193.187, -111.924, -193.64, -111.29, 0.428914, 223.446, 0.00491689, -0.00476584, -0.24818, 0.278363, 0.365059, 0.0755376, -0.117021, -0.353763, 0.000141804, -0.000137301
83, 0.00000, 194.008, -111.297, -193.42, -112.237, -0.447798, 223.744, 0.00683386, -0.00469979, -0.270087, 0.300347, 0.395251, 0.0834997, -0.125294, -0.383825, 0.000130064, -2.16772E-005
84, 0.00000, 193.87, -111.312, -193.375, -112.114, -0.368267, 223.646, 0.00689059, -0.00488959, -0.278176, 0.309565, 0.407264, 0.0858795, -0.129229, -0.395409, 0.000140974, -3.53601E-005
85, 0.00000, 193.305, -111.601, -193.396, -111.519, 0.128885, 223.365, 0.00616684, -0.0052209, -0.281622, 0.314906, 0.413489, 0.0861747, -0.132034, -0.400963, 0.000166909, -0.000117958
86, 0.00000, 192.018, -112.27, -193.456, -110.159, 1.26864, 222.734, 0.00444165, -0.00590573, -0.286262, 0.323656, 0.423094, 0.0857843, -0.13705, -0.409124, 0.000218219, -0.000316612
87, 0.00000, 190.698, -112.939, -193.5, -108.772, 2.42214, 222.08, 0.00270649, -0.00657411, -0.290807, 0.332532, 0.432742, 0.085254, -0.142197, -0.417248, 0.000262433, -0.000537269
88, 0.00000, 190.247, -113.134, -193.483, -108.312, 2.79075, 221.839, 0.00224853, -0.00686075, -0.296329, 0.340071, 0.44192, 0.0862492, -0.145873, -0.4257, 0.000281944, -0.000620269
89, 0.00000, 189.988, -113.155, -193.391, -108.08, 2.93735, 221.649, 0.00235869, -0.00721815, -0.311256, 0.357695, 0.464569, 0.090326, -0.153624, -0.447338, 0.000311649, -0.000682809
90, 0.00000, 189.843, -113.166, -193.34, -107.952, 3.01888, 221.544, 0.0024198, -0.00741693, -0.319551, 0.367508, 0.477168, 0.0925808, -0.157949, -0.459371, 0.000330887, -0.000717583
91, 0.00000, 189.873, -113.164, -193.351, -107.978, 3.00247, 221.565, 0.00240749, -0.00737664, -0.31787, 0.36552, 0.474616, 0.0921229, -0.157074, -0.456934, 0.000328087, -0.000709546
92, 0.00000, 189.894, -113.162, -193.358, -107.997, 2.99059, 221.58, 0.00239859, -0.00734771, -0.316663, 0.364092, 0.472783, 0.0917955, -0.156444, -0.455183, 0.000324919, -0.000704513
93, 0.00000, 190.103, -113.146, -193.432, -108.183, 2.87203, 221.734, 0.00230959, -0.00705859, -0.304597, 0.34983, 0.454464, 0.0885089, -0.150164, -0.437685, 0.00029774, -0.000653807
94, 0.00000, 190.514, -113.111, -193.577, -108.548, 2.64121, 222.031, 0.00213492, -0.00649608, -0.281042, 0.322076, 0.418771, 0.0820433, -0.137981, -0.403563, 0.000253172, -0.000556592
95, 0.00000, 191.103, -113.061, -193.783, -109.069, 2.31152, 222.454, 0.00188205, -0.00569271, -0.247191, 0.2824, 0.367642, 0.0726345, -0.120649, -0.35461, 0.000197872, -0.000424417
96, 0.00000, 191.815, -113, -194.032, -109.698, 1.91249, 222.965, 0.00157154, -0.00471991, -0.205858, 0.234297, 0.305481, 0.0609628, -0.0997622, -0.294972, 0.000138679, -0.000288154
97, 0.00000, 192.495, -112.941, -194.268, -110.299, 1.53063, 223.454, 0.00126993, -0.00378877, -0.165942, 0.188194, 0.245724, 0.0495044, -0.0798727, -0.237515, 9.09501E-005, -0.000183411
98, 0.00000, 192.94, -112.902, -194.423, -110.694, 1.27977, 223.774, 0.0010695, -0.00317709, -0.139533, 0.157875, 0.20633, 0.0418248, -0.066862, -0.199572, 6.4641E-005, -0.000127791
99, 0.00000, 193.196, -112.88, -194.512, -110.921, 1.13515, 223.959, 0.000953129, -0.00282444, -0.124241, 0.140384, 0.18357, 0.0373425, -0.0593812, -0.177626, 5.13747E-005, -0.00010043
100, 0.00000, 193.324, -112.868, -194.556, -111.034, 1.06331, 224.05, 0.00089511, -0.00264929, -0.116627, 0.131694, 0.172253, 0.0351014, -0.0556711, -0.166707, 4.53125E-005, -8.80887E-005
101, 0.00000, 193.363, -112.865, -194.57, -111.068, 1.0414, 224.078, 0.00087737, -0.00259584, -0.1143, 0.12904, 0.168796, 0.0344153, -0.054539, -0.16337, 4.36578E-005, -8.47821E-005
102, 0.00000, 193.299, -112.871, -194.548, -111.012, 1.07703, 224.033, 0.000906225, -0.00268277, -0.118086, 0.133358, 0.174421, 0.0355312, -0.0563817, -0.168799, 4.6188E-005, -8.96976E-005
103, 0.00000, 193.093, -112.889, -194.476, -110.829, 1.19369, 223.884, 0.00100032, -0.0029672, -0.130438, 0.147467, 0.192791, 0.0391623, -0.0624086, -0.186519, 5.64802E-005, -0.00011066
104, 0.00000, 192.9, -112.828, -194.339, -110.688, 1.24508, 223.704, 0.0014066, -0.00339081, -0.151894, 0.171794, 0.224556, 0.0455577, -0.0727352, -0.217214, 7.35093E-005, -0.000137855
105, 0.00000, 193.238, -112.326, -194.028, -111.175, 0.70253, 223.698, 0.00320433, -0.00387995, -0.192538, 0.21658, 0.28371, 0.0583198, -0.0912676, -0.274777, 9.57833E-005, -0.000123689
106, 0.00000, 193.383, -111.91, -193.711, -111.463, 0.320579, 223.589, 0.00481061, -0.00448427, -0.235917, 0.264345, 0.346816, 0.0719482, -0.111024, -0.336181, 0.000125261, -0.000111869
107, 0.00000, 195.838, -110.288, -193.282, -114.195, -2.11518, 224.619, 0.00942162, -0.00367596, -0.264847, 0.289859, 0.383927, 0.0842611, -0.119129, -0.374339, 4.84811E-005, 0.000218162
