hour, t(sec), P1 (kW), Q1 (kvar), P2 (kW), Q2 (kvar), P3 (kW), Q3 (kvar), P4 (kW), Q4 (kvar)
1, 0.00000, -0.239081, -0.0785822, -0.239082, -0.0785823, -0.239082, -0.0785824, -3.07178E-010, -1.85172E-013
2, 0.00000, -0.202603, -0.0665924, -0.202603, -0.0665923, -0.202603, -0.0665922, -2.19398E-010, -1.81353E-013
3, 0.00000, -0.185507, -0.0609732, -0.185507, -0.0609731, -0.185507, -0.0609731, -1.83469E-010, -1.67229E-013
4, 0.00000, -0.179607, -0.0590335, -0.179606, -0.0590334, -0.179606, -0.0590332, -1.71845E-010, -1.5548E-013
5, 0.00000, -0.187029, -0.0614738, -0.18703, -0.061474, -0.18703, -0.0614742, -1.8652E-010, -1.77351E-013
6, 0.00000, -0.215785, -0.070925, -0.215785, -0.0709251, -0.215785, -0.0709252, -2.49361E-010, -1.94403E-013
7, 0.00000, -0.273526, -0.0899035, -0.273527, -0.0899038, -0.273528, -0.089904, -4.04124E-010, -1.04803E-013
8, 0.00000, -0.271855, -0.100304, -0.271855, -0.100304, -0.271855, -0.100304, -4.10779E-010, 1.9562E-013
9, 0.00000, 0.029592, -0.102725, 0.0295925, -0.102725, 0.0295927, -0.102725, -1.48759E-012, -5.76673E-014
10, 0.00000, 0.158756, -0.105698, 0.158756, -0.105698, 0.158756, -0.105698, -6.04244E-011, -1.51207E-012
11, 0.00000, 0.69415, -0.106435, 0.694149, -0.106435, 0.694149, -0.106437, -1.68991E-009, -1.23448E-011
12, 0.00000, 0.722163, -0.10561, 0.722163, -0.10561, 0.722164, -0.10561, -1.83431E-009, -1.27918E-011
13, 0.00000, 0.517022, -0.106071, 0.517023, -0.106071, 0.517023, -0.106071, -9.14551E-010, -8.88646E-012
14, 0.00000, 0.0401592, -0.108158, 0.0401585, -0.108159, 0.0401582, -0.108159, -1.33047E-012, -1.31148E-013
15, 0.00000, -0.210938, -0.112665, -0.210938, -0.112665, -0.210938, -0.112665, -2.74325E-010, 6.83488E-013
16, 0.00000, -0.37664, -0.123795, -0.37664, -0.123795, -0.37664, -0.123796, -7.78198E-010, 1.40393E-012
17, 0.00000, -0.437917, -0.143936, -0.437917, -0.143936, -0.437917, -0.143936, -1.0618E-009, 3.9725E-012
18, 0.00000, -0.48768, -0.160293, -0.48768, -0.160293, -0.48768, -0.160293, -1.33888E-009, 3.88914E-012
19, 0.00000, -0.507264, -0.166729, -0.507264, -0.166729, -0.507263, -0.166729, -1.44589E-009, 1.64667E-012
20, 0.00000, -0.518591, -0.170452, -0.518591, -0.170452, -0.51859, -0.170452, -1.50442E-009, -5.14476E-013
21, 0.00000, -0.505329, -0.166094, -0.505328, -0.166094, -0.505329, -0.166094, -1.43507E-009, 1.45343E-012
22, 0.00000, -0.462366, -0.151973, -0.462366, -0.151974, -0.462366, -0.151974, -1.19083E-009, 4.77647E-012
23, 0.00000, -0.392406, -0.128979, -0.392404, -0.128979, -0.392402, -0.128978, -8.46742E-010, 2.07676E-012
24, 0.00000, -0.308945, -0.101546, -0.308943, -0.101545, -0.308942, -0.101545, -5.18277E-010, 2.44331E-013
25, 0.00000, -0.239086, -0.0785837, -0.239085, -0.0785835, -0.239084, -0.0785832, -3.07179E-010, -1.6199E-013
26, 0.00000, -0.202603, -0.0665924, -0.202603, -0.0665923, -0.202603, -0.0665922, -2.19398E-010, -1.81361E-013
27, 0.00000, -0.185507, -0.0609732, -0.185507, -0.0609731, -0.185507, -0.0609731, -1.83469E-010, -1.67229E-013
28, 0.00000, -0.179607, -0.0590335, -0.179606, -0.0590334, -0.179606, -0.0590332, -1.71845E-010, -1.5548E-013
29, 0.00000, -0.187029, -0.0614738, -0.18703, -0.061474, -0.18703, -0.0614742, -1.8652E-010, -1.77351E-013
30, 0.00000, -0.215785, -0.070925, -0.215785, -0.0709251, -0.215785, -0.0709252, -2.49361E-010, -1.94403E-013
31, 0.00000, -0.273526, -0.0899035, -0.273527, -0.0899038, -0.273528, -0.089904, -4.04124E-010, -1.04803E-013
32, 0.00000, -0.272302, -0.100304, -0.272302, -0.100304, -0.272302, -0.100304, -4.11982E-010, 1.94493E-013
33, 0.00000, -0.0785698, -0.102725, -0.0785691, -0.102725, -0.0785688, -0.102725, -5.85092E-011, 4.50889E-013
34, 0.00000, 0.0838806, -0.105698, 0.0838808, -0.105698, 0.0838808, -0.105698, -9.60606E-012, -5.58502E-013
35, 0.00000, 0.317787, -0.106444, 0.317787, -0.106444, 0.317787, -0.106444, -3.16994E-010, -4.43981E-012
36, 0.00000, 0.353028, -0.105609, 0.353028, -0.105608, 0.353028, -0.105608, -4.01376E-010, -5.167E-012
37, 0.00000, 0.214258, -0.106069, 0.214258, -0.10607, 0.214258, -0.106069, -1.27226E-010, -2.40447E-012
38, 0.00000, -0.0298739, -0.108158, -0.0298745, -0.108159, -0.0298748, -0.108159, -2.18332E-011, 3.44139E-013
39, 0.00000, -0.277661, -0.112665, -0.277661, -0.112665, -0.277661, -0.112665, -4.40241E-010, 6.11691E-013
40, 0.00000, -0.376633, -0.123792, -0.376635, -0.123793, -0.376636, -0.123793, -7.78172E-010, 1.30179E-012
41, 0.00000, -0.437917, -0.143936, -0.437917, -0.143936, -0.437917, -0.143936, -1.0618E-009, 3.97246E-012
42, 0.00000, -0.48768, -0.160293, -0.48768, -0.160293, -0.48768, -0.160293, -1.33888E-009, 3.88914E-012
43, 0.00000, -0.507264, -0.166729, -0.507264, -0.166729, -0.507263, -0.166729, -1.44589E-009, 1.64667E-012
44, 0.00000, -0.518591, -0.170452, -0.518591, -0.170452, -0.51859, -0.170452, -1.50442E-009, -5.14476E-013
45, 0.00000, -0.505329, -0.166094, -0.505328, -0.166094, -0.505329, -0.166094, -1.43507E-009, 1.45343E-012
46, 0.00000, -0.462366, -0.151973, -0.462366, -0.151974, -0.462366, -0.151974, -1.19083E-009, 4.77647E-012
47, 0.00000, -0.392406, -0.128979, -0.392404, -0.128979, -0.392402, -0.128978, -8.46742E-010, 2.07676E-012
48, 0.00000, -0.308945, -0.101546, -0.308943, -0.101545, -0.308942, -0.101545, -5.18277E-010, 2.44331E-013
49, 0.00000, -0.239086, -0.0785837, -0.239085, -0.0785835, -0.239084, -0.0785832, -3.07179E-010, -1.6199E-013
50, 0.00000, -0.202603, -0.0665924, -0.202603, -0.0665923, -0.202603, -0.0665922, -2.19398E-010, -1.81361E-013
51, 0.00000, -0.185507, -0.0609732, -0.185507, -0.0609731, -0.185507, -0.0609731, -1.83469E-010, -1.67229E-013
52, 0.00000, -0.179607, -0.0590335, -0.179606, -0.0590334, -0.179606, -0.0590332, -1.71845E-010, -1.5548E-013
53, 0.00000, -0.187029, -0.0614738, -0.18703, -0.061474, -0.18703, -0.0614742, -1.8652E-010, -1.77351E-013
54, 0.00000, -0.215785, -0.070925, -0.215785, -0.0709251, -0.215785, -0.0709252, -2.49361E-010, -1.94403E-013
55, 0.00000, -0.273526, -0.0899035, -0.273527, -0.0899038, -0.273528, -0.089904, -4.04124E-010, -1.04803E-013
56, 0.00000, -0.305167, -0.100303, -0.305168, -0.100304, -0.305168, -0.100304, -5.0541E-010, 1.18137E-013
57, 0.00000, -0.215216, -0.102726, -0.215215, -0.102725, -0.215215, -0.102725, -2.75044E-010, 4.08779E-013
58, 0.00000, -0.158529, -0.105698, -0.158528, -0.105698, -0.158528, -0.105698, -1.67288E-010, 5.53095E-013
59, 0.00000, -0.094128, -0.106445, -0.0941277, -0.106445, -0.0941276, -0.106445, -7.65985E-011, 5.35107E-013
60, 0.00000, -0.0916634, -0.105612, -0.0916632, -0.105612, -0.0916631, -0.105612, -7.34624E-011, 5.1929E-013
61, 0.00000, -0.126453, -0.106069, -0.126453, -0.106069, -0.126454, -0.106069, -1.1763E-010, 5.61162E-013
62, 0.00000, -0.19903, -0.108158, -0.19903, -0.108159, -0.199031, -0.108159, -2.45221E-010, 5.60251E-013
63, 0.00000, -0.212714, -0.112665, -0.212714, -0.112665, -0.212715, -0.112665, -2.78216E-010, 6.81077E-013
64, 0.00000, -0.37664, -0.123795, -0.37664, -0.123795, -0.37664, -0.123796, -7.78198E-010, 1.40416E-012
65, 0.00000, -0.437917, -0.143936, -0.437917, -0.143936, -0.437917, -0.143936, -1.0618E-009, 3.9725E-012
66, 0.00000, -0.48768, -0.160293, -0.48768, -0.160293, -0.48768, -0.160293, -1.33888E-009, 3.88914E-012
67, 0.00000, -0.507264, -0.166729, -0.507264, -0.166729, -0.507263, -0.166729, -1.44589E-009, 1.64667E-012
68, 0.00000, -0.518591, -0.170452, -0.518591, -0.170452, -0.51859, -0.170452, -1.50442E-009, -5.14476E-013
69, 0.00000, -0.505329, -0.166094, -0.505328, -0.166094, -0.505329, -0.166094, -1.43507E-009, 1.45343E-012
70, 0.00000, -0.462366, -0.151973, -0.462366, -0.151974, -0.462366, -0.151974, -1.19083E-009, 4.77647E-012
71, 0.00000, -0.392406, -0.128979, -0.392404, -0.128979, -0.392402, -0.128978, -8.46742E-010, 2.07676E-012
72, 0.00000, -0.308945, -0.101546, -0.308943, -0.101545, -0.308942, -0.101545, -5.18277E-010, 2.44331E-013
73, 0.00000, -0.256305, -0.0842435, -0.256304, -0.0842433, -0.256304, -0.084243, -3.53924E-010, -1.26601E-013
74, 0.00000, -0.216414, -0.0711319, -0.216414, -0.0711318, -0.216414, -0.0711317, -2.50842E-010, -1.85183E-013
75, 0.00000, -0.194792, -0.0640251, -0.194792, -0.0640251, -0.194792, -0.064025, -2.02573E-010, -1.76647E-013
76, 0.00000, -0.184861, -0.0607606, -0.18486, -0.0607603, -0.18486, -0.06076, -1.82196E-010, -1.57641E-013
77, 0.00000, -0.184768, -0.0607303, -0.184768, -0.0607303, -0.184768, -0.0607303, -1.8199E-010, -1.67101E-013
78, 0.00000, -0.194497, -0.0639285, -0.194498, -0.0639288, -0.194499, -0.063929, -2.01932E-010, -1.89163E-013
79, 0.00000, -0.216998, -0.0713239, -0.216998, -0.071324, -0.216999, -0.071324, -2.52219E-010, -1.93823E-013
80, 0.00000, -0.227392, -0.0853116, -0.227393, -0.0853117, -0.227393, -0.0853118, -2.86677E-010, -2.93275E-014
81, 0.00000, -0.0978105, -0.10747, -0.0978101, -0.10747, -0.0978099, -0.107469, -8.13109E-011, 5.56461E-013
82, 0.00000, 0.0080749, -0.128066, 0.00807507, -0.128066, 0.00807509, -0.128066, -8.2081E-012, 2.18931E-013
83, 0.00000, 0.207901, -0.138954, 0.207901, -0.138954, 0.207901, -0.138954, -1.0355E-010, -3.42187E-012
84, 0.00000, 0.193984, -0.143103, 0.193983, -0.143104, 0.193983, -0.143104, -8.48443E-011, -3.16622E-012
85, 0.00000, 0.0873023, -0.145036, 0.0873021, -0.145036, 0.0873021, -0.145036, -6.94085E-012, -8.91513E-013
86, 0.00000, -0.1547, -0.147823, -0.1547, -0.147823, -0.1547, -0.147823, -1.89771E-010, 1.84951E-012
87, 0.00000, -0.393829, -0.150588, -0.39383, -0.150589, -0.39383, -0.150589, -8.87405E-010, 3.83855E-012
88, 0.00000, -0.467203, -0.15356, -0.467204, -0.153561, -0.467205, -0.153561, -1.21709E-009, 4.79642E-012
89, 0.00000, -0.490653, -0.161269, -0.490653, -0.161269, -0.490653, -0.161269, -1.35623E-009, 3.67215E-012
90, 0.00000, -0.503678, -0.16555, -0.503678, -0.165551, -0.503678, -0.16555, -1.42652E-009, 2.12428E-012
91, 0.00000, -0.501043, -0.164686, -0.501042, -0.164686, -0.501042, -0.164686, -1.41192E-009, 2.18919E-012
92, 0.00000, -0.499148, -0.164063, -0.499147, -0.164063, -0.499147, -0.164063, -1.40181E-009, 2.50273E-012
93, 0.00000, -0.480198, -0.157834, -0.480197, -0.157834, -0.480198, -0.157834, -1.29357E-009, 4.33924E-012
94, 0.00000, -0.443189, -0.14567, -0.443188, -0.14567, -0.443188, -0.14567, -1.08872E-009, 4.3756E-012
95, 0.00000, -0.389965, -0.128176, -0.389963, -0.128176, -0.389962, -0.128175, -8.35866E-010, 1.9641E-012
96, 0.00000, -0.32492, -0.106797, -0.324919, -0.106796, -0.324918, -0.106796, -5.74636E-010, 4.31934E-013
97, 0.00000, -0.262045, -0.0861301, -0.262044, -0.0861298, -0.262043, -0.0861295, -3.70269E-010, -1.03154E-013
98, 0.00000, -0.220412, -0.072446, -0.220412, -0.0724459, -0.220412, -0.0724458, -2.60349E-010, -1.84391E-013
99, 0.00000, -0.196293, -0.0645182, -0.196292, -0.0645181, -0.196292, -0.0645181, -2.05751E-010, -1.77787E-013
100, 0.00000, -0.184281, -0.0605702, -0.184281, -0.0605701, -0.184281, -0.0605701, -1.81019E-010, -1.66026E-013
101, 0.00000, -0.18061, -0.0593635, -0.18061, -0.0593634, -0.18061, -0.0593633, -1.73792E-010, -1.58683E-013
102, 0.00000, -0.186581, -0.0613264, -0.186581, -0.0613266, -0.186582, -0.0613267, -1.85618E-010, -1.75321E-013
103, 0.00000, -0.206069, -0.0677315, -0.206069, -0.0677315, -0.206069, -0.0677316, -2.27084E-010, -1.88981E-013
104, 0.00000, -0.207755, -0.078821, -0.207755, -0.078821, -0.207756, -0.0788211, -2.39278E-010, -6.31252E-014
105, 0.00000, -0.0746648, -0.0996247, -0.0746645, -0.0996245, -0.0746643, -0.0996245, -5.35432E-011, 4.01161E-013
106, 0.00000, 0.0261373, -0.121759, 0.0261374, -0.121759, 0.0261374, -0.121759, -3.09238E-012, 8.56815E-015
107, 0.00000, 0.576359, -0.135726, 0.576359, -0.135725, 0.576359, -0.135726, -1.11024E-009, -1.52949E-011
108, 0.00000, 1.16135, -0.141218, 1.16135, -0.141219, 1.16135, -0.141218, -4.6854E-009, -3.06743E-011
109, 0.00000, 1.11619, -0.144722, 1.11619, -0.144722, 1.11619, -0.144722, -4.321E-009, -3.29173E-011
110, 0.00000, 0.0130652, -0.147061, 0.013065, -0.147061, 0.0130649, -0.147061, -9.33599E-012, 3.03147E-013
111, 0.00000, -0.283568, -0.146303, -0.283569, -0.146303, -0.283569, -0.146303, -4.96086E-010, 2.38642E-012
112, 0.00000, -0.441297, -0.145047, -0.441298, -0.145047, -0.441298, -0.145048, -1.07883E-009, 4.15371E-012
113, 0.00000, -0.459683, -0.15109, -0.459684, -0.15109, -0.459684, -0.15109, -1.17525E-009, 4.90455E-012
114, 0.00000, -0.484152, -0.159132, -0.484152, -0.159132, -0.484152, -0.159132, -1.3168E-009, 4.18511E-012
115, 0.00000, -0.496076, -0.163052, -0.496076, -0.163052, -0.496076, -0.163052, -1.38568E-009, 3.14937E-012
116, 0.00000, -0.511003, -0.167958, -0.511004, -0.167958, -0.511003, -0.167958, -1.46568E-009, 9.42367E-013
117, 0.00000, -0.499374, -0.164137, -0.499373, -0.164137, -0.499374, -0.164137, -1.40302E-009, 2.41033E-012
118, 0.00000, -0.453812, -0.149162, -0.453812, -0.149163, -0.453812, -0.149162, -1.1439E-009, 4.84088E-012
119, 0.00000, -0.382271, -0.125646, -0.382271, -0.125646, -0.38227, -0.125646, -8.02285E-010, 1.61735E-012
120, 0.00000, -0.299208, -0.0983453, -0.299206, -0.0983449, -0.299205, -0.0983443, -4.85416E-010, 1.43873E-013
121, 0.00000, -0.239085, -0.0785835, -0.239084, -0.0785833, -0.239084, -0.0785831, -3.07179E-010, -1.64349E-013
122, 0.00000, -0.202603, -0.0665924, -0.202603, -0.0665923, -0.202603, -0.0665922, -2.19398E-010, -1.8136E-013
123, 0.00000, -0.185507, -0.0609732, -0.185507, -0.0609731, -0.185507, -0.0609731, -1.83469E-010, -1.67229E-013
124, 0.00000, -0.179607, -0.0590335, -0.179606, -0.0590334, -0.179606, -0.0590332, -1.71845E-010, -1.5548E-013
125, 0.00000, -0.187029, -0.0614738, -0.18703, -0.061474, -0.18703, -0.0614742, -1.8652E-010, -1.77351E-013
126, 0.00000, -0.215785, -0.070925, -0.215785, -0.0709251, -0.215785, -0.0709252, -2.49361E-010, -1.94403E-013
127, 0.00000, -0.273526, -0.0899035, -0.273527, -0.0899038, -0.273528, -0.089904, -4.04124E-010, -1.04803E-013
128, 0.00000, -0.272847, -0.100304, -0.272848, -0.100304, -0.272848, -0.100304, -4.13452E-010, 1.93119E-013
129, 0.00000, -0.082238, -0.102725, -0.0822373, -0.102725, -0.0822369, -0.102725, -6.21937E-011, 4.58314E-013
130, 0.00000, 0.0780782, -0.105698, 0.0780784, -0.105698, 0.0780784, -0.105698, -7.58724E-012, -4.96844E-013
131, 0.00000, 1.02218, -0.106443, 1.02218, -0.106444, 1.02218, -0.106444, -3.69863E-009, -1.27698E-011
132, 0.00000, 1.27024, -0.10561, 1.27024, -0.105611, 1.27024, -0.105611, -5.68078E-009, -2.01431E-012
133, 0.00000, 1.41745, -0.106047, 1.41745, -0.106049, 1.41745, -0.106051, -7.03133E-009, 1.101E-011
134, 0.00000, 0.198548, -0.10816, 0.198548, -0.108162, 0.198548, -0.10816, -1.04912E-010, -2.18185E-012
135, 0.00000, -0.114363, -0.112665, -0.114363, -0.112665, -0.114363, -0.112665, -1.04604E-010, 6.78776E-013
136, 0.00000, -0.376639, -0.123795, -0.37664, -0.123795, -0.37664, -0.123795, -7.78207E-010, 1.39167E-012
137, 0.00000, -0.437917, -0.143936, -0.437917, -0.143936, -0.437917, -0.143936, -1.0618E-009, 3.9725E-012
138, 0.00000, -0.48768, -0.160293, -0.48768, -0.160293, -0.48768, -0.160293, -1.33888E-009, 3.88914E-012
139, 0.00000, -0.507264, -0.166729, -0.507264, -0.166729, -0.507263, -0.166729, -1.44589E-009, 1.64667E-012
140, 0.00000, -0.518591, -0.170452, -0.518591, -0.170452, -0.51859, -0.170452, -1.50442E-009, -5.14476E-013
141, 0.00000, -0.505329, -0.166094, -0.505328, -0.166094, -0.505329, -0.166094, -1.43507E-009, 1.45343E-012
142, 0.00000, -0.462366, -0.151973, -0.462366, -0.151974, -0.462366, -0.151974, -1.19083E-009, 4.77647E-012
143, 0.00000, -0.392406, -0.128979, -0.392404, -0.128979, -0.392402, -0.128978, -8.46742E-010, 2.07676E-012
144, 0.00000, -0.308945, -0.101546, -0.308943, -0.101545, -0.308942, -0.101545, -5.18277E-010, 2.44331E-013
145, 0.00000, -0.239086, -0.0785837, -0.239085, -0.0785835, -0.239084, -0.0785832, -3.07179E-010, -1.6199E-013
146, 0.00000, -0.202603, -0.0665924, -0.202603, -0.0665923, -0.202603, -0.0665922, -2.19398E-010, -1.81361E-013
147, 0.00000, -0.185507, -0.0609732, -0.185507, -0.0609731, -0.185507, -0.0609731, -1.83469E-010, -1.67229E-013
148, 0.00000, -0.179607, -0.0590335, -0.179606, -0.0590334, -0.179606, -0.0590332, -1.71845E-010, -1.5548E-013
149, 0.00000, -0.187029, -0.0614738, -0.18703, -0.061474, -0.18703, -0.0614742, -1.8652E-010, -1.77351E-013
150, 0.00000, -0.215785, -0.070925, -0.215785, -0.0709251, -0.215785, -0.0709252, -2.49361E-010, -1.94403E-013
151, 0.00000, -0.273526, -0.0899035, -0.273527, -0.0899038, -0.273528, -0.089904, -4.04124E-010, -1.04803E-013
152, 0.00000, -0.240288, -0.100305, -0.240288, -0.100304, -0.240288, -0.100304, -3.30397E-010, 2.76809E-013
153, 0.00000, 0.0194344, -0.102725, 0.0194349, -0.102725, 0.0194351, -0.102725, -2.63417E-012, 1.577E-014
154, 0.00000, 0.0779565, -0.105698, 0.0779566, -0.105698, 0.0779566, -0.105698, -7.55236E-012, -4.93844E-013
155, 0.00000, 0.310569, -0.106444, 0.310569, -0.106444, 0.310569, -0.106444, -3.01031E-010, -4.28769E-012
156, 0.00000, 0.346864, -0.105608, 0.346864, -0.105607, 0.346864, -0.105608, -3.86031E-010, -5.03341E-012
157, 0.00000, 0.210166, -0.106069, 0.210166, -0.10607, 0.210166, -0.106069, -1.2145E-010, -2.33411E-012
158, 0.00000, -0.0322403, -0.108158, -0.032241, -0.108159, -0.0322413, -0.108159, -2.32512E-011, 3.55694E-013
159, 0.00000, -0.278179, -0.112665, -0.27818, -0.112665, -0.27818, -0.112665, -4.41688E-010, 6.11348E-013
160, 0.00000, -0.376633, -0.123792, -0.376635, -0.123793, -0.376636, -0.123793, -7.78172E-010, 1.30231E-012
161, 0.00000, -0.437917, -0.143936, -0.437917, -0.143936, -0.437917, -0.143936, -1.0618E-009, 3.97246E-012
162, 0.00000, -0.48768, -0.160293, -0.48768, -0.160293, -0.48768, -0.160293, -1.33888E-009, 3.88914E-012
163, 0.00000, -0.507264, -0.166729, -0.507264, -0.166729, -0.507263, -0.166729, -1.44589E-009, 1.64667E-012
164, 0.00000, -0.518591, -0.170452, -0.518591, -0.170452, -0.51859, -0.170452, -1.50442E-009, -5.14476E-013
165, 0.00000, -0.505329, -0.166094, -0.505328, -0.166094, -0.505329, -0.166094, -1.43507E-009, 1.45343E-012
166, 0.00000, -0.462366, -0.151973, -0.462366, -0.151974, -0.462366, -0.151974, -1.19083E-009, 4.77647E-012
167, 0.00000, -0.392406, -0.128979, -0.392404, -0.128979, -0.392402, -0.128978, -8.46742E-010, 2.07676E-012
168, 0.00000, -0.308945, -0.101546, -0.308943, -0.101545, -0.308942, -0.101545, -5.18277E-010, 2.44331E-013
169, 0.00000, -0.239086, -0.0785837, -0.239085, -0.0785835, -0.239084, -0.0785832, -3.07179E-010, -1.6199E-013
170, 0.00000, -0.202603, -0.0665924, -0.202603, -0.0665923, -0.202603, -0.0665922, -2.19398E-010, -1.81361E-013
171, 0.00000, -0.185507, -0.0609732, -0.185507, -0.0609731, -0.185507, -0.0609731, -1.83469E-010, -1.67229E-013
172, 0.00000, -0.179607, -0.0590335, -0.179606, -0.0590334, -0.179606, -0.0590332, -1.71845E-010, -1.5548E-013
173, 0.00000, -0.187029, -0.0614738, -0.18703, -0.061474, -0.18703, -0.0614742, -1.8652E-010, -1.77351E-013
174, 0.00000, -0.215785, -0.070925, -0.215785, -0.0709251, -0.215785, -0.0709252, -2.49361E-010, -1.94403E-013
175, 0.00000, -0.273526, -0.0899035, -0.273527, -0.0899038, -0.273528, -0.089904, -4.04124E-010, -1.04803E-013
176, 0.00000, -0.272902, -0.100304, -0.272902, -0.100304, -0.272902, -0.100304, -4.136E-010, 1.92982E-013
177, 0.00000, -0.0158429, -0.102725, -0.0158422, -0.102725, -0.015842, -0.102725, -1.33507E-011, 2.27113E-013
178, 0.00000, 0.176084, -0.105698, 0.176084, -0.105698, 0.176084, -0.105698, -7.8672E-011, -1.77494E-012
179, 0.00000, 0.669775, -0.106437, 0.669774, -0.106437, 0.669775, -0.106438, -1.56989E-009, -1.19753E-011
180, 0.00000, 0.344487, -0.105612, 0.344487, -0.105613, 0.344487, -0.105612, -3.80247E-010, -4.9372E-012
181, 0.00000, 0.208887, -0.106069, 0.208887, -0.10607, 0.208887, -0.106069, -1.19673E-010, -2.31228E-012
182, 0.00000, -0.0325066, -0.108158, -0.0325073, -0.108159, -0.0325076, -0.108159, -2.34138E-011, 3.56971E-013
183, 0.00000, -0.212828, -0.112663, -0.21283, -0.112664, -0.212831, -0.112664, -2.78466E-010, 6.54944E-013
184, 0.00000, -0.37664, -0.123795, -0.37664, -0.123795, -0.37664, -0.123796, -7.78198E-010, 1.40416E-012
