hour, t(sec), P1 (kW), Q1 (kvar), P2 (kW), Q2 (kvar), P3 (kW), Q3 (kvar), P4 (kW), Q4 (kvar)
1, 0.00000, -0.156389, -0.0514026, -0.156391, -0.0514031, -0.156391, -0.0514033, -1.71431E-010, -2.16197E-011
2, 0.00000, -0.132533, -0.0435614, -0.132531, -0.0435609, -0.132531, -0.0435608, -1.20488E-010, -1.28811E-011
3, 0.00000, -0.121348, -0.0398851, -0.121347, -0.0398849, -0.121347, -0.0398849, -9.99362E-011, -9.70351E-012
4, 0.00000, -0.117493, -0.0386181, -0.117492, -0.0386175, -0.117491, -0.0386173, -9.33956E-011, -8.83186E-012
5, 0.00000, -0.122334, -0.0402093, -0.122336, -0.0402102, -0.122337, -0.0402104, -1.01558E-010, -9.7881E-012
6, 0.00000, -0.14115, -0.0463938, -0.141151, -0.0463942, -0.141152, -0.0463943, -1.37669E-010, -1.55652E-011
7, 0.00000, -0.178916, -0.0588068, -0.17892, -0.0588079, -0.178921, -0.0588085, -2.29144E-010, -3.33247E-011
8, 0.00000, -0.199621, -0.0656121, -0.199621, -0.0656123, -0.199621, -0.0656124, -2.87328E-010, -4.3894E-011
9, 0.00000, -0.204449, -0.0671987, -0.204444, -0.0671977, -0.204443, -0.0671967, -2.69474E-010, -1.58295E-011
10, 0.00000, -0.210358, -0.0691413, -0.210357, -0.0691411, -0.210357, -0.0691409, -2.72495E-010, -6.72108E-012
11, 0.00000, -0.211857, -0.0696366, -0.21185, -0.0696343, -0.21185, -0.0696337, -2.30618E-010, 2.06177E-011
12, 0.00000, -0.210154, -0.0690745, -0.210158, -0.0690759, -0.21016, -0.0690765, -2.24289E-010, 2.18886E-011
13, 0.00000, -0.211094, -0.0693828, -0.211095, -0.0693831, -0.211095, -0.0693832, -2.42325E-010, 1.39297E-011
14, 0.00000, -0.21524, -0.0707467, -0.215247, -0.070748, -0.215249, -0.0707495, -2.97916E-010, -1.67933E-011
15, 0.00000, -0.224221, -0.0736977, -0.224222, -0.0736981, -0.224222, -0.0736983, -3.56945E-010, -4.96904E-011
16, 0.00000, -0.246371, -0.080978, -0.246373, -0.0809786, -0.246373, -0.080979, -4.63853E-010, -9.67885E-011
17, 0.00000, -0.286455, -0.094153, -0.286456, -0.0941535, -0.286457, -0.0941538, -6.523E-010, -1.62135E-010
18, 0.00000, -0.319007, -0.104852, -0.319008, -0.104853, -0.319008, -0.104853, -8.35403E-010, -2.35568E-010
19, 0.00000, -0.33181, -0.109061, -0.331815, -0.109062, -0.331814, -0.109062, -9.15273E-010, -2.70217E-010
20, 0.00000, -0.339223, -0.111497, -0.339226, -0.111498, -0.339225, -0.111498, -9.63992E-010, -2.92715E-010
21, 0.00000, -0.330559, -0.10865, -0.330556, -0.108649, -0.330557, -0.108649, -9.07787E-010, -2.67801E-010
22, 0.00000, -0.302466, -0.0994158, -0.302458, -0.0994145, -0.302458, -0.099413, -7.39411E-010, -1.96918E-010
23, 0.00000, -0.256705, -0.0843752, -0.256695, -0.0843729, -0.256693, -0.0843706, -5.09371E-010, -1.12605E-010
24, 0.00000, -0.202105, -0.0664289, -0.202098, -0.066427, -0.202096, -0.0664256, -2.99491E-010, -5.074E-011
25, 0.00000, -0.156401, -0.0514066, -0.156398, -0.0514055, -0.156397, -0.051405, -1.71675E-010, -2.19959E-011
26, 0.00000, -0.132533, -0.0435614, -0.132531, -0.0435609, -0.132531, -0.0435608, -1.20488E-010, -1.28814E-011
27, 0.00000, -0.121348, -0.0398851, -0.121347, -0.0398849, -0.121347, -0.0398849, -9.99362E-011, -9.70351E-012
28, 0.00000, -0.117493, -0.0386181, -0.117492, -0.0386175, -0.117491, -0.0386173, -9.33956E-011, -8.83186E-012
29, 0.00000, -0.122334, -0.0402093, -0.122336, -0.0402102, -0.122337, -0.0402104, -1.01558E-010, -9.7881E-012
30, 0.00000, -0.14115, -0.0463938, -0.141151, -0.0463942, -0.141152, -0.0463943, -1.37669E-010, -1.55652E-011
31, 0.00000, -0.178916, -0.0588068, -0.17892, -0.0588079, -0.178921, -0.0588085, -2.29144E-010, -3.33247E-011
32, 0.00000, -0.199621, -0.0656121, -0.199621, -0.0656123, -0.199621, -0.0656124, -2.87377E-010, -4.39465E-011
33, 0.00000, -0.20445, -0.0671993, -0.204445, -0.0671981, -0.204444, -0.0671971, -2.80548E-010, -2.54942E-011
34, 0.00000, -0.21036, -0.0691419, -0.210358, -0.0691415, -0.210358, -0.0691411, -2.80027E-010, -1.25369E-011
35, 0.00000, -0.211843, -0.0696296, -0.211842, -0.0696295, -0.211842, -0.0696293, -2.61364E-010, 3.57734E-012
36, 0.00000, -0.21018, -0.0690828, -0.210179, -0.0690831, -0.210179, -0.0690828, -2.54018E-010, 5.67768E-012
37, 0.00000, -0.211094, -0.0693834, -0.211095, -0.0693835, -0.211095, -0.0693837, -2.68992E-010, -2.79611E-012
38, 0.00000, -0.215243, -0.0707474, -0.215249, -0.0707486, -0.21525, -0.0707496, -3.05863E-010, -2.358E-011
39, 0.00000, -0.22422, -0.0736975, -0.224222, -0.073698, -0.224222, -0.0736983, -3.66398E-010, -5.97002E-011
40, 0.00000, -0.24635, -0.0809709, -0.24636, -0.0809735, -0.246362, -0.0809757, -4.63334E-010, -9.59173E-011
41, 0.00000, -0.286455, -0.094153, -0.286456, -0.0941535, -0.286457, -0.0941538, -6.523E-010, -1.62135E-010
42, 0.00000, -0.319007, -0.104852, -0.319008, -0.104853, -0.319008, -0.104853, -8.35403E-010, -2.35568E-010
43, 0.00000, -0.33181, -0.109061, -0.331815, -0.109062, -0.331814, -0.109062, -9.15273E-010, -2.70217E-010
44, 0.00000, -0.339223, -0.111497, -0.339226, -0.111498, -0.339225, -0.111498, -9.63992E-010, -2.92715E-010
45, 0.00000, -0.330559, -0.10865, -0.330556, -0.108649, -0.330557, -0.108649, -9.07787E-010, -2.67801E-010
46, 0.00000, -0.302466, -0.0994158, -0.302458, -0.0994145, -0.302458, -0.099413, -7.39411E-010, -1.96918E-010
47, 0.00000, -0.256705, -0.0843752, -0.256695, -0.0843729, -0.256693, -0.0843706, -5.09371E-010, -1.12605E-010
48, 0.00000, -0.202105, -0.0664289, -0.202098, -0.066427, -0.202096, -0.0664256, -2.99491E-010, -5.074E-011
49, 0.00000, -0.156401, -0.0514066, -0.156398, -0.0514055, -0.156397, -0.051405, -1.71675E-010, -2.19959E-011
50, 0.00000, -0.132533, -0.0435614, -0.132531, -0.0435609, -0.132531, -0.0435608, -1.20488E-010, -1.28814E-011
51, 0.00000, -0.121348, -0.0398851, -0.121347, -0.0398849, -0.121347, -0.0398849, -9.99362E-011, -9.70351E-012
52, 0.00000, -0.117493, -0.0386181, -0.117492, -0.0386175, -0.117491, -0.0386173, -9.33956E-011, -8.83186E-012
53, 0.00000, -0.122334, -0.0402093, -0.122336, -0.0402102, -0.122337, -0.0402104, -1.01558E-010, -9.7881E-012
54, 0.00000, -0.14115, -0.0463938, -0.141151, -0.0463942, -0.141152, -0.0463943, -1.37669E-010, -1.55652E-011
55, 0.00000, -0.178916, -0.0588068, -0.17892, -0.0588079, -0.178921, -0.0588085, -2.29144E-010, -3.33247E-011
56, 0.00000, -0.199616, -0.0656105, -0.199619, -0.0656112, -0.199619, -0.0656117, -2.9101E-010, -4.7889E-011
57, 0.00000, -0.204448, -0.0671988, -0.204444, -0.0671977, -0.204443, -0.067197, -2.95515E-010, -4.00088E-011
58, 0.00000, -0.210361, -0.0691423, -0.210359, -0.0691418, -0.210359, -0.0691414, -3.06597E-010, -3.60561E-011
59, 0.00000, -0.211847, -0.0696305, -0.211845, -0.0696301, -0.211844, -0.0696298, -3.03544E-010, -2.95331E-011
60, 0.00000, -0.210189, -0.0690856, -0.210188, -0.0690854, -0.210187, -0.0690852, -2.98335E-010, -2.8575E-011
61, 0.00000, -0.211093, -0.0693829, -0.211094, -0.0693832, -0.211094, -0.0693834, -3.04891E-010, -3.24998E-011
62, 0.00000, -0.215247, -0.0707484, -0.21525, -0.0707492, -0.215251, -0.0707498, -3.26331E-010, -4.29449E-011
63, 0.00000, -0.22422, -0.0736976, -0.224221, -0.0736979, -0.224221, -0.0736981, -3.57207E-010, -4.99727E-011
64, 0.00000, -0.246371, -0.080978, -0.246373, -0.0809786, -0.246373, -0.080979, -4.63854E-010, -9.67908E-011
65, 0.00000, -0.286455, -0.094153, -0.286456, -0.0941535, -0.286457, -0.0941538, -6.523E-010, -1.62135E-010
66, 0.00000, -0.319007, -0.104852, -0.319008, -0.104853, -0.319008, -0.104853, -8.35403E-010, -2.35568E-010
67, 0.00000, -0.33181, -0.109061, -0.331815, -0.109062, -0.331814, -0.109062, -9.15273E-010, -2.70217E-010
68, 0.00000, -0.339223, -0.111497, -0.339226, -0.111498, -0.339225, -0.111498, -9.63992E-010, -2.92715E-010
69, 0.00000, -0.330559, -0.10865, -0.330556, -0.108649, -0.330557, -0.108649, -9.07787E-010, -2.67801E-010
70, 0.00000, -0.302466, -0.0994158, -0.302458, -0.0994145, -0.302458, -0.099413, -7.39411E-010, -1.96918E-010
71, 0.00000, -0.256705, -0.0843752, -0.256695, -0.0843729, -0.256693, -0.0843706, -5.09371E-010, -1.12605E-010
72, 0.00000, -0.202105, -0.0664289, -0.202098, -0.066427, -0.202096, -0.0664256, -2.99491E-010, -5.074E-011
73, 0.00000, -0.167664, -0.0551085, -0.167661, -0.0551076, -0.16766, -0.0551071, -1.99362E-010, -2.74465E-011
74, 0.00000, -0.141568, -0.046531, -0.141566, -0.0465304, -0.141565, -0.0465303, -1.38651E-010, -1.59024E-011
75, 0.00000, -0.127422, -0.0418816, -0.127421, -0.0418813, -0.127421, -0.0418813, -1.10824E-010, -1.13374E-011
76, 0.00000, -0.120936, -0.0397495, -0.120932, -0.0397483, -0.120931, -0.039748, -9.93097E-011, -9.74512E-012
77, 0.00000, -0.120863, -0.0397259, -0.120863, -0.0397258, -0.120863, -0.0397258, -9.90772E-011, -9.55237E-012
78, 0.00000, -0.127216, -0.041814, -0.127219, -0.0418152, -0.127221, -0.0418156, -1.103E-010, -1.10426E-011
79, 0.00000, -0.141944, -0.0466548, -0.141945, -0.0466552, -0.141946, -0.0466553, -1.39337E-010, -1.58642E-011
80, 0.00000, -0.169782, -0.0558047, -0.169783, -0.055805, -0.169784, -0.0558052, -2.02145E-010, -2.56195E-011
81, 0.00000, -0.213888, -0.0703014, -0.213885, -0.0703007, -0.213884, -0.0703001, -3.10118E-010, -3.08301E-011
82, 0.00000, -0.254875, -0.083773, -0.254873, -0.0837728, -0.254873, -0.0837724, -4.28603E-010, -3.45031E-011
83, 0.00000, -0.276544, -0.0908952, -0.276542, -0.0908953, -0.276542, -0.0908947, -4.71943E-010, -1.58814E-011
84, 0.00000, -0.284788, -0.0936078, -0.284791, -0.0936074, -0.284793, -0.0936085, -5.03967E-010, -1.9647E-011
85, 0.00000, -0.288641, -0.0948724, -0.288643, -0.0948725, -0.288644, -0.0948731, -5.39111E-010, -3.69795E-011
86, 0.00000, -0.294191, -0.096696, -0.294192, -0.0966963, -0.294193, -0.0966966, -6.15301E-010, -8.84343E-011
87, 0.00000, -0.299691, -0.0985037, -0.299695, -0.0985047, -0.299696, -0.0985055, -7.0414E-010, -1.64905E-010
88, 0.00000, -0.305593, -0.100443, -0.305604, -0.100445, -0.305605, -0.100448, -7.55963E-010, -2.01623E-010
89, 0.00000, -0.320944, -0.105489, -0.320948, -0.10549, -0.320948, -0.105491, -8.4701E-010, -2.40192E-010
90, 0.00000, -0.329468, -0.108291, -0.329471, -0.108291, -0.32947, -0.108292, -9.00366E-010, -2.63723E-010
91, 0.00000, -0.327761, -0.10773, -0.327758, -0.107729, -0.327757, -0.107728, -8.89974E-010, -2.59875E-010
92, 0.00000, -0.326518, -0.107321, -0.326516, -0.107321, -0.326515, -0.10732, -8.82077E-010, -2.56279E-010
93, 0.00000, -0.314122, -0.103247, -0.314118, -0.103246, -0.314118, -0.103246, -8.06433E-010, -2.23912E-010
94, 0.00000, -0.289918, -0.0952916, -0.289912, -0.0952905, -0.289911, -0.0952889, -6.70921E-010, -1.69979E-010
95, 0.00000, -0.255103, -0.0838487, -0.255096, -0.083847, -0.255094, -0.0838452, -5.02125E-010, -1.09997E-010
96, 0.00000, -0.212553, -0.069863, -0.212547, -0.0698614, -0.212545, -0.0698602, -3.3452E-010, -5.97669E-011
97, 0.00000, -0.17142, -0.0563431, -0.171416, -0.0563419, -0.171415, -0.0563413, -2.09167E-010, -2.95362E-011
98, 0.00000, -0.144183, -0.0473907, -0.144181, -0.0473901, -0.144181, -0.0473899, -1.44179E-010, -1.68654E-011
99, 0.00000, -0.128404, -0.0422042, -0.128403, -0.0422039, -0.128402, -0.0422038, -1.12645E-010, -1.16223E-011
100, 0.00000, -0.120545, -0.0396213, -0.120545, -0.0396212, -0.120545, -0.0396212, -9.85392E-011, -9.49236E-012
101, 0.00000, -0.118148, -0.0388332, -0.118146, -0.0388327, -0.118146, -0.0388326, -9.44722E-011, -8.94931E-012
102, 0.00000, -0.122042, -0.0401135, -0.122044, -0.0401142, -0.122045, -0.0401144, -1.01063E-010, -9.7398E-012
103, 0.00000, -0.134795, -0.044305, -0.134796, -0.0443053, -0.134796, -0.0443054, -1.24819E-010, -1.34565E-011
104, 0.00000, -0.156866, -0.0515593, -0.156866, -0.0515594, -0.156866, -0.0515595, -1.70508E-010, -1.97484E-011
105, 0.00000, -0.198274, -0.0651695, -0.198272, -0.0651689, -0.198271, -0.0651684, -2.62836E-010, -2.28757E-011
106, 0.00000, -0.242323, -0.0796476, -0.242322, -0.0796473, -0.242322, -0.0796471, -3.83291E-010, -2.7256E-011
107, 0.00000, -0.270134, -0.0887924, -0.270129, -0.0887909, -0.270129, -0.08879, -3.95496E-010, 1.95977E-011
108, 0.00000, -0.281042, -0.0923748, -0.281045, -0.0923756, -0.281046, -0.092376, -3.55366E-010, 5.16132E-011
109, 0.00000, -0.288011, -0.0946638, -0.288012, -0.0946643, -0.288013, -0.0946647, -3.79156E-010, 5.16755E-011
110, 0.00000, -0.292672, -0.096197, -0.292675, -0.0961973, -0.292675, -0.0961979, -5.70615E-010, -5.18549E-011
111, 0.00000, -0.291164, -0.0957008, -0.291166, -0.0957015, -0.291167, -0.0957021, -6.336E-010, -1.19074E-010
112, 0.00000, -0.288664, -0.0948793, -0.288668, -0.0948802, -0.288668, -0.0948807, -6.63766E-010, -1.66325E-010
113, 0.00000, -0.300688, -0.0988314, -0.300692, -0.0988321, -0.300692, -0.098833, -7.28821E-010, -1.91579E-010
114, 0.00000, -0.316691, -0.104091, -0.316696, -0.104092, -0.316696, -0.104093, -8.21259E-010, -2.29272E-010
115, 0.00000, -0.324496, -0.106656, -0.324498, -0.106657, -0.324498, -0.106657, -8.69069E-010, -2.49964E-010
116, 0.00000, -0.334258, -0.109865, -0.334262, -0.109866, -0.334261, -0.109867, -9.31202E-010, -2.77537E-010
117, 0.00000, -0.326663, -0.107369, -0.32666, -0.107368, -0.326661, -0.107368, -8.82998E-010, -2.56696E-010
118, 0.00000, -0.296871, -0.0975768, -0.296863, -0.0975755, -0.296863, -0.0975738, -7.0841E-010, -1.84647E-010
119, 0.00000, -0.250059, -0.0821903, -0.250057, -0.08219, -0.250057, -0.0821897, -4.79761E-010, -1.02162E-010
120, 0.00000, -0.195735, -0.064335, -0.195728, -0.0643332, -0.195726, -0.064332, -2.79193E-010, -4.56643E-011
121, 0.00000, -0.1564, -0.0514062, -0.156397, -0.0514052, -0.156396, -0.0514048, -1.71651E-010, -2.19591E-011
122, 0.00000, -0.132533, -0.0435614, -0.132531, -0.0435609, -0.132531, -0.0435608, -1.20488E-010, -1.28813E-011
123, 0.00000, -0.121348, -0.0398851, -0.121347, -0.0398849, -0.121347, -0.0398849, -9.99362E-011, -9.70351E-012
124, 0.00000, -0.117493, -0.0386181, -0.117492, -0.0386175, -0.117491, -0.0386173, -9.33956E-011, -8.83186E-012
125, 0.00000, -0.122334, -0.0402093, -0.122336, -0.0402102, -0.122337, -0.0402104, -1.01558E-010, -9.7881E-012
126, 0.00000, -0.14115, -0.0463938, -0.141151, -0.0463942, -0.141152, -0.0463943, -1.37669E-010, -1.55652E-011
127, 0.00000, -0.178916, -0.0588068, -0.17892, -0.0588079, -0.178921, -0.0588085, -2.29144E-010, -3.33247E-011
128, 0.00000, -0.199621, -0.0656121, -0.199621, -0.0656122, -0.199621, -0.0656124, -2.87436E-010, -4.40106E-011
129, 0.00000, -0.20445, -0.0671993, -0.204445, -0.0671981, -0.204444, -0.0671971, -2.80936E-010, -2.58486E-011
130, 0.00000, -0.21036, -0.0691419, -0.210358, -0.0691416, -0.210358, -0.0691411, -2.80622E-010, -1.30111E-011
131, 0.00000, -0.211835, -0.0696274, -0.211838, -0.0696282, -0.211839, -0.0696286, -2.07475E-010, 3.03195E-011
132, 0.00000, -0.21018, -0.0690831, -0.210182, -0.0690835, -0.210182, -0.0690837, -1.89563E-010, 3.43638E-011
133, 0.00000, -0.21112, -0.0693935, -0.211113, -0.0693909, -0.211111, -0.0693902, -1.8367E-010, 3.62585E-011
134, 0.00000, -0.215245, -0.0707479, -0.215252, -0.0707489, -0.215253, -0.0707505, -2.81295E-010, -3.99156E-012
135, 0.00000, -0.224221, -0.0736979, -0.224222, -0.0736982, -0.224222, -0.0736983, -3.43908E-010, -3.68465E-011
136, 0.00000, -0.246369, -0.0809774, -0.246372, -0.0809784, -0.246372, -0.0809789, -4.63787E-010, -9.66718E-011
137, 0.00000, -0.286455, -0.094153, -0.286456, -0.0941535, -0.286457, -0.0941538, -6.523E-010, -1.62135E-010
138, 0.00000, -0.319007, -0.104852, -0.319008, -0.104853, -0.319008, -0.104853, -8.35403E-010, -2.35568E-010
139, 0.00000, -0.33181, -0.109061, -0.331815, -0.109062, -0.331814, -0.109062, -9.15273E-010, -2.70217E-010
140, 0.00000, -0.339223, -0.111497, -0.339226, -0.111498, -0.339225, -0.111498, -9.63992E-010, -2.92715E-010
141, 0.00000, -0.330559, -0.10865, -0.330556, -0.108649, -0.330557, -0.108649, -9.07787E-010, -2.67801E-010
142, 0.00000, -0.302466, -0.0994158, -0.302458, -0.0994145, -0.302458, -0.099413, -7.39411E-010, -1.96918E-010
143, 0.00000, -0.256705, -0.0843752, -0.256695, -0.0843729, -0.256693, -0.0843706, -5.09371E-010, -1.12605E-010
144, 0.00000, -0.202105, -0.0664289, -0.202098, -0.066427, -0.202096, -0.0664256, -2.99491E-010, -5.074E-011
145, 0.00000, -0.156401, -0.0514066, -0.156398, -0.0514055, -0.156397, -0.051405, -1.71675E-010, -2.19959E-011
146, 0.00000, -0.132533, -0.0435614, -0.132531, -0.0435609, -0.132531, -0.0435608, -1.20488E-010, -1.28814E-011
147, 0.00000, -0.121348, -0.0398851, -0.121347, -0.0398849, -0.121347, -0.0398849, -9.99362E-011, -9.70351E-012
148, 0.00000, -0.117493, -0.0386181, -0.117492, -0.0386175, -0.117491, -0.0386173, -9.33956E-011, -8.83186E-012
149, 0.00000, -0.122334, -0.0402093, -0.122336, -0.0402102, -0.122337, -0.0402104, -1.01558E-010, -9.7881E-012
150, 0.00000, -0.14115, -0.0463938, -0.141151, -0.0463942, -0.141152, -0.0463943, -1.37669E-010, -1.55652E-011
151, 0.00000, -0.178916, -0.0588068, -0.17892, -0.0588079, -0.178921, -0.0588085, -2.29144E-010, -3.33247E-011
152, 0.00000, -0.199624, -0.0656133, -0.199623, -0.065613, -0.199623, -0.0656129, -2.83889E-010, -4.02627E-011
153, 0.00000, -0.204448, -0.0671985, -0.204443, -0.0671975, -0.204442, -0.0671966, -2.70456E-010, -1.66352E-011
154, 0.00000, -0.210358, -0.0691412, -0.210357, -0.0691411, -0.210357, -0.0691409, -2.80563E-010, -1.29249E-011
155, 0.00000, -0.211843, -0.0696296, -0.211842, -0.0696295, -0.211842, -0.0696293, -2.62022E-010, 3.14784E-012
156, 0.00000, -0.210181, -0.069083, -0.21018, -0.0690832, -0.210179, -0.0690829, -2.54567E-010, 5.32735E-012
157, 0.00000, -0.211094, -0.0693834, -0.211095, -0.0693835, -0.211095, -0.0693837, -2.69383E-010, -3.0737E-012
158, 0.00000, -0.215243, -0.0707474, -0.215249, -0.0707485, -0.21525, -0.0707496, -3.06133E-010, -2.38154E-011
159, 0.00000, -0.22422, -0.0736975, -0.224222, -0.073698, -0.224222, -0.0736983, -3.66474E-010, -5.97831E-011
160, 0.00000, -0.24635, -0.080971, -0.24636, -0.0809735, -0.246362, -0.0809757, -4.63337E-010, -9.59222E-011
161, 0.00000, -0.286455, -0.094153, -0.286456, -0.0941535, -0.286457, -0.0941538, -6.523E-010, -1.62135E-010
162, 0.00000, -0.319007, -0.104852, -0.319008, -0.104853, -0.319008, -0.104853, -8.35403E-010, -2.35568E-010
163, 0.00000, -0.33181, -0.109061, -0.331815, -0.109062, -0.331814, -0.109062, -9.15273E-010, -2.70217E-010
164, 0.00000, -0.339223, -0.111497, -0.339226, -0.111498, -0.339225, -0.111498, -9.63992E-010, -2.92715E-010
165, 0.00000, -0.330559, -0.10865, -0.330556, -0.108649, -0.330557, -0.108649, -9.07787E-010, -2.67801E-010
166, 0.00000, -0.302466, -0.0994158, -0.302458, -0.0994145, -0.302458, -0.099413, -7.39411E-010, -1.96918E-010
167, 0.00000, -0.256705, -0.0843752, -0.256695, -0.0843729, -0.256693, -0.0843706, -5.09371E-010, -1.12605E-010
168, 0.00000, -0.202105, -0.0664289, -0.202098, -0.066427, -0.202096, -0.0664256, -2.99491E-010, -5.074E-011
169, 0.00000, -0.156401, -0.0514066, -0.156398, -0.0514055, -0.156397, -0.051405, -1.71675E-010, -2.19959E-011
170, 0.00000, -0.132533, -0.0435614, -0.132531, -0.0435609, -0.132531, -0.0435608, -1.20488E-010, -1.28814E-011
171, 0.00000, -0.121348, -0.0398851, -0.121347, -0.0398849, -0.121347, -0.0398849, -9.99362E-011, -9.70351E-012
172, 0.00000, -0.117493, -0.0386181, -0.117492, -0.0386175, -0.117491, -0.0386173, -9.33956E-011, -8.83186E-012
173, 0.00000, -0.122334, -0.0402093, -0.122336, -0.0402102, -0.122337, -0.0402104, -1.01558E-010, -9.7881E-012
174, 0.00000, -0.14115, -0.0463938, -0.141151, -0.0463942, -0.141152, -0.0463943, -1.37669E-010, -1.55652E-011
175, 0.00000, -0.178916, -0.0588068, -0.17892, -0.0588079, -0.178921, -0.0588085, -2.29144E-010, -3.33247E-011
176, 0.00000, -0.199621, -0.0656121, -0.199621, -0.0656122, -0.199621, -0.0656124, -2.87442E-010, -4.4017E-011
177, 0.00000, -0.20445, -0.0671991, -0.204445, -0.0671979, -0.204443, -0.0671969, -2.74051E-010, -1.97185E-011
178, 0.00000, -0.210359, -0.0691414, -0.210357, -0.0691412, -0.210357, -0.0691409, -2.70829E-010, -5.50343E-012
179, 0.00000, -0.211854, -0.0696353, -0.211848, -0.0696334, -0.211848, -0.0696329, -2.32393E-010, 1.98027E-011
180, 0.00000, -0.210183, -0.0690836, -0.210185, -0.0690839, -0.210184, -0.0690841, -2.54701E-010, 5.30976E-012
