hour, t(sec), P1 (kW), Q1 (kvar), P2 (kW), Q2 (kvar), P3 (kW), Q3 (kvar), P4 (kW), Q4 (kvar)
1, 0.00000, -0.104265, -0.0342674, -0.104261, -0.034273, -0.104258, -0.0342665, 3.94001E-009, -7.1801E-010
2, 0.00000, -0.0883558, -0.0290392, -0.0883526, -0.0290431, -0.0883507, -0.0290384, 2.37895E-009, -4.40134E-010
3, 0.00000, -0.0809, -0.0265889, -0.0808974, -0.0265922, -0.0808957, -0.0265883, 1.81404E-009, -3.39475E-010
4, 0.00000, -0.0783264, -0.0257429, -0.0783237, -0.025746, -0.0783221, -0.0257423, 1.65156E-009, -3.09662E-010
5, 0.00000, -0.0815644, -0.0268074, -0.0815621, -0.0268109, -0.0815606, -0.0268069, 1.84431E-009, -3.46446E-010
6, 0.00000, -0.0941048, -0.0309285, -0.0941014, -0.030933, -0.0940993, -0.0309278, 2.875E-009, -5.30759E-010
7, 0.00000, -0.119287, -0.0392042, -0.119282, -0.0392115, -0.119279, -0.0392031, 5.95939E-009, -1.06649E-009
8, 0.00000, -0.133087, -0.0437395, -0.13308, -0.0437482, -0.133076, -0.0437373, 7.90635E-009, -1.06953E-009
9, 0.00000, -0.136302, -0.0447988, -0.136289, -0.0448042, -0.13629, -0.0447902, 4.1842E-009, -2.6492E-010
10, 0.00000, -0.140247, -0.0460964, -0.140231, -0.0461007, -0.140235, -0.0460849, 2.71104E-009, -1.46883E-009
11, 0.00000, -0.141239, -0.0464275, -0.141214, -0.0464255, -0.141228, -0.0464053, -4.83541E-009, -1.50662E-008
12, 0.00000, -0.140133, -0.0460636, -0.140108, -0.0460613, -0.140123, -0.0460412, -5.1938E-009, -1.59996E-008
13, 0.00000, -0.140741, -0.046262, -0.14072, -0.0462622, -0.14073, -0.0462434, -2.32415E-009, -9.0709E-009
14, 0.00000, -0.14351, -0.0471673, -0.143496, -0.0471736, -0.143498, -0.0471582, 4.67029E-009, -3.99924E-010
15, 0.00000, -0.14949, -0.0491305, -0.149479, -0.0491403, -0.149476, -0.0491257, 9.63352E-009, -4.75297E-010
16, 0.00000, -0.164258, -0.0539821, -0.164248, -0.0539961, -0.164241, -0.0539798, 1.61501E-008, -2.68446E-009
17, 0.00000, -0.190984, -0.0627639, -0.190969, -0.062783, -0.19096, -0.0627607, 2.59454E-008, -4.11115E-009
18, 0.00000, -0.212689, -0.0698955, -0.21267, -0.0699192, -0.212659, -0.0698914, 3.61383E-008, -5.76388E-009
19, 0.00000, -0.221231, -0.0727018, -0.221211, -0.0727276, -0.221198, -0.0726973, 4.07494E-008, -6.68684E-009
20, 0.00000, -0.226171, -0.0743251, -0.22615, -0.0743521, -0.226137, -0.0743204, 4.36025E-008, -7.36355E-009
21, 0.00000, -0.220386, -0.0724248, -0.220366, -0.0724503, -0.220354, -0.0724206, 4.0256E-008, -6.67308E-009
22, 0.00000, -0.201647, -0.066268, -0.201631, -0.0662896, -0.201621, -0.0662647, 3.0702E-008, -4.83935E-009
23, 0.00000, -0.171134, -0.056242, -0.171121, -0.0562571, -0.171114, -0.0562389, 1.84372E-008, -2.98878E-009
24, 0.00000, -0.134733, -0.0442804, -0.134726, -0.0442896, -0.134721, -0.0442784, 8.7554E-009, -1.50502E-009
25, 0.00000, -0.104266, -0.0342679, -0.104262, -0.0342734, -0.104259, -0.0342668, 3.96292E-009, -7.14767E-010
26, 0.00000, -0.0883558, -0.0290392, -0.0883526, -0.0290431, -0.0883507, -0.0290384, 2.37897E-009, -4.40135E-010
27, 0.00000, -0.0809, -0.0265889, -0.0808974, -0.0265922, -0.0808957, -0.0265883, 1.81404E-009, -3.39475E-010
28, 0.00000, -0.0783264, -0.0257429, -0.0783237, -0.025746, -0.0783221, -0.0257423, 1.65156E-009, -3.09662E-010
29, 0.00000, -0.0815644, -0.0268074, -0.0815621, -0.0268109, -0.0815606, -0.0268069, 1.84431E-009, -3.46446E-010
30, 0.00000, -0.0941048, -0.0309285, -0.0941014, -0.030933, -0.0940993, -0.0309278, 2.875E-009, -5.30759E-010
31, 0.00000, -0.119287, -0.0392042, -0.119282, -0.0392115, -0.119279, -0.0392031, 5.95939E-009, -1.06649E-009
32, 0.00000, -0.133087, -0.0437395, -0.13308, -0.0437482, -0.133076, -0.0437373, 7.91261E-009, -1.07442E-009
33, 0.00000, -0.136302, -0.0447977, -0.13629, -0.0448043, -0.136289, -0.0447911, 5.66404E-009, 1.66048E-011
34, 0.00000, -0.140247, -0.0460958, -0.140232, -0.0461009, -0.140235, -0.0460857, 3.77861E-009, -6.79066E-010
35, 0.00000, -0.141239, -0.0464237, -0.14122, -0.0464262, -0.141227, -0.0464089, 5.26292E-010, -4.11187E-009
36, 0.00000, -0.140134, -0.0460612, -0.140114, -0.0460629, -0.140122, -0.0460456, 2.18399E-011, -4.79821E-009
37, 0.00000, -0.140739, -0.0462587, -0.140723, -0.0462624, -0.140728, -0.0462461, 1.94023E-009, -2.25305E-009
38, 0.00000, -0.14351, -0.0471669, -0.143497, -0.0471739, -0.143498, -0.0471591, 5.75309E-009, -6.74003E-011
39, 0.00000, -0.14949, -0.0491297, -0.14948, -0.0491404, -0.149475, -0.0491264, 1.08288E-008, -1.13356E-009
40, 0.00000, -0.164256, -0.0539808, -0.164246, -0.0539951, -0.16424, -0.053979, 1.6102E-008, -2.69971E-009
41, 0.00000, -0.190984, -0.0627639, -0.190969, -0.062783, -0.19096, -0.0627607, 2.59454E-008, -4.11116E-009
42, 0.00000, -0.212689, -0.0698955, -0.21267, -0.0699192, -0.212659, -0.0698914, 3.61383E-008, -5.76388E-009
43, 0.00000, -0.221231, -0.0727018, -0.221211, -0.0727276, -0.221198, -0.0726973, 4.07494E-008, -6.68684E-009
44, 0.00000, -0.226171, -0.0743251, -0.22615, -0.0743521, -0.226137, -0.0743204, 4.36025E-008, -7.36355E-009
45, 0.00000, -0.220386, -0.0724248, -0.220366, -0.0724503, -0.220354, -0.0724206, 4.0256E-008, -6.67308E-009
46, 0.00000, -0.201647, -0.066268, -0.201631, -0.0662896, -0.201621, -0.0662647, 3.0702E-008, -4.83935E-009
47, 0.00000, -0.171134, -0.056242, -0.171121, -0.0562571, -0.171114, -0.0562389, 1.84372E-008, -2.98878E-009
48, 0.00000, -0.134733, -0.0442804, -0.134726, -0.0442896, -0.134721, -0.0442784, 8.7554E-009, -1.50502E-009
49, 0.00000, -0.104266, -0.0342679, -0.104262, -0.0342734, -0.104259, -0.0342668, 3.96292E-009, -7.14767E-010
50, 0.00000, -0.0883558, -0.0290392, -0.0883526, -0.0290431, -0.0883507, -0.0290384, 2.37897E-009, -4.40135E-010
51, 0.00000, -0.0809, -0.0265889, -0.0808974, -0.0265922, -0.0808957, -0.0265883, 1.81404E-009, -3.39475E-010
52, 0.00000, -0.0783264, -0.0257429, -0.0783237, -0.025746, -0.0783221, -0.0257423, 1.65156E-009, -3.09662E-010
53, 0.00000, -0.0815644, -0.0268074, -0.0815621, -0.0268109, -0.0815606, -0.0268069, 1.84431E-009, -3.46446E-010
54, 0.00000, -0.0941048, -0.0309285, -0.0941014, -0.030933, -0.0940993, -0.0309278, 2.875E-009, -5.30759E-010
55, 0.00000, -0.119287, -0.0392042, -0.119282, -0.0392115, -0.119279, -0.0392031, 5.95939E-009, -1.06649E-009
56, 0.00000, -0.133087, -0.0437389, -0.13308, -0.0437481, -0.133076, -0.0437375, 8.3756E-009, -1.46513E-009
57, 0.00000, -0.1363, -0.044796, -0.136291, -0.0448044, -0.136288, -0.0447923, 7.60011E-009, -5.31538E-010
58, 0.00000, -0.140246, -0.0460931, -0.140235, -0.0461012, -0.140233, -0.0460879, 7.32412E-009, -1.73748E-010
59, 0.00000, -0.141237, -0.0464195, -0.141225, -0.0464269, -0.141224, -0.0464129, 6.48701E-009, 7.56339E-012
60, 0.00000, -0.140131, -0.0460562, -0.14012, -0.0460634, -0.140119, -0.0460496, 6.30794E-009, 7.04467E-012
61, 0.00000, -0.140738, -0.046255, -0.140727, -0.0462628, -0.140726, -0.0462493, 6.8921E-009, -6.07669E-011
62, 0.00000, -0.14351, -0.0471653, -0.1435, -0.0471744, -0.143498, -0.0471609, 8.4256E-009, -4.08932E-010
63, 0.00000, -0.14949, -0.0491304, -0.149479, -0.0491403, -0.149476, -0.0491256, 9.66527E-009, -4.88749E-010
64, 0.00000, -0.164258, -0.0539821, -0.164248, -0.0539961, -0.164241, -0.0539798, 1.61502E-008, -2.68442E-009
65, 0.00000, -0.190984, -0.0627639, -0.190969, -0.062783, -0.19096, -0.0627607, 2.59454E-008, -4.11115E-009
66, 0.00000, -0.212689, -0.0698955, -0.21267, -0.0699192, -0.212659, -0.0698914, 3.61383E-008, -5.76388E-009
67, 0.00000, -0.221231, -0.0727018, -0.221211, -0.0727276, -0.221198, -0.0726973, 4.07494E-008, -6.68684E-009
68, 0.00000, -0.226171, -0.0743251, -0.22615, -0.0743521, -0.226137, -0.0743204, 4.36025E-008, -7.36355E-009
69, 0.00000, -0.220386, -0.0724248, -0.220366, -0.0724503, -0.220354, -0.0724206, 4.0256E-008, -6.67308E-009
70, 0.00000, -0.201647, -0.066268, -0.201631, -0.0662896, -0.201621, -0.0662647, 3.0702E-008, -4.83935E-009
71, 0.00000, -0.171134, -0.056242, -0.171121, -0.0562571, -0.171114, -0.0562389, 1.84372E-008, -2.98878E-009
72, 0.00000, -0.134733, -0.0442804, -0.134726, -0.0442896, -0.134721, -0.0442784, 8.7554E-009, -1.50502E-009
73, 0.00000, -0.111776, -0.0367359, -0.111771, -0.0367422, -0.111768, -0.0367346, 4.90464E-009, -8.76605E-010
74, 0.00000, -0.0943791, -0.0310186, -0.0943754, -0.0310231, -0.0943732, -0.0310178, 2.91271E-009, -5.34303E-010
75, 0.00000, -0.0849494, -0.0279197, -0.0849465, -0.0279233, -0.0849447, -0.027919, 2.10709E-009, -3.92087E-010
76, 0.00000, -0.0806178, -0.0264959, -0.0806148, -0.0264991, -0.080613, -0.0264952, 1.81072E-009, -3.37846E-010
77, 0.00000, -0.0805777, -0.026483, -0.0805751, -0.0264863, -0.0805736, -0.0264824, 1.79026E-009, -3.35537E-010
78, 0.00000, -0.0848216, -0.0278778, -0.0848192, -0.0278817, -0.0848177, -0.0278774, 2.07529E-009, -3.88721E-010
79, 0.00000, -0.094634, -0.0311024, -0.0946305, -0.031107, -0.0946284, -0.0311017, 2.92601E-009, -5.39514E-010
80, 0.00000, -0.113194, -0.0372021, -0.113189, -0.0372083, -0.113186, -0.0372005, 4.7552E-009, -6.42482E-010
81, 0.00000, -0.142596, -0.0468662, -0.142584, -0.0468738, -0.142584, -0.0468596, 6.7251E-009, 6.29234E-012
82, 0.00000, -0.169927, -0.0558495, -0.169907, -0.0558585, -0.169909, -0.055837, 8.77006E-009, -2.73102E-010
83, 0.00000, -0.184377, -0.0606009, -0.18435, -0.0606084, -0.184357, -0.0605809, 6.23891E-009, -3.27043E-009
84, 0.00000, -0.18988, -0.0624087, -0.189852, -0.0624172, -0.18986, -0.0623885, 7.25219E-009, -3.17679E-009
85, 0.00000, -0.192446, -0.063251, -0.192419, -0.0632615, -0.192424, -0.063233, 1.06178E-008, -1.27498E-009
86, 0.00000, -0.196144, -0.0644633, -0.196122, -0.0644782, -0.19612, -0.0644514, 1.8533E-008, 1.20458E-010
87, 0.00000, -0.199812, -0.0656654, -0.199795, -0.0656852, -0.199787, -0.0656601, 2.75834E-008, -2.98708E-009
88, 0.00000, -0.203758, -0.0669605, -0.203742, -0.0669822, -0.203732, -0.066957, 3.17283E-008, -5.00109E-009
89, 0.00000, -0.213986, -0.0703214, -0.213967, -0.0703452, -0.213955, -0.0703171, 3.68304E-008, -5.88471E-009
90, 0.00000, -0.219666, -0.072188, -0.219647, -0.0722134, -0.219634, -0.0721836, 3.98704E-008, -6.50929E-009
91, 0.00000, -0.218516, -0.0718107, -0.218496, -0.0718358, -0.218485, -0.0718065, 3.92315E-008, -6.43529E-009
92, 0.00000, -0.21769, -0.071539, -0.21767, -0.071564, -0.217659, -0.0715349, 3.87796E-008, -6.32897E-009
93, 0.00000, -0.209425, -0.0688233, -0.209407, -0.0688465, -0.209396, -0.0688196, 3.44666E-008, -5.47339E-009
94, 0.00000, -0.193283, -0.0635197, -0.193268, -0.0635394, -0.193258, -0.0635163, 2.6953E-008, -4.23385E-009
95, 0.00000, -0.170069, -0.0558921, -0.170057, -0.0559069, -0.17005, -0.0558891, 1.80742E-008, -2.94077E-009
96, 0.00000, -0.141701, -0.04657, -0.141692, -0.0465802, -0.141687, -0.0465679, 1.02296E-008, -1.74329E-009
97, 0.00000, -0.114279, -0.0375585, -0.114274, -0.0375651, -0.11427, -0.0375572, 5.25443E-009, -9.34596E-010
98, 0.00000, -0.0961226, -0.0315916, -0.0961189, -0.0315963, -0.0961165, -0.0315907, 3.08138E-009, -5.63791E-010
99, 0.00000, -0.0856037, -0.0281347, -0.0856007, -0.0281384, -0.0855989, -0.028134, 2.15752E-009, -4.01044E-010
100, 0.00000, -0.0803653, -0.0264131, -0.0803627, -0.0264164, -0.0803611, -0.0264126, 1.77702E-009, -3.329E-010
101, 0.00000, -0.0787642, -0.0258869, -0.0787616, -0.02589, -0.07876, -0.0258863, 1.676E-009, -3.14373E-010
102, 0.00000, -0.0813688, -0.0267431, -0.0813665, -0.0267465, -0.081365, -0.0267426, 1.83341E-009, -3.44255E-010
103, 0.00000, -0.0898673, -0.0295359, -0.0898642, -0.0295401, -0.0898623, -0.0295352, 2.49729E-009, -4.63218E-010
104, 0.00000, -0.104582, -0.0343718, -0.104577, -0.0343771, -0.104575, -0.0343704, 3.71E-009, -4.95564E-010
105, 0.00000, -0.132187, -0.0434453, -0.132176, -0.0434516, -0.132176, -0.0434393, 5.1226E-009, 4.16696E-012
106, 0.00000, -0.161559, -0.0530993, -0.16154, -0.0531072, -0.161543, -0.0530876, 7.15305E-009, -3.69589E-010
107, 0.00000, -0.1801, -0.0591997, -0.180066, -0.0592011, -0.180082, -0.0591712, -2.90484E-009, -1.49571E-008
108, 0.00000, -0.187388, -0.0616013, -0.18734, -0.0615945, -0.18737, -0.0615565, -1.76672E-008, -5.15166E-008
109, 0.00000, -0.192033, -0.0631279, -0.191985, -0.0631218, -0.192015, -0.0630826, -1.70155E-008, -4.95367E-008
110, 0.00000, -0.195133, -0.0641331, -0.195107, -0.0641451, -0.19511, -0.0641167, 1.32585E-008, -4.09261E-010
111, 0.00000, -0.194126, -0.0637983, -0.194107, -0.0638152, -0.194102, -0.0637904, 2.19746E-008, -9.97217E-010
112, 0.00000, -0.192459, -0.0632483, -0.192444, -0.0632677, -0.192435, -0.0632452, 2.65761E-008, -4.20374E-009
113, 0.00000, -0.200478, -0.0658832, -0.200462, -0.0659042, -0.200452, -0.0658797, 3.02066E-008, -4.73511E-009
114, 0.00000, -0.21115, -0.0693897, -0.211132, -0.0694129, -0.211121, -0.0693856, 3.539E-008, -5.61766E-009
115, 0.00000, -0.216351, -0.0710986, -0.216332, -0.0711232, -0.21632, -0.0710943, 3.80648E-008, -6.12953E-009
116, 0.00000, -0.222861, -0.0732377, -0.222841, -0.073264, -0.222828, -0.0732331, 4.16688E-008, -6.90405E-009
117, 0.00000, -0.217789, -0.0715714, -0.217769, -0.0715963, -0.217758, -0.0715672, 3.88232E-008, -6.34848E-009
118, 0.00000, -0.197916, -0.0650421, -0.1979, -0.0650629, -0.197891, -0.0650389, 2.89974E-008, -4.5491E-009
119, 0.00000, -0.166714, -0.0547892, -0.166703, -0.0548036, -0.166696, -0.0547867, 1.69394E-008, -2.79219E-009
120, 0.00000, -0.130487, -0.0428848, -0.13048, -0.0428934, -0.130475, -0.042883, 7.92729E-009, -1.37202E-009
121, 0.00000, -0.104266, -0.0342679, -0.104262, -0.0342734, -0.104259, -0.0342668, 3.96063E-009, -7.15072E-010
122, 0.00000, -0.0883558, -0.0290392, -0.0883526, -0.0290431, -0.0883507, -0.0290384, 2.37896E-009, -4.40135E-010
123, 0.00000, -0.0809, -0.0265889, -0.0808974, -0.0265922, -0.0808957, -0.0265883, 1.81404E-009, -3.39475E-010
124, 0.00000, -0.0783264, -0.0257429, -0.0783237, -0.025746, -0.0783221, -0.0257423, 1.65156E-009, -3.09662E-010
125, 0.00000, -0.0815644, -0.0268074, -0.0815621, -0.0268109, -0.0815606, -0.0268069, 1.84431E-009, -3.46446E-010
126, 0.00000, -0.0941048, -0.0309285, -0.0941014, -0.030933, -0.0940993, -0.0309278, 2.875E-009, -5.30759E-010
127, 0.00000, -0.119287, -0.0392042, -0.119282, -0.0392115, -0.119279, -0.0392031, 5.95939E-009, -1.06649E-009
128, 0.00000, -0.133087, -0.0437394, -0.13308, -0.0437482, -0.133076, -0.0437373, 7.92024E-009, -1.08041E-009
129, 0.00000, -0.136302, -0.0447976, -0.13629, -0.0448043, -0.136289, -0.0447912, 5.71494E-009, 1.52586E-011
130, 0.00000, -0.140247, -0.0460957, -0.140232, -0.0461009, -0.140235, -0.0460857, 3.8614E-009, -6.30088E-010
131, 0.00000, -0.141241, -0.0464306, -0.141211, -0.0464251, -0.141231, -0.0464023, -9.69294E-009, -2.96059E-008
132, 0.00000, -0.140136, -0.0460696, -0.140103, -0.0460613, -0.140127, -0.046037, -1.33633E-008, -4.29886E-008
133, 0.00000, -0.140745, -0.0462713, -0.140709, -0.0462614, -0.140736, -0.0462356, -1.58009E-008, -5.23636E-008
134, 0.00000, -0.14351, -0.047169, -0.143495, -0.0471735, -0.1435, -0.0471567, 2.27885E-009, -2.10082E-009
135, 0.00000, -0.14949, -0.0491316, -0.149478, -0.0491402, -0.149477, -0.0491247, 7.9561E-009, -9.50044E-012
136, 0.00000, -0.164258, -0.053982, -0.164247, -0.053996, -0.164241, -0.0539797, 1.61443E-008, -2.6867E-009
137, 0.00000, -0.190984, -0.0627639, -0.190969, -0.062783, -0.19096, -0.0627607, 2.59454E-008, -4.11115E-009
138, 0.00000, -0.212689, -0.0698955, -0.21267, -0.0699192, -0.212659, -0.0698914, 3.61383E-008, -5.76388E-009
139, 0.00000, -0.221231, -0.0727018, -0.221211, -0.0727276, -0.221198, -0.0726973, 4.07494E-008, -6.68684E-009
140, 0.00000, -0.226171, -0.0743251, -0.22615, -0.0743521, -0.226137, -0.0743204, 4.36025E-008, -7.36355E-009
141, 0.00000, -0.220386, -0.0724248, -0.220366, -0.0724503, -0.220354, -0.0724206, 4.0256E-008, -6.67308E-009
142, 0.00000, -0.201647, -0.066268, -0.201631, -0.0662896, -0.201621, -0.0662647, 3.0702E-008, -4.83935E-009
143, 0.00000, -0.171134, -0.056242, -0.171121, -0.0562571, -0.171114, -0.0562389, 1.84372E-008, -2.98878E-009
144, 0.00000, -0.134733, -0.0442804, -0.134726, -0.0442896, -0.134721, -0.0442784, 8.7554E-009, -1.50502E-009
145, 0.00000, -0.104266, -0.0342679, -0.104262, -0.0342734, -0.104259, -0.0342668, 3.96292E-009, -7.14767E-010
146, 0.00000, -0.0883558, -0.0290392, -0.0883526, -0.0290431, -0.0883507, -0.0290384, 2.37897E-009, -4.40135E-010
147, 0.00000, -0.0809, -0.0265889, -0.0808974, -0.0265922, -0.0808957, -0.0265883, 1.81404E-009, -3.39475E-010
148, 0.00000, -0.0783264, -0.0257429, -0.0783237, -0.025746, -0.0783221, -0.0257423, 1.65156E-009, -3.09662E-010
149, 0.00000, -0.0815644, -0.0268074, -0.0815621, -0.0268109, -0.0815606, -0.0268069, 1.84431E-009, -3.46446E-010
150, 0.00000, -0.0941048, -0.0309285, -0.0941014, -0.030933, -0.0940993, -0.0309278, 2.875E-009, -5.30759E-010
151, 0.00000, -0.119287, -0.0392042, -0.119282, -0.0392115, -0.119279, -0.0392031, 5.95939E-009, -1.06649E-009
152, 0.00000, -0.133088, -0.04374, -0.13308, -0.0437483, -0.133077, -0.0437371, 7.46718E-009, -7.52621E-010
153, 0.00000, -0.136302, -0.0447987, -0.136289, -0.0448042, -0.13629, -0.0447902, 4.318E-009, -2.14031E-010
154, 0.00000, -0.140247, -0.0460955, -0.140232, -0.0461008, -0.140235, -0.0460856, 3.85258E-009, -6.33628E-010
155, 0.00000, -0.141239, -0.0464236, -0.14122, -0.0464262, -0.141227, -0.0464089, 6.28736E-010, -3.96565E-009
156, 0.00000, -0.140134, -0.0460611, -0.140115, -0.046063, -0.140122, -0.0460457, 1.09543E-010, -4.66358E-009
157, 0.00000, -0.140739, -0.0462586, -0.140723, -0.0462624, -0.140728, -0.0462461, 1.9982E-009, -2.19106E-009
158, 0.00000, -0.14351, -0.0471668, -0.143497, -0.0471739, -0.143498, -0.0471591, 5.78937E-009, -6.11101E-011
159, 0.00000, -0.14949, -0.0491297, -0.14948, -0.0491404, -0.149475, -0.0491264, 1.08383E-008, -1.13975E-009
160, 0.00000, -0.164256, -0.0539809, -0.164246, -0.0539951, -0.16424, -0.053979, 1.61023E-008, -2.69963E-009
161, 0.00000, -0.190984, -0.0627639, -0.190969, -0.062783, -0.19096, -0.0627607, 2.59454E-008, -4.11116E-009
162, 0.00000, -0.212689, -0.0698955, -0.21267, -0.0699192, -0.212659, -0.0698914, 3.61383E-008, -5.76388E-009
163, 0.00000, -0.221231, -0.0727018, -0.221211, -0.0727276, -0.221198, -0.0726973, 4.07494E-008, -6.68684E-009
164, 0.00000, -0.226171, -0.0743251, -0.22615, -0.0743521, -0.226137, -0.0743204, 4.36025E-008, -7.36355E-009
165, 0.00000, -0.220386, -0.0724248, -0.220366, -0.0724503, -0.220354, -0.0724206, 4.0256E-008, -6.67308E-009
166, 0.00000, -0.201647, -0.066268, -0.201631, -0.0662896, -0.201621, -0.0662647, 3.0702E-008, -4.83935E-009
167, 0.00000, -0.171134, -0.056242, -0.171121, -0.0562571, -0.171114, -0.0562389, 1.84372E-008, -2.98878E-009
168, 0.00000, -0.134733, -0.0442804, -0.134726, -0.0442896, -0.134721, -0.0442784, 8.7554E-009, -1.50502E-009
169, 0.00000, -0.104266, -0.0342679, -0.104262, -0.0342734, -0.104259, -0.0342668, 3.96292E-009, -7.14767E-010
170, 0.00000, -0.0883558, -0.0290392, -0.0883526, -0.0290431, -0.0883507, -0.0290384, 2.37897E-009, -4.40135E-010
171, 0.00000, -0.0809, -0.0265889, -0.0808974, -0.0265922, -0.0808957, -0.0265883, 1.81404E-009, -3.39475E-010
172, 0.00000, -0.0783264, -0.0257429, -0.0783237, -0.025746, -0.0783221, -0.0257423, 1.65156E-009, -3.09662E-010
173, 0.00000, -0.0815644, -0.0268074, -0.0815621, -0.0268109, -0.0815606, -0.0268069, 1.84431E-009, -3.46446E-010
174, 0.00000, -0.0941048, -0.0309285, -0.0941014, -0.030933, -0.0940993, -0.0309278, 2.875E-009, -5.30759E-010
175, 0.00000, -0.119287, -0.0392042, -0.119282, -0.0392115, -0.119279, -0.0392031, 5.95939E-009, -1.06649E-009
176, 0.00000, -0.133087, -0.0437394, -0.13308, -0.0437482, -0.133076, -0.0437373, 7.92101E-009, -1.08101E-009
177, 0.00000, -0.136302, -0.0447984, -0.136289, -0.0448043, -0.13629, -0.0447906, 4.80181E-009, -7.12971E-011
178, 0.00000, -0.140247, -0.0460967, -0.140231, -0.0461007, -0.140236, -0.0460848, 2.47156E-009, -1.69007E-009
179, 0.00000, -0.141239, -0.0464272, -0.141215, -0.0464256, -0.141228, -0.0464055, -4.48409E-009, -1.41671E-008
180, 0.00000, -0.140132, -0.0460603, -0.140114, -0.0460625, -0.140121, -0.0460453, 7.49325E-011, -4.62576E-009
181, 0.00000, -0.140739, -0.0462586, -0.140723, -0.0462624, -0.140728, -0.0462461, 2.01633E-009, -2.17185E-009
