hour, t(sec), P1 (kW), Q1 (kvar), P2 (kW), Q2 (kvar), P3 (kW), Q3 (kvar), P4 (kW), Q4 (kvar)
1, 0.00000, -0.0548259, -0.0180204, -0.0548266, -0.0180206, -0.0548267, -0.0180207, -2.38399E-011, -2.71307E-012
2, 0.00000, -0.0464627, -0.0152715, -0.0464621, -0.0152713, -0.046462, -0.0152713, -1.68703E-011, -1.62886E-012
3, 0.00000, -0.0425415, -0.0139827, -0.0425413, -0.0139826, -0.0425412, -0.0139826, -1.40398E-011, -1.22861E-012
4, 0.00000, -0.0411901, -0.0135385, -0.0411895, -0.0135383, -0.0411892, -0.0135382, -1.31329E-011, -1.11958E-012
5, 0.00000, -0.0428874, -0.0140964, -0.0428882, -0.0140967, -0.0428886, -0.0140968, -1.42691E-011, -1.2363E-012
6, 0.00000, -0.0494836, -0.0162645, -0.0494841, -0.0162646, -0.0494842, -0.0162647, -1.92314E-011, -1.9598E-012
7, 0.00000, -0.0627233, -0.0206161, -0.0627247, -0.0206165, -0.0627251, -0.0206168, -3.16571E-011, -4.16297E-012
8, 0.00000, -0.0576315, -0.0230018, -0.0576318, -0.0230019, -0.0576319, -0.023002, -2.92248E-011, -4.05325E-012
9, 0.00000, 0.0551861, -0.0235592, 0.0551861, -0.0235575, 0.055186, -0.0235585, -2.81755E-011, -1.77138E-012
10, 0.00000, 0.104342, -0.0242397, 0.104341, -0.0242391, 0.104341, -0.0242395, -7.74674E-011, -3.54631E-012
11, 0.00000, 0.303133, -0.0244052, 0.303131, -0.0244034, 0.303131, -0.0244057, -5.23579E-010, 2.37587E-011
12, 0.00000, 0.313157, -0.0242203, 0.313157, -0.0242187, 0.313157, -0.0242193, -5.54644E-010, 2.79101E-011
13, 0.00000, 0.237304, -0.0243243, 0.237304, -0.0243252, 0.237304, -0.0243245, -3.35954E-010, 5.5513E-012
14, 0.00000, 0.0614287, -0.0248002, 0.0614289, -0.0248027, 0.0614291, -0.0248013, -3.38629E-011, -2.19719E-012
15, 0.00000, -0.0297275, -0.0258365, -0.0297279, -0.0258367, -0.0297279, -0.0258367, -1.51493E-011, -1.77259E-012
16, 0.00000, -0.0863712, -0.0283888, -0.0863721, -0.0283891, -0.0863721, -0.0283892, -6.27895E-011, -1.19596E-011
17, 0.00000, -0.100424, -0.0330076, -0.100424, -0.0330078, -0.100424, -0.033008, -8.72194E-011, -1.98837E-011
18, 0.00000, -0.111837, -0.036759, -0.111835, -0.0367584, -0.111836, -0.0367587, -1.10217E-010, -2.75828E-011
19, 0.00000, -0.116329, -0.038235, -0.116326, -0.0382348, -0.116324, -0.0382335, -1.19993E-010, -3.06856E-011
20, 0.00000, -0.118925, -0.0390886, -0.118925, -0.0390887, -0.118923, -0.0390881, -1.25814E-010, -3.23324E-011
21, 0.00000, -0.115883, -0.0380891, -0.115884, -0.0380891, -0.115886, -0.0380901, -1.18931E-010, -3.00519E-011
22, 0.00000, -0.10603, -0.0348501, -0.106038, -0.0348528, -0.106036, -0.034853, -9.81001E-011, -2.33854E-011
23, 0.00000, -0.0899941, -0.0295797, -0.0899916, -0.0295792, -0.0899903, -0.0295783, -6.86912E-011, -1.38849E-011
24, 0.00000, -0.0708533, -0.0232884, -0.0708506, -0.0232877, -0.0708499, -0.0232872, -4.10689E-011, -6.34372E-012
25, 0.00000, -0.0548305, -0.0180219, -0.0548291, -0.0180215, -0.0548287, -0.0180213, -2.38658E-011, -2.77259E-012
26, 0.00000, -0.0464627, -0.0152715, -0.0464621, -0.0152713, -0.046462, -0.0152713, -1.68704E-011, -1.62891E-012
27, 0.00000, -0.0425415, -0.0139827, -0.0425413, -0.0139826, -0.0425412, -0.0139826, -1.40398E-011, -1.22861E-012
28, 0.00000, -0.0411901, -0.0135385, -0.0411895, -0.0135383, -0.0411892, -0.0135382, -1.31329E-011, -1.11958E-012
29, 0.00000, -0.0428874, -0.0140964, -0.0428882, -0.0140967, -0.0428886, -0.0140968, -1.42691E-011, -1.2363E-012
30, 0.00000, -0.0494836, -0.0162645, -0.0494841, -0.0162646, -0.0494842, -0.0162647, -1.92314E-011, -1.9598E-012
31, 0.00000, -0.0627233, -0.0206161, -0.0627247, -0.0206165, -0.0627251, -0.0206168, -3.16571E-011, -4.16297E-012
32, 0.00000, -0.0577972, -0.0230018, -0.0577975, -0.0230019, -0.0577976, -0.023002, -2.9354E-011, -4.07555E-012
33, 0.00000, 0.0150746, -0.0235587, 0.0150752, -0.0235576, 0.0150752, -0.023558, -9.71332E-012, -6.48497E-013
34, 0.00000, 0.0765788, -0.0242401, 0.0765786, -0.0242392, 0.0765785, -0.0242397, -4.65538E-011, -2.69187E-012
35, 0.00000, 0.163632, -0.0244113, 0.163632, -0.02441, 0.163632, -0.0244109, -1.71482E-010, -3.14089E-012
36, 0.00000, 0.176344, -0.0242212, 0.176343, -0.0242192, 0.176343, -0.0242203, -1.95967E-010, -2.2864E-012
37, 0.00000, 0.12508, -0.0243234, 0.125081, -0.0243242, 0.125081, -0.0243237, -1.06175E-010, -3.85527E-012
38, 0.00000, 0.0354724, -0.0248016, 0.0354721, -0.0248029, 0.0354722, -0.0248023, -1.75954E-011, -1.22533E-012
39, 0.00000, -0.0544657, -0.0258365, -0.0544662, -0.0258367, -0.0544663, -0.0258367, -2.90549E-011, -4.2858E-012
40, 0.00000, -0.0863646, -0.0283865, -0.0863679, -0.0283874, -0.0863687, -0.0283881, -6.2744E-011, -1.18451E-011
41, 0.00000, -0.100424, -0.0330076, -0.100424, -0.0330078, -0.100424, -0.033008, -8.72194E-011, -1.98836E-011
42, 0.00000, -0.111837, -0.036759, -0.111835, -0.0367584, -0.111836, -0.0367587, -1.10217E-010, -2.75828E-011
43, 0.00000, -0.116329, -0.038235, -0.116326, -0.0382348, -0.116324, -0.0382335, -1.19993E-010, -3.06856E-011
44, 0.00000, -0.118925, -0.0390886, -0.118925, -0.0390887, -0.118923, -0.0390881, -1.25814E-010, -3.23324E-011
45, 0.00000, -0.115883, -0.0380891, -0.115884, -0.0380891, -0.115886, -0.0380901, -1.18931E-010, -3.00519E-011
46, 0.00000, -0.10603, -0.0348501, -0.106038, -0.0348528, -0.106036, -0.034853, -9.81001E-011, -2.33854E-011
47, 0.00000, -0.0899941, -0.0295797, -0.0899916, -0.0295792, -0.0899903, -0.0295783, -6.86912E-011, -1.38849E-011
48, 0.00000, -0.0708533, -0.0232884, -0.0708506, -0.0232877, -0.0708499, -0.0232872, -4.10689E-011, -6.34372E-012
49, 0.00000, -0.0548305, -0.0180219, -0.0548291, -0.0180215, -0.0548287, -0.0180213, -2.38658E-011, -2.77259E-012
50, 0.00000, -0.0464627, -0.0152715, -0.0464621, -0.0152713, -0.046462, -0.0152713, -1.68704E-011, -1.62891E-012
51, 0.00000, -0.0425415, -0.0139827, -0.0425413, -0.0139826, -0.0425412, -0.0139826, -1.40398E-011, -1.22861E-012
52, 0.00000, -0.0411901, -0.0135385, -0.0411895, -0.0135383, -0.0411892, -0.0135382, -1.31329E-011, -1.11958E-012
53, 0.00000, -0.0428874, -0.0140964, -0.0428882, -0.0140967, -0.0428886, -0.0140968, -1.42691E-011, -1.2363E-012
54, 0.00000, -0.0494836, -0.0162645, -0.0494841, -0.0162646, -0.0494842, -0.0162647, -1.92314E-011, -1.9598E-012
55, 0.00000, -0.0627233, -0.0206161, -0.0627247, -0.0206165, -0.0627251, -0.0206168, -3.16571E-011, -4.16297E-012
56, 0.00000, -0.0699802, -0.0230013, -0.0699811, -0.0230016, -0.0699814, -0.0230018, -3.99531E-011, -5.96497E-012
57, 0.00000, -0.0355931, -0.0235581, -0.0355922, -0.0235576, -0.035592, -0.0235576, -1.59392E-011, -1.89364E-012
58, 0.00000, -0.0132945, -0.0242395, -0.0132941, -0.0242392, -0.0132941, -0.0242393, -9.45299E-012, -8.39121E-013
59, 0.00000, 0.010907, -0.0244108, 0.0109073, -0.0244105, 0.0109073, -0.0244106, -9.57246E-012, -6.62235E-013
60, 0.00000, 0.0114623, -0.0242198, 0.0114624, -0.0242196, 0.0114624, -0.0242196, -9.51789E-012, -6.51454E-013
61, 0.00000, -0.00124072, -0.0243239, -0.0012409, -0.0243241, -0.00124093, -0.024324, -8.54126E-012, -6.31111E-013
62, 0.00000, -0.0272511, -0.0248026, -0.0272518, -0.024803, -0.0272519, -0.024803, -1.34301E-011, -1.4678E-012
63, 0.00000, -0.0303862, -0.0258365, -0.0303865, -0.0258366, -0.0303865, -0.0258366, -1.54077E-011, -1.8185E-012
64, 0.00000, -0.0863712, -0.0283888, -0.0863721, -0.0283891, -0.0863721, -0.0283892, -6.27896E-011, -1.19599E-011
65, 0.00000, -0.100424, -0.0330076, -0.100424, -0.0330078, -0.100424, -0.033008, -8.72194E-011, -1.98837E-011
66, 0.00000, -0.111837, -0.036759, -0.111835, -0.0367584, -0.111836, -0.0367587, -1.10217E-010, -2.75828E-011
67, 0.00000, -0.116329, -0.038235, -0.116326, -0.0382348, -0.116324, -0.0382335, -1.19993E-010, -3.06856E-011
68, 0.00000, -0.118925, -0.0390886, -0.118925, -0.0390887, -0.118923, -0.0390881, -1.25814E-010, -3.23324E-011
69, 0.00000, -0.115883, -0.0380891, -0.115884, -0.0380891, -0.115886, -0.0380901, -1.18931E-010, -3.00519E-011
70, 0.00000, -0.10603, -0.0348501, -0.106038, -0.0348528, -0.106036, -0.034853, -9.81001E-011, -2.33854E-011
71, 0.00000, -0.0899941, -0.0295797, -0.0899916, -0.0295792, -0.0899903, -0.0295783, -6.86912E-011, -1.38849E-011
72, 0.00000, -0.0708533, -0.0232884, -0.0708506, -0.0232877, -0.0708499, -0.0232872, -4.10689E-011, -6.34372E-012
73, 0.00000, -0.0587789, -0.0193197, -0.0587777, -0.0193193, -0.0587774, -0.0193192, -2.76241E-011, -3.4498E-012
74, 0.00000, -0.0496301, -0.0163126, -0.0496294, -0.0163124, -0.0496292, -0.0163123, -1.93617E-011, -2.00774E-012
75, 0.00000, -0.044671, -0.0146826, -0.0446707, -0.0146825, -0.0446706, -0.0146825, -1.55414E-011, -1.43413E-012
76, 0.00000, -0.0423967, -0.0139351, -0.0423956, -0.0139347, -0.0423951, -0.0139346, -1.39479E-011, -1.23551E-012
77, 0.00000, -0.0423716, -0.0139269, -0.0423716, -0.0139269, -0.0423716, -0.0139269, -1.39218E-011, -1.20874E-012
78, 0.00000, -0.044599, -0.014659, -0.0446001, -0.0146594, -0.0446006, -0.0146595, -1.54768E-011, -1.39292E-012
79, 0.00000, -0.0497621, -0.016356, -0.0497624, -0.0163561, -0.0497625, -0.0163562, -1.94594E-011, -1.99766E-012
80, 0.00000, -0.0475977, -0.0195636, -0.0475981, -0.0195638, -0.0475983, -0.0195638, -1.9854E-011, -2.27165E-012
81, 0.00000, 0.00998255, -0.0246458, 0.00998284, -0.0246454, 0.00998286, -0.0246456, -9.61014E-012, -6.73828E-013
82, 0.00000, 0.0580975, -0.0293689, 0.0580975, -0.0293685, 0.0580975, -0.0293687, -3.57812E-011, -2.91347E-012
83, 0.00000, 0.13688, -0.0318669, 0.136879, -0.0318657, 0.136879, -0.0318664, -1.3541E-010, -8.23008E-012
84, 0.00000, 0.1335, -0.0328117, 0.133501, -0.0328138, 0.133502, -0.0328133, -1.31278E-010, -8.58995E-012
85, 0.00000, 0.0947773, -0.0332588, 0.0947775, -0.0332598, 0.0947777, -0.0332593, -7.66999E-011, -6.42284E-012
86, 0.00000, 0.00626001, -0.0338991, 0.00625981, -0.0338993, 0.00625982, -0.0338992, -1.77141E-011, -1.7833E-012
87, 0.00000, -0.0812164, -0.0345329, -0.0812177, -0.0345333, -0.0812178, -0.0345335, -6.36134E-011, -1.37059E-011
88, 0.00000, -0.107138, -0.0352145, -0.107136, -0.0352135, -0.107138, -0.0352139, -1.00512E-010, -2.45717E-011
89, 0.00000, -0.112519, -0.0369833, -0.112514, -0.0369816, -0.112516, -0.0369817, -1.11727E-010, -2.81935E-011
90, 0.00000, -0.115506, -0.0379647, -0.115504, -0.0379646, -0.115503, -0.0379637, -1.18157E-010, -3.00727E-011
91, 0.00000, -0.114899, -0.0377658, -0.114903, -0.0377663, -0.114904, -0.0377678, -1.16739E-010, -2.93359E-011
92, 0.00000, -0.114465, -0.037623, -0.114468, -0.0376234, -0.114469, -0.0376245, -1.15807E-010, -2.91079E-011
93, 0.00000, -0.11012, -0.0361945, -0.110124, -0.0361958, -0.110123, -0.036196, -1.06531E-010, -2.62455E-011
94, 0.00000, -0.101635, -0.0334057, -0.101638, -0.033407, -0.101636, -0.0334064, -8.95111E-011, -2.06505E-011
95, 0.00000, -0.0894333, -0.0293954, -0.0894304, -0.0293947, -0.0894298, -0.029394, -6.77693E-011, -1.36015E-011
96, 0.00000, -0.0745161, -0.0244923, -0.0745137, -0.0244917, -0.0745132, -0.0244912, -4.57319E-011, -7.45246E-012
97, 0.00000, -0.0600957, -0.0197525, -0.0600942, -0.0197521, -0.0600938, -0.0197519, -2.89492E-011, -3.71129E-012
98, 0.00000, -0.050547, -0.016614, -0.0505463, -0.0166138, -0.0505461, -0.0166137, -2.01179E-011, -2.12841E-012
99, 0.00000, -0.0450151, -0.0147957, -0.0450148, -0.0147956, -0.0450146, -0.0147956, -1.5792E-011, -1.47006E-012
100, 0.00000, -0.0422602, -0.0138902, -0.04226, -0.0138902, -0.04226, -0.0138902, -1.3847E-011, -1.20178E-012
101, 0.00000, -0.0414194, -0.0136139, -0.0414191, -0.0136138, -0.0414189, -0.0136137, -1.32831E-011, -1.13379E-012
102, 0.00000, -0.0427852, -0.0140628, -0.0427858, -0.0140631, -0.0427861, -0.0140631, -1.41998E-011, -1.23061E-012
103, 0.00000, -0.0472558, -0.0155322, -0.0472561, -0.0155323, -0.0472561, -0.0155323, -1.74685E-011, -1.69687E-012
104, 0.00000, -0.0431104, -0.0180753, -0.0431107, -0.0180754, -0.0431108, -0.0180754, -1.63269E-011, -1.70388E-012
105, 0.00000, 0.0151883, -0.0228468, 0.0151885, -0.0228463, 0.0151885, -0.0228465, -9.22163E-012, -5.91189E-013
106, 0.00000, 0.0620806, -0.0279225, 0.0620805, -0.0279222, 0.0620805, -0.0279224, -3.73918E-011, -2.828E-012
107, 0.00000, 0.272063, -0.0311258, 0.272062, -0.0311229, 0.272062, -0.0311251, -4.48744E-010, 2.34877E-012
108, 0.00000, 0.4913, -0.0323833, 0.491301, -0.0323834, 0.491301, -0.0323838, -1.28092E-009, 1.16071E-010
109, 0.00000, 0.476067, -0.0331882, 0.476067, -0.0331889, 0.476068, -0.0331886, -1.21758E-009, 9.96347E-011
110, 0.00000, 0.0681226, -0.0337237, 0.0681227, -0.0337245, 0.0681228, -0.033724, -4.91534E-011, -4.60013E-012
111, 0.00000, -0.0421802, -0.0335502, -0.0421809, -0.0335506, -0.0421809, -0.0335506, -2.83963E-011, -4.60351E-012
112, 0.00000, -0.101198, -0.0332623, -0.1012, -0.0332626, -0.1012, -0.0332628, -8.86989E-011, -2.03944E-011
113, 0.00000, -0.105415, -0.0346483, -0.105414, -0.0346479, -0.105415, -0.034648, -9.70208E-011, -2.33861E-011
114, 0.00000, -0.111028, -0.0364933, -0.111023, -0.0364914, -0.111025, -0.0364917, -1.08582E-010, -2.72392E-011
115, 0.00000, -0.113762, -0.0373917, -0.113761, -0.0373914, -0.11376, -0.037391, -1.14353E-010, -2.89109E-011
116, 0.00000, -0.117186, -0.0385168, -0.117184, -0.0385168, -0.117182, -0.0385157, -1.21888E-010, -3.12005E-011
117, 0.00000, -0.114517, -0.0376402, -0.114519, -0.0376403, -0.11452, -0.0376411, -1.15935E-010, -2.91732E-011
118, 0.00000, -0.104069, -0.0342055, -0.104077, -0.0342083, -0.104074, -0.0342081, -9.42105E-011, -2.21401E-011
119, 0.00000, -0.0876643, -0.0288139, -0.0876638, -0.0288137, -0.0876637, -0.0288136, -6.48635E-011, -1.26265E-011
120, 0.00000, -0.06862, -0.0225544, -0.0686174, -0.0225536, -0.0686168, -0.0225532, -3.83587E-011, -5.71586E-012
121, 0.00000, -0.0548301, -0.0180218, -0.0548288, -0.0180214, -0.0548285, -0.0180212, -2.38633E-011, -2.76686E-012
122, 0.00000, -0.0464627, -0.0152715, -0.0464621, -0.0152713, -0.046462, -0.0152713, -1.68704E-011, -1.62891E-012
123, 0.00000, -0.0425415, -0.0139827, -0.0425413, -0.0139826, -0.0425412, -0.0139826, -1.40398E-011, -1.22861E-012
124, 0.00000, -0.0411901, -0.0135385, -0.0411895, -0.0135383, -0.0411892, -0.0135382, -1.31329E-011, -1.11958E-012
125, 0.00000, -0.0428874, -0.0140964, -0.0428882, -0.0140967, -0.0428886, -0.0140968, -1.42691E-011, -1.2363E-012
126, 0.00000, -0.0494836, -0.0162645, -0.0494841, -0.0162646, -0.0494842, -0.0162647, -1.92314E-011, -1.9598E-012
127, 0.00000, -0.0627233, -0.0206161, -0.0627247, -0.0206165, -0.0627251, -0.0206168, -3.16571E-011, -4.16297E-012
128, 0.00000, -0.0579994, -0.0230018, -0.0579997, -0.0230019, -0.0579998, -0.023002, -2.95123E-011, -4.10287E-012
129, 0.00000, 0.0137143, -0.0235586, 0.0137149, -0.0235576, 0.013715, -0.023558, -9.43903E-012, -6.31126E-013
130, 0.00000, 0.0744273, -0.02424, 0.0744272, -0.0242392, 0.0744271, -0.0242397, -4.45218E-011, -2.61178E-012
131, 0.00000, 0.424745, -0.0244081, 0.424745, -0.0244082, 0.424746, -0.0244089, -9.56662E-010, 9.08456E-011
132, 0.00000, 0.516352, -0.024218, 0.516352, -0.0242183, 0.516352, -0.0242184, -1.34579E-009, 1.74699E-010
133, 0.00000, 0.571135, -0.0243092, 0.571132, -0.0243104, 0.571132, -0.0243124, -1.60249E-009, 2.38403E-010
134, 0.00000, 0.120151, -0.0247977, 0.120153, -0.0248032, 0.120153, -0.0247994, -9.9481E-011, -4.00228E-012
135, 0.00000, 0.00608157, -0.0258366, 0.00608141, -0.0258368, 0.00608141, -0.0258367, -1.00574E-011, -7.48222E-013
136, 0.00000, -0.0863707, -0.0283886, -0.0863719, -0.028389, -0.086372, -0.0283892, -6.27833E-011, -1.19436E-011
137, 0.00000, -0.100424, -0.0330076, -0.100424, -0.0330078, -0.100424, -0.033008, -8.72194E-011, -1.98837E-011
138, 0.00000, -0.111837, -0.036759, -0.111835, -0.0367584, -0.111836, -0.0367587, -1.10217E-010, -2.75828E-011
139, 0.00000, -0.116329, -0.038235, -0.116326, -0.0382348, -0.116324, -0.0382335, -1.19993E-010, -3.06856E-011
140, 0.00000, -0.118925, -0.0390886, -0.118925, -0.0390887, -0.118923, -0.0390881, -1.25814E-010, -3.23324E-011
141, 0.00000, -0.115883, -0.0380891, -0.115884, -0.0380891, -0.115886, -0.0380901, -1.18931E-010, -3.00519E-011
142, 0.00000, -0.10603, -0.0348501, -0.106038, -0.0348528, -0.106036, -0.034853, -9.81001E-011, -2.33854E-011
143, 0.00000, -0.0899941, -0.0295797, -0.0899916, -0.0295792, -0.0899903, -0.0295783, -6.86912E-011, -1.38849E-011
144, 0.00000, -0.0708533, -0.0232884, -0.0708506, -0.0232877, -0.0708499, -0.0232872, -4.10689E-011, -6.34372E-012
145, 0.00000, -0.0548305, -0.0180219, -0.0548291, -0.0180215, -0.0548287, -0.0180213, -2.38658E-011, -2.77259E-012
146, 0.00000, -0.0464627, -0.0152715, -0.0464621, -0.0152713, -0.046462, -0.0152713, -1.68704E-011, -1.62891E-012
147, 0.00000, -0.0425415, -0.0139827, -0.0425413, -0.0139826, -0.0425412, -0.0139826, -1.40398E-011, -1.22861E-012
148, 0.00000, -0.0411901, -0.0135385, -0.0411895, -0.0135383, -0.0411892, -0.0135382, -1.31329E-011, -1.11958E-012
149, 0.00000, -0.0428874, -0.0140964, -0.0428882, -0.0140967, -0.0428886, -0.0140968, -1.42691E-011, -1.2363E-012
150, 0.00000, -0.0494836, -0.0162645, -0.0494841, -0.0162646, -0.0494842, -0.0162647, -1.92314E-011, -1.9598E-012
151, 0.00000, -0.0627233, -0.0206161, -0.0627247, -0.0206165, -0.0627251, -0.0206168, -3.16571E-011, -4.16297E-012
152, 0.00000, -0.0459289, -0.0230022, -0.0459288, -0.0230022, -0.0459288, -0.0230022, -2.10985E-011, -2.68978E-012
153, 0.00000, 0.0514189, -0.0235589, 0.051419, -0.0235575, 0.0514189, -0.0235583, -2.56053E-011, -1.63499E-012
154, 0.00000, 0.0743819, -0.0242393, 0.0743818, -0.0242391, 0.0743818, -0.0242393, -4.44748E-011, -2.60765E-012
155, 0.00000, 0.160956, -0.0244113, 0.160955, -0.0244101, 0.160955, -0.0244109, -1.6647E-010, -3.26244E-012
156, 0.00000, 0.174059, -0.0242213, 0.174058, -0.0242192, 0.174057, -0.0242204, -1.91403E-010, -2.4429E-012
157, 0.00000, 0.123563, -0.0243234, 0.123563, -0.0243242, 0.123563, -0.0243237, -1.03925E-010, -3.84841E-012
158, 0.00000, 0.0345949, -0.0248016, 0.0345946, -0.0248029, 0.0345946, -0.0248023, -1.71885E-011, -1.19733E-012
159, 0.00000, -0.0546579, -0.0258365, -0.0546584, -0.0258367, -0.0546584, -0.0258367, -2.91975E-011, -4.31286E-012
160, 0.00000, -0.0863646, -0.0283865, -0.0863679, -0.0283874, -0.0863687, -0.0283881, -6.27443E-011, -1.18457E-011
161, 0.00000, -0.100424, -0.0330076, -0.100424, -0.0330078, -0.100424, -0.033008, -8.72194E-011, -1.98836E-011
162, 0.00000, -0.111837, -0.036759, -0.111835, -0.0367584, -0.111836, -0.0367587, -1.10217E-010, -2.75828E-011
163, 0.00000, -0.116329, -0.038235, -0.116326, -0.0382348, -0.116324, -0.0382335, -1.19993E-010, -3.06856E-011
164, 0.00000, -0.118925, -0.0390886, -0.118925, -0.0390887, -0.118923, -0.0390881, -1.25814E-010, -3.23324E-011
165, 0.00000, -0.115883, -0.0380891, -0.115884, -0.0380891, -0.115886, -0.0380901, -1.18931E-010, -3.00519E-011
166, 0.00000, -0.10603, -0.0348501, -0.106038, -0.0348528, -0.106036, -0.034853, -9.81001E-011, -2.33854E-011
167, 0.00000, -0.0899941, -0.0295797, -0.0899916, -0.0295792, -0.0899903, -0.0295783, -6.86912E-011, -1.38849E-011
168, 0.00000, -0.0708533, -0.0232884, -0.0708506, -0.0232877, -0.0708499, -0.0232872, -4.10689E-011, -6.34372E-012
169, 0.00000, -0.0548305, -0.0180219, -0.0548291, -0.0180215, -0.0548287, -0.0180213, -2.38658E-011, -2.77259E-012
170, 0.00000, -0.0464627, -0.0152715, -0.0464621, -0.0152713, -0.046462, -0.0152713, -1.68704E-011, -1.62891E-012
171, 0.00000, -0.0425415, -0.0139827, -0.0425413, -0.0139826, -0.0425412, -0.0139826, -1.40398E-011, -1.22861E-012
172, 0.00000, -0.0411901, -0.0135385, -0.0411895, -0.0135383, -0.0411892, -0.0135382, -1.31329E-011, -1.11958E-012
173, 0.00000, -0.0428874, -0.0140964, -0.0428882, -0.0140967, -0.0428886, -0.0140968, -1.42691E-011, -1.2363E-012
174, 0.00000, -0.0494836, -0.0162645, -0.0494841, -0.0162646, -0.0494842, -0.0162647, -1.92314E-011, -1.9598E-012
175, 0.00000, -0.0627233, -0.0206161, -0.0627247, -0.0206165, -0.0627251, -0.0206168, -3.16571E-011, -4.16297E-012
176, 0.00000, -0.0580196, -0.0230018, -0.0580199, -0.0230019, -0.05802, -0.023002, -2.95281E-011, -4.10562E-012
177, 0.00000, 0.0383362, -0.023559, 0.0383364, -0.0235576, 0.0383364, -0.0235583, -1.80112E-011, -1.19368E-012
