hour, t(sec), P1 (kW), Q1 (kvar), P2 (kW), Q2 (kvar), P3 (kW), Q3 (kvar), P4 (kW), Q4 (kvar)
1, 0.00000, -0.083587, -0.0274737, -0.0835881, -0.027474, -0.0835882, -0.0274741, -4.15081E-011, -5.56822E-012
2, 0.00000, -0.0708367, -0.0232829, -0.0708358, -0.0232826, -0.0708356, -0.0232825, -2.92128E-011, -3.31309E-012
3, 0.00000, -0.0648584, -0.0213179, -0.0648581, -0.0213178, -0.064858, -0.0213178, -2.42461E-011, -2.492E-012
4, 0.00000, -0.0627989, -0.020641, -0.0627978, -0.0206406, -0.0627974, -0.0206405, -2.26629E-011, -2.26806E-012
5, 0.00000, -0.0653845, -0.0214909, -0.0653859, -0.0214914, -0.0653865, -0.0214915, -2.4641E-011, -2.51105E-012
6, 0.00000, -0.075442, -0.0247966, -0.0754428, -0.0247969, -0.075443, -0.0247969, -3.33637E-011, -4.00257E-012
7, 0.00000, -0.095627, -0.031431, -0.0956292, -0.0314317, -0.0956296, -0.031432, -5.54078E-011, -8.60259E-012
8, 0.00000, -0.106694, -0.0350685, -0.106694, -0.0350686, -0.106694, -0.0350687, -6.94298E-011, -1.13775E-011
9, 0.00000, -0.109275, -0.0359167, -0.109272, -0.0359161, -0.109272, -0.0359155, -6.54435E-011, -4.33641E-012
10, 0.00000, -0.112433, -0.0369548, -0.112432, -0.0369547, -0.112432, -0.0369546, -6.63018E-011, -2.11278E-012
11, 0.00000, -0.113235, -0.0372199, -0.113231, -0.0372187, -0.113231, -0.0372184, -5.64323E-011, 4.48416E-012
12, 0.00000, -0.112322, -0.0369187, -0.112325, -0.0369195, -0.112325, -0.0369198, -5.49047E-011, 4.80842E-012
13, 0.00000, -0.112826, -0.0370839, -0.112827, -0.037084, -0.112827, -0.0370841, -5.92046E-011, 2.89944E-012
14, 0.00000, -0.115041, -0.0378127, -0.115045, -0.0378135, -0.115046, -0.0378143, -7.23743E-011, -4.61066E-012
15, 0.00000, -0.119842, -0.0393901, -0.119843, -0.0393904, -0.119843, -0.0393905, -8.6315E-011, -1.2963E-011
16, 0.00000, -0.131681, -0.0432813, -0.131682, -0.0432817, -0.131682, -0.0432819, -1.11659E-010, -2.52049E-011
17, 0.00000, -0.153105, -0.0503231, -0.153106, -0.0503234, -0.153106, -0.0503236, -1.56562E-010, -4.24508E-011
18, 0.00000, -0.170503, -0.0560418, -0.170504, -0.056042, -0.170504, -0.0560421, -2.00032E-010, -6.19704E-011
19, 0.00000, -0.177346, -0.0582908, -0.177349, -0.0582915, -0.177348, -0.0582918, -2.18959E-010, -7.12155E-011
20, 0.00000, -0.181308, -0.0595931, -0.18131, -0.0595936, -0.18131, -0.0595938, -2.3049E-010, -7.72477E-011
21, 0.00000, -0.176679, -0.0580715, -0.176677, -0.0580711, -0.176677, -0.0580709, -2.17184E-010, -7.06033E-011
22, 0.00000, -0.161664, -0.0531364, -0.16166, -0.0531355, -0.16166, -0.0531347, -1.7725E-010, -5.17153E-011
23, 0.00000, -0.137206, -0.0450975, -0.1372, -0.0450961, -0.137199, -0.0450949, -1.22508E-010, -2.94013E-011
24, 0.00000, -0.108023, -0.0355055, -0.108019, -0.0355043, -0.108018, -0.0355036, -7.22981E-011, -1.31616E-011
25, 0.00000, -0.0835945, -0.0274762, -0.0835922, -0.0274755, -0.0835917, -0.0274752, -4.15628E-011, -5.67505E-012
26, 0.00000, -0.0708367, -0.0232829, -0.0708358, -0.0232826, -0.0708356, -0.0232825, -2.92128E-011, -3.31317E-012
27, 0.00000, -0.0648584, -0.0213179, -0.0648581, -0.0213178, -0.064858, -0.0213178, -2.42461E-011, -2.492E-012
28, 0.00000, -0.0627989, -0.020641, -0.0627978, -0.0206406, -0.0627974, -0.0206405, -2.26629E-011, -2.26806E-012
29, 0.00000, -0.0653845, -0.0214909, -0.0653859, -0.0214914, -0.0653865, -0.0214915, -2.4641E-011, -2.51105E-012
30, 0.00000, -0.075442, -0.0247966, -0.0754428, -0.0247969, -0.075443, -0.0247969, -3.33637E-011, -4.00257E-012
31, 0.00000, -0.095627, -0.031431, -0.0956292, -0.0314317, -0.0956296, -0.031432, -5.54078E-011, -8.60259E-012
32, 0.00000, -0.106694, -0.0350685, -0.106694, -0.0350686, -0.106694, -0.0350687, -6.94411E-011, -1.13909E-011
33, 0.00000, -0.109276, -0.0359171, -0.109273, -0.0359163, -0.109272, -0.0359158, -6.80197E-011, -6.74977E-012
34, 0.00000, -0.112434, -0.0369552, -0.112433, -0.036955, -0.112433, -0.0369547, -6.80643E-011, -3.54892E-012
35, 0.00000, -0.113227, -0.0372158, -0.113226, -0.0372158, -0.113226, -0.0372156, -6.37204E-011, 3.93468E-013
36, 0.00000, -0.112338, -0.0369236, -0.112337, -0.0369237, -0.112337, -0.0369235, -6.19538E-011, 9.10533E-013
37, 0.00000, -0.112826, -0.0370842, -0.112827, -0.0370843, -0.112827, -0.0370844, -6.54982E-011, -1.15051E-012
38, 0.00000, -0.115043, -0.0378131, -0.115046, -0.0378138, -0.115047, -0.0378144, -7.42217E-011, -6.30595E-012
39, 0.00000, -0.119842, -0.03939, -0.119843, -0.0393903, -0.119843, -0.0393904, -8.84712E-011, -1.55234E-011
40, 0.00000, -0.131668, -0.0432771, -0.131674, -0.0432786, -0.131675, -0.0432798, -1.11546E-010, -2.49565E-011
41, 0.00000, -0.153105, -0.0503231, -0.153106, -0.0503234, -0.153106, -0.0503236, -1.56562E-010, -4.24506E-011
42, 0.00000, -0.170503, -0.0560418, -0.170504, -0.056042, -0.170504, -0.0560421, -2.00032E-010, -6.19704E-011
43, 0.00000, -0.177346, -0.0582908, -0.177349, -0.0582915, -0.177348, -0.0582918, -2.18959E-010, -7.12155E-011
44, 0.00000, -0.181308, -0.0595931, -0.18131, -0.0595936, -0.18131, -0.0595938, -2.3049E-010, -7.72477E-011
45, 0.00000, -0.176679, -0.0580715, -0.176677, -0.0580711, -0.176677, -0.0580709, -2.17184E-010, -7.06033E-011
46, 0.00000, -0.161664, -0.0531364, -0.16166, -0.0531355, -0.16166, -0.0531347, -1.7725E-010, -5.17153E-011
47, 0.00000, -0.137206, -0.0450975, -0.1372, -0.0450961, -0.137199, -0.0450949, -1.22508E-010, -2.94013E-011
48, 0.00000, -0.108023, -0.0355055, -0.108019, -0.0355043, -0.108018, -0.0355036, -7.22981E-011, -1.31616E-011
49, 0.00000, -0.0835945, -0.0274762, -0.0835922, -0.0274755, -0.0835917, -0.0274752, -4.15628E-011, -5.67505E-012
50, 0.00000, -0.0708367, -0.0232829, -0.0708358, -0.0232826, -0.0708356, -0.0232825, -2.92128E-011, -3.31317E-012
51, 0.00000, -0.0648584, -0.0213179, -0.0648581, -0.0213178, -0.064858, -0.0213178, -2.42461E-011, -2.492E-012
52, 0.00000, -0.0627989, -0.020641, -0.0627978, -0.0206406, -0.0627974, -0.0206405, -2.26629E-011, -2.26806E-012
53, 0.00000, -0.0653845, -0.0214909, -0.0653859, -0.0214914, -0.0653865, -0.0214915, -2.4641E-011, -2.51105E-012
54, 0.00000, -0.075442, -0.0247966, -0.0754428, -0.0247969, -0.075443, -0.0247969, -3.33637E-011, -4.00257E-012
55, 0.00000, -0.095627, -0.031431, -0.0956292, -0.0314317, -0.0956296, -0.031432, -5.54078E-011, -8.60259E-012
56, 0.00000, -0.106691, -0.0350676, -0.106692, -0.035068, -0.106693, -0.0350682, -7.02733E-011, -1.23972E-011
57, 0.00000, -0.109275, -0.0359168, -0.109272, -0.0359161, -0.109272, -0.0359158, -7.14754E-011, -1.04159E-011
58, 0.00000, -0.112435, -0.0369554, -0.112433, -0.0369551, -0.112433, -0.0369549, -7.42302E-011, -9.43545E-012
59, 0.00000, -0.113229, -0.0372164, -0.113228, -0.0372161, -0.113227, -0.037216, -7.3575E-011, -7.79705E-012
60, 0.00000, -0.112343, -0.0369251, -0.112342, -0.036925, -0.112342, -0.0369249, -7.23163E-011, -7.54375E-012
61, 0.00000, -0.112825, -0.0370839, -0.112826, -0.0370841, -0.112826, -0.0370842, -7.38623E-011, -8.53219E-012
62, 0.00000, -0.115045, -0.0378136, -0.115047, -0.0378141, -0.115048, -0.0378145, -7.89457E-011, -1.11944E-011
63, 0.00000, -0.119842, -0.0393901, -0.119842, -0.0393902, -0.119842, -0.0393903, -8.63752E-011, -1.30363E-011
64, 0.00000, -0.131681, -0.0432813, -0.131682, -0.0432817, -0.131682, -0.0432819, -1.11659E-010, -2.52056E-011
65, 0.00000, -0.153105, -0.0503231, -0.153106, -0.0503234, -0.153106, -0.0503236, -1.56562E-010, -4.24508E-011
66, 0.00000, -0.170503, -0.0560418, -0.170504, -0.056042, -0.170504, -0.0560421, -2.00032E-010, -6.19704E-011
67, 0.00000, -0.177346, -0.0582908, -0.177349, -0.0582915, -0.177348, -0.0582918, -2.18959E-010, -7.12155E-011
68, 0.00000, -0.181308, -0.0595931, -0.18131, -0.0595936, -0.18131, -0.0595938, -2.3049E-010, -7.72477E-011
69, 0.00000, -0.176679, -0.0580715, -0.176677, -0.0580711, -0.176677, -0.0580709, -2.17184E-010, -7.06033E-011
70, 0.00000, -0.161664, -0.0531364, -0.16166, -0.0531355, -0.16166, -0.0531347, -1.7725E-010, -5.17153E-011
71, 0.00000, -0.137206, -0.0450975, -0.1372, -0.0450961, -0.137199, -0.0450949, -1.22508E-010, -2.94013E-011
72, 0.00000, -0.108023, -0.0355055, -0.108019, -0.0355043, -0.108018, -0.0355036, -7.22981E-011, -1.31616E-011
73, 0.00000, -0.0896141, -0.0294547, -0.0896122, -0.0294542, -0.0896118, -0.0294539, -4.82337E-011, -7.08803E-012
74, 0.00000, -0.0756658, -0.0248701, -0.0756647, -0.0248698, -0.0756645, -0.0248697, -3.35986E-011, -4.09432E-012
75, 0.00000, -0.068105, -0.022385, -0.0681045, -0.0223849, -0.0681044, -0.0223849, -2.68781E-011, -2.91369E-012
76, 0.00000, -0.0646391, -0.0212458, -0.0646372, -0.0212451, -0.0646364, -0.021245, -2.40919E-011, -2.50458E-012
77, 0.00000, -0.0645994, -0.0212328, -0.0645994, -0.0212328, -0.0645993, -0.0212328, -2.40388E-011, -2.45232E-012
78, 0.00000, -0.0679937, -0.0223485, -0.0679956, -0.0223491, -0.0679964, -0.0223493, -2.67555E-011, -2.83369E-012
79, 0.00000, -0.0758666, -0.0249362, -0.0758672, -0.0249364, -0.0758674, -0.0249364, -3.37661E-011, -4.08025E-012
80, 0.00000, -0.0907455, -0.0298266, -0.0907461, -0.0298268, -0.0907463, -0.0298269, -4.89289E-011, -6.62059E-012
81, 0.00000, -0.11432, -0.037575, -0.114318, -0.0375746, -0.114318, -0.0375743, -7.51619E-011, -8.13871E-012
82, 0.00000, -0.136226, -0.0447753, -0.136225, -0.0447751, -0.136225, -0.0447749, -1.04072E-010, -9.35417E-012
83, 0.00000, -0.147808, -0.0485819, -0.147807, -0.0485819, -0.147807, -0.0485816, -1.15025E-010, -4.941E-012
84, 0.00000, -0.152213, -0.0500317, -0.152215, -0.0500316, -0.152216, -0.0500322, -1.22815E-010, -5.94672E-012
85, 0.00000, -0.154274, -0.0507077, -0.154275, -0.0507077, -0.154275, -0.0507081, -1.31123E-010, -1.03003E-011
86, 0.00000, -0.15724, -0.0516823, -0.157241, -0.0516825, -0.157241, -0.0516826, -1.48868E-010, -2.33622E-011
87, 0.00000, -0.160179, -0.0526484, -0.160182, -0.052649, -0.160182, -0.0526495, -1.69207E-010, -4.32129E-011
88, 0.00000, -0.163332, -0.0536844, -0.163338, -0.0536859, -0.163339, -0.0536874, -1.81199E-010, -5.28952E-011
89, 0.00000, -0.171538, -0.0563818, -0.17154, -0.0563823, -0.171541, -0.0563829, -2.02787E-010, -6.31914E-011
90, 0.00000, -0.176094, -0.0578794, -0.176096, -0.0578798, -0.176096, -0.05788, -2.15428E-010, -6.9485E-011
91, 0.00000, -0.175184, -0.0575798, -0.175182, -0.0575796, -0.175181, -0.0575791, -2.12961E-010, -6.84797E-011
92, 0.00000, -0.174519, -0.0573615, -0.174518, -0.0573613, -0.174518, -0.057361, -2.11091E-010, -6.75162E-011
93, 0.00000, -0.167893, -0.0551839, -0.167891, -0.0551834, -0.167891, -0.0551831, -1.93159E-010, -5.88845E-011
94, 0.00000, -0.154957, -0.050932, -0.154954, -0.0509313, -0.154953, -0.0509304, -1.60978E-010, -4.45563E-011
95, 0.00000, -0.13635, -0.0448161, -0.136345, -0.044815, -0.136345, -0.044814, -1.20782E-010, -2.87073E-011
96, 0.00000, -0.113607, -0.0373409, -0.113603, -0.0373399, -0.113603, -0.0373392, -8.07009E-011, -1.55181E-011
97, 0.00000, -0.0916217, -0.0301146, -0.0916194, -0.0301139, -0.0916189, -0.0301136, -5.05933E-011, -7.63213E-012
98, 0.00000, -0.0770637, -0.0253296, -0.0770626, -0.0253292, -0.0770623, -0.0253292, -3.49325E-011, -4.34359E-012
99, 0.00000, -0.0686297, -0.0225575, -0.0686291, -0.0225573, -0.068629, -0.0225573, -2.73181E-011, -2.98737E-012
100, 0.00000, -0.0644295, -0.021177, -0.0644293, -0.0211769, -0.0644292, -0.0211769, -2.39084E-011, -2.43733E-012
101, 0.00000, -0.0631482, -0.0207558, -0.0631476, -0.0207556, -0.0631473, -0.0207555, -2.29239E-011, -2.29777E-012
102, 0.00000, -0.0652289, -0.0214397, -0.06523, -0.0214401, -0.0652305, -0.0214402, -2.45208E-011, -2.49899E-012
103, 0.00000, -0.0720456, -0.0236802, -0.0720461, -0.0236804, -0.0720462, -0.0236804, -3.02606E-011, -3.45844E-012
104, 0.00000, -0.083842, -0.0275575, -0.0838422, -0.0275576, -0.0838423, -0.0275576, -4.12997E-011, -5.09835E-012
105, 0.00000, -0.105975, -0.0348321, -0.105973, -0.0348317, -0.105973, -0.0348315, -6.37336E-011, -6.05391E-012
106, 0.00000, -0.129518, -0.0425703, -0.129517, -0.0425701, -0.129517, -0.04257, -9.30979E-011, -7.4358E-012
107, 0.00000, -0.144382, -0.0474583, -0.144379, -0.0474575, -0.144379, -0.047457, -9.69155E-011, 3.77797E-012
108, 0.00000, -0.150212, -0.0493727, -0.150213, -0.0493732, -0.150214, -0.0493734, -8.77926E-011, 1.13387E-011
109, 0.00000, -0.153936, -0.050596, -0.153937, -0.0505963, -0.153938, -0.0505965, -9.36534E-011, 1.12779E-011
110, 0.00000, -0.156428, -0.0514156, -0.156429, -0.0514158, -0.15643, -0.0514161, -1.3858E-010, -1.4071E-011
111, 0.00000, -0.155622, -0.0511504, -0.155623, -0.0511508, -0.155623, -0.0511511, -1.52786E-010, -3.12147E-011
112, 0.00000, -0.154286, -0.0507113, -0.154288, -0.0507118, -0.154288, -0.0507121, -1.59289E-010, -4.3555E-011
113, 0.00000, -0.160712, -0.0528235, -0.160714, -0.052824, -0.160714, -0.0528244, -1.74743E-010, -5.02527E-011
114, 0.00000, -0.169265, -0.0556347, -0.169268, -0.0556352, -0.169268, -0.0556358, -1.9668E-010, -6.0278E-011
115, 0.00000, -0.173437, -0.0570059, -0.173438, -0.0570063, -0.173438, -0.0570065, -2.08013E-010, -6.58095E-011
116, 0.00000, -0.178655, -0.0587209, -0.178657, -0.0587215, -0.178656, -0.0587217, -2.2273E-010, -7.31788E-011
117, 0.00000, -0.174596, -0.057387, -0.174595, -0.0573866, -0.174595, -0.0573865, -2.11312E-010, -6.7631E-011
118, 0.00000, -0.158674, -0.0521535, -0.158669, -0.0521526, -0.158669, -0.0521517, -1.69886E-010, -4.84546E-011
119, 0.00000, -0.133652, -0.0439293, -0.133651, -0.0439291, -0.133651, -0.043929, -1.15454E-010, -2.66288E-011
120, 0.00000, -0.104618, -0.0343863, -0.104614, -0.0343852, -0.104613, -0.0343846, -6.74259E-011, -1.18361E-011
121, 0.00000, -0.0835937, -0.0274759, -0.0835918, -0.0274753, -0.0835913, -0.0274751, -4.15574E-011, -5.66464E-012
122, 0.00000, -0.0708367, -0.0232829, -0.0708358, -0.0232826, -0.0708356, -0.0232825, -2.92128E-011, -3.31316E-012
123, 0.00000, -0.0648584, -0.0213179, -0.0648581, -0.0213178, -0.064858, -0.0213178, -2.42461E-011, -2.492E-012
124, 0.00000, -0.0627989, -0.020641, -0.0627978, -0.0206406, -0.0627974, -0.0206405, -2.26629E-011, -2.26806E-012
125, 0.00000, -0.0653845, -0.0214909, -0.0653859, -0.0214914, -0.0653865, -0.0214915, -2.4641E-011, -2.51105E-012
126, 0.00000, -0.075442, -0.0247966, -0.0754428, -0.0247969, -0.075443, -0.0247969, -3.33637E-011, -4.00257E-012
127, 0.00000, -0.095627, -0.031431, -0.0956292, -0.0314317, -0.0956296, -0.031432, -5.54078E-011, -8.60259E-012
128, 0.00000, -0.106694, -0.0350685, -0.106694, -0.0350686, -0.106694, -0.0350687, -6.94548E-011, -1.14072E-011
129, 0.00000, -0.109276, -0.0359171, -0.109273, -0.0359163, -0.109272, -0.0359158, -6.81095E-011, -6.8387E-012
130, 0.00000, -0.112434, -0.0369552, -0.112433, -0.036955, -0.112433, -0.0369548, -6.82032E-011, -3.66629E-012
131, 0.00000, -0.113222, -0.0372146, -0.113224, -0.037215, -0.113224, -0.0372153, -5.09136E-011, 6.80498E-012
132, 0.00000, -0.112338, -0.0369237, -0.112338, -0.0369239, -0.112339, -0.036924, -4.65877E-011, 7.77894E-012
133, 0.00000, -0.112842, -0.0370902, -0.112838, -0.0370887, -0.112837, -0.0370884, -4.51791E-011, 8.22122E-012
134, 0.00000, -0.115044, -0.0378134, -0.115048, -0.0378141, -0.115049, -0.0378149, -6.84883E-011, -1.45415E-012
135, 0.00000, -0.119842, -0.0393903, -0.119843, -0.0393904, -0.119843, -0.0393905, -8.33226E-011, -9.70556E-012
136, 0.00000, -0.13168, -0.043281, -0.131682, -0.0432815, -0.131682, -0.0432818, -1.11644E-010, -2.51709E-011
137, 0.00000, -0.153105, -0.0503231, -0.153106, -0.0503234, -0.153106, -0.0503236, -1.56562E-010, -4.24508E-011
138, 0.00000, -0.170503, -0.0560418, -0.170504, -0.056042, -0.170504, -0.0560421, -2.00032E-010, -6.19704E-011
139, 0.00000, -0.177346, -0.0582908, -0.177349, -0.0582915, -0.177348, -0.0582918, -2.18959E-010, -7.12155E-011
140, 0.00000, -0.181308, -0.0595931, -0.18131, -0.0595936, -0.18131, -0.0595938, -2.3049E-010, -7.72477E-011
141, 0.00000, -0.176679, -0.0580715, -0.176677, -0.0580711, -0.176677, -0.0580709, -2.17184E-010, -7.06033E-011
142, 0.00000, -0.161664, -0.0531364, -0.16166, -0.0531355, -0.16166, -0.0531347, -1.7725E-010, -5.17153E-011
143, 0.00000, -0.137206, -0.0450975, -0.1372, -0.0450961, -0.137199, -0.0450949, -1.22508E-010, -2.94013E-011
144, 0.00000, -0.108023, -0.0355055, -0.108019, -0.0355043, -0.108018, -0.0355036, -7.22981E-011, -1.31616E-011
145, 0.00000, -0.0835945, -0.0274762, -0.0835922, -0.0274755, -0.0835917, -0.0274752, -4.15628E-011, -5.67505E-012
146, 0.00000, -0.0708367, -0.0232829, -0.0708358, -0.0232826, -0.0708356, -0.0232825, -2.92128E-011, -3.31317E-012
147, 0.00000, -0.0648584, -0.0213179, -0.0648581, -0.0213178, -0.064858, -0.0213178, -2.42461E-011, -2.492E-012
148, 0.00000, -0.0627989, -0.020641, -0.0627978, -0.0206406, -0.0627974, -0.0206405, -2.26629E-011, -2.26806E-012
149, 0.00000, -0.0653845, -0.0214909, -0.0653859, -0.0214914, -0.0653865, -0.0214915, -2.4641E-011, -2.51105E-012
150, 0.00000, -0.075442, -0.0247966, -0.0754428, -0.0247969, -0.075443, -0.0247969, -3.33637E-011, -4.00257E-012
151, 0.00000, -0.095627, -0.031431, -0.0956292, -0.0314317, -0.0956296, -0.031432, -5.54078E-011, -8.60259E-012
152, 0.00000, -0.106696, -0.0350692, -0.106695, -0.0350691, -0.106695, -0.035069, -6.86403E-011, -1.04534E-011
153, 0.00000, -0.109275, -0.0359166, -0.109272, -0.035916, -0.109271, -0.0359155, -6.56727E-011, -4.53519E-012
154, 0.00000, -0.112433, -0.0369548, -0.112432, -0.0369547, -0.112432, -0.0369547, -6.81896E-011, -3.64129E-012
155, 0.00000, -0.113227, -0.0372158, -0.113226, -0.0372158, -0.113226, -0.0372156, -6.38755E-011, 2.8909E-013
156, 0.00000, -0.112338, -0.0369237, -0.112338, -0.0369238, -0.112338, -0.0369236, -6.20834E-011, 8.25347E-013
157, 0.00000, -0.112826, -0.0370842, -0.112827, -0.0370843, -0.112827, -0.0370844, -6.559E-011, -1.21839E-012
158, 0.00000, -0.115043, -0.0378131, -0.115046, -0.0378138, -0.115047, -0.0378143, -7.42843E-011, -6.36474E-012
159, 0.00000, -0.119842, -0.03939, -0.119843, -0.0393903, -0.119843, -0.0393904, -8.84884E-011, -1.55447E-011
160, 0.00000, -0.131668, -0.0432771, -0.131674, -0.0432787, -0.131675, -0.0432799, -1.11547E-010, -2.49579E-011
161, 0.00000, -0.153105, -0.0503231, -0.153106, -0.0503234, -0.153106, -0.0503236, -1.56562E-010, -4.24506E-011
162, 0.00000, -0.170503, -0.0560418, -0.170504, -0.056042, -0.170504, -0.0560421, -2.00032E-010, -6.19704E-011
163, 0.00000, -0.177346, -0.0582908, -0.177349, -0.0582915, -0.177348, -0.0582918, -2.18959E-010, -7.12155E-011
164, 0.00000, -0.181308, -0.0595931, -0.18131, -0.0595936, -0.18131, -0.0595938, -2.3049E-010, -7.72477E-011
165, 0.00000, -0.176679, -0.0580715, -0.176677, -0.0580711, -0.176677, -0.0580709, -2.17184E-010, -7.06033E-011
166, 0.00000, -0.161664, -0.0531364, -0.16166, -0.0531355, -0.16166, -0.0531347, -1.7725E-010, -5.17153E-011
167, 0.00000, -0.137206, -0.0450975, -0.1372, -0.0450961, -0.137199, -0.0450949, -1.22508E-010, -2.94013E-011
168, 0.00000, -0.108023, -0.0355055, -0.108019, -0.0355043, -0.108018, -0.0355036, -7.22981E-011, -1.31616E-011
169, 0.00000, -0.0835945, -0.0274762, -0.0835922, -0.0274755, -0.0835917, -0.0274752, -4.15628E-011, -5.67505E-012
170, 0.00000, -0.0708367, -0.0232829, -0.0708358, -0.0232826, -0.0708356, -0.0232825, -2.92128E-011, -3.31317E-012
171, 0.00000, -0.0648584, -0.0213179, -0.0648581, -0.0213178, -0.064858, -0.0213178, -2.42461E-011, -2.492E-012
172, 0.00000, -0.0627989, -0.020641, -0.0627978, -0.0206406, -0.0627974, -0.0206405, -2.26629E-011, -2.26806E-012
173, 0.00000, -0.0653845, -0.0214909, -0.0653859, -0.0214914, -0.0653865, -0.0214915, -2.4641E-011, -2.51105E-012
174, 0.00000, -0.075442, -0.0247966, -0.0754428, -0.0247969, -0.075443, -0.0247969, -3.33637E-011, -4.00257E-012
175, 0.00000, -0.095627, -0.031431, -0.0956292, -0.0314317, -0.0956296, -0.031432, -5.54078E-011, -8.60259E-012
176, 0.00000, -0.106694, -0.0350685, -0.106694, -0.0350686, -0.106694, -0.0350687, -6.94562E-011, -1.14089E-011
177, 0.00000, -0.109276, -0.0359169, -0.109273, -0.0359162, -0.109272, -0.0359157, -6.651E-011, -5.30499E-012
178, 0.00000, -0.112433, -0.0369549, -0.112432, -0.0369548, -0.112432, -0.0369546, -6.59111E-011, -1.81489E-012
