hour, t(sec), P1 (kW), Q1 (kvar), P2 (kW), Q2 (kvar), P3 (kW), Q3 (kvar), P4 (kW), Q4 (kvar)
1, 0.00000, -0.137515, -0.0452123, -6.07138E-013, 1.64973E-013, 7.89945E-013, 6.01098E-013, -1.40818E-006, 1.27513E-005
2, 0.00000, -0.116534, -0.0383122, 2.00966E-013, -2.28862E-013, 6.84442E-013, 2.85185E-013, -9.17794E-007, 9.09316E-006
3, 0.00000, -0.106701, -0.0350786, -4.78688E-013, 1.81832E-013, -1.946E-013, 5.89871E-013, -7.30738E-007, 7.59786E-006
4, 0.00000, -0.103307, -0.0339624, -3.69324E-013, 2.68201E-014, 3.41487E-013, 1.72158E-013, -6.75063E-007, 7.11517E-006
5, 0.00000, -0.107577, -0.0353669, -7.81809E-014, 5.54072E-013, -2.61477E-013, 3.04584E-013, -7.41248E-007, 7.72332E-006
6, 0.00000, -0.124116, -0.0408056, -6.52226E-013, -4.06361E-013, -3.9623E-013, -1.99483E-013, -1.07598E-006, 1.03398E-005
7, 0.00000, -0.157327, -0.0517282, -6.61039E-013, -1.35576E-013, -3.80546E-013, 4.03556E-014, -2.01474E-006, 1.68041E-005
8, 0.00000, -0.175529, -0.057714, -1.11964E-013, -3.8441E-013, -8.33581E-014, 3.99852E-014, -4.16944E-007, 2.03514E-005
9, 0.00000, -0.179788, -0.0591022, -5.40775E-013, 2.07746E-013, 3.51137E-013, 9.79312E-014, 2.01424E-005, 1.52045E-005
10, 0.00000, -0.184999, -0.0608102, -8.32635E-013, -1.50361E-013, -5.56537E-013, -7.39085E-014, 2.95675E-005, 1.37039E-005
11, 0.00000, -0.186337, -0.0612317, -4.68089E-014, 2.96254E-014, 1.08846E-012, -4.21039E-013, 6.14756E-005, 5.08685E-006
12, 0.00000, -0.184874, -0.0607488, -7.97076E-013, -8.72513E-014, 4.80242E-013, -6.39217E-014, 6.23538E-005, 4.51167E-006
13, 0.00000, -0.18567, -0.0610175, 1.62388E-013, 3.31866E-013, 1.2378E-012, -6.96537E-014, 5.12721E-005, 7.7255E-006
14, 0.00000, -0.189295, -0.0622271, -2.74967E-015, 3.39405E-013, 9.61347E-014, -5.14273E-014, 2.29498E-005, 1.66858E-005
15, 0.00000, -0.197167, -0.0648272, -6.25501E-013, 2.71599E-014, -3.53821E-015, -1.39843E-013, 6.50455E-006, 2.3627E-005
16, 0.00000, -0.216633, -0.071238, 3.10491E-013, 5.90176E-014, 3.20439E-013, 2.83442E-013, -4.89774E-006, 3.25604E-005
17, 0.00000, -0.251877, -0.0828349, -3.20946E-014, 1.65631E-013, -9.01067E-014, 6.48442E-015, -7.56108E-006, 4.46173E-005
18, 0.00000, -0.280499, -0.0922542, -1.51076E-013, 2.68051E-013, 3.3586E-013, 2.00467E-013, -8.72607E-006, 5.58574E-005
19, 0.00000, -0.291763, -0.0959604, 6.81752E-013, 4.07537E-013, 7.6558E-014, 1.48963E-013, -8.63921E-006, 6.00362E-005
20, 0.00000, -0.298278, -0.0981043, -2.05499E-013, 1.38111E-013, 4.89239E-013, 2.83092E-013, -8.54616E-006, 6.23057E-005
21, 0.00000, -0.290651, -0.0955949, 1.66714E-013, -4.67058E-013, 4.1852E-013, 1.17427E-013, -8.64074E-006, 5.96015E-005
22, 0.00000, -0.265939, -0.0874634, -1.22658E-013, 1.05071E-013, -2.57196E-013, 3.00864E-013, -8.52867E-006, 5.00037E-005
23, 0.00000, -0.225702, -0.0742228, -8.01946E-013, -2.29422E-013, 3.08316E-014, -4.55411E-013, -5.53528E-006, 3.54777E-005
24, 0.00000, -0.177699, -0.0584297, -4.87405E-013, 3.90805E-015, 3.67253E-013, -4.80601E-014, -2.83546E-006, 2.16029E-005
25, 0.00000, -0.137518, -0.0452132, 3.66887E-013, 7.41679E-014, 1.09682E-013, -3.41404E-013, -1.41857E-006, 1.27548E-005
26, 0.00000, -0.116534, -0.0383122, -1.24078E-012, 8.94888E-014, 3.04498E-013, -3.62302E-013, -9.17803E-007, 9.09316E-006
27, 0.00000, -0.106701, -0.0350786, 3.40633E-013, 2.40902E-013, 7.91831E-013, 2.66423E-013, -7.30738E-007, 7.59786E-006
28, 0.00000, -0.103307, -0.0339624, 2.95106E-013, 5.01671E-013, 4.57394E-013, 5.36336E-013, -6.75063E-007, 7.11517E-006
29, 0.00000, -0.107577, -0.0353669, -7.81596E-014, 5.54091E-013, -2.61471E-013, 3.04556E-013, -7.41248E-007, 7.72332E-006
30, 0.00000, -0.124116, -0.0408056, -6.52226E-013, -4.06361E-013, -3.9623E-013, -1.99483E-013, -1.07598E-006, 1.03398E-005
31, 0.00000, -0.157327, -0.0517282, -6.61039E-013, -1.35576E-013, -3.80546E-013, 4.03556E-014, -2.01474E-006, 1.68041E-005
32, 0.00000, -0.175529, -0.057714, 4.39886E-013, 2.32785E-013, 7.36319E-013, -6.62493E-014, -4.47643E-007, 2.03608E-005
33, 0.00000, -0.179781, -0.0591043, -5.9488E-013, -1.60225E-013, -2.52602E-013, -1.88334E-013, 1.31417E-005, 1.72716E-005
34, 0.00000, -0.184994, -0.0608118, -4.31268E-013, -4.39752E-013, 1.76071E-014, -6.13929E-014, 2.47982E-005, 1.50886E-005
35, 0.00000, -0.186315, -0.061237, -1.42898E-012, -2.19955E-013, 4.83685E-013, -1.83638E-013, 3.97704E-005, 1.11009E-005
36, 0.00000, -0.184859, -0.0607569, 2.99486E-013, 6.51292E-013, 4.64455E-013, 3.10144E-013, 4.14084E-005, 1.029E-005
37, 0.00000, -0.185651, -0.0610225, -8.79221E-013, 5.38432E-013, 7.32979E-014, -4.65222E-014, 3.32226E-005, 1.28078E-005
38, 0.00000, -0.189291, -0.0622289, 8.64254E-013, 7.46499E-013, 2.82058E-013, 4.99774E-013, 1.82107E-005, 1.80847E-005
39, 0.00000, -0.197162, -0.0648287, -8.45214E-013, 4.52637E-013, -3.71056E-013, 2.02752E-013, 1.37568E-006, 2.51935E-005
40, 0.00000, -0.21663, -0.071236, -5.23947E-013, -1.48674E-013, 6.06068E-014, -2.76489E-013, -4.87721E-006, 3.25514E-005
41, 0.00000, -0.251877, -0.0828349, -1.32757E-012, -4.42932E-013, -4.82028E-013, -1.89609E-014, -7.56107E-006, 4.46173E-005
42, 0.00000, -0.280499, -0.0922542, -7.0641E-013, -3.42302E-013, 1.05216E-012, -8.77819E-014, -8.72607E-006, 5.58574E-005
43, 0.00000, -0.291763, -0.0959604, -2.22863E-013, 4.06444E-013, 1.22076E-013, 4.83985E-013, -8.63921E-006, 6.00362E-005
44, 0.00000, -0.298278, -0.0981043, -2.0551E-013, 1.38105E-013, 4.89239E-013, 2.83105E-013, -8.54616E-006, 6.23057E-005
45, 0.00000, -0.290651, -0.0955949, 1.66714E-013, -4.67058E-013, 4.1852E-013, 1.17427E-013, -8.64074E-006, 5.96015E-005
46, 0.00000, -0.265939, -0.0874634, -1.22658E-013, 1.05071E-013, -2.57196E-013, 3.00864E-013, -8.52867E-006, 5.00037E-005
47, 0.00000, -0.225702, -0.0742228, -8.01946E-013, -2.29422E-013, 3.08316E-014, -4.55411E-013, -5.53528E-006, 3.54777E-005
48, 0.00000, -0.177699, -0.0584297, -4.87405E-013, 3.90805E-015, 3.67253E-013, -4.80601E-014, -2.83546E-006, 2.16029E-005
49, 0.00000, -0.137518, -0.0452132, 3.66887E-013, 7.41679E-014, 1.09682E-013, -3.41404E-013, -1.41857E-006, 1.27548E-005
50, 0.00000, -0.116534, -0.0383122, -1.24078E-012, 8.94888E-014, 3.04498E-013, -3.62302E-013, -9.17803E-007, 9.09316E-006
51, 0.00000, -0.106701, -0.0350786, 3.40633E-013, 2.40902E-013, 7.91831E-013, 2.66423E-013, -7.30738E-007, 7.59786E-006
52, 0.00000, -0.103307, -0.0339624, 2.95106E-013, 5.01671E-013, 4.57394E-013, 5.36336E-013, -6.75063E-007, 7.11517E-006
53, 0.00000, -0.107577, -0.0353669, -7.81596E-014, 5.54091E-013, -2.61471E-013, 3.04556E-013, -7.41248E-007, 7.72332E-006
54, 0.00000, -0.124116, -0.0408056, -6.52226E-013, -4.06361E-013, -3.9623E-013, -1.99483E-013, -1.07598E-006, 1.03398E-005
55, 0.00000, -0.157327, -0.0517282, -6.61039E-013, -1.35576E-013, -3.80546E-013, 4.03556E-014, -2.01474E-006, 1.68041E-005
56, 0.00000, -0.175526, -0.0577144, -7.22013E-013, -3.69584E-013, 4.44274E-013, 4.5234E-014, -2.71885E-006, 2.10537E-005
57, 0.00000, -0.179771, -0.0591068, 5.98916E-013, 9.2884E-014, 2.24417E-013, 2.75945E-013, 3.92713E-006, 2.00361E-005
58, 0.00000, -0.184978, -0.0608166, -2.16652E-013, -3.66363E-014, 5.89961E-013, 7.20838E-014, 8.56101E-006, 1.98999E-005
59, 0.00000, -0.18629, -0.061245, -3.93858E-013, -1.22761E-013, -9.90153E-014, 3.73471E-013, 1.32296E-005, 1.88225E-005
60, 0.00000, -0.184831, -0.0607654, 3.20003E-013, -1.1422E-014, -9.125E-013, 3.22241E-013, 1.31461E-005, 1.84892E-005
61, 0.00000, -0.185629, -0.0610289, -1.17336E-013, 5.72034E-013, -4.15374E-013, 1.86231E-013, 1.08954E-005, 1.9358E-005
62, 0.00000, -0.18928, -0.0622329, 3.29634E-013, -6.34782E-014, 6.60461E-013, 1.78344E-013, 6.3027E-006, 2.16538E-005
63, 0.00000, -0.197167, -0.0648272, 5.31693E-013, 2.02347E-013, 6.95335E-013, 1.49669E-013, 6.36907E-006, 2.36678E-005
64, 0.00000, -0.216633, -0.071238, -3.23824E-013, -3.79248E-013, 7.70415E-013, -4.25665E-014, -4.89779E-006, 3.25604E-005
65, 0.00000, -0.251877, -0.0828349, 5.92498E-014, 4.16286E-013, -8.60048E-013, 4.83506E-014, -7.56108E-006, 4.46173E-005
66, 0.00000, -0.280499, -0.0922542, -7.65952E-016, 1.09993E-013, -1.96966E-013, -2.95308E-013, -8.72607E-006, 5.58574E-005
67, 0.00000, -0.291763, -0.0959604, 6.81749E-013, 4.07592E-013, 7.66069E-014, 1.48938E-013, -8.63921E-006, 6.00362E-005
68, 0.00000, -0.298278, -0.0981043, -2.05499E-013, 1.38111E-013, 4.89239E-013, 2.83092E-013, -8.54616E-006, 6.23057E-005
69, 0.00000, -0.290651, -0.0955949, 1.66714E-013, -4.67058E-013, 4.1852E-013, 1.17427E-013, -8.64074E-006, 5.96015E-005
70, 0.00000, -0.265939, -0.0874634, -1.22658E-013, 1.05071E-013, -2.57196E-013, 3.00864E-013, -8.52867E-006, 5.00037E-005
71, 0.00000, -0.225702, -0.0742228, -8.01946E-013, -2.29422E-013, 3.08316E-014, -4.55411E-013, -5.53528E-006, 3.54777E-005
72, 0.00000, -0.177699, -0.0584297, -4.87405E-013, 3.90805E-015, 3.67253E-013, -4.80601E-014, -2.83546E-006, 2.16029E-005
73, 0.00000, -0.147422, -0.0484706, -1.87764E-013, -3.68948E-013, -3.46284E-013, -4.37017E-014, -1.70469E-006, 1.47081E-005
74, 0.00000, -0.124478, -0.0409246, -6.31505E-014, 1.70368E-013, 4.71832E-013, -9.27435E-014, -1.08949E-006, 1.04032E-005
75, 0.00000, -0.112041, -0.0368349, -1.35338E-013, -4.53459E-013, 5.76474E-013, 3.17137E-014, -8.28436E-007, 8.39256E-006
76, 0.00000, -0.106329, -0.0349561, -6.44683E-013, 2.50283E-013, 2.41939E-013, -6.34083E-014, -7.28614E-007, 7.54609E-006
77, 0.00000, -0.106276, -0.0349389, -1.48379E-013, 3.38364E-013, 3.08711E-013, 2.59544E-013, -7.22506E-007, 7.53612E-006
78, 0.00000, -0.111872, -0.0367795, -3.35465E-013, 2.15948E-013, 5.09649E-013, 4.07238E-014, -8.18282E-007, 8.36388E-006
79, 0.00000, -0.124814, -0.0410351, -4.1022E-013, -2.95633E-014, -2.49816E-013, 2.33791E-014, -1.09232E-006, 1.04591E-005
80, 0.00000, -0.149293, -0.0490847, 2.44644E-013, 4.40276E-013, 1.22798E-012, 2.40881E-013, 9.6918E-008, 1.45328E-005
81, 0.00000, -0.188083, -0.0618348, -6.18987E-013, 4.83364E-013, 4.41388E-013, 2.23491E-013, 1.32865E-005, 1.92504E-005
82, 0.00000, -0.224141, -0.0736865, -9.95752E-013, -9.0452E-014, 2.50065E-013, 1.27623E-013, 2.89712E-005, 2.44307E-005
83, 0.00000, -0.243218, -0.0799489, -5.23977E-013, 2.65576E-013, 7.39241E-013, 2.48956E-013, 5.10096E-005, 2.38235E-005
84, 0.00000, -0.250477, -0.0823358, -6.93898E-013, -1.74634E-013, -2.23329E-013, -3.72012E-013, 5.23966E-005, 2.57731E-005
85, 0.00000, -0.253852, -0.0834518, -2.37134E-013, -8.38685E-014, -2.25523E-013, -2.00639E-013, 4.42013E-005, 2.93281E-005
86, 0.00000, -0.258709, -0.0850636, -6.9832E-013, -6.59983E-013, 4.3948E-013, -9.02017E-015, 2.27582E-005, 3.74903E-005
87, 0.00000, -0.263524, -0.0866632, 2.26427E-013, 3.16478E-013, 1.0223E-012, 5.18174E-014, -1.39989E-006, 4.6757E-005
88, 0.00000, -0.26872, -0.0883769, -8.81005E-013, -2.31892E-013, -4.07546E-013, 2.14613E-013, -8.65912E-006, 5.10784E-005
89, 0.00000, -0.282209, -0.0928165, -6.07832E-013, 4.87353E-014, 6.42154E-013, 2.79203E-014, -8.7189E-006, 5.65342E-005
90, 0.00000, -0.289701, -0.0952819, -6.36429E-013, 1.06945E-013, 5.474E-013, 3.37191E-013, -8.66644E-006, 5.92831E-005
91, 0.00000, -0.288185, -0.0947838, -1.56228E-013, 2.89906E-015, 3.09451E-013, 5.04719E-013, -8.67698E-006, 5.87069E-005
92, 0.00000, -0.287095, -0.094425, 7.67393E-013, 1.58987E-013, 9.91789E-013, 3.10477E-013, -8.69327E-006, 5.83153E-005
93, 0.00000, -0.276195, -0.0908382, -5.78218E-014, -2.27418E-013, 2.23172E-013, 7.0727E-014, -8.75239E-006, 5.40981E-005
94, 0.00000, -0.254909, -0.0838336, 8.0001E-014, -2.18307E-014, 3.42621E-013, 9.78154E-014, -7.83106E-006, 4.57664E-005
95, 0.00000, -0.224298, -0.0737606, -1.11638E-012, -2.64277E-013, -3.44605E-013, 6.25021E-014, -5.4357E-006, 3.50156E-005
96, 0.00000, -0.186887, -0.0614522, 3.25617E-013, 4.65684E-013, 8.6581E-013, -4.05841E-013, -3.25474E-006, 2.39732E-005
97, 0.00000, -0.150723, -0.0495564, -5.27366E-013, 1.99215E-013, 9.13174E-014, 2.4574E-013, -1.81019E-006, 1.53924E-005
98, 0.00000, -0.126777, -0.0416809, -7.65201E-014, -1.37625E-013, 7.21553E-013, 1.17201E-014, -1.143E-006, 1.07996E-005
99, 0.00000, -0.112904, -0.0371186, -6.39824E-013, 1.79162E-013, 6.73943E-013, 3.44612E-013, -8.45103E-007, 8.52485E-006
100, 0.00000, -0.105995, -0.0348467, -6.21974E-013, 5.06753E-013, -2.47843E-013, 2.21373E-013, -7.18199E-007, 7.4959E-006
101, 0.00000, -0.103884, -0.0341523, -1.98704E-014, 1.04153E-013, 3.60739E-014, 1.3983E-014, -6.83556E-007, 7.1958E-006
102, 0.00000, -0.107319, -0.035282, 8.11442E-015, -1.4048E-013, 1.93061E-013, 1.57739E-013, -7.37474E-007, 7.68601E-006
103, 0.00000, -0.118527, -0.0389677, -3.89448E-013, -6.24591E-013, 3.22352E-013, 3.13685E-014, -9.55121E-007, 9.41201E-006
104, 0.00000, -0.137935, -0.0453492, -6.41001E-014, 1.56931E-013, -6.50761E-013, 4.68624E-013, 2.66539E-007, 1.23257E-005
105, 0.00000, -0.174354, -0.0573194, -9.24902E-013, 4.87456E-014, -1.18648E-013, 2.4552E-013, 1.24741E-005, 1.6199E-005
106, 0.00000, -0.213103, -0.0700562, -1.8473E-013, 8.61201E-014, 9.41793E-013, -3.64349E-013, 2.76073E-005, 2.16364E-005
107, 0.00000, -0.237602, -0.0780858, -2.38869E-013, 5.68004E-013, -8.55127E-013, -6.85461E-014, 7.72181E-005, 1.45825E-005
108, 0.00000, -0.247251, -0.0812323, -7.6872E-014, 6.80625E-013, 3.82018E-013, 5.56738E-014, 0.000123147, 5.13088E-006
109, 0.00000, -0.253379, -0.0832474, -2.84371E-013, 3.21336E-013, 5.44928E-013, -2.21892E-014, 0.00012407, 6.78642E-006
110, 0.00000, -0.25739, -0.0846196, -1.85027E-013, 1.45906E-013, 2.86309E-013, -6.23667E-014, 3.85106E-005, 3.22384E-005
111, 0.00000, -0.256035, -0.0841923, -6.43601E-013, 6.28255E-013, -8.55826E-013, 2.57499E-013, 9.22744E-006, 4.07565E-005
112, 0.00000, -0.253821, -0.0834746, -6.75555E-014, 1.11396E-012, -2.83283E-013, 3.14936E-013, -7.72958E-006, 4.53427E-005
113, 0.00000, -0.264396, -0.0869545, -7.11452E-014, 2.33921E-013, -5.81851E-013, 9.53638E-014, -8.50334E-006, 4.93881E-005
114, 0.00000, -0.278469, -0.091586, -8.79157E-013, 5.52751E-013, 9.16298E-013, 6.3326E-014, -8.77102E-006, 5.50134E-005
115, 0.00000, -0.285328, -0.0938432, -4.38758E-013, -1.0477E-013, -2.39662E-014, -3.45636E-013, -8.72011E-006, 5.76941E-005
116, 0.00000, -0.293914, -0.0966682, -1.0395E-012, -1.64141E-013, 9.21699E-014, 1.20918E-013, -8.59071E-006, 6.07969E-005
117, 0.00000, -0.287225, -0.0944678, -1.03898E-012, 1.13132E-013, 2.2906E-013, 1.79603E-014, -8.69084E-006, 5.8361E-005
118, 0.00000, -0.261019, -0.0858443, -8.95079E-013, 8.13488E-014, -1.07213E-013, 2.67737E-013, -8.33141E-006, 4.8099E-005
119, 0.00000, -0.219873, -0.072304, 1.40375E-014, 1.53237E-013, -7.70372E-013, -4.46994E-015, -5.1185E-006, 3.35847E-005
120, 0.00000, -0.172098, -0.0565873, -6.44207E-013, 3.07549E-013, 1.64317E-013, -1.77185E-013, -2.59677E-006, 2.02218E-005
121, 0.00000, -0.137517, -0.0452131, -3.03502E-013, 6.61008E-013, 4.66747E-013, 2.35789E-014, -1.41756E-006, 1.27545E-005
122, 0.00000, -0.116534, -0.0383122, -5.39813E-013, 2.06361E-013, -1.83744E-013, -1.80312E-015, -9.17802E-007, 9.09316E-006
123, 0.00000, -0.106701, -0.0350786, -6.91773E-013, -4.10406E-014, 2.68769E-013, 2.45488E-013, -7.30738E-007, 7.59786E-006
124, 0.00000, -0.103307, -0.0339624, -1.97087E-014, 4.23779E-013, 1.45451E-012, 4.55526E-014, -6.75063E-007, 7.11517E-006
125, 0.00000, -0.107577, -0.0353669, -7.81596E-014, 5.54091E-013, -2.61471E-013, 3.04556E-013, -7.41248E-007, 7.72332E-006
126, 0.00000, -0.124116, -0.0408056, -6.52226E-013, -4.06361E-013, -3.9623E-013, -1.99483E-013, -1.07598E-006, 1.03398E-005
127, 0.00000, -0.157327, -0.0517282, -6.61039E-013, -1.35576E-013, -3.80546E-013, 4.03556E-014, -2.01474E-006, 1.68041E-005
128, 0.00000, -0.175529, -0.0577141, -1.09934E-012, -3.62895E-013, -2.23266E-014, -6.34115E-014, -4.85117E-007, 2.03722E-005
129, 0.00000, -0.179781, -0.0591043, 7.71651E-013, 7.09497E-013, 2.72344E-013, 3.18785E-013, 1.28999E-005, 1.73435E-005
130, 0.00000, -0.184994, -0.0608119, -1.88704E-014, 6.3989E-013, 1.6283E-013, 3.47057E-013, 2.44242E-005, 1.51977E-005
131, 0.00000, -0.186353, -0.0612258, -1.16042E-013, 1.00217E-013, 1.77845E-013, -2.6134E-013, 7.88532E-005, 4.69339E-007
132, 0.00000, -0.184906, -0.0607433, -1.07647E-012, 5.27931E-013, 2.0348E-013, 1.38781E-013, 9.03256E-005, -2.80934E-006
133, 0.00000, -0.185718, -0.0610069, -4.6678E-013, 8.1539E-013, -4.21689E-013, 2.02466E-013, 9.78386E-005, -4.53151E-006
134, 0.00000, -0.189306, -0.0622243, 2.44472E-013, 2.11597E-014, 3.55852E-013, 3.22784E-013, 3.32896E-005, 1.36789E-005
135, 0.00000, -0.197175, -0.0648251, -6.14259E-013, -2.02985E-013, 8.04728E-013, 2.66539E-013, 1.3714E-005, 2.14482E-005
136, 0.00000, -0.216633, -0.0712379, -6.89515E-013, -3.17E-013, 9.03618E-014, 9.08E-014, -4.89507E-006, 3.25597E-005
137, 0.00000, -0.251877, -0.0828349, 2.18794E-013, -8.86997E-014, -3.04823E-013, 8.71496E-014, -7.56108E-006, 4.46173E-005
138, 0.00000, -0.280499, -0.0922542, -5.72174E-013, -7.05617E-014, 6.581E-013, -1.0407E-013, -8.72607E-006, 5.58574E-005
139, 0.00000, -0.291763, -0.0959604, -7.03312E-013, 2.8948E-013, -7.60829E-013, -2.28932E-013, -8.63921E-006, 6.00362E-005
140, 0.00000, -0.298278, -0.0981043, -2.0551E-013, 1.38105E-013, 4.89239E-013, 2.83105E-013, -8.54616E-006, 6.23057E-005
141, 0.00000, -0.290651, -0.0955949, 1.66714E-013, -4.67058E-013, 4.1852E-013, 1.17427E-013, -8.64074E-006, 5.96015E-005
142, 0.00000, -0.265939, -0.0874634, -1.22658E-013, 1.05071E-013, -2.57196E-013, 3.00864E-013, -8.52867E-006, 5.00037E-005
143, 0.00000, -0.225702, -0.0742228, -8.01946E-013, -2.29422E-013, 3.08316E-014, -4.55411E-013, -5.53528E-006, 3.54777E-005
144, 0.00000, -0.177699, -0.0584297, -4.87405E-013, 3.90805E-015, 3.67253E-013, -4.80601E-014, -2.83546E-006, 2.16029E-005
145, 0.00000, -0.137518, -0.0452132, 3.66887E-013, 7.41679E-014, 1.09682E-013, -3.41404E-013, -1.41857E-006, 1.27548E-005
146, 0.00000, -0.116534, -0.0383122, -1.24078E-012, 8.94888E-014, 3.04498E-013, -3.62302E-013, -9.17803E-007, 9.09316E-006
147, 0.00000, -0.106701, -0.0350786, 3.40633E-013, 2.40902E-013, 7.91831E-013, 2.66423E-013, -7.30738E-007, 7.59786E-006
148, 0.00000, -0.103307, -0.0339624, 2.95106E-013, 5.01671E-013, 4.57394E-013, 5.36336E-013, -6.75063E-007, 7.11517E-006
149, 0.00000, -0.107577, -0.0353669, -7.81596E-014, 5.54091E-013, -2.61471E-013, 3.04556E-013, -7.41248E-007, 7.72332E-006
150, 0.00000, -0.124116, -0.0408056, -6.52226E-013, -4.06361E-013, -3.9623E-013, -1.99483E-013, -1.07598E-006, 1.03398E-005
151, 0.00000, -0.157327, -0.0517282, -6.61039E-013, -1.35576E-013, -3.80546E-013, 4.03556E-014, -2.01474E-006, 1.68041E-005
152, 0.00000, -0.175532, -0.0577137, -2.50631E-013, -5.46627E-013, -4.82482E-014, -1.02081E-013, 1.73909E-006, 1.96963E-005
153, 0.00000, -0.179787, -0.0591023, -3.22367E-013, -3.35795E-013, -5.50602E-013, 1.13257E-013, 1.94963E-005, 1.53939E-005
154, 0.00000, -0.184993, -0.0608116, -7.40011E-013, -2.09941E-014, 1.01149E-012, 1.36074E-013, 2.44188E-005, 1.51987E-005
155, 0.00000, -0.186315, -0.0612371, -3.69047E-013, 1.15096E-013, 1.84708E-013, -1.71897E-013, 3.93326E-005, 1.1225E-005
156, 0.00000, -0.184858, -0.0607571, -1.09648E-012, -5.0347E-013, -1.65248E-014, -1.42325E-013, 4.10411E-005, 1.03936E-005
157, 0.00000, -0.185651, -0.0610225, -2.15759E-013, 4.36778E-013, 1.69912E-013, 2.07485E-014, 3.29681E-005, 1.28808E-005
158, 0.00000, -0.189291, -0.0622289, -8.43426E-013, -2.64715E-013, -4.08859E-014, 4.79543E-014, 1.80488E-005, 1.81327E-005
159, 0.00000, -0.197162, -0.0648287, -5.78635E-013, -3.50952E-013, 1.23131E-013, -8.48466E-014, 1.33531E-006, 2.52058E-005
160, 0.00000, -0.21663, -0.071236, -3.0687E-013, 2.1334E-013, 6.88645E-014, -6.49722E-014, -4.87732E-006, 3.25514E-005
161, 0.00000, -0.251877, -0.0828349, -1.09475E-012, -4.10474E-014, -1.74612E-013, 3.94829E-014, -7.56107E-006, 4.46173E-005
162, 0.00000, -0.280499, -0.0922542, 2.4284E-013, 2.37625E-013, 7.13645E-013, -3.05558E-014, -8.72607E-006, 5.58574E-005
163, 0.00000, -0.291763, -0.0959604, -4.13981E-013, 2.59944E-013, -3.16549E-013, 3.29212E-013, -8.63921E-006, 6.00362E-005
164, 0.00000, -0.298278, -0.0981043, -2.05498E-013, 1.38084E-013, 4.89215E-013, 2.83117E-013, -8.54616E-006, 6.23057E-005
