hour, t(sec), V1.re, V1.im, V2.re, V2.im, V3.re, V3.im, V4.re, V4.im, I1.re, I1.im, I2.re, I2.im, I3.re, I3.im, I4.re, I4.im
1, 0.00000, 191.819, -112.22, -193.478, -110.111, 1.23179, 222.712, -5.87669E-006, -8.60336E-006, -0.386287, 0.436985, 0.570655, 0.115583, -0.18478, -0.551873, 0.00628894, 0.00790825
2, 0.00000, 192.35, -112.295, -193.748, -110.518, 1.03817, 223.133, -4.96069E-006, -7.21414E-006, -0.326957, 0.369188, 0.482543, 0.0982308, -0.155881, -0.466924, 0.00525629, 0.00671884
3, 0.00000, 192.597, -112.33, -193.874, -110.707, 0.947692, 223.33, -4.53379E-006, -6.57208E-006, -0.299201, 0.337557, 0.441381, 0.0900622, -0.142428, -0.427207, 0.00478105, 0.00615953
4, 0.00000, 192.683, -112.342, -193.918, -110.773, 0.916528, 223.397, -4.38689E-006, -6.35347E-006, -0.289629, 0.326661, 0.427192, 0.0872377, -0.137796, -0.413511, 0.00461967, 0.00596552
5, 0.00000, 192.575, -112.327, -193.863, -110.691, 0.955704, 223.312, -4.57159E-006, -6.62651E-006, -0.301671, 0.340371, 0.445047, 0.0907905, -0.143625, -0.430745, 0.0048211, 0.00621046
6, 0.00000, 192.158, -112.268, -193.651, -110.371, 1.10804, 222.981, -5.29065E-006, -7.71196E-006, -0.34838, 0.393639, 0.51434, 0.104514, -0.166295, -0.497591, 0.00562562, 0.00714991
7, 0.00000, 191.315, -112.149, -193.221, -109.726, 1.41534, 222.312, -6.74908E-006, -9.94294E-006, -0.442443, 0.50139, 0.654212, 0.13187, -0.21231, -0.632341, 0.00729014, 0.0090242
8, 0.00000, 191.082, -112.008, -193.007, -109.59, 1.42066, 222.073, -7.42292E-006, -1.11967E-005, -0.494242, 0.560072, 0.730732, 0.147249, -0.237147, -0.706241, 0.00807972, 0.0101163
9, 0.00000, 193.084, -111.298, -193.155, -111.509, -0.0400961, 223.165, -6.36396E-006, -1.14321E-005, -0.507198, 0.566376, 0.743648, 0.155398, -0.236949, -0.721336, 0.0068629, 0.0109935
10, 0.00000, 193.876, -110.969, -193.171, -112.287, -0.653563, 223.575, -6.03022E-006, -1.17337E-005, -0.522421, 0.579811, 0.763305, 0.161882, -0.241324, -0.741513, 0.00647059, 0.0115546
11, 0.00000, 197.306, -109.757, -193.428, -115.574, -3.15493, 225.462, -3.94963E-006, -1.15563E-005, -0.527547, 0.57132, 0.76024, 0.170819, -0.232761, -0.743047, 0.00401738, 0.0124647
12, 0.00000, 197.5, -109.704, -193.457, -115.754, -3.2846, 225.577, -3.7909E-006, -1.14497E-005, -0.523434, 0.566157, 0.753788, 0.169861, -0.230398, -0.736976, 0.00383493, 0.0124079
13, 0.00000, 196.195, -110.16, -193.354, -114.505, -2.33685, 224.854, -4.62683E-006, -1.16142E-005, -0.525229, 0.573354, 0.760287, 0.167709, -0.235249, -0.741625, 0.00481774, 0.0121771
14, 0.00000, 193.029, -111.203, -193.05, -111.501, -0.0839916, 223.077, -6.66088E-006, -1.20581E-005, -0.534389, 0.596443, 0.783274, 0.163846, -0.249427, -0.759831, 0.00720309, 0.0116005
15, 0.00000, 191.213, -111.708, -192.794, -109.814, 1.13805, 222.017, -7.97754E-006, -1.26846E-005, -0.556171, 0.628386, 0.820834, 0.166564, -0.265432, -0.793818, 0.00874655, 0.0115529
16, 0.00000, 189.789, -111.933, -192.443, -108.559, 1.96936, 221.102, -9.40904E-006, -1.41234E-005, -0.611328, 0.696492, 0.906453, 0.180025, -0.296161, -0.874711, 0.0104458, 0.0123166
17, 0.00000, 188.87, -111.801, -191.973, -107.857, 2.30199, 220.375, -1.10271E-005, -1.67317E-005, -0.712257, 0.814125, 1.05789, 0.208201, -0.347047, -1.01983, 0.012436, 0.0142365
18, 0.00000, 188.12, -111.691, -191.589, -107.283, 2.57388, 219.778, -1.23511E-005, -1.89095E-005, -0.794541, 0.91059, 1.18175, 0.23083, -0.388969, -1.1383, 0.0141121, 0.0157879
19, 0.00000, 187.825, -111.647, -191.437, -107.057, 2.68103, 219.541, -1.28691E-005, -1.97824E-005, -0.827005, 0.948777, 1.2307, 0.23968, -0.405614, -1.18508, 0.014789, 0.0164006
20, 0.00000, 187.654, -111.621, -191.349, -106.927, 2.74299, 219.404, -1.31655E-005, -2.02931E-005, -0.845802, 0.970924, 1.25906, 0.244782, -0.415281, -1.21217, 0.0151875, 0.016757
21, 0.00000, 187.854, -111.651, -191.452, -107.08, 2.67053, 219.564, -1.28141E-005, -1.96959E-005, -0.823793, 0.945, 1.22585, 0.238803, -0.403969, -1.18045, 0.0147233, 0.0163432
22, 0.00000, 188.501, -111.748, -191.785, -107.575, 2.4355, 220.082, -1.16776E-005, -1.77958E-005, -0.752644, 0.861418, 1.11865, 0.219343, -0.367579, -1.07796, 0.0132531, 0.0149983
23, 0.00000, 189.553, -111.899, -192.323, -108.379, 2.05474, 220.916, -9.82491E-006, -1.47895E-005, -0.637252, 0.726638, 0.945301, 0.187302, -0.309177, -0.91196, 0.0109523, 0.0128098
24, 0.00000, 190.794, -112.076, -192.955, -109.327, 1.6049, 221.898, -7.65622E-006, -1.13547E-005, -0.500318, 0.568012, 0.740487, 0.14851, -0.240864, -0.715327, 0.00835057, 0.01016
25, 0.00000, 191.819, -112.22, -193.478, -110.111, 1.23183, 222.712, -5.87748E-006, -8.60589E-006, -0.386293, 0.436993, 0.570662, 0.115584, -0.184782, -0.551878, 0.00629083, 0.00790689
26, 0.00000, 192.35, -112.295, -193.748, -110.518, 1.03817, 223.133, -4.96069E-006, -7.21414E-006, -0.326957, 0.369188, 0.482543, 0.0982308, -0.155881, -0.466924, 0.0052563, 0.00671884
27, 0.00000, 192.597, -112.33, -193.874, -110.707, 0.947692, 223.33, -4.53379E-006, -6.57208E-006, -0.299201, 0.337557, 0.441381, 0.0900622, -0.142428, -0.427207, 0.00478105, 0.00615953
28, 0.00000, 192.683, -112.342, -193.918, -110.773, 0.916528, 223.397, -4.38689E-006, -6.35347E-006, -0.289629, 0.326661, 0.427192, 0.0872377, -0.137796, -0.413511, 0.00461967, 0.00596552
29, 0.00000, 192.575, -112.327, -193.863, -110.691, 0.955704, 223.312, -4.57159E-006, -6.62651E-006, -0.301671, 0.340371, 0.445047, 0.0907905, -0.143625, -0.430745, 0.0048211, 0.00621046
30, 0.00000, 192.158, -112.268, -193.651, -110.371, 1.10804, 222.981, -5.29065E-006, -7.71196E-006, -0.34838, 0.393639, 0.51434, 0.104514, -0.166295, -0.497591, 0.00562562, 0.00714991
31, 0.00000, 191.315, -112.149, -193.221, -109.726, 1.41534, 222.312, -6.74908E-006, -9.94294E-006, -0.442443, 0.50139, 0.654212, 0.13187, -0.21231, -0.632341, 0.00729014, 0.0090242
32, 0.00000, 191.079, -112.009, -193.007, -109.587, 1.42286, 222.071, -7.42473E-006, -1.11968E-005, -0.494241, 0.560083, 0.730739, 0.147242, -0.237155, -0.706244, 0.00808179, 0.0101153
33, 0.00000, 192.353, -111.541, -193.087, -110.815, 0.481213, 222.758, -6.79899E-006, -1.14584E-005, -0.506891, 0.56899, 0.745395, 0.153782, -0.239071, -0.722095, 0.00736663, 0.010781
34, 0.00000, 193.378, -111.137, -193.127, -111.813, -0.296487, 223.298, -6.33112E-006, -1.17608E-005, -0.522213, 0.581639, 0.764531, 0.160755, -0.242809, -0.742049, 0.0068227, 0.011417
35, 0.00000, 194.902, -110.603, -193.244, -113.273, -1.40492, 224.136, -5.43943E-006, -1.17541E-005, -0.526591, 0.580113, 0.766178, 0.165406, -0.239923, -0.745675, 0.00577644, 0.0119098
36, 0.00000, 195.15, -110.534, -193.28, -113.503, -1.57155, 224.282, -5.2483E-006, -1.16468E-005, -0.522517, 0.574689, 0.759553, 0.164615, -0.237345, -0.739533, 0.00555685, 0.0118755
37, 0.00000, 194.234, -110.84, -193.195, -112.631, -0.916577, 223.769, -5.83091E-006, -1.17536E-005, -0.524429, 0.580523, 0.765113, 0.163286, -0.241087, -0.743749, 0.0062349, 0.0116933
38, 0.00000, 192.557, -111.361, -193.007, -111.052, 0.252843, 222.815, -6.94508E-006, -1.20834E-005, -0.534186, 0.598225, 0.784466, 0.162748, -0.250871, -0.760352, 0.00753658, 0.0114619
39, 0.00000, 190.749, -111.858, -192.747, -109.376, 1.4654, 221.757, -8.25517E-006, -1.27048E-005, -0.555952, 0.630221, 0.822056, 0.16543, -0.266917, -0.794345, 0.00906877, 0.0113989
40, 0.00000, 189.79, -111.932, -192.443, -108.56, 1.96928, 221.102, -9.40745E-006, -1.41202E-005, -0.611321, 0.696478, 0.906441, 0.180026, -0.296156, -0.874703, 0.0104435, 0.0123188
41, 0.00000, 188.87, -111.801, -191.973, -107.857, 2.30199, 220.375, -1.10271E-005, -1.67317E-005, -0.712257, 0.814125, 1.05789, 0.208201, -0.347047, -1.01983, 0.012436, 0.0142365
42, 0.00000, 188.12, -111.691, -191.589, -107.283, 2.57388, 219.778, -1.23511E-005, -1.89095E-005, -0.794541, 0.91059, 1.18175, 0.23083, -0.388969, -1.1383, 0.0141121, 0.0157879
43, 0.00000, 187.825, -111.647, -191.437, -107.057, 2.68103, 219.541, -1.28691E-005, -1.97824E-005, -0.827005, 0.948777, 1.2307, 0.23968, -0.405614, -1.18508, 0.014789, 0.0164006
44, 0.00000, 187.654, -111.621, -191.349, -106.927, 2.74299, 219.404, -1.31655E-005, -2.02931E-005, -0.845802, 0.970924, 1.25906, 0.244782, -0.415281, -1.21217, 0.0151875, 0.016757
45, 0.00000, 187.854, -111.651, -191.452, -107.08, 2.67053, 219.564, -1.28141E-005, -1.96959E-005, -0.823793, 0.945, 1.22585, 0.238803, -0.403969, -1.18045, 0.0147233, 0.0163432
46, 0.00000, 188.501, -111.748, -191.785, -107.575, 2.4355, 220.082, -1.16776E-005, -1.77958E-005, -0.752644, 0.861418, 1.11865, 0.219343, -0.367579, -1.07796, 0.0132531, 0.0149983
47, 0.00000, 189.553, -111.899, -192.323, -108.379, 2.05474, 220.916, -9.82491E-006, -1.47895E-005, -0.637252, 0.726638, 0.945301, 0.187302, -0.309177, -0.91196, 0.0109523, 0.0128098
48, 0.00000, 190.794, -112.076, -192.955, -109.327, 1.6049, 221.898, -7.65622E-006, -1.13547E-005, -0.500318, 0.568012, 0.740487, 0.14851, -0.240864, -0.715327, 0.00835057, 0.01016
49, 0.00000, 191.819, -112.22, -193.478, -110.111, 1.23183, 222.712, -5.87748E-006, -8.60589E-006, -0.386293, 0.436993, 0.570662, 0.115584, -0.184782, -0.551878, 0.00629083, 0.00790689
50, 0.00000, 192.35, -112.295, -193.748, -110.518, 1.03817, 223.133, -4.96069E-006, -7.21414E-006, -0.326957, 0.369188, 0.482543, 0.0982308, -0.155881, -0.466924, 0.0052563, 0.00671884
51, 0.00000, 192.597, -112.33, -193.874, -110.707, 0.947692, 223.33, -4.53379E-006, -6.57208E-006, -0.299201, 0.337557, 0.441381, 0.0900622, -0.142428, -0.427207, 0.00478105, 0.00615953
52, 0.00000, 192.683, -112.342, -193.918, -110.773, 0.916528, 223.397, -4.38689E-006, -6.35347E-006, -0.289629, 0.326661, 0.427192, 0.0872377, -0.137796, -0.413511, 0.00461967, 0.00596552
53, 0.00000, 192.575, -112.327, -193.863, -110.691, 0.955704, 223.312, -4.57159E-006, -6.62651E-006, -0.301671, 0.340371, 0.445047, 0.0907905, -0.143625, -0.430745, 0.0048211, 0.00621046
54, 0.00000, 192.158, -112.268, -193.651, -110.371, 1.10804, 222.981, -5.29065E-006, -7.71196E-006, -0.34838, 0.393639, 0.51434, 0.104514, -0.166295, -0.497591, 0.00562562, 0.00714991
55, 0.00000, 191.315, -112.149, -193.221, -109.726, 1.41534, 222.312, -6.74908E-006, -9.94294E-006, -0.442443, 0.50139, 0.654212, 0.13187, -0.21231, -0.632341, 0.00729014, 0.0090242
56, 0.00000, 190.85, -112.083, -192.984, -109.37, 1.58461, 221.943, -7.55758E-006, -1.1199E-005, -0.494141, 0.560887, 0.731273, 0.146743, -0.237808, -0.706473, 0.0082335, 0.0100419
57, 0.00000, 191.417, -111.849, -192.996, -109.927, 1.14609, 222.235, -7.35162E-006, -1.14837E-005, -0.506489, 0.572351, 0.747636, 0.151702, -0.241799, -0.723063, 0.00800357, 0.0104942
58, 0.00000, 191.738, -111.682, -192.973, -110.255, 0.873205, 222.383, -7.31278E-006, -1.18295E-005, -0.521505, 0.587686, 0.768572, 0.157018, -0.247717, -0.743805, 0.0079635, 0.0109311
59, 0.00000, 192.161, -111.527, -193.001, -110.662, 0.56129, 222.611, -7.09839E-006, -1.19026E-005, -0.52543, 0.590252, 0.772973, 0.159148, -0.248161, -0.748644, 0.00771595, 0.0111461
60, 0.00000, 192.197, -111.533, -193.019, -110.69, 0.54829, 222.64, -7.03527E-006, -1.18029E-005, -0.521274, 0.585511, 0.76681, 0.157932, -0.246143, -0.742703, 0.00764213, 0.0110625
61, 0.00000, 191.949, -111.605, -192.987, -110.458, 0.717647, 222.497, -7.2056E-006, -1.18649E-005, -0.523454, 0.588957, 0.770757, 0.158077, -0.247936, -0.746208, 0.00783928, 0.0110392
62, 0.00000, 191.401, -111.741, -192.895, -109.956, 1.07396, 222.169, -7.63644E-006, -1.21336E-005, -0.533674, 0.602601, 0.787387, 0.160047, -0.254418, -0.761619, 0.00834143, 0.0111044
63, 0.00000, 191.201, -111.712, -192.793, -109.803, 1.14674, 222.01, -7.98495E-006, -1.26852E-005, -0.556165, 0.628434, 0.820865, 0.166534, -0.265471, -0.793832, 0.00875509, 0.0115488
64, 0.00000, 189.789, -111.933, -192.443, -108.559, 1.96936, 221.102, -9.40905E-006, -1.41234E-005, -0.611328, 0.696492, 0.906453, 0.180025, -0.296161, -0.874711, 0.0104458, 0.0123166
65, 0.00000, 188.87, -111.801, -191.973, -107.857, 2.30199, 220.375, -1.10271E-005, -1.67317E-005, -0.712257, 0.814125, 1.05789, 0.208201, -0.347047, -1.01983, 0.012436, 0.0142365
66, 0.00000, 188.12, -111.691, -191.589, -107.283, 2.57388, 219.778, -1.23511E-005, -1.89095E-005, -0.794541, 0.91059, 1.18175, 0.23083, -0.388969, -1.1383, 0.0141121, 0.0157879
67, 0.00000, 187.825, -111.647, -191.437, -107.057, 2.68103, 219.541, -1.28691E-005, -1.97824E-005, -0.827005, 0.948777, 1.2307, 0.23968, -0.405614, -1.18508, 0.014789, 0.0164006
68, 0.00000, 187.654, -111.621, -191.349, -106.927, 2.74299, 219.404, -1.31655E-005, -2.02931E-005, -0.845802, 0.970924, 1.25906, 0.244782, -0.415281, -1.21217, 0.0151875, 0.016757
69, 0.00000, 187.854, -111.651, -191.452, -107.08, 2.67053, 219.564, -1.28141E-005, -1.96959E-005, -0.823793, 0.945, 1.22585, 0.238803, -0.403969, -1.18045, 0.0147233, 0.0163432
70, 0.00000, 188.501, -111.748, -191.785, -107.575, 2.4355, 220.082, -1.16776E-005, -1.77958E-005, -0.752644, 0.861418, 1.11865, 0.219343, -0.367579, -1.07796, 0.0132531, 0.0149983
71, 0.00000, 189.553, -111.899, -192.323, -108.379, 2.05474, 220.916, -9.82491E-006, -1.47895E-005, -0.637252, 0.726638, 0.945301, 0.187302, -0.309177, -0.91196, 0.0109523, 0.0128098
72, 0.00000, 190.794, -112.076, -192.955, -109.327, 1.6049, 221.898, -7.65622E-006, -1.13547E-005, -0.500318, 0.568012, 0.740487, 0.14851, -0.240864, -0.715327, 0.00835057, 0.01016
73, 0.00000, 191.567, -112.185, -193.35, -109.919, 1.3235, 222.512, -6.3128E-006, -9.27239E-006, -0.414349, 0.469142, 0.612389, 0.123738, -0.198515, -0.592072, 0.00678831, 0.00846545
74, 0.00000, 192.149, -112.267, -193.646, -110.364, 1.11139, 222.974, -5.30676E-006, -7.73731E-006, -0.349403, 0.394808, 0.515857, 0.104813, -0.166792, -0.499053, 0.00564449, 0.00716963
75, 0.00000, 192.463, -112.311, -193.806, -110.604, 0.996812, 223.223, -4.76542E-006, -6.91988E-006, -0.314272, 0.354726, 0.463727, 0.0945016, -0.149728, -0.448771, 0.00503833, 0.00646356
76, 0.00000, 192.607, -112.331, -193.879, -110.714, 0.944321, 223.337, -4.51778E-006, -6.55054E-006, -0.298154, 0.336364, 0.439824, 0.0897533, -0.141918, -0.425704, 0.00476535, 0.00613731
77, 0.00000, 192.608, -112.331, -193.88, -110.716, 0.943782, 223.338, -4.51534E-006, -6.54423E-006, -0.298002, 0.336192, 0.439604, 0.0897085, -0.141847, -0.425492, 0.00476045, 0.00613544
78, 0.00000, 192.467, -112.311, -193.808, -110.608, 0.995202, 223.226, -4.75783E-006, -6.90552E-006, -0.313793, 0.354181, 0.463022, 0.0943611, -0.149498, -0.448092, 0.00502745, 0.00645536
79, 0.00000, 192.141, -112.266, -193.642, -110.358, 1.11448, 222.967, -5.32113E-006, -7.75822E-006, -0.350353, 0.395893, 0.517269, 0.105091, -0.167255, -0.500416, 0.00565999, 0.00718941
80, 0.00000, 191.742, -112.106, -193.347, -110.093, 1.18319, 222.598, -6.26919E-006, -9.40075E-006, -0.419731, 0.474558, 0.619837, 0.125686, -0.200577, -0.599482, 0.00674011, 0.00863792
81, 0.00000, 192.112, -111.522, -192.977, -110.624, 0.580448, 222.573, -7.1786E-006, -1.20259E-005, -0.530541, 0.596102, 0.780567, 0.160633, -0.250658, -0.755957, 0.00781032, 0.0112476
82, 0.00000, 192.349, -111.014, -192.622, -111.017, 0.095354, 222.49, -8.0403E-006, -1.44436E-005, -0.634141, 0.708909, 0.930182, 0.193679, -0.296843, -0.901822, 0.00884216, 0.0136771
83, 0.00000, 193.431, -110.426, -192.521, -112.134, -0.84551, 222.98, -7.86314E-006, -1.5593E-005, -0.689674, 0.763706, 1.00616, 0.214303, -0.317249, -0.97769, 0.00862894, 0.0152739
84, 0.00000, 193.243, -110.403, -192.428, -111.989, -0.774249, 222.832, -8.17577E-006, -1.60921E-005, -0.71055, 0.787342, 1.03698, 0.220486, -0.327253, -1.00744, 0.00900233, 0.0157014
85, 0.00000, 192.485, -110.615, -192.323, -111.285, -0.263199, 222.389, -8.75746E-006, -1.64278E-005, -0.719928, 0.801792, 1.05365, 0.221278, -0.334682, -1.02233, 0.00971514, 0.0156845
86, 0.00000, 190.77, -111.117, -192.104, -109.683, 0.909406, 221.401, -1.00022E-005, -1.69934E-005, -0.733052, 0.826066, 1.07999, 0.220306, -0.348168, -1.04479, 0.0112306, 0.0154132
87, 0.00000, 189.025, -111.613, -191.868, -108.058, 2.09123, 220.392, -1.12696E-005, -1.75579E-005, -0.74598, 0.850787, 1.10653, 0.218955, -0.36204, -1.06724, 0.0127596, 0.0150553
88, 0.00000, 188.428, -111.737, -191.747, -107.52, 2.4618, 220.024, -1.18067E-005, -1.8008E-005, -0.760651, 0.870796, 1.13069, 0.221551, -0.371651, -1.08949, 0.0134162, 0.0151488
89, 0.00000, 188.075, -111.685, -191.566, -107.248, 2.59012, 219.742, -1.24304E-005, -1.90418E-005, -0.799467, 0.916378, 1.18917, 0.232177, -0.391488, -1.14539, 0.0142143, 0.0158802
90, 0.00000, 187.879, -111.655, -191.465, -107.099, 2.66141, 219.584, -1.27742E-005, -1.96216E-005, -0.821057, 0.941776, 1.22173, 0.238061, -0.40256, -1.1765, 0.0146642, 0.0162886
91, 0.00000, 187.919, -111.661, -191.485, -107.129, 2.64708, 219.616, -1.2702E-005, -1.95048E-005, -0.816685, 0.936635, 1.21513, 0.236867, -0.400321, -1.1702, 0.0145745, 0.0162078
92, 0.00000, 187.947, -111.665, -191.5, -107.151, 2.63669, 219.639, -1.26525E-005, -1.94198E-005, -0.813543, 0.932937, 1.2104, 0.236012, -0.398708, -1.16568, 0.0145083, 0.0161481
93, 0.00000, 188.232, -111.708, -191.647, -107.369, 2.53296, 219.868, -1.21519E-005, -1.85787E-005, -0.782148, 0.896033, 1.16308, 0.22744, -0.382632, -1.12045, 0.0138565, 0.0155547
94, 0.00000, 188.79, -111.789, -191.933, -107.796, 2.33078, 220.312, -1.11687E-005, -1.69613E-005, -0.720958, 0.824307, 1.07098, 0.210606, -0.351463, -1.03235, 0.0126117, 0.0143992
95, 0.00000, 189.59, -111.904, -192.341, -108.407, 2.0415, 220.945, -9.76043E-006, -1.46862E-005, -0.633237, 0.721965, 0.939281, 0.186177, -0.307158, -0.906189, 0.0108736, 0.0127335
96, 0.00000, 190.558, -112.042, -192.835, -109.147, 1.69064, 221.711, -8.06721E-006, -1.19985E-005, -0.526468, 0.598195, 0.779528, 0.155982, -0.253828, -0.752851, 0.008836, 0.0106714
97, 0.00000, 191.483, -112.173, -193.307, -109.854, 1.3541, 222.445, -6.45846E-006, -9.49648E-006, -0.423708, 0.479879, 0.626316, 0.12645, -0.203105, -0.605483, 0.00695586, 0.00865097
98, 0.00000, 192.091, -112.259, -193.616, -110.32, 1.1326, 222.927, -5.40715E-006, -7.88955E-006, -0.355905, 0.402235, 0.525511, 0.106715, -0.169957, -0.508361, 0.00575761, 0.00729991
99, 0.00000, 192.441, -112.308, -193.795, -110.588, 1.00475, 223.206, -4.80289E-006, -6.97629E-006, -0.316708, 0.357502, 0.46734, 0.0952182, -0.150909, -0.452257, 0.00508009, 0.00651262
100, 0.00000, 192.615, -112.332, -193.883, -110.721, 0.941209, 223.344, -4.50323E-006, -6.52621E-006, -0.297212, 0.335292, 0.438433, 0.0894754, -0.141465, -0.424361, 0.00474715, 0.00611938
101, 0.00000, 192.668, -112.34, -193.91, -110.762, 0.921822, 223.386, -4.41184E-006, -6.3902E-006, -0.291257, 0.328514, 0.429606, 0.0877183, -0.138584, -0.41584, 0.00464675, 0.00599869
102, 0.00000, 192.582, -112.328, -193.866, -110.696, 0.953341, 223.317, -4.56044E-006, -6.61018E-006, -0.300944, 0.339542, 0.443968, 0.090576, -0.143273, -0.429704, 0.00480906, 0.0061956
103, 0.00000, 192.299, -112.288, -193.722, -110.479, 1.05652, 223.093, -5.0472E-006, -7.34391E-006, -0.332588, 0.375612, 0.490899, 0.099884, -0.158616, -0.474984, 0.00535247, 0.00683266
104, 0.00000, 192.029, -112.146, -193.494, -110.313, 1.07887, 222.826, -5.77223E-006, -8.63821E-006, -0.387544, 0.437733, 0.57201, 0.116304, -0.184865, -0.553393, 0.00617241, 0.00799475
105, 0.00000, 192.452, -111.573, -193.153, -110.884, 0.458374, 222.845, -6.58585E-006, -1.10895E-005, -0.49142, 0.551513, 0.72258, 0.149166, -0.231691, -0.700048, 0.00711763, 0.0104591
106, 0.00000, 192.618, -111.057, -192.763, -111.221, 0.000487968, 222.706, -7.5692E-006, -1.36775E-005, -0.602519, 0.672963, 0.883396, 0.184379, -0.281586, -0.856701, 0.00827831, 0.013036
107, 0.00000, 195.898, -109.646, -192.785, -114.461, -2.57615, 224.381, -6.1188E-006, -1.48832E-005, -0.674618, 0.73444, 0.974861, 0.216187, -0.300629, -0.951324, 0.00650548, 0.0155804
108, 0.00000, 199.401, -108.266, -192.923, -117.871, -5.23426, 226.243, -4.02195E-006, -1.48488E-005, -0.704126, 0.747066, 1.00296, 0.235777, -0.298693, -0.984997, 0.00388151, 0.0170023
