hour, t(sec), P1 (kW), Q1 (kvar), P2 (kW), Q2 (kvar), P3 (kW), Q3 (kvar), P4 (kW), Q4 (kvar)
1, 0.00000, -0.0683068, -0.0224513, -0.0683082, -0.0224519, -0.0683083, -0.0224519, 3.84474E-010, -1.01414E-010
2, 0.00000, -0.057889, -0.0190271, -0.0578878, -0.0190269, -0.0578874, -0.0190267, 2.25805E-010, -6.15458E-011
3, 0.00000, -0.053003, -0.0174212, -0.0530025, -0.0174211, -0.0530023, -0.017421, 1.68388E-010, -4.65129E-011
4, 0.00000, -0.0513211, -0.0168684, -0.0513198, -0.016868, -0.0513191, -0.0168678, 1.53128E-010, -4.22994E-011
5, 0.00000, -0.0534306, -0.0175617, -0.0534322, -0.0175624, -0.0534329, -0.0175625, 1.69089E-010, -4.68722E-011
6, 0.00000, -0.0616509, -0.0202636, -0.0616518, -0.020264, -0.061652, -0.020264, 2.73535E-010, -7.36681E-011
7, 0.00000, -0.0781445, -0.0256848, -0.0781474, -0.0256858, -0.0781479, -0.0256861, 6.02837E-010, -1.54896E-010
8, 0.00000, -0.0871897, -0.0286577, -0.0871902, -0.0286582, -0.0871903, -0.0286581, 8.03018E-010, -2.19822E-010
9, 0.00000, -0.0893044, -0.0293524, -0.0892996, -0.0293517, -0.0892987, -0.0293506, 2.45688E-010, -2.21461E-010
10, 0.00000, -0.0918821, -0.0301999, -0.0918808, -0.0302, -0.0918805, -0.0301995, 5.93814E-011, -2.30519E-010
11, 0.00000, -0.0925302, -0.0304136, -0.0925285, -0.0304135, -0.0925284, -0.0304131, -4.72859E-010, -2.03499E-010
12, 0.00000, -0.0917985, -0.0301725, -0.0917987, -0.030173, -0.0917987, -0.0301728, -4.86118E-010, -1.95882E-010
13, 0.00000, -0.0922025, -0.0303054, -0.0922029, -0.0303056, -0.0922028, -0.0303055, -3.40852E-010, -2.09642E-010
14, 0.00000, -0.0940057, -0.0308987, -0.0940122, -0.0309004, -0.0940133, -0.0309014, 2.48425E-010, -2.4934E-010
15, 0.00000, -0.097935, -0.0321895, -0.0979359, -0.0321901, -0.0979357, -0.0321899, 9.04725E-010, -3.09743E-010
16, 0.00000, -0.107609, -0.0353692, -0.107611, -0.0353702, -0.107611, -0.03537, 1.85879E-009, -4.37487E-010
17, 0.00000, -0.125117, -0.0411238, -0.125119, -0.0411248, -0.125118, -0.0411244, 3.22614E-009, -7.19962E-010
18, 0.00000, -0.138292, -0.0454541, -0.139334, -0.0457975, -0.139336, -0.0457973, 5.59919E-010, 8.74834E-010
19, 0.00000, -0.142782, -0.0469287, -0.144836, -0.0476064, -0.144923, -0.0476341, -1.55395E-009, 2.66686E-009
20, 0.00000, -0.145356, -0.0477754, -0.147426, -0.0484569, -0.148164, -0.0486995, -2.85821E-009, 1.66166E-009
21, 0.00000, -0.142341, -0.0467854, -0.144381, -0.0474555, -0.144386, -0.0474572, -1.32385E-009, 2.76664E-009
22, 0.00000, -0.132101, -0.0434186, -0.13212, -0.0434253, -0.132114, -0.0434251, 3.85043E-009, -8.09912E-010
23, 0.00000, -0.112131, -0.0368551, -0.112125, -0.0368546, -0.112122, -0.0368522, 2.18785E-009, -5.05195E-010
24, 0.00000, -0.0882816, -0.0290166, -0.0882756, -0.0290153, -0.0882742, -0.029014, 9.4415E-010, -2.35771E-010
25, 0.00000, -0.0683162, -0.0224544, -0.0683131, -0.0224536, -0.0683123, -0.0224531, 3.93856E-010, -1.04265E-010
26, 0.00000, -0.057889, -0.0190271, -0.0578878, -0.0190269, -0.0578874, -0.0190267, 2.25812E-010, -6.15511E-011
27, 0.00000, -0.053003, -0.0174212, -0.0530025, -0.0174211, -0.0530023, -0.017421, 1.68388E-010, -4.65129E-011
28, 0.00000, -0.0513211, -0.0168684, -0.0513198, -0.016868, -0.0513191, -0.0168678, 1.53128E-010, -4.22994E-011
29, 0.00000, -0.0534306, -0.0175617, -0.0534322, -0.0175624, -0.0534329, -0.0175625, 1.69089E-010, -4.68722E-011
30, 0.00000, -0.0616509, -0.0202636, -0.0616518, -0.020264, -0.061652, -0.020264, 2.73535E-010, -7.36681E-011
31, 0.00000, -0.0781445, -0.0256848, -0.0781474, -0.0256858, -0.0781479, -0.0256861, 6.02837E-010, -1.54896E-010
32, 0.00000, -0.0871896, -0.0286577, -0.0871902, -0.0286582, -0.0871902, -0.028658, 8.04063E-010, -2.19839E-010
33, 0.00000, -0.0893038, -0.0293524, -0.0892996, -0.0293517, -0.0892986, -0.0293507, 4.36013E-010, -2.27688E-010
34, 0.00000, -0.0918839, -0.0302004, -0.0918817, -0.0302003, -0.0918812, -0.0301996, 1.7416E-010, -2.35986E-010
35, 0.00000, -0.0925308, -0.0304131, -0.0925293, -0.0304132, -0.0925291, -0.0304126, -1.43011E-010, -2.25562E-010
36, 0.00000, -0.0918115, -0.0301766, -0.0918092, -0.0301765, -0.0918082, -0.0301757, -1.79215E-010, -2.18461E-010
37, 0.00000, -0.0922009, -0.030305, -0.0922019, -0.0303054, -0.0922019, -0.0303054, -1.96671E-011, -2.27556E-010
38, 0.00000, -0.09401, -0.0308998, -0.0940142, -0.0309011, -0.094015, -0.0309016, 3.85E-010, -2.56229E-010
39, 0.00000, -0.0979345, -0.0321893, -0.0979357, -0.0321901, -0.0979356, -0.0321899, 1.10815E-009, -3.15724E-010
40, 0.00000, -0.107596, -0.0353648, -0.107603, -0.035367, -0.107604, -0.035368, 1.8376E-009, -4.33047E-010
41, 0.00000, -0.125117, -0.0411238, -0.125119, -0.0411248, -0.125118, -0.0411244, 3.22613E-009, -7.19955E-010
42, 0.00000, -0.138292, -0.0454541, -0.139334, -0.0457975, -0.139336, -0.0457973, 5.59919E-010, 8.74834E-010
43, 0.00000, -0.142782, -0.0469287, -0.144836, -0.0476064, -0.144923, -0.0476341, -1.55395E-009, 2.66686E-009
44, 0.00000, -0.145356, -0.0477754, -0.147426, -0.0484569, -0.148164, -0.0486995, -2.85821E-009, 1.66166E-009
45, 0.00000, -0.142341, -0.0467854, -0.144381, -0.0474555, -0.144386, -0.0474572, -1.32385E-009, 2.76664E-009
46, 0.00000, -0.132101, -0.0434186, -0.13212, -0.0434253, -0.132114, -0.0434251, 3.85043E-009, -8.09912E-010
47, 0.00000, -0.112131, -0.0368551, -0.112125, -0.0368546, -0.112122, -0.0368522, 2.18785E-009, -5.05195E-010
48, 0.00000, -0.0882816, -0.0290166, -0.0882756, -0.0290153, -0.0882742, -0.029014, 9.4415E-010, -2.35771E-010
49, 0.00000, -0.0683162, -0.0224544, -0.0683131, -0.0224536, -0.0683123, -0.0224531, 3.93856E-010, -1.04265E-010
50, 0.00000, -0.057889, -0.0190271, -0.0578878, -0.0190269, -0.0578874, -0.0190267, 2.25812E-010, -6.15511E-011
51, 0.00000, -0.053003, -0.0174212, -0.0530025, -0.0174211, -0.0530023, -0.017421, 1.68388E-010, -4.65129E-011
52, 0.00000, -0.0513211, -0.0168684, -0.0513198, -0.016868, -0.0513191, -0.0168678, 1.53128E-010, -4.22994E-011
53, 0.00000, -0.0534306, -0.0175617, -0.0534322, -0.0175624, -0.0534329, -0.0175625, 1.69089E-010, -4.68722E-011
54, 0.00000, -0.0616509, -0.0202636, -0.0616518, -0.020264, -0.061652, -0.020264, 2.73535E-010, -7.36681E-011
55, 0.00000, -0.0781445, -0.0256848, -0.0781474, -0.0256858, -0.0781479, -0.0256861, 6.02837E-010, -1.54896E-010
56, 0.00000, -0.0871867, -0.0286568, -0.0871886, -0.0286576, -0.0871889, -0.0286577, 8.82684E-010, -2.20968E-010
57, 0.00000, -0.0893011, -0.0293516, -0.0892982, -0.0293513, -0.0892976, -0.0293505, 7.24131E-010, -2.35493E-010
58, 0.00000, -0.091883, -0.0302003, -0.0918814, -0.0302002, -0.091881, -0.0301997, 6.40929E-010, -2.52063E-010
59, 0.00000, -0.0925322, -0.0304136, -0.0925306, -0.0304136, -0.0925301, -0.030413, 5.0967E-010, -2.52961E-010
60, 0.00000, -0.0918082, -0.0301757, -0.0918073, -0.0301758, -0.0918068, -0.0301753, 4.91924E-010, -2.46061E-010
61, 0.00000, -0.0922009, -0.0303048, -0.0922016, -0.0303054, -0.0922016, -0.0303052, 5.68661E-010, -2.50707E-010
62, 0.00000, -0.0940142, -0.0309009, -0.0940164, -0.0309018, -0.0940167, -0.0309019, 7.74666E-010, -2.70894E-010
63, 0.00000, -0.0979346, -0.0321894, -0.0979352, -0.03219, -0.0979352, -0.0321897, 9.10303E-010, -3.10329E-010
64, 0.00000, -0.107609, -0.0353693, -0.107611, -0.0353702, -0.107611, -0.03537, 1.85884E-009, -4.37504E-010
65, 0.00000, -0.125117, -0.0411238, -0.125119, -0.0411248, -0.125118, -0.0411244, 3.22614E-009, -7.19962E-010
66, 0.00000, -0.138292, -0.0454541, -0.139334, -0.0457975, -0.139336, -0.0457973, 5.59919E-010, 8.74834E-010
67, 0.00000, -0.142782, -0.0469287, -0.144836, -0.0476064, -0.144923, -0.0476341, -1.55395E-009, 2.66686E-009
68, 0.00000, -0.145356, -0.0477754, -0.147426, -0.0484569, -0.148164, -0.0486995, -2.85821E-009, 1.66166E-009
69, 0.00000, -0.142341, -0.0467854, -0.144381, -0.0474555, -0.144386, -0.0474572, -1.32385E-009, 2.76664E-009
70, 0.00000, -0.132101, -0.0434186, -0.13212, -0.0434253, -0.132114, -0.0434251, 3.85043E-009, -8.09912E-010
71, 0.00000, -0.112131, -0.0368551, -0.112125, -0.0368546, -0.112122, -0.0368522, 2.18785E-009, -5.05195E-010
72, 0.00000, -0.0882816, -0.0290166, -0.0882756, -0.0290153, -0.0882742, -0.029014, 9.4415E-010, -2.35771E-010
73, 0.00000, -0.0732351, -0.0240711, -0.0732324, -0.0240706, -0.0732317, -0.02407, 4.95375E-010, -1.29245E-010
74, 0.00000, -0.0618356, -0.0203243, -0.0618341, -0.020324, -0.0618336, -0.0203237, 2.80832E-010, -7.56966E-011
75, 0.00000, -0.0556563, -0.0182933, -0.0556556, -0.0182932, -0.0556554, -0.018293, 1.97744E-010, -5.42215E-011
76, 0.00000, -0.052826, -0.017363, -0.0528238, -0.0173623, -0.0528227, -0.017362, 1.69779E-010, -4.65823E-011
77, 0.00000, -0.052791, -0.0173515, -0.0527909, -0.0173516, -0.0527908, -0.0173515, 1.6552E-010, -4.57295E-011
78, 0.00000, -0.0555621, -0.0182623, -0.0555643, -0.0182632, -0.0555652, -0.0182634, 1.91284E-010, -5.27735E-011
79, 0.00000, -0.061998, -0.0203777, -0.0619987, -0.0203781, -0.0619988, -0.020378, 2.79082E-010, -7.50962E-011
80, 0.00000, -0.0741566, -0.024374, -0.0741575, -0.0243745, -0.0741577, -0.0243744, 4.56571E-010, -1.31057E-010
81, 0.00000, -0.0934233, -0.0307065, -0.0934213, -0.0307064, -0.0934209, -0.0307058, 5.32725E-010, -2.61299E-010
82, 0.00000, -0.111326, -0.0365906, -0.111324, -0.0365908, -0.111324, -0.0365901, 5.6375E-010, -4.35218E-010
83, 0.00000, -0.120792, -0.0397017, -0.12079, -0.039702, -0.120789, -0.0397009, 1.50906E-010, -5.29587E-010
84, 0.00000, -0.124381, -0.0408839, -0.124384, -0.0408844, -0.124385, -0.040885, 2.06108E-010, -5.76898E-010
85, 0.00000, -0.126071, -0.0414377, -0.126073, -0.0414385, -0.126073, -0.0414385, 5.59335E-010, -6.2188E-010
86, 0.00000, -0.128497, -0.0422345, -0.128498, -0.0422354, -0.128497, -0.0422351, 1.6365E-009, -7.12821E-010
87, 0.00000, -0.130898, -0.0430238, -0.130901, -0.0430253, -0.130901, -0.0430252, 3.27916E-009, -8.16362E-010
88, 0.00000, -0.133483, -0.0438736, -0.133474, -0.0438716, -0.133479, -0.0438711, 4.05623E-009, -8.81884E-010
89, 0.00000, -0.138976, -0.0456791, -0.140177, -0.0460749, -0.140181, -0.0460743, 1.58737E-010, 1.16238E-009
90, 0.00000, -0.141963, -0.0466602, -0.143907, -0.0473007, -0.143902, -0.0472982, -1.18347E-009, 2.58756E-009
91, 0.00000, -0.141362, -0.0464635, -0.143161, -0.0470532, -0.143163, -0.047057, -9.99491E-010, 2.28452E-009
92, 0.00000, -0.140927, -0.0463205, -0.142618, -0.0468752, -0.142619, -0.0468779, -8.26867E-010, 2.07577E-009
93, 0.00000, -0.136565, -0.0448862, -0.137206, -0.0450976, -0.137204, -0.0450973, 1.73919E-009, 1.68556E-010
94, 0.00000, -0.126629, -0.0416201, -0.126636, -0.0416237, -0.12663, -0.0416217, 3.36961E-009, -7.33228E-010
95, 0.00000, -0.111431, -0.0366252, -0.111424, -0.0366243, -0.111423, -0.0366223, 2.13798E-009, -4.97839E-010
96, 0.00000, -0.0928444, -0.0305162, -0.0928391, -0.0305153, -0.0928379, -0.030514, 1.12059E-009, -2.76025E-010
97, 0.00000, -0.0748763, -0.0246105, -0.074873, -0.0246098, -0.0748721, -0.0246092, 5.35082E-010, -1.3896E-010
98, 0.00000, -0.0629781, -0.0206998, -0.0629765, -0.0206995, -0.062976, -0.0206992, 2.98492E-010, -8.01977E-011
99, 0.00000, -0.0560851, -0.0184342, -0.0560843, -0.0184341, -0.056084, -0.0184339, 2.02906E-010, -5.55732E-011
100, 0.00000, -0.0526524, -0.017306, -0.052652, -0.0173059, -0.0526519, -0.0173058, 1.6456E-010, -4.54935E-011
101, 0.00000, -0.051606, -0.016962, -0.0516052, -0.0169618, -0.0516047, -0.0169617, 1.55045E-010, -4.28629E-011
102, 0.00000, -0.0533038, -0.0175201, -0.053305, -0.0175206, -0.0533056, -0.0175207, 1.68349E-010, -4.66352E-011
103, 0.00000, -0.0588755, -0.0193514, -0.0588761, -0.0193517, -0.0588762, -0.0193516, 2.35419E-010, -6.39084E-011
104, 0.00000, -0.0685154, -0.0225198, -0.0685158, -0.0225202, -0.0685159, -0.0225201, 3.48246E-010, -1.0227E-010
105, 0.00000, -0.0866036, -0.028465, -0.0866018, -0.0284649, -0.0866015, -0.0284644, 3.86911E-010, -2.05448E-010
106, 0.00000, -0.105843, -0.0347886, -0.105842, -0.0347888, -0.105842, -0.0347883, 4.32073E-010, -3.69931E-010
107, 0.00000, -0.117987, -0.0387804, -0.117985, -0.0387809, -0.117985, -0.0387798, -5.52165E-010, -4.43179E-010
108, 0.00000, -0.122756, -0.0403481, -0.122756, -0.0403484, -0.122756, -0.0403482, -1.17205E-009, -4.22447E-010
109, 0.00000, -0.125799, -0.0413479, -0.125799, -0.0413483, -0.125799, -0.0413481, -1.19527E-009, -4.61237E-010
110, 0.00000, -0.127832, -0.0420163, -0.127834, -0.0420173, -0.127834, -0.0420173, 8.62466E-010, -6.63516E-010
111, 0.00000, -0.127174, -0.0417997, -0.127176, -0.0418009, -0.127176, -0.0418007, 2.29536E-009, -7.18252E-010
112, 0.00000, -0.126082, -0.041441, -0.126084, -0.0414422, -0.126084, -0.0414419, 3.31664E-009, -7.37721E-010
113, 0.00000, -0.131337, -0.0431683, -0.131333, -0.0431678, -0.131335, -0.0431671, 3.84775E-009, -8.41807E-010
114, 0.00000, -0.137477, -0.0451868, -0.138318, -0.0454639, -0.138324, -0.0454638, 1.10414E-009, 5.06954E-010
115, 0.00000, -0.140221, -0.0460876, -0.141734, -0.0465865, -0.141731, -0.0465847, -4.96562E-010, 1.74712E-009
116, 0.00000, -0.143635, -0.0472092, -0.14569, -0.0478868, -0.145993, -0.0479858, -2.06136E-009, 2.32767E-009
117, 0.00000, -0.140978, -0.0463374, -0.142679, -0.0468965, -0.142683, -0.0468976, -8.51226E-010, 2.09743E-009
118, 0.00000, -0.129659, -0.0426156, -0.129677, -0.0426224, -0.129669, -0.0426215, 3.6351E-009, -7.74393E-010
119, 0.00000, -0.109222, -0.0358993, -0.109221, -0.0358995, -0.10922, -0.0358988, 1.97119E-009, -4.6245E-010
120, 0.00000, -0.0854988, -0.0281019, -0.0854931, -0.0281007, -0.0854918, -0.0280995, 8.45148E-010, -2.12791E-010
121, 0.00000, -0.0683152, -0.022454, -0.0683125, -0.0224534, -0.0683118, -0.0224529, 3.92941E-010, -1.04004E-010
122, 0.00000, -0.057889, -0.0190271, -0.0578878, -0.0190269, -0.0578874, -0.0190267, 2.25811E-010, -6.15506E-011
123, 0.00000, -0.053003, -0.0174212, -0.0530025, -0.0174211, -0.0530023, -0.017421, 1.68388E-010, -4.65129E-011
124, 0.00000, -0.0513211, -0.0168684, -0.0513198, -0.016868, -0.0513191, -0.0168678, 1.53128E-010, -4.22994E-011
125, 0.00000, -0.0534306, -0.0175617, -0.0534322, -0.0175624, -0.0534329, -0.0175625, 1.69089E-010, -4.68722E-011
126, 0.00000, -0.0616509, -0.0202636, -0.0616518, -0.020264, -0.061652, -0.020264, 2.73535E-010, -7.36681E-011
127, 0.00000, -0.0781445, -0.0256848, -0.0781474, -0.0256858, -0.0781479, -0.0256861, 6.02837E-010, -1.54896E-010
128, 0.00000, -0.0871896, -0.0286577, -0.0871902, -0.0286582, -0.0871902, -0.028658, 8.05339E-010, -2.19858E-010
129, 0.00000, -0.0893037, -0.0293524, -0.0892995, -0.0293517, -0.0892986, -0.0293507, 4.43017E-010, -2.27901E-010
130, 0.00000, -0.0918839, -0.0302004, -0.0918817, -0.0302003, -0.0918812, -0.0301996, 1.83506E-010, -2.36374E-010
131, 0.00000, -0.0925279, -0.0304125, -0.0925279, -0.0304127, -0.0925282, -0.0304126, -6.42272E-010, -1.84567E-010
132, 0.00000, -0.0918039, -0.0301744, -0.0918039, -0.0301747, -0.091804, -0.0301745, -7.10253E-010, -1.67672E-010
133, 0.00000, -0.0922085, -0.030308, -0.0922066, -0.0303075, -0.0922061, -0.0303071, -7.47253E-010, -1.63845E-010
134, 0.00000, -0.0940037, -0.0308986, -0.0940124, -0.0309004, -0.0940136, -0.0309019, -6.1295E-012, -2.36114E-010
135, 0.00000, -0.0979352, -0.0321896, -0.097936, -0.0321902, -0.0979358, -0.03219, 6.44822E-010, -3.01203E-010
136, 0.00000, -0.107608, -0.0353689, -0.10761, -0.03537, -0.10761, -0.0353699, 1.85603E-009, -4.36629E-010
137, 0.00000, -0.125117, -0.0411238, -0.125119, -0.0411248, -0.125118, -0.0411244, 3.22614E-009, -7.19961E-010
138, 0.00000, -0.138292, -0.0454541, -0.139334, -0.0457975, -0.139336, -0.0457973, 5.59919E-010, 8.74834E-010
139, 0.00000, -0.142782, -0.0469287, -0.144836, -0.0476064, -0.144923, -0.0476341, -1.55395E-009, 2.66686E-009
140, 0.00000, -0.145356, -0.0477754, -0.147426, -0.0484569, -0.148164, -0.0486995, -2.85821E-009, 1.66166E-009
141, 0.00000, -0.142341, -0.0467854, -0.144381, -0.0474555, -0.144386, -0.0474572, -1.32385E-009, 2.76664E-009
142, 0.00000, -0.132101, -0.0434186, -0.13212, -0.0434253, -0.132114, -0.0434251, 3.85043E-009, -8.09912E-010
143, 0.00000, -0.112131, -0.0368551, -0.112125, -0.0368546, -0.112122, -0.0368522, 2.18785E-009, -5.05195E-010
144, 0.00000, -0.0882816, -0.0290166, -0.0882756, -0.0290153, -0.0882742, -0.029014, 9.4415E-010, -2.35771E-010
145, 0.00000, -0.0683162, -0.0224544, -0.0683131, -0.0224536, -0.0683123, -0.0224531, 3.93856E-010, -1.04265E-010
146, 0.00000, -0.057889, -0.0190271, -0.0578878, -0.0190269, -0.0578874, -0.0190267, 2.25812E-010, -6.15511E-011
147, 0.00000, -0.053003, -0.0174212, -0.0530025, -0.0174211, -0.0530023, -0.017421, 1.68388E-010, -4.65129E-011
148, 0.00000, -0.0513211, -0.0168684, -0.0513198, -0.016868, -0.0513191, -0.0168678, 1.53128E-010, -4.22994E-011
149, 0.00000, -0.0534306, -0.0175617, -0.0534322, -0.0175624, -0.0534329, -0.0175625, 1.69089E-010, -4.68722E-011
150, 0.00000, -0.0616509, -0.0202636, -0.0616518, -0.020264, -0.061652, -0.020264, 2.73535E-010, -7.36681E-011
151, 0.00000, -0.0781445, -0.0256848, -0.0781474, -0.0256858, -0.0781479, -0.0256861, 6.02837E-010, -1.54896E-010
152, 0.00000, -0.087192, -0.0286585, -0.0871915, -0.0286587, -0.0871913, -0.0286584, 7.30777E-010, -2.18636E-010
153, 0.00000, -0.0893034, -0.0293521, -0.0892992, -0.0293515, -0.0892983, -0.0293505, 2.61234E-010, -2.21646E-010
154, 0.00000, -0.0918813, -0.0301997, -0.0918805, -0.0301998, -0.0918802, -0.0301995, 1.80971E-010, -2.35289E-010
155, 0.00000, -0.0925309, -0.0304131, -0.0925294, -0.0304132, -0.0925291, -0.0304126, -1.34651E-010, -2.2603E-010
156, 0.00000, -0.0918119, -0.0301767, -0.0918095, -0.0301766, -0.0918085, -0.0301758, -1.72391E-010, -2.18906E-010
157, 0.00000, -0.0922009, -0.030305, -0.0922018, -0.0303054, -0.0922019, -0.0303054, -1.4248E-011, -2.27816E-010
158, 0.00000, -0.0940099, -0.0308998, -0.0940142, -0.0309011, -0.0940149, -0.0309016, 3.89703E-010, -2.56402E-010
159, 0.00000, -0.0979346, -0.0321893, -0.0979357, -0.0321901, -0.0979356, -0.0321899, 1.10984E-009, -3.1578E-010
160, 0.00000, -0.107596, -0.0353648, -0.107603, -0.035367, -0.107604, -0.035368, 1.83771E-009, -4.33072E-010
161, 0.00000, -0.125117, -0.0411238, -0.125119, -0.0411248, -0.125118, -0.0411244, 3.22613E-009, -7.19955E-010
162, 0.00000, -0.138292, -0.0454541, -0.139334, -0.0457975, -0.139336, -0.0457973, 5.59919E-010, 8.74834E-010
163, 0.00000, -0.142782, -0.0469287, -0.144836, -0.0476064, -0.144923, -0.0476341, -1.55395E-009, 2.66686E-009
164, 0.00000, -0.145356, -0.0477754, -0.147426, -0.0484569, -0.148164, -0.0486995, -2.85821E-009, 1.66166E-009
165, 0.00000, -0.142341, -0.0467854, -0.144381, -0.0474555, -0.144386, -0.0474572, -1.32385E-009, 2.76664E-009
166, 0.00000, -0.132101, -0.0434186, -0.13212, -0.0434253, -0.132114, -0.0434251, 3.85043E-009, -8.09912E-010
167, 0.00000, -0.112131, -0.0368551, -0.112125, -0.0368546, -0.112122, -0.0368522, 2.18785E-009, -5.05195E-010
168, 0.00000, -0.0882816, -0.0290166, -0.0882756, -0.0290153, -0.0882742, -0.029014, 9.4415E-010, -2.35771E-010
169, 0.00000, -0.0683162, -0.0224544, -0.0683131, -0.0224536, -0.0683123, -0.0224531, 3.93856E-010, -1.04265E-010
170, 0.00000, -0.057889, -0.0190271, -0.0578878, -0.0190269, -0.0578874, -0.0190267, 2.25812E-010, -6.15511E-011
171, 0.00000, -0.053003, -0.0174212, -0.0530025, -0.0174211, -0.0530023, -0.017421, 1.68388E-010, -4.65129E-011
172, 0.00000, -0.0513211, -0.0168684, -0.0513198, -0.016868, -0.0513191, -0.0168678, 1.53128E-010, -4.22994E-011
173, 0.00000, -0.0534306, -0.0175617, -0.0534322, -0.0175624, -0.0534329, -0.0175625, 1.69089E-010, -4.68722E-011
174, 0.00000, -0.0616509, -0.0202636, -0.0616518, -0.020264, -0.061652, -0.020264, 2.73535E-010, -7.36681E-011
175, 0.00000, -0.0781445, -0.0256848, -0.0781474, -0.0256858, -0.0781479, -0.0256861, 6.02837E-010, -1.54896E-010
176, 0.00000, -0.0871896, -0.0286577, -0.0871902, -0.0286582, -0.0871902, -0.028658, 8.05467E-010, -2.1986E-010
177, 0.00000, -0.0893044, -0.0293525, -0.0892998, -0.0293517, -0.0892988, -0.0293507, 3.22153E-010, -2.2414E-010
178, 0.00000, -0.091883, -0.0302001, -0.0918811, -0.0302001, -0.0918807, -0.0301995, 3.58932E-011, -2.29857E-010
