hour, t(sec), V0, VAngle0, V1, VAngle1, V2, VAngle2, I0, IAngle0, I1, IAngle1, I2, IAngle2, 
1, 0.00000, 0.0371118, 113.359, 224.41, -30.3693, 0.0125962, -150.35, 0.67914, 130.214, 101.244, 130.602, 0.710918, 135.215
2, 0.00000, 0.0308683, 113.186, 224.574, -30.3065, 0.010392, -151.031, 0.565547, 130.351, 84.558, 130.421, 0.586518, 134.534
3, 0.00000, 0.0279268, 113.153, 224.651, -30.2769, 0.00939354, -151.248, 0.513331, 130.551, 76.7124, 130.291, 0.530163, 134.317
4, 0.00000, 0.0264386, 113.204, 224.685, -30.2604, 0.0090186, -151.451, 0.493906, 130.634, 72.6285, 129.864, 0.509001, 134.114
5, 0.00000, 0.0275086, 113.227, 224.655, -30.2706, 0.00942892, -151.416, 0.515547, 130.541, 75.4541, 129.794, 0.53216, 134.149
6, 0.00000, 0.0314091, 113.432, 224.541, -30.3067, 0.0110203, -151.209, 0.600087, 130.372, 85.7024, 129.403, 0.621975, 134.356
7, 0.00000, 0.0399284, 113.8, 224.303, -30.3867, 0.0144137, -150.624, 0.778152, 130.049, 107.898, 129.116, 0.813496, 134.941
8, 0.00000, 0.0479798, 112.164, 224.117, -30.4778, 0.0159726, -150.341, 0.850955, 128.406, 130.392, 130.58, 0.901482, 135.224
9, 0.00000, 0.020113, 77.8954, 224.506, -30.121, 0.00630039, -178.84, 0.358511, 102.95, 59.4508, 103.781, 0.355585, 106.725
10, 0.00000, 0.0165729, 38.1455, 224.646, -29.9741, 0.00453097, 146.947, 0.269966, 69.7163, 44.6911, 69.9384, 0.255719, 72.5119
11, 0.00000, 0.0529573, -30.7696, 225.277, -29.3701, 0.0109146, 65.0493, 0.750898, -2.63568, 138.764, -10.4563, 0.616012, -9.38682
12, 0.00000, 0.0553124, -31.6709, 225.315, -29.3382, 0.0112911, 63.8812, 0.785173, -3.43977, 145.735, -11.4696, 0.637263, -10.5549
13, 0.00000, 0.0386064, -23.5735, 225.078, -29.5661, 0.00827369, 74.3056, 0.547531, 3.72464, 97.0351, -2.29226, 0.466961, -0.13066
14, 0.00000, 0.0206187, 75.7155, 224.469, -30.1167, 0.00644331, 179.695, 0.367311, 101.197, 60.8612, 102.049, 0.363651, 105.26
15, 0.00000, 0.0439761, 107.512, 224.084, -30.4244, 0.0145672, -154.064, 0.784858, 124.933, 122.02, 126.714, 0.822161, 131.501
16, 0.00000, 0.0652664, 114.016, 223.736, -30.6462, 0.0226479, -148.086, 1.17806, 128.643, 173.203, 131.666, 1.27823, 137.479
17, 0.00000, 0.0772742, 114.439, 223.448, -30.7557, 0.0276867, -147.361, 1.42023, 128.106, 202.283, 131.556, 1.56262, 138.203
18, 0.00000, 0.0853782, 113.257, 223.213, -30.8454, 0.0299338, -146.289, 1.51934, 127.554, 226.075, 131.474, 1.68944, 139.276
19, 0.00000, 0.0873196, 112.87, 223.12, -30.8807, 0.030157, -147.039, 1.5295, 128.621, 235.434, 131.443, 1.70204, 138.526
20, 0.00000, 0.0884731, 112.747, 223.066, -30.901, 0.0303757, -147.586, 1.54033, 129.312, 240.826, 131.425, 1.71439, 137.979
21, 0.00000, 0.0865208, 113, 223.144, -30.8653, 0.0302156, -146.864, 1.53404, 128.287, 231.871, 131.259, 1.70535, 138.7
22, 0.00000, 0.0816915, 114.151, 223.333, -30.7998, 0.0292392, -146.877, 1.49176, 127.8, 213.971, 131.515, 1.65024, 138.687
23, 0.00000, 0.0683299, 114.111, 223.663, -30.6743, 0.0239043, -147.865, 1.23883, 128.465, 180.655, 131.637, 1.34914, 137.7
24, 0.00000, 0.0526154, 113.633, 224.049, -30.5271, 0.0176467, -148.942, 0.93244, 129.254, 141.541, 131.805, 0.995966, 136.623
25, 0.00000, 0.0418984, 113.039, 224.341, -30.4291, 0.0131607, -149.463, 0.70271, 129.666, 114.44, 132.743, 0.742781, 136.102
26, 0.00000, 0.035189, 112.88, 224.511, -30.3617, 0.0108384, -150.003, 0.584932, 130.008, 96.7171, 132.812, 0.611713, 135.562
27, 0.00000, 0.0318965, 112.719, 224.592, -30.3283, 0.00975109, -150.343, 0.528065, 130.169, 88.0182, 132.764, 0.550343, 135.222
28, 0.00000, 0.029503, 112.82, 224.639, -30.3003, 0.00927296, -150.772, 0.504594, 130.357, 81.378, 131.996, 0.523357, 134.793
29, 0.00000, 0.0291191, 113.022, 224.631, -30.2914, 0.00955131, -151.113, 0.521345, 130.368, 80.0069, 130.931, 0.539067, 134.452
30, 0.00000, 0.0344526, 113.104, 224.495, -30.3463, 0.0113028, -150.53, 0.611418, 130.154, 94.3394, 131.253, 0.637921, 135.035
31, 0.00000, 0.0452823, 113.356, 224.224, -30.4545, 0.0150474, -149.58, 0.802256, 129.572, 122.738, 131.551, 0.849263, 135.985
32, 0.00000, 0.0481432, 112.097, 224.114, -30.4801, 0.015972, -150.291, 0.849958, 128.354, 130.902, 130.652, 0.901445, 135.274
33, 0.00000, 0.0278331, 96.6034, 224.374, -30.2382, 0.00917043, -163.579, 0.509287, 117.5, 80.6495, 117.588, 0.517569, 121.986
34, 0.00000, 0.0179104, 63.3854, 224.549, -30.0616, 0.00541928, 169.481, 0.313308, 91.4478, 52.1184, 92.2496, 0.305855, 95.0463
35, 0.00000, 0.0227778, 1.65034, 224.804, -29.8231, 0.00538412, 99.0352, 0.334358, 25.0147, 51.9514, 28.8184, 0.303873, 24.5988
36, 0.00000, 0.0250464, -4.72241, 224.855, -29.7815, 0.00588221, 91.8319, 0.367874, 18.4395, 57.3227, 20.4149, 0.331985, 17.3954
37, 0.00000, 0.0180772, 26.707, 224.68, -29.9401, 0.00444852, 127.654, 0.269949, 51.392, 44.1751, 59.9366, 0.251066, 53.2177
38, 0.00000, 0.0272037, 90.7494, 224.35, -30.2221, 0.00826359, -168.616, 0.462315, 111.971, 79.3247, 115.038, 0.466387, 116.949
39, 0.00000, 0.0516182, 111.089, 223.984, -30.5097, 0.0172769, -150.854, 0.917295, 127.276, 140.454, 129.686, 0.975095, 134.711
40, 0.00000, 0.0557693, 114.377, 223.872, -30.5319, 0.0210252, -149.655, 1.11588, 129.421, 148.128, 128.792, 1.18665, 135.91
41, 0.00000, 0.0769813, 114.386, 223.452, -30.7527, 0.0275859, -147.37, 1.41541, 128.082, 201.604, 131.5, 1.55693, 138.195
42, 0.00000, 0.0853456, 113.245, 223.213, -30.8454, 0.0299035, -146.289, 1.51806, 127.572, 226.08, 131.474, 1.68774, 139.276
43, 0.00000, 0.0873704, 112.869, 223.12, -30.8806, 0.0301729, -146.996, 1.53069, 128.564, 235.422, 131.442, 1.70294, 138.568
44, 0.00000, 0.0884822, 112.739, 223.067, -30.901, 0.0303758, -147.571, 1.54025, 129.291, 240.819, 131.425, 1.71439, 137.994
45, 0.00000, 0.0870779, 112.908, 223.129, -30.8773, 0.030106, -147.026, 1.52726, 128.571, 234.523, 131.446, 1.69916, 138.539
46, 0.00000, 0.0816992, 114.142, 223.333, -30.7998, 0.0292357, -146.864, 1.49159, 127.782, 213.974, 131.515, 1.65004, 138.701
47, 0.00000, 0.0683519, 114.171, 223.663, -30.6742, 0.0239429, -147.893, 1.24131, 128.513, 180.649, 131.637, 1.35132, 137.672
48, 0.00000, 0.0526152, 113.633, 224.049, -30.5271, 0.0176467, -148.942, 0.932441, 129.255, 141.541, 131.805, 0.995968, 136.622
49, 0.00000, 0.0400513, 113.1, 224.368, -30.4061, 0.0129147, -149.873, 0.692455, 129.81, 109.341, 131.982, 0.728893, 135.692
50, 0.00000, 0.0337361, 112.881, 224.532, -30.3436, 0.0106631, -150.376, 0.576203, 130.101, 92.7169, 132.101, 0.601818, 135.189
51, 0.00000, 0.0336514, 112.583, 224.566, -30.3511, 0.00993155, -149.926, 0.534961, 130.071, 93.0828, 133.663, 0.560528, 135.639
52, 0.00000, 0.0326582, 112.495, 224.593, -30.3411, 0.00957304, -149.956, 0.516178, 130.016, 90.4128, 133.732, 0.540294, 135.609
53, 0.00000, 0.0338993, 112.492, 224.559, -30.3537, 0.00999939, -149.9, 0.537752, 129.952, 93.7725, 133.645, 0.564357, 135.665
54, 0.00000, 0.0388703, 112.695, 224.43, -30.4029, 0.0117688, -149.527, 0.628795, 129.702, 106.865, 133.36, 0.664223, 136.038
55, 0.00000, 0.0410692, 113.693, 224.285, -30.4024, 0.0145439, -150.222, 0.78147, 130.132, 111.305, 129.745, 0.820849, 135.342
56, 0.00000, 0.0465799, 113.836, 224.144, -30.4546, 0.0165979, -149.995, 0.88804, 129.698, 125.3, 129.83, 0.936774, 135.569
57, 0.00000, 0.0418495, 108.865, 224.18, -30.4076, 0.0138883, -153.302, 0.749336, 126.184, 115.752, 127.678, 0.783846, 132.263
58, 0.00000, 0.0370518, 104.617, 224.223, -30.3501, 0.0120998, -156.783, 0.659807, 123.056, 104.349, 124.499, 0.682902, 128.782
59, 0.00000, 0.0309067, 98.5093, 224.305, -30.2738, 0.0100016, -161.949, 0.553189, 118.582, 88.8822, 119.646, 0.56448, 123.616
60, 0.00000, 0.0304964, 98.2413, 224.316, -30.2695, 0.00984854, -162.144, 0.544625, 118.378, 87.777, 119.5, 0.555842, 123.421
61, 0.00000, 0.0339049, 101.754, 224.264, -30.312, 0.0110056, -159.172, 0.603844, 120.987, 96.5342, 122.275, 0.621145, 126.393
62, 0.00000, 0.0417537, 107.205, 224.143, -30.4029, 0.013743, -154.44, 0.742524, 124.848, 116.214, 126.563, 0.775643, 131.124
63, 0.00000, 0.0441686, 107.624, 224.081, -30.4266, 0.0146375, -153.97, 0.78836, 125.008, 122.483, 126.801, 0.826132, 131.595
64, 0.00000, 0.0652694, 114.019, 223.736, -30.6462, 0.0226509, -148.087, 1.17821, 128.642, 173.204, 131.666, 1.2784, 137.478
65, 0.00000, 0.0772322, 114.424, 223.449, -30.7557, 0.0276473, -147.371, 1.41871, 128.128, 202.274, 131.557, 1.5604, 138.194
66, 0.00000, 0.0845978, 113.373, 223.227, -30.8335, 0.0299325, -146.378, 1.52156, 127.528, 223.444, 131.28, 1.68937, 139.187
67, 0.00000, 0.0873548, 112.867, 223.12, -30.8807, 0.0301731, -147.009, 1.5302, 128.578, 235.427, 131.443, 1.70295, 138.556
68, 0.00000, 0.0884777, 112.744, 223.067, -30.901, 0.0303787, -147.58, 1.54031, 129.303, 240.824, 131.425, 1.71455, 137.985
69, 0.00000, 0.0870933, 112.906, 223.129, -30.8772, 0.0301073, -147.009, 1.52755, 128.551, 234.518, 131.446, 1.69924, 138.556
70, 0.00000, 0.0816896, 114.149, 223.333, -30.7998, 0.0292367, -146.876, 1.49162, 127.799, 213.971, 131.515, 1.6501, 138.689
71, 0.00000, 0.0683366, 114.142, 223.663, -30.6742, 0.0239258, -147.889, 1.24003, 128.493, 180.646, 131.637, 1.35036, 137.675
72, 0.00000, 0.0526043, 113.59, 224.049, -30.5271, 0.0176314, -148.936, 0.931122, 129.215, 141.538, 131.804, 0.995104, 136.629
73, 0.00000, 0.0431019, 113.269, 224.29, -30.4357, 0.0140484, -149.648, 0.750731, 129.712, 117.236, 131.934, 0.792881, 135.917
74, 0.00000, 0.0361409, 113.044, 224.47, -30.3672, 0.0115264, -150.165, 0.621741, 130.026, 99.0023, 132.054, 0.650539, 135.4
75, 0.00000, 0.0324056, 112.866, 224.567, -30.3303, 0.0101991, -150.48, 0.552452, 130.193, 89.1753, 132.13, 0.575629, 135.085
76, 0.00000, 0.0307034, 112.775, 224.611, -30.3134, 0.00960199, -150.629, 0.521008, 130.264, 84.673, 132.169, 0.541928, 134.936
77, 0.00000, 0.0306824, 112.753, 224.612, -30.3133, 0.00959209, -150.636, 0.520301, 130.255, 84.6326, 132.169, 0.541369, 134.929
78, 0.00000, 0.0323382, 112.812, 224.568, -30.3298, 0.0101668, -150.497, 0.550338, 130.176, 89.0415, 132.131, 0.573808, 135.068
79, 0.00000, 0.0362069, 112.962, 224.467, -30.3682, 0.0115335, -150.18, 0.621335, 129.992, 99.2615, 132.051, 0.650939, 135.385
80, 0.00000, 0.0401149, 111.575, 224.32, -30.4022, 0.0129955, -151.106, 0.698442, 128.525, 110.121, 130.575, 0.733455, 134.459
81, 0.00000, 0.0314618, 98.7523, 224.29, -30.2797, 0.0101857, -161.667, 0.562242, 118.736, 90.396, 119.875, 0.574869, 123.898
82, 0.00000, 0.0270123, 83.3121, 224.239, -30.1846, 0.00869037, -173.59, 0.490954, 107.03, 79.5519, 107.531, 0.490474, 111.975
83, 0.00000, 0.0216974, 38.3042, 224.398, -29.966, 0.00595473, 148.955, 0.360075, 70.5838, 58.7844, 69.5383, 0.336075, 74.5191
84, 0.00000, 0.022329, 43.4899, 224.341, -29.9883, 0.00629405, 153.992, 0.377799, 75.3022, 61.6628, 74.4211, 0.355226, 79.5565
85, 0.00000, 0.025731, 69.5778, 224.184, -30.1164, 0.00808615, 176.107, 0.466315, 96.6117, 75.5439, 96.5442, 0.456372, 101.672
86, 0.00000, 0.0457507, 100.92, 223.827, -30.4107, 0.0154288, -158.832, 0.839332, 119.639, 129.318, 120.853, 0.87079, 126.732
87, 0.00000, 0.0837191, 111.147, 223.283, -30.8489, 0.0268329, -146.211, 1.35017, 125.529, 224.579, 132.427, 1.51443, 139.353
88, 0.00000, 0.0883181, 111.099, 223.147, -30.9419, 0.0269568, -146.938, 1.33853, 128.94, 246.013, 133.458, 1.52143, 138.627
89, 0.00000, 0.0870485, 112.774, 223.161, -30.8818, 0.0295517, -146.705, 1.49407, 128.288, 234.389, 131.946, 1.66788, 138.859
90, 0.00000, 0.0829774, 114.266, 223.23, -30.7978, 0.0309711, -147.339, 1.58845, 127.973, 216.852, 130.171, 1.74799, 138.225
91, 0.00000, 0.0728026, 115.163, 223.389, -30.6715, 0.0294365, -149.058, 1.53994, 128.755, 189.07, 127.621, 1.66137, 136.507
92, 0.00000, 0.0865677, 113.011, 223.158, -30.8661, 0.030075, -146.657, 1.52576, 128.104, 231.555, 131.456, 1.69741, 138.908
93, 0.00000, 0.0843139, 113.411, 223.248, -30.832, 0.0296806, -146.321, 1.50776, 127.473, 222.519, 131.486, 1.67516, 139.243
94, 0.00000, 0.0783647, 114.477, 223.423, -30.7652, 0.0281583, -147.273, 1.44273, 128.029, 204.806, 131.548, 1.58923, 138.292
95, 0.00000, 0.0678759, 114.158, 223.674, -30.6699, 0.023747, -147.93, 1.23187, 128.542, 179.495, 131.642, 1.34026, 137.635
96, 0.00000, 0.0555595, 113.732, 223.976, -30.555, 0.0187894, -148.735, 0.98925, 129.111, 148.971, 131.77, 1.06046, 136.83
97, 0.00000, 0.0441038, 113.246, 224.264, -30.4456, 0.0143999, -149.56, 0.768269, 129.62, 119.869, 131.918, 0.812721, 136.005
98, 0.00000, 0.036819, 113.085, 224.452, -30.3741, 0.0117733, -150.139, 0.634503, 130.048, 100.82, 132.04, 0.664473, 135.426
99, 0.00000, 0.0326642, 112.882, 224.56, -30.3329, 0.0102906, -150.457, 0.557279, 130.183, 89.856, 132.125, 0.580792, 135.108
100, 0.00000, 0.0306074, 112.776, 224.614, -30.3125, 0.00956931, -150.636, 0.519343, 130.27, 84.4138, 132.172, 0.540083, 134.929
101, 0.00000, 0.0299956, 112.76, 224.63, -30.3062, 0.00935829, -150.67, 0.508373, 130.282, 82.7584, 132.188, 0.528173, 134.895
102, 0.00000, 0.0309586, 112.71, 224.604, -30.3163, 0.00968095, -150.652, 0.524416, 130.254, 85.4427, 132.16, 0.546384, 134.913
103, 0.00000, 0.0343205, 112.888, 224.516, -30.3495, 0.0108634, -150.333, 0.586601, 130.081, 94.2899, 132.088, 0.613123, 135.233
104, 0.00000, 0.0366869, 111.31, 224.409, -30.3685, 0.0117605, -151.502, 0.634761, 128.564, 101.134, 130.516, 0.663751, 134.063
105, 0.00000, 0.0276555, 96.6738, 224.396, -30.2401, 0.00886254, -163.62, 0.491855, 117.293, 80.0371, 118.404, 0.500192, 121.945
106, 0.00000, 0.0243938, 79.7925, 224.323, -30.1536, 0.00776429, -176.601, 0.440826, 104.387, 71.9968, 104.918, 0.438207, 108.964
107, 0.00000, 0.0382746, -7.75674, 224.738, -29.6732, 0.00966702, 78.8679, 0.609532, 6.88561, 81.2236, 14.6307, 0.545599, 4.43174
108, 0.00000, 0.0820155, -30.5125, 225.338, -29.0382, 0.0174016, 60.055, 1.26322, -4.92932, 212.257, -12.4971, 0.982136, -14.3808
109, 0.00000, 0.078579, -29.3408, 225.263, -29.0877, 0.0168259, 61.4462, 1.21099, -4.16974, 201.406, -11.238, 0.949644, -12.9896
110, 0.00000, 0.0309392, 83.1019, 224.063, -30.2099, 0.0100194, -173.225, 0.56603, 106.708, 90.9143, 107.187, 0.565483, 112.34
111, 0.00000, 0.0562065, 108.43, 223.7, -30.5296, 0.0200225, -152.962, 1.06553, 124.946, 153.652, 125.76, 1.13006, 132.603
112, 0.00000, 0.0680246, 114.66, 223.571, -30.6465, 0.0259033, -148.841, 1.35583, 128.843, 178.531, 129.182, 1.46197, 136.724
113, 0.00000, 0.0693724, 114.825, 223.517, -30.6531, 0.0269489, -148.928, 1.41101, 128.848, 181.515, 128.659, 1.52098, 136.637
114, 0.00000, 0.0768517, 114.874, 223.364, -30.7281, 0.029507, -148.255, 1.52841, 128.433, 199.939, 129.46, 1.66535, 137.31
115, 0.00000, 0.0862532, 113.066, 223.173, -30.8605, 0.030033, -146.547, 1.52373, 127.94, 230.086, 131.46, 1.69504, 139.018
116, 0.00000, 0.0876557, 112.835, 223.102, -30.8874, 0.0302009, -147.28, 1.53228, 128.901, 237.209, 131.437, 1.70452, 138.285
117, 0.00000, 0.0865251, 113.013, 223.157, -30.8665, 0.03005, -146.743, 1.52456, 128.196, 231.678, 131.456, 1.696, 138.822
118, 0.00000, 0.0802776, 114.344, 223.373, -30.7844, 0.0288273, -147.067, 1.47348, 127.895, 209.884, 131.53, 1.627, 138.498
119, 0.00000, 0.0663936, 114.108, 223.71, -30.6562, 0.0231374, -148.021, 1.20233, 128.609, 175.864, 131.656, 1.30586, 137.544
120, 0.00000, 0.0508333, 113.567, 224.094, -30.5101, 0.0169604, -149.069, 0.8981, 129.337, 137.024, 131.827, 0.957232, 136.496
121, 0.00000, 0.0400515, 113.1, 224.368, -30.4061, 0.0129148, -149.872, 0.692461, 129.81, 109.341, 131.982, 0.7289, 135.693
122, 0.00000, 0.0337361, 112.881, 224.532, -30.3436, 0.0106631, -150.376, 0.576203, 130.101, 92.7169, 132.101, 0.601818, 135.189
123, 0.00000, 0.0308108, 112.761, 224.608, -30.3145, 0.0096378, -150.623, 0.522694, 130.245, 84.9672, 132.166, 0.543949, 134.942
124, 0.00000, 0.0298176, 112.731, 224.635, -30.3045, 0.00929639, -150.698, 0.50482, 130.281, 82.3011, 132.191, 0.52468, 134.867
125, 0.00000, 0.0310519, 112.75, 224.602, -30.3171, 0.00971496, -150.62, 0.526686, 130.254, 85.6524, 132.16, 0.548304, 134.945
126, 0.00000, 0.0359941, 112.95, 224.473, -30.3661, 0.0114565, -150.199, 0.617339, 130.004, 98.7085, 132.055, 0.646596, 135.366
127, 0.00000, 0.0461495, 113.32, 224.211, -30.4655, 0.0151598, -149.411, 0.806838, 129.53, 125.154, 131.888, 0.855605, 136.154
128, 0.00000, 0.0482084, 112.125, 224.113, -30.4808, 0.0159972, -150.267, 0.851204, 128.368, 131.049, 130.673, 0.902871, 135.298
129, 0.00000, 0.0290153, 97.3871, 224.356, -30.2539, 0.00933982, -162.947, 0.517476, 117.767, 83.7454, 118.88, 0.52713, 122.618
130, 0.00000, 0.018148, 65.1754, 224.542, -30.0684, 0.00552426, 170.944, 0.318835, 92.8979, 52.9778, 93.6769, 0.31178, 96.5094
131, 0.00000, 0.0788823, -36.8733, 225.627, -29.0148, 0.0147605, 56.5804, 1.11111, -6.13399, 217.786, -16.8132, 0.833075, -17.8555
132, 0.00000, 0.0973926, -39.3328, 225.882, -28.752, 0.0167756, 52.3699, 1.35638, -6.2289, 277.207, -19.0424, 0.946805, -22.0659
133, 0.00000, 0.107893, -40.2436, 226.018, -28.5998, 0.0176939, 50.3419, 1.49375, -5.74861, 311.722, -19.8017, 0.998635, -24.094
134, 0.00000, 0.0175173, 26.2032, 224.673, -29.9315, 0.00450293, 134.971, 0.273275, 58.1898, 45.0914, 57.7362, 0.254136, 60.5347
135, 0.00000, 0.0340999, 99.9892, 224.218, -30.3075, 0.0111239, -160.367, 0.610553, 119.668, 97.6071, 120.773, 0.627823, 125.198
136, 0.00000, 0.0652194, 114.036, 223.736, -30.6462, 0.0226527, -147.989, 1.17749, 128.729, 173.201, 131.669, 1.2785, 137.576
137, 0.00000, 0.0772287, 114.389, 223.448, -30.7557, 0.0276288, -147.333, 1.41732, 128.092, 202.287, 131.556, 1.55935, 138.231
138, 0.00000, 0.0853573, 113.245, 223.213, -30.8454, 0.0299067, -146.28, 1.51833, 127.562, 226.084, 131.474, 1.68792, 139.284
139, 0.00000, 0.0867185, 112.961, 223.134, -30.8688, 0.0302395, -146.932, 1.53517, 128.384, 232.794, 131.257, 1.7067, 138.633
140, 0.00000, 0.0884815, 112.739, 223.067, -30.901, 0.030378, -147.569, 1.54023, 129.293, 240.821, 131.425, 1.71452, 137.996
141, 0.00000, 0.0870924, 112.906, 223.129, -30.8772, 0.030107, -147.01, 1.52753, 128.552, 234.518, 131.446, 1.69922, 138.555
142, 0.00000, 0.0816896, 114.148, 223.333, -30.7998, 0.0292364, -146.876, 1.49159, 127.798, 213.971, 131.515, 1.65008, 138.689
143, 0.00000, 0.0683376, 114.143, 223.663, -30.6742, 0.0239265, -147.889, 1.24007, 128.492, 180.646, 131.637, 1.35039, 137.676
144, 0.00000, 0.0526052, 113.591, 224.049, -30.5271, 0.017632, -148.936, 0.931168, 129.215, 141.539, 131.804, 0.995138, 136.629
145, 0.00000, 0.0400707, 113.128, 224.368, -30.4061, 0.0129309, -149.869, 0.693437, 129.804, 109.343, 131.982, 0.729807, 135.696
146, 0.00000, 0.0328404, 112.981, 224.545, -30.3322, 0.0105736, -150.597, 0.572748, 130.231, 90.2026, 131.619, 0.596768, 134.968
147, 0.00000, 0.0308089, 112.759, 224.608, -30.3145, 0.00963643, -150.624, 0.52261, 130.247, 84.9669, 132.166, 0.543872, 134.941
148, 0.00000, 0.0289425, 112.928, 224.648, -30.2932, 0.00923124, -150.93, 0.503076, 130.494, 79.7983, 131.648, 0.521003, 134.635
149, 0.00000, 0.0402551, 112.135, 224.466, -30.4342, 0.0107514, -148.154, 0.566486, 129.229, 111.802, 136.116, 0.606801, 137.411
150, 0.00000, 0.0454941, 112.421, 224.333, -30.4857, 0.0126566, -147.855, 0.662682, 129.017, 125.393, 135.644, 0.714329, 137.71
151, 0.00000, 0.0560754, 113.015, 224.069, -30.5866, 0.0167445, -147.242, 0.866945, 128.57, 152.146, 134.853, 0.945049, 138.323
152, 0.00000, 0.0525806, 110.651, 224.044, -30.5395, 0.0158755, -149.862, 0.83392, 126.729, 144.013, 132.302, 0.896003, 135.703
153, 0.00000, 0.0240999, 84.3722, 224.436, -30.183, 0.00665669, -175.711, 0.377567, 105.106, 70.1693, 112.141, 0.375694, 109.854
154, 0.00000, 0.0199603, 69.8191, 224.505, -30.1012, 0.00555664, 171.551, 0.321224, 93.2779, 57.5442, 99.92, 0.313607, 97.1158
155, 0.00000, 0.0223132, 2.45009, 224.798, -29.8285, 0.00528373, 100.55, 0.325622, 26.7395, 51.3022, 30.0034, 0.298207, 26.1135
156, 0.00000, 0.0249942, -6.2368, 224.865, -29.7722, 0.00572911, 93.2579, 0.360692, 19.7814, 58.7305, 18.8124, 0.323344, 18.8214
157, 0.00000, 0.0177215, 22.1138, 224.703, -29.9185, 0.0044279, 129.576, 0.270381, 52.7074, 44.4743, 53.5093, 0.249902, 55.1398
