hour, t(sec), P1 (kW), Q1 (kvar), P2 (kW), Q2 (kvar)
1, 0.00000, 0.275034, 0.0903711, 6.17268E-007, 3.07574E-007
2, 0.00000, 0.233068, 0.0766067, 4.40572E-007, 1.88994E-007
3, 0.00000, 0.213399, 0.0701318, 3.47284E-007, 1.47278E-007
4, 0.00000, 0.206608, 0.0679016, 2.91338E-007, 9.94121E-008
5, 0.00000, 0.215161, 0.0707221, 3.16587E-007, 9.78074E-008
6, 0.00000, 0.248237, 0.0815991, 3.90864E-007, 8.77628E-008
7, 0.00000, 0.314661, 0.103423, 6.01762E-007, 1.17941E-007
8, 0.00000, 0.351077, 0.115393, 1.36074E-006, 8.46862E-007
9, 0.00000, 0.359532, 0.118171, 4.28942E-007, -1.61163E-007
10, 0.00000, 0.369941, 0.121594, 1.20479E-007, -5.09535E-007
11, 0.00000, 0.372541, 0.122472, -8.27181E-007, -1.44272E-006
12, 0.00000, 0.369636, 0.121495, -8.50543E-007, -1.47579E-006
13, 0.00000, 0.371232, 0.122017, -5.75525E-007, -1.21631E-006
14, 0.00000, 0.378549, 0.124425, 4.48588E-007, -2.22563E-007
15, 0.00000, 0.39432, 0.129607, 1.36363E-006, 6.65809E-007
16, 0.00000, 0.433274, 0.14241, 2.39639E-006, 1.57688E-006
17, 0.00000, 0.503765, 0.165579, 3.37528E-006, 2.25756E-006
18, 0.00000, 0.560991, 0.18439, 4.32797E-006, 2.93605E-006
19, 0.00000, 0.583533, 0.191797, 4.74948E-006, 3.24556E-006
20, 0.00000, 0.596565, 0.196081, 5.00399E-006, 3.4348E-006
21, 0.00000, 0.581355, 0.191101, 4.49208E-006, 2.91579E-006
22, 0.00000, 0.531887, 0.174821, 3.82808E-006, 2.57962E-006
23, 0.00000, 0.451424, 0.148381, 2.63462E-006, 1.73586E-006
24, 0.00000, 0.355398, 0.116811, 1.55061E-006, 1.01853E-006
25, 0.00000, 0.275035, 0.0903985, 1.05396E-006, 7.52478E-007
26, 0.00000, 0.233077, 0.0766094, 7.41194E-007, 5.30823E-007
27, 0.00000, 0.213406, 0.0701433, 6.02707E-007, 4.21184E-007
28, 0.00000, 0.206613, 0.0679109, 4.79758E-007, 3.02481E-007
29, 0.00000, 0.215162, 0.0707245, 4.26717E-007, 2.14552E-007
30, 0.00000, 0.248234, 0.0815893, 6.07445E-007, 3.36949E-007
31, 0.00000, 0.314659, 0.103424, 1.1075E-006, 6.65969E-007
32, 0.00000, 0.351056, 0.115386, 1.37919E-006, 8.41261E-007
33, 0.00000, 0.359534, 0.11817, 6.5812E-007, 7.17272E-008
34, 0.00000, 0.369937, 0.121593, 3.08032E-007, -3.2636E-007
35, 0.00000, 0.372555, 0.12245, -3.28698E-008, -6.5556E-007
36, 0.00000, 0.369644, 0.121502, -1.09569E-007, -7.24659E-007
37, 0.00000, 0.371234, 0.12202, 1.8541E-007, -4.38271E-007
38, 0.00000, 0.378537, 0.124424, 8.28924E-007, 1.82584E-007
39, 0.00000, 0.394319, 0.129607, 1.6814E-006, 9.95103E-007
40, 0.00000, 0.433281, 0.142376, 1.11124E-006, 1.56515E-007
41, 0.00000, 0.503806, 0.165603, 3.33251E-006, 2.20391E-006
42, 0.00000, 0.561004, 0.184394, 4.32771E-006, 2.91723E-006
43, 0.00000, 0.583517, 0.191791, 4.73886E-006, 3.21354E-006
44, 0.00000, 0.596556, 0.196077, 4.99749E-006, 3.41428E-006
45, 0.00000, 0.581328, 0.191071, 4.71689E-006, 3.24097E-006
46, 0.00000, 0.531892, 0.174821, 3.82981E-006, 2.59549E-006
47, 0.00000, 0.451408, 0.148367, 2.63116E-006, 1.75679E-006
48, 0.00000, 0.355398, 0.116811, 1.55055E-006, 1.01854E-006
49, 0.00000, 0.275032, 0.0903992, 8.973E-007, 5.73505E-007
50, 0.00000, 0.233069, 0.0766058, 6.37591E-007, 4.06733E-007
51, 0.00000, 0.213406, 0.0701409, 7.15986E-007, 5.55228E-007
52, 0.00000, 0.20662, 0.0679154, 6.79228E-007, 5.18479E-007
53, 0.00000, 0.215158, 0.0707186, 7.27941E-007, 5.4784E-007
54, 0.00000, 0.248228, 0.0815879, 9.46081E-007, 6.98977E-007
55, 0.00000, 0.314665, 0.103366, 6.47389E-007, 2.30407E-007
56, 0.00000, 0.351059, 0.115386, 9.37378E-007, 3.4378E-007
57, 0.00000, 0.359545, 0.118175, 1.14854E-006, 5.93702E-007
58, 0.00000, 0.369944, 0.121595, 1.05239E-006, 4.46504E-007
59, 0.00000, 0.372559, 0.122455, 8.4307E-007, 2.23951E-007
60, 0.00000, 0.369641, 0.121496, 8.2433E-007, 2.038E-007
61, 0.00000, 0.371235, 0.12202, 9.44403E-007, 3.1975E-007
62, 0.00000, 0.378547, 0.124423, 1.23834E-006, 5.9645E-007
63, 0.00000, 0.39432, 0.129607, 1.37101E-006, 6.73508E-007
64, 0.00000, 0.433275, 0.14241, 2.39665E-006, 1.57729E-006
65, 0.00000, 0.503752, 0.165576, 3.37152E-006, 2.2545E-006
66, 0.00000, 0.561054, 0.184426, 4.12916E-006, 2.67002E-006
67, 0.00000, 0.583522, 0.191795, 4.74538E-006, 3.2385E-006
68, 0.00000, 0.596562, 0.19608, 5.00264E-006, 3.43234E-006
69, 0.00000, 0.581321, 0.191068, 4.7109E-006, 3.2223E-006
70, 0.00000, 0.531888, 0.174821, 3.8284E-006, 2.58041E-006
71, 0.00000, 0.451405, 0.148368, 2.63025E-006, 1.7397E-006
72, 0.00000, 0.355396, 0.116812, 1.55044E-006, 1.00519E-006
73, 0.00000, 0.294847, 0.0969089, 1.03737E-006, 6.79741E-007
74, 0.00000, 0.248963, 0.0818305, 7.32098E-007, 4.77376E-007
75, 0.00000, 0.224086, 0.0736538, 5.88985E-007, 3.80252E-007
76, 0.00000, 0.212653, 0.0698955, 5.29025E-007, 3.39275E-007
77, 0.00000, 0.212552, 0.0698624, 5.28138E-007, 3.36816E-007
78, 0.00000, 0.223752, 0.073544, 5.86123E-007, 3.73459E-007
79, 0.00000, 0.249629, 0.0820489, 7.33778E-007, 4.6817E-007
80, 0.00000, 0.298585, 0.09814, 9.66784E-007, 5.79902E-007
81, 0.00000, 0.376139, 0.12363, 8.67222E-007, 2.22596E-007
82, 0.00000, 0.448223, 0.147323, 7.54215E-007, -1.7807E-007
83, 0.00000, 0.486332, 0.15985, 1.93969E-007, -9.10475E-007
84, 0.00000, 0.500848, 0.16463, 2.66984E-007, -9.03592E-007
85, 0.00000, 0.507616, 0.166847, 6.55687E-007, -5.47876E-007
86, 0.00000, 0.517372, 0.170052, 1.7603E-006, 5.21665E-007
87, 0.00000, 0.527079, 0.173261, 5.49641E-006, 4.51238E-006
88, 0.00000, 0.537456, 0.176643, 5.36663E-006, 3.0094E-006
89, 0.00000, 0.564439, 0.185522, 4.95189E-006, 3.62062E-006
90, 0.00000, 0.579413, 0.190449, 3.37452E-006, 1.69278E-006
91, 0.00000, 0.576385, 0.189457, 1.5136E-006, -3.94114E-007
92, 0.00000, 0.57419, 0.188729, 4.56966E-006, 3.10892E-006
93, 0.00000, 0.552434, 0.181592, 4.18065E-006, 2.78068E-006
94, 0.00000, 0.50983, 0.16757, 3.4731E-006, 2.33827E-006
95, 0.00000, 0.448601, 0.147445, 2.59438E-006, 1.72836E-006
96, 0.00000, 0.373776, 0.122852, 1.73068E-006, 1.13812E-006
97, 0.00000, 0.301443, 0.0990802, 1.08809E-006, 6.97638E-007
98, 0.00000, 0.25356, 0.0833386, 7.57012E-007, 5.01136E-007
99, 0.00000, 0.225813, 0.0742212, 5.98379E-007, 3.86913E-007
100, 0.00000, 0.211993, 0.0696788, 5.25796E-007, 3.37653E-007
101, 0.00000, 0.207773, 0.0682933, 5.05994E-007, 3.24979E-007
102, 0.00000, 0.214632, 0.0705426, 5.35809E-007, 3.37877E-007
103, 0.00000, 0.237056, 0.0779166, 6.59637E-007, 4.20446E-007
104, 0.00000, 0.275868, 0.0906733, 8.13922E-007, 4.84475E-007
105, 0.00000, 0.348682, 0.114605, 6.97307E-007, 1.43874E-007
106, 0.00000, 0.426151, 0.140069, 6.22187E-007, -2.19818E-007
107, 0.00000, 0.47505, 0.156135, 1.97003E-007, -7.29221E-007
108, 0.00000, 0.494256, 0.162457, -9.13711E-007, -1.90842E-006
109, 0.00000, 0.506509, 0.166482, -8.78891E-007, -1.9262E-006
110, 0.00000, 0.514704, 0.169176, 9.95681E-007, -2.36812E-007
111, 0.00000, 0.512058, 0.168258, 1.92674E-006, 6.96417E-007
112, 0.00000, 0.507658, 0.166849, 1.84766E-006, 5.0787E-007
113, 0.00000, 0.528814, 0.173783, 1.73614E-006, 2.42186E-007
114, 0.00000, 0.556957, 0.183055, 2.509E-006, 8.94409E-007
115, 0.00000, 0.570656, 0.187571, 4.5026E-006, 3.02243E-006
116, 0.00000, 0.587823, 0.193207, 4.8249E-006, 3.28212E-006
117, 0.00000, 0.574476, 0.18882, 4.58621E-006, 3.14195E-006
118, 0.00000, 0.522051, 0.171587, 3.66818E-006, 2.48037E-006
119, 0.00000, 0.439757, 0.144538, 2.48061E-006, 1.65241E-006
120, 0.00000, 0.344197, 0.11313, 1.44662E-006, 9.48221E-007
121, 0.00000, 0.275032, 0.0903992, 8.97308E-007, 5.73513E-007
122, 0.00000, 0.233069, 0.0766058, 6.37591E-007, 4.06733E-007
123, 0.00000, 0.213402, 0.0701417, 5.32555E-007, 3.39545E-007
124, 0.00000, 0.206615, 0.0679113, 4.9917E-007, 3.18418E-007
125, 0.00000, 0.215152, 0.0707165, 5.4071E-007, 3.44409E-007
126, 0.00000, 0.248233, 0.0815901, 7.25201E-007, 4.62572E-007
127, 0.00000, 0.314655, 0.103423, 1.19168E-006, 7.65765E-007
128, 0.00000, 0.351057, 0.115387, 1.38157E-006, 8.43762E-007
129, 0.00000, 0.359536, 0.118171, 7.57924E-007, 1.69224E-007
130, 0.00000, 0.369939, 0.121592, 3.23929E-007, -3.10325E-007
131, 0.00000, 0.372559, 0.122459, -1.13989E-006, -1.7582E-006
132, 0.00000, 0.369626, 0.121492, -1.28806E-006, -1.88164E-006
133, 0.00000, 0.371232, 0.12202, -1.35681E-006, -1.94144E-006
134, 0.00000, 0.378553, 0.124427, 3.5516E-008, -6.30627E-007
135, 0.00000, 0.394325, 0.129593, 1.00261E-006, 2.86674E-007
136, 0.00000, 0.433277, 0.142388, 2.40157E-006, 1.57764E-006
137, 0.00000, 0.503777, 0.165588, 3.37235E-006, 2.24906E-006
138, 0.00000, 0.561009, 0.184394, 4.33128E-006, 2.93949E-006
139, 0.00000, 0.583581, 0.191833, 4.53308E-006, 2.9345E-006
140, 0.00000, 0.596556, 0.196079, 5.0005E-006, 3.42844E-006
141, 0.00000, 0.581321, 0.191068, 4.71099E-006, 3.22239E-006
142, 0.00000, 0.531888, 0.174821, 3.82844E-006, 2.5805E-006
143, 0.00000, 0.451405, 0.148368, 2.63033E-006, 1.73982E-006
144, 0.00000, 0.355396, 0.116812, 1.5505E-006, 1.00528E-006
145, 0.00000, 0.275034, 0.0903987, 8.98283E-007, 5.75114E-007
146, 0.00000, 0.23307, 0.0766051, 5.7312E-007, 3.43854E-007
147, 0.00000, 0.213402, 0.0701416, 5.32472E-007, 3.39432E-007
148, 0.00000, 0.206614, 0.0679087, 4.42647E-007, 2.72101E-007
149, 0.00000, 0.215157, 0.070719, 1.17161E-006, 1.03058E-006
150, 0.00000, 0.248226, 0.0815869, 1.48418E-006, 1.29331E-006
151, 0.00000, 0.314658, 0.103423, 2.21972E-006, 1.90726E-006
152, 0.00000, 0.351068, 0.115389, 2.15785E-006, 1.73758E-006
153, 0.00000, 0.359533, 0.11817, 8.23638E-007, 2.84548E-007
154, 0.00000, 0.369943, 0.121597, 5.57895E-007, -3.5406E-008
155, 0.00000, 0.372556, 0.122464, -4.66027E-008, -6.37201E-007
156, 0.00000, 0.369635, 0.121496, -1.99862E-007, -8.19974E-007
157, 0.00000, 0.371232, 0.122014, 2.6952E-008, -6.32811E-007
158, 0.00000, 0.378548, 0.124425, 6.38395E-007, -3.44915E-008
159, 0.00000, 0.394332, 0.129519, 1.2539E-006, 5.97552E-007
160, 0.00000, 0.433276, 0.142403, 1.84074E-006, 9.58707E-007
161, 0.00000, 0.503766, 0.165574, 2.63489E-006, 1.42249E-006
162, 0.00000, 0.561011, 0.184391, 3.2755E-006, 1.73182E-006
163, 0.00000, 0.583545, 0.19182, 1.81494E-006, -1.2503E-007
164, 0.00000, 0.596574, 0.196081, 2.13314E-006, 1.41655E-007
165, 0.00000, 0.581294, 0.191069, 4.48716E-006, 2.91303E-006
166, 0.00000, 0.531887, 0.174821, 3.82808E-006, 2.57961E-006
167, 0.00000, 0.451405, 0.148368, 2.62998E-006, 1.73927E-006
168, 0.00000, 0.355395, 0.116812, 1.55025E-006, 1.00488E-006
169, 0.00000, 0.275041, 0.0904059, 3.19695E-006, 1.04765E-006
170, 0.00000, 0.233065, 0.0766061, 3.60782E-006, 3.71461E-006
171, 0.00000, 0.213401, 0.0701387, 2.86171E-006, 2.95038E-006
172, 0.00000, 0.206615, 0.067909, 2.587E-006, 2.65522E-006
173, 0.00000, 0.215154, 0.0707165, 3.30688E-006, 3.43812E-006
174, 0.00000, 0.248233, 0.0815873, 3.21814E-006, 3.26491E-006
175, 0.00000, 0.314664, 0.103447, 2.48495E-007, -3.02997E-007
176, 0.00000, 0.351076, 0.115397, 2.8165E-006, 2.4508E-006
177, 0.00000, 0.359536, 0.11817, 5.86633E-007, 2.37549E-008
178, 0.00000, 0.36992, 0.121571, -1.51714E-006, -2.30086E-006
179, 0.00000, 0.372568, 0.122462, -1.79288E-006, -2.54573E-006
180, 0.00000, 0.369661, 0.121507, -1.56851E-006, -2.3768E-006
181, 0.00000, 0.371246, 0.122026, -1.61186E-006, -2.41295E-006
182, 0.00000, 0.378565, 0.124435, -1.38917E-006, -2.26196E-006
183, 0.00000, 0.394332, 0.129623, -1.76256E-007, -1.04721E-006
184, 0.00000, 0.433263, 0.142361, 5.10731E-007, -4.09715E-007
185, 0.00000, 0.50376, 0.165552, 1.50676E-006, 2.29073E-007
186, 0.00000, 0.560991, 0.184397, 4.21379E-006, 2.74858E-006
187, 0.00000, 0.583538, 0.191799, 4.7499E-006, 3.23546E-006
188, 0.00000, 0.596567, 0.19608, 4.79047E-006, 3.18507E-006
189, 0.00000, 0.581329, 0.191072, 4.50157E-006, 2.99172E-006
190, 0.00000, 0.53189, 0.174821, 3.82965E-006, 2.59166E-006
191, 0.00000, 0.451408, 0.148367, 2.63117E-006, 1.75678E-006
192, 0.00000, 0.355398, 0.116811, 1.55055E-006, 1.01854E-006
193, 0.00000, 0.266876, 0.0877164, 2.10021E-006, 8.0372E-007
194, 0.00000, 0.233072, 0.0766164, 3.62651E-006, 3.49609E-006
195, 0.00000, 0.213382, 0.0701282, 3.36736E-006, 3.0299E-006
196, 0.00000, 0.206609, 0.0679063, 3.06401E-006, 3.19569E-006
197, 0.00000, 0.215163, 0.0707168, 2.11204E-006, 2.10548E-006
198, 0.00000, 0.248242, 0.0815912, 2.0426E-006, 1.94008E-006
199, 0.00000, 0.314664, 0.103423, 1.19116E-006, 7.76301E-007
200, 0.00000, 0.351063, 0.115388, 1.25813E-006, 7.23531E-007
201, 0.00000, 0.359548, 0.1182, 3.14717E-007, -3.13706E-007
202, 0.00000, 0.36992, 0.121586, -1.8418E-006, -2.62137E-006
203, 0.00000, 0.372546, 0.122452, -1.69419E-006, -2.45676E-006
204, 0.00000, 0.369647, 0.121501, -1.7008E-006, -2.48149E-006
205, 0.00000, 0.371244, 0.122025, -2.09593E-006, -2.91893E-006
206, 0.00000, 0.378561, 0.124433, -6.84406E-007, -1.48426E-006
207, 0.00000, 0.39431, 0.129564, 4.258E-007, -2.89079E-007
208, 0.00000, 0.433278, 0.142366, 1.95419E-006, 1.15352E-006
209, 0.00000, 0.503767, 0.165566, 2.99905E-006, 1.8581E-006
210, 0.00000, 0.561012, 0.184401, 3.10675E-006, 1.53429E-006
211, 0.00000, 0.583542, 0.191797, 3.40361E-006, 1.70395E-006
212, 0.00000, 0.596559, 0.196083, 4.85889E-006, 3.23503E-006
213, 0.00000, 0.581321, 0.19107, 4.71366E-006, 3.22998E-006
214, 0.00000, 0.531892, 0.174821, 3.82985E-006, 2.59545E-006
215, 0.00000, 0.451408, 0.148367, 2.63116E-006, 1.75679E-006
216, 0.00000, 0.355399, 0.116811, 1.4446E-006, 9.01675E-007
217, 0.00000, 0.275029, 0.090396, 4.05459E-006, 3.71818E-006
218, 0.00000, 0.233067, 0.0766024, 3.33083E-006, 3.43373E-006
219, 0.00000, 0.213403, 0.0701403, 3.01922E-006, 3.12739E-006
220, 0.00000, 0.206603, 0.0679051, 3.08012E-006, 3.2033E-006
221, 0.00000, 0.215153, 0.070715, 3.27894E-006, 3.41196E-006
222, 0.00000, 0.248242, 0.0815897, 3.31418E-006, 3.38318E-006
223, 0.00000, 0.314662, 0.103422, 1.19288E-006, 7.74192E-007
224, 0.00000, 0.35106, 0.115397, 1.1508E-007, -5.44457E-007
225, 0.00000, 0.359534, 0.118179, -3.74081E-007, -1.11831E-006
226, 0.00000, 0.369952, 0.121616, -5.44883E-008, -8.05548E-007
227, 0.00000, 0.372565, 0.122486, 3.74608E-007, -3.35006E-007
228, 0.00000, 0.36963, 0.121492, -5.93809E-007, -1.25508E-006
229, 0.00000, 0.371228, 0.122012, -2.00274E-007, -8.44832E-007
230, 0.00000, 0.378558, 0.124422, 5.01713E-007, -1.47968E-007
231, 0.00000, 0.394316, 0.129608, 1.55743E-006, 8.46693E-007
232, 0.00000, 0.433276, 0.142415, 1.53996E-006, 6.14012E-007
233, 0.00000, 0.503772, 0.165598, -6.87473E-007, -2.3037E-006
234, 0.00000, 0.561015, 0.184396, -4.50609E-007, -2.45802E-006
235, 0.00000, 0.583547, 0.191803, -3.37169E-007, -2.51985E-006
236, 0.00000, 0.596575, 0.19608, 3.89666E-007, -1.81878E-006
237, 0.00000, 0.581305, 0.19107, 4.7112E-006, 3.18656E-006
238, 0.00000, 0.531893, 0.174821, 3.65215E-006, 2.39449E-006
239, 0.00000, 0.451408, 0.148367, 2.48349E-006, 1.5897E-006
240, 0.00000, 0.355398, 0.116811, 1.44395E-006, 8.97495E-007
241, 0.00000, 0.294856, 0.0969151, 9.65395E-007, 6.00142E-007
242, 0.00000, 0.248963, 0.0818304, 6.68345E-007, 4.07335E-007
243, 0.00000, 0.22408, 0.0736518, 1.47323E-006, 1.34289E-006
244, 0.00000, 0.212652, 0.0698945, 1.38886E-006, 1.28602E-006
245, 0.00000, 0.212549, 0.0698607, 1.44598E-006, 1.34639E-006
246, 0.00000, 0.223746, 0.0735396, 1.50145E-006, 1.38374E-006
247, 0.00000, 0.249632, 0.0820486, 7.93797E-007, 5.40951E-007
248, 0.00000, 0.298578, 0.0980805, 2.17709E-007, -1.51255E-007
249, 0.00000, 0.376156, 0.12365, -8.08388E-007, -1.66286E-006
250, 0.00000, 0.448231, 0.147332, -1.03282E-006, -2.17876E-006
251, 0.00000, 0.486328, 0.159853, 1.05591E-007, -1.00877E-006
252, 0.00000, 0.500844, 0.164626, 1.52001E-006, 5.28916E-007
253, 0.00000, 0.507598, 0.166846, 2.20661E-006, 1.20979E-006
254, 0.00000, 0.517367, 0.170051, 3.56495E-006, 2.59826E-006
255, 0.00000, 0.527042, 0.173231, 5.26001E-006, 4.34656E-006
256, 0.00000, 0.537457, 0.176651, 4.3839E-006, 3.17814E-006
257, 0.00000, 0.564433, 0.185523, 3.48372E-006, 1.93853E-006
258, 0.00000, 0.579423, 0.190457, 1.75574E-006, -1.47099E-007
259, 0.00000, 0.5764, 0.189437, 1.62623E-006, -2.60049E-007
260, 0.00000, 0.574171, 0.188754, 1.8454E-006, -6.82351E-009
261, 0.00000, 0.552385, 0.181566, 4.17305E-006, 2.77957E-006
262, 0.00000, 0.50983, 0.16757, 3.47308E-006, 2.33823E-006
263, 0.00000, 0.448601, 0.147445, 2.59438E-006, 1.72836E-006
264, 0.00000, 0.373776, 0.122852, 1.73068E-006, 1.13812E-006
265, 0.00000, 0.301447, 0.0990794, 1.09413E-006, 7.13315E-007
266, 0.00000, 0.253556, 0.0833388, 7.29147E-007, 4.57129E-007
267, 0.00000, 0.225804, 0.0742169, 3.54162E-006, 3.59487E-006
268, 0.00000, 0.208116, 0.0684038, 1.72915E-006, 7.17164E-007
269, 0.00000, 0.207767, 0.0682949, 3.29134E-006, 2.66841E-006
270, 0.00000, 0.214647, 0.0705476, 1.26723E-006, 1.16438E-006
271, 0.00000, 0.237063, 0.0779218, -6.30677E-007, -9.79484E-007
272, 0.00000, 0.275876, 0.0906794, -8.51021E-007, -1.31686E-006
273, 0.00000, 0.348665, 0.114604, -1.94349E-006, -2.60256E-006
274, 0.00000, 0.426134, 0.140068, -2.41551E-006, -3.35202E-006
275, 0.00000, 0.519285, 0.170706, -2.51179E-006, -2.72336E-005
276, 0.00000, 0.544358, 0.178953, -2.10121E-006, -2.97868E-005
277, 0.00000, 0.537813, 0.176795, -3.45844E-006, -2.39609E-005
278, 0.00000, 0.51465, 0.169181, -2.33009E-007, -1.4243E-006
279, 0.00000, 0.512047, 0.168303, 4.0887E-006, 3.2233E-006
280, 0.00000, 0.507636, 0.166855, 5.50083E-006, 4.64903E-006
281, 0.00000, 0.528806, 0.173814, 3.34504E-006, 2.04706E-006
282, 0.00000, 0.556962, 0.183081, 3.77078E-007, -1.51271E-006
283, 0.00000, 0.570665, 0.187572, 4.51123E-006, 3.04071E-006
284, 0.00000, 0.587822, 0.193206, 4.84744E-006, 3.30771E-006
285, 0.00000, 0.574481, 0.188821, 4.51057E-006, 3.05913E-006
286, 0.00000, 0.522051, 0.171587, 3.6681E-006, 2.47907E-006
287, 0.00000, 0.439757, 0.144538, 2.50327E-006, 1.6777E-006
288, 0.00000, 0.344197, 0.11313, 1.40901E-006, 9.07027E-007
289, 0.00000, 0.275038, 0.0903997, 8.9861E-007, 5.75297E-007
290, 0.00000, 0.233069, 0.0766058, 6.37591E-007, 4.06734E-007
291, 0.00000, 0.213402, 0.0701417, 5.32555E-007, 3.39545E-007
292, 0.00000, 0.206615, 0.0679113, 4.9917E-007, 3.18418E-007
293, 0.00000, 0.215152, 0.0707165, 5.4071E-007, 3.44409E-007
294, 0.00000, 0.248233, 0.0815901, 7.25201E-007, 4.62572E-007
295, 0.00000, 0.314655, 0.103423, 1.19168E-006, 7.65765E-007
296, 0.00000, 0.351063, 0.115387, 1.01671E-006, 4.65202E-007
297, 0.00000, 0.35953, 0.118173, -1.95771E-007, -7.98846E-007
298, 0.00000, 0.369941, 0.121606, -8.14342E-007, -1.44152E-006
299, 0.00000, 0.417323, 0.137192, -1.73051E-006, -2.4754E-005
300, 0.00000, 0.419029, 0.137753, -1.29011E-006, -2.62991E-005
301, 0.00000, 0.405701, 0.133369, -2.5783E-006, -2.10686E-005
302, 0.00000, 0.37852, 0.124446, -4.40171E-007, -1.23796E-006
303, 0.00000, 0.394319, 0.129609, 5.3571E-007, -1.92568E-007
304, 0.00000, 0.433272, 0.142412, 2.40011E-006, 1.56195E-006
305, 0.00000, 0.50376, 0.16558, 3.37191E-006, 2.23526E-006
306, 0.00000, 0.561004, 0.184394, 4.32793E-006, 2.91828E-006
307, 0.00000, 0.583517, 0.191791, 4.73885E-006, 3.21356E-006
308, 0.00000, 0.596556, 0.196077, 4.99749E-006, 3.41428E-006
309, 0.00000, 0.581328, 0.191071, 4.71689E-006, 3.24097E-006
310, 0.00000, 0.531892, 0.174821, 3.82981E-006, 2.59549E-006
311, 0.00000, 0.451408, 0.148367, 2.63116E-006, 1.75679E-006
312, 0.00000, 0.355398, 0.116811, 1.55055E-006, 1.01854E-006
313, 0.00000, 0.275032, 0.0903992, 8.973E-007, 5.73505E-007
314, 0.00000, 0.233069, 0.0766058, 6.37591E-007, 4.06733E-007
315, 0.00000, 0.213402, 0.0701417, 5.32555E-007, 3.39545E-007
316, 0.00000, 0.206614, 0.0679087, 4.45448E-007, 2.73789E-007
317, 0.00000, 0.215147, 0.0707118, 4.81588E-007, 2.77689E-007
318, 0.00000, 0.248232, 0.0815901, 7.2517E-007, 4.62525E-007
319, 0.00000, 0.314672, 0.103428, 1.10379E-006, 6.82512E-007
320, 0.00000, 0.351056, 0.115386, 1.37974E-006, 8.41848E-007
321, 0.00000, 0.359533, 0.118172, 1.2047E-006, 6.30335E-007
322, 0.00000, 0.369939, 0.121592, 1.0449E-006, 4.27909E-007
323, 0.00000, 0.372553, 0.122451, 8.34463E-007, 2.01857E-007
324, 0.00000, 0.369637, 0.121491, 8.16415E-007, 2.06626E-007
325, 0.00000, 0.371233, 0.122018, 8.45901E-007, 2.06656E-007
326, 0.00000, 0.378545, 0.124423, 1.23479E-006, 5.92707E-007
327, 0.00000, 0.394336, 0.129612, 1.54596E-006, 8.60155E-007
