hour, t(sec), P1 (kW), Q1 (kvar), P2 (kW), Q2 (kvar)
1, 0.00000, 0.34874, 0.114613, -5.81088E-008, -2.05159E-008
2, 0.00000, 0.295525, 0.0971349, -3.95815E-008, -1.29441E-008
3, 0.00000, 0.270604, 0.0889301, -3.19788E-008, -9.9299E-009
4, 0.00000, 0.261985, 0.0861019, -2.7568E-008, -7.23111E-009
5, 0.00000, 0.272812, 0.0896731, -2.9699E-008, -7.58538E-009
6, 0.00000, 0.31473, 0.103463, -3.72647E-008, -7.92215E-009
7, 0.00000, 0.398982, 0.131138, -5.82693E-008, -1.07803E-008
8, 0.00000, 0.44515, 0.146321, -1.12251E-007, -4.83574E-008
9, 0.00000, 0.455875, 0.149841, -3.28991E-008, 2.12458E-008
10, 0.00000, 0.469076, 0.154181, -1.86292E-009, 4.9778E-008
11, 0.00000, 0.47237, 0.155285, 1.16134E-007, 1.44605E-007
12, 0.00000, 0.468687, 0.154051, 1.20863E-007, 1.47661E-007
13, 0.00000, 0.470715, 0.154714, 7.99875E-008, 1.16118E-007
14, 0.00000, 0.479993, 0.157764, -3.38053E-008, 2.61265E-008
15, 0.00000, 0.499989, 0.164337, -1.12922E-007, -3.58018E-008
16, 0.00000, 0.549383, 0.180572, -1.92361E-007, -9.1112E-008
17, 0.00000, 0.638765, 0.20995, -2.66754E-007, -1.28021E-007
18, 0.00000, 0.709914, 0.233356, -3.04871E-007, -9.84247E-008
19, 0.00000, 0.732507, 0.240774, -2.90406E-007, -1.0148E-007
20, 0.00000, 0.745538, 0.245044, -2.9778E-007, -1.05271E-007
21, 0.00000, 0.731854, 0.240527, -2.9062E-007, -9.41338E-008
22, 0.00000, 0.674436, 0.221674, -2.90753E-007, -1.18575E-007
23, 0.00000, 0.572397, 0.18814, -2.10293E-007, -9.96457E-008
24, 0.00000, 0.450635, 0.148122, -1.26423E-007, -5.9547E-008
25, 0.00000, 0.348738, 0.114627, -8.46061E-008, -4.38033E-008
26, 0.00000, 0.295537, 0.0971467, -5.99452E-008, -3.0967E-008
27, 0.00000, 0.270593, 0.0889436, -4.9243E-008, -2.50208E-008
28, 0.00000, 0.261979, 0.0861116, -4.0456E-008, -1.84744E-008
29, 0.00000, 0.272817, 0.0896706, -3.66802E-008, -1.36628E-008
30, 0.00000, 0.314756, 0.103454, -5.25815E-008, -2.13363E-008
31, 0.00000, 0.398982, 0.131137, -9.24965E-008, -4.07433E-008
32, 0.00000, 0.445129, 0.146306, -1.1336E-007, -4.91982E-008
33, 0.00000, 0.455876, 0.149842, -5.51897E-008, 2.77333E-009
34, 0.00000, 0.469074, 0.154176, -2.07549E-008, 3.43301E-008
35, 0.00000, 0.472389, 0.155269, 1.94591E-008, 6.72979E-008
36, 0.00000, 0.468711, 0.154058, 2.77264E-008, 7.32087E-008
37, 0.00000, 0.470714, 0.154716, -4.49837E-009, 4.75131E-008
38, 0.00000, 0.479973, 0.157756, -6.61363E-008, -1.2738E-009
39, 0.00000, 0.499989, 0.164337, -1.37352E-007, -5.67884E-008
40, 0.00000, 0.549376, 0.180558, -1.09691E-007, -1.74731E-008
41, 0.00000, 0.638824, 0.209966, -2.64117E-007, -1.24386E-007
42, 0.00000, 0.709862, 0.233323, -3.04178E-007, -9.91042E-008
43, 0.00000, 0.732556, 0.240805, -2.91659E-007, -1.02446E-007
44, 0.00000, 0.745557, 0.245061, -2.97935E-007, -1.05536E-007
45, 0.00000, 0.730246, 0.240006, -2.90644E-007, -1.00666E-007
46, 0.00000, 0.674449, 0.221677, -2.91008E-007, -1.18078E-007
47, 0.00000, 0.572378, 0.188137, -2.10253E-007, -1.00193E-007
48, 0.00000, 0.450635, 0.148122, -1.26422E-007, -5.95475E-008
49, 0.00000, 0.348735, 0.114622, -7.43799E-008, -3.46573E-008
50, 0.00000, 0.295528, 0.0971366, -5.32011E-008, -2.48414E-008
51, 0.00000, 0.270589, 0.088941, -5.69122E-008, -3.17526E-008
52, 0.00000, 0.261993, 0.0861188, -5.37717E-008, -3.00986E-008
53, 0.00000, 0.272816, 0.0896693, -5.77716E-008, -3.20498E-008
54, 0.00000, 0.314749, 0.103448, -7.49986E-008, -4.0852E-008
55, 0.00000, 0.398982, 0.131114, -6.59293E-008, -1.76941E-008
56, 0.00000, 0.445133, 0.146307, -8.54274E-008, -2.43107E-008
57, 0.00000, 0.455887, 0.149849, -9.6283E-008, -3.21818E-008
58, 0.00000, 0.469078, 0.154184, -8.74118E-008, -2.17001E-008
59, 0.00000, 0.472394, 0.155276, -6.96493E-008, -5.93799E-009
60, 0.00000, 0.468699, 0.154057, -6.80839E-008, -5.30562E-009
61, 0.00000, 0.470717, 0.154717, -7.84644E-008, -1.35607E-008
62, 0.00000, 0.479984, 0.157762, -1.0274E-007, -3.20143E-008
63, 0.00000, 0.499987, 0.164337, -1.13502E-007, -3.63051E-008
64, 0.00000, 0.549383, 0.180572, -1.92368E-007, -9.11267E-008
65, 0.00000, 0.638729, 0.209933, -2.66599E-007, -1.27872E-007
66, 0.00000, 0.711378, 0.233795, -3.01967E-007, -9.12622E-008
67, 0.00000, 0.732532, 0.240797, -2.90933E-007, -1.01437E-007
68, 0.00000, 0.745544, 0.245053, -2.97776E-007, -1.05199E-007
69, 0.00000, 0.730261, 0.240014, -2.91225E-007, -1.01234E-007
70, 0.00000, 0.674438, 0.221674, -2.90753E-007, -1.18547E-007
71, 0.00000, 0.572376, 0.188134, -2.10194E-007, -9.99435E-008
72, 0.00000, 0.450635, 0.148119, -1.26432E-007, -5.93059E-008
73, 0.00000, 0.373854, 0.122881, -8.57626E-008, -4.00433E-008
74, 0.00000, 0.315679, 0.103765, -6.08012E-008, -2.85547E-008
75, 0.00000, 0.284136, 0.0933941, -4.91706E-008, -2.30604E-008
76, 0.00000, 0.269639, 0.0886273, -4.42732E-008, -2.07464E-008
77, 0.00000, 0.269511, 0.0885842, -4.42251E-008, -2.06875E-008
78, 0.00000, 0.283713, 0.0932516, -4.90043E-008, -2.28856E-008
79, 0.00000, 0.316523, 0.104035, -6.10845E-008, -2.84783E-008
80, 0.00000, 0.378597, 0.124438, -8.01849E-008, -3.4297E-008
81, 0.00000, 0.476936, 0.156762, -7.17588E-008, -6.45523E-009
82, 0.00000, 0.568337, 0.186804, -5.94892E-008, 2.72069E-008
83, 0.00000, 0.616661, 0.202686, -1.35859E-009, 8.87412E-008
84, 0.00000, 0.635034, 0.20874, -7.9819E-009, 8.892E-008
85, 0.00000, 0.643639, 0.211554, -4.68743E-008, 5.99826E-008
86, 0.00000, 0.656015, 0.215621, -1.45538E-007, -1.79523E-008
87, 0.00000, 0.667507, 0.21938, -3.61746E-007, -1.52136E-007
88, 0.00000, 0.669166, 0.219948, -3.41464E-007, -1.6066E-007
89, 0.00000, 0.709205, 0.2331, -3.00938E-007, -1.14215E-007
90, 0.00000, 0.734648, 0.241477, -2.68902E-007, -7.2397E-008
91, 0.00000, 0.730882, 0.240228, -1.59832E-007, 5.82355E-009
92, 0.00000, 0.723152, 0.237697, -2.96683E-007, -1.0036E-007
93, 0.00000, 0.700477, 0.23022, -3.05016E-007, -9.93796E-008
94, 0.00000, 0.646467, 0.212485, -2.74184E-007, -1.31464E-007
95, 0.00000, 0.568816, 0.186966, -2.07378E-007, -9.88635E-008
96, 0.00000, 0.473939, 0.155781, -1.4056E-007, -6.63075E-008
97, 0.00000, 0.382223, 0.125629, -8.97626E-008, -4.18533E-008
98, 0.00000, 0.321502, 0.105677, -6.30362E-008, -2.95673E-008
99, 0.00000, 0.286325, 0.094114, -4.99355E-008, -2.34264E-008
100, 0.00000, 0.268802, 0.0883526, -4.40013E-008, -2.06295E-008
101, 0.00000, 0.263453, 0.0865965, -4.23012E-008, -1.98589E-008
102, 0.00000, 0.272144, 0.0894435, -4.50289E-008, -2.09578E-008
103, 0.00000, 0.300582, 0.0987958, -5.50333E-008, -2.56725E-008
104, 0.00000, 0.349794, 0.114971, -6.77477E-008, -2.87767E-008
105, 0.00000, 0.442121, 0.145319, -5.74905E-008, -2.24042E-009
106, 0.00000, 0.540349, 0.177604, -4.81656E-008, 2.90146E-008
107, 0.00000, 0.602351, 0.197977, 2.03996E-008, 9.77352E-008
108, 0.00000, 0.626706, 0.205988, 1.77112E-007, 2.26656E-007
109, 0.00000, 0.642239, 0.211093, 1.71563E-007, 2.27005E-007
110, 0.00000, 0.652629, 0.214508, -7.84782E-008, 3.67926E-008
111, 0.00000, 0.649276, 0.213395, -1.6784E-007, -3.7918E-008
112, 0.00000, 0.643682, 0.211562, -1.70702E-007, -3.97192E-008
113, 0.00000, 0.670475, 0.220364, -1.67295E-007, -2.64077E-008
114, 0.00000, 0.706196, 0.232111, -2.24108E-007, -6.27686E-008
115, 0.00000, 0.719625, 0.236537, -2.99011E-007, -1.00352E-007
116, 0.00000, 0.736856, 0.242213, -2.90433E-007, -1.02959E-007
117, 0.00000, 0.723371, 0.237745, -2.95273E-007, -9.98395E-008
118, 0.00000, 0.661972, 0.217578, -2.84086E-007, -1.25729E-007
119, 0.00000, 0.557603, 0.183281, -1.98696E-007, -9.4579E-008
120, 0.00000, 0.436432, 0.143453, -1.18226E-007, -5.56142E-008
121, 0.00000, 0.348735, 0.114622, -7.43802E-008, -3.46576E-008
122, 0.00000, 0.295528, 0.0971366, -5.32011E-008, -2.48414E-008
123, 0.00000, 0.27059, 0.0889391, -4.45825E-008, -2.08537E-008
124, 0.00000, 0.261988, 0.0861128, -4.18129E-008, -1.95827E-008
125, 0.00000, 0.272802, 0.0896637, -4.52903E-008, -2.11631E-008
126, 0.00000, 0.314752, 0.103453, -6.03911E-008, -2.81524E-008
127, 0.00000, 0.398972, 0.131133, -9.80598E-008, -4.5752E-008
128, 0.00000, 0.445131, 0.146307, -1.1353E-007, -4.93468E-008
129, 0.00000, 0.455889, 0.149846, -6.25369E-008, -3.49375E-009
130, 0.00000, 0.469077, 0.154179, -2.22707E-008, 3.30677E-008
131, 0.00000, 0.47239, 0.155273, 1.76224E-007, 1.90849E-007
132, 0.00000, 0.468683, 0.154046, 2.15214E-007, 2.19179E-007
133, 0.00000, 0.470716, 0.154715, 2.38391E-007, 2.36688E-007
134, 0.00000, 0.479993, 0.157764, 7.31917E-009, 5.98324E-008
135, 0.00000, 0.500004, 0.164324, -8.25506E-008, -9.95929E-009
136, 0.00000, 0.549388, 0.180541, -1.92359E-007, -9.11141E-008
137, 0.00000, 0.638797, 0.209951, -2.66673E-007, -1.27627E-007
138, 0.00000, 0.709835, 0.233314, -3.04187E-007, -9.87905E-008
139, 0.00000, 0.734093, 0.241267, -2.89407E-007, -9.45681E-008
140, 0.00000, 0.745548, 0.245056, -2.97739E-007, -1.05176E-007
141, 0.00000, 0.730261, 0.240013, -2.91215E-007, -1.01232E-007
142, 0.00000, 0.674439, 0.221674, -2.90754E-007, -1.18541E-007
143, 0.00000, 0.572376, 0.188134, -2.10197E-007, -9.9947E-008
144, 0.00000, 0.450635, 0.148119, -1.26434E-007, -5.93094E-008
145, 0.00000, 0.348738, 0.114626, -7.44085E-008, -3.47127E-008
146, 0.00000, 0.295524, 0.0971336, -4.89758E-008, -2.1134E-008
147, 0.00000, 0.270589, 0.0889386, -4.45802E-008, -2.08504E-008
148, 0.00000, 0.261976, 0.0861104, -3.81026E-008, -1.64811E-008
149, 0.00000, 0.272817, 0.0896696, -8.57123E-008, -5.6594E-008
150, 0.00000, 0.314748, 0.103447, -1.08532E-007, -7.0463E-008
151, 0.00000, 0.398982, 0.131137, -1.61411E-007, -1.02051E-007
152, 0.00000, 0.445139, 0.146314, -1.61028E-007, -9.19343E-008
153, 0.00000, 0.455874, 0.149841, -6.3057E-008, -4.89905E-009
154, 0.00000, 0.469074, 0.154184, -4.05347E-008, 1.71339E-008
155, 0.00000, 0.472383, 0.155287, 1.93924E-008, 6.68719E-008
156, 0.00000, 0.468685, 0.154054, 3.50625E-008, 7.93928E-008
157, 0.00000, 0.470717, 0.154705, 8.79677E-009, 5.91432E-008
158, 0.00000, 0.479994, 0.157764, -5.17064E-008, 1.13086E-008
159, 0.00000, 0.499973, 0.164299, -1.14789E-007, -3.71847E-008
160, 0.00000, 0.549375, 0.180566, -1.57408E-007, -5.99013E-008
161, 0.00000, 0.638749, 0.209942, -2.21128E-007, -8.68577E-008
162, 0.00000, 0.711319, 0.233805, -2.66142E-007, -8.81272E-008
163, 0.00000, 0.739931, 0.243212, -1.81467E-007, -9.40386E-009
164, 0.00000, 0.756437, 0.248626, -2.0717E-007, -2.51371E-008
165, 0.00000, 0.731923, 0.24058, -2.92407E-007, -9.54592E-008
166, 0.00000, 0.674435, 0.221674, -2.90754E-007, -1.18575E-007
167, 0.00000, 0.572376, 0.188133, -2.10183E-007, -9.99308E-008
168, 0.00000, 0.450635, 0.148118, -1.26426E-007, -5.92931E-008
169, 0.00000, 0.348743, 0.114627, -2.87173E-007, -2.2129E-007
170, 0.00000, 0.295526, 0.0971369, -2.16352E-007, -1.71117E-007
171, 0.00000, 0.270589, 0.0889396, -1.76811E-007, -1.3876E-007
172, 0.00000, 0.261981, 0.0861126, -1.6178E-007, -1.26359E-007
173, 0.00000, 0.272817, 0.0896692, -1.98375E-007, -1.57957E-007
174, 0.00000, 0.314756, 0.103456, -2.0227E-007, -1.54991E-007
175, 0.00000, 0.398982, 0.131147, -3.04558E-008, 1.35935E-008
176, 0.00000, 0.445157, 0.14632, -2.00891E-007, -1.27203E-007
177, 0.00000, 0.455874, 0.149844, -4.72648E-008, 8.93663E-009
178, 0.00000, 0.46907, 0.154178, 1.51117E-007, 1.78725E-007
179, 0.00000, 0.472384, 0.155264, 2.40358E-007, 2.4664E-007
180, 0.00000, 0.468685, 0.154049, 1.81264E-007, 2.01577E-007
181, 0.00000, 0.470718, 0.154717, 1.70535E-007, 1.94758E-007
182, 0.00000, 0.479993, 0.157764, 1.26471E-007, 1.63304E-007
183, 0.00000, 0.49999, 0.164337, 3.07823E-009, 6.54681E-008
184, 0.00000, 0.549413, 0.180552, -7.30386E-008, 1.46145E-008
185, 0.00000, 0.638781, 0.209935, -1.51084E-007, -2.42006E-008
186, 0.00000, 0.710758, 0.233617, -3.038E-007, -9.58838E-008
187, 0.00000, 0.732517, 0.240774, -2.90453E-007, -1.01708E-007
188, 0.00000, 0.747075, 0.245559, -2.89165E-007, -9.84246E-008
189, 0.00000, 0.731857, 0.240532, -2.90914E-007, -9.43653E-008
190, 0.00000, 0.674447, 0.221677, -2.91013E-007, -1.18155E-007
191, 0.00000, 0.572378, 0.188137, -2.10253E-007, -1.00193E-007
192, 0.00000, 0.450635, 0.148122, -1.26422E-007, -5.95475E-008
193, 0.00000, 0.344052, 0.1131, -3.00253E-007, -1.96822E-007
194, 0.00000, 0.295541, 0.0971419, -2.20622E-007, -1.74509E-007
195, 0.00000, 0.270613, 0.0889453, -2.07584E-007, -1.66864E-007
196, 0.00000, 0.261977, 0.086109, -1.8477E-007, -1.47252E-007
197, 0.00000, 0.272818, 0.0896737, -1.39141E-007, -1.04443E-007
198, 0.00000, 0.314755, 0.103457, -1.40589E-007, -9.92738E-008
199, 0.00000, 0.398981, 0.131141, -9.80738E-008, -4.593E-008
200, 0.00000, 0.445132, 0.14631, -1.03917E-007, -4.12714E-008
201, 0.00000, 0.455878, 0.149821, -2.26099E-008, 3.04634E-008
202, 0.00000, 0.469071, 0.154176, 1.7995E-007, 2.0377E-007
203, 0.00000, 0.472385, 0.155265, 1.86834E-007, 2.07286E-007
204, 0.00000, 0.468687, 0.154053, 1.93082E-007, 2.11248E-007
205, 0.00000, 0.470718, 0.154717, 2.29802E-007, 2.43417E-007
206, 0.00000, 0.479993, 0.157765, 6.01973E-008, 1.06924E-007
207, 0.00000, 0.500008, 0.164323, -5.19781E-008, 1.74975E-008
208, 0.00000, 0.549394, 0.180549, -1.68754E-007, -7.02938E-008
209, 0.00000, 0.638763, 0.20994, -2.45074E-007, -1.08546E-007
210, 0.00000, 0.711341, 0.233811, -2.58232E-007, -8.57146E-008
211, 0.00000, 0.739925, 0.243198, -2.69935E-007, -6.92472E-008
212, 0.00000, 0.746568, 0.245392, -2.92049E-007, -1.00818E-007
213, 0.00000, 0.730251, 0.240009, -2.90823E-007, -1.00767E-007
214, 0.00000, 0.674449, 0.221677, -2.91008E-007, -1.18079E-007
215, 0.00000, 0.572378, 0.188137, -2.10253E-007, -1.00193E-007
216, 0.00000, 0.450635, 0.148122, -1.19591E-007, -5.34934E-008
217, 0.00000, 0.348737, 0.114624, -2.55694E-007, -1.97723E-007
218, 0.00000, 0.295526, 0.097136, -2.03991E-007, -1.59775E-007
219, 0.00000, 0.270594, 0.0889428, -1.84323E-007, -1.45635E-007
220, 0.00000, 0.261975, 0.0861056, -1.85694E-007, -1.47981E-007
221, 0.00000, 0.272814, 0.0896676, -1.97111E-007, -1.56818E-007
222, 0.00000, 0.314756, 0.103457, -2.06767E-007, -1.5911E-007
223, 0.00000, 0.398984, 0.13114, -9.81079E-008, -4.58229E-008
224, 0.00000, 0.445134, 0.146308, -2.4127E-008, 2.90896E-008
225, 0.00000, 0.455876, 0.149841, 1.81954E-008, 6.76675E-008
226, 0.00000, 0.469074, 0.154185, -4.66747E-009, 5.05678E-008
227, 0.00000, 0.472386, 0.155279, -3.42119E-008, 2.51957E-008
228, 0.00000, 0.468686, 0.154049, 7.08796E-008, 1.09721E-007
229, 0.00000, 0.470719, 0.154716, 2.67835E-008, 7.42059E-008
230, 0.00000, 0.479995, 0.15777, -4.02727E-008, 2.06335E-008
231, 0.00000, 0.499988, 0.164334, -1.29234E-007, -4.94288E-008
232, 0.00000, 0.549382, 0.180573, -1.36953E-007, -4.1585E-008
233, 0.00000, 0.638773, 0.20996, 2.06354E-008, 1.27562E-007
234, 0.00000, 0.711339, 0.233804, -8.72647E-009, 1.30995E-007
235, 0.00000, 0.739916, 0.243198, -2.14788E-008, 1.32515E-007
236, 0.00000, 0.75643, 0.248623, -8.13161E-008, 8.72528E-008
237, 0.00000, 0.730276, 0.240035, -2.91831E-007, -1.01391E-007
238, 0.00000, 0.674451, 0.221678, -2.834E-007, -1.17136E-007
239, 0.00000, 0.572377, 0.188137, -2.01063E-007, -9.19746E-008
240, 0.00000, 0.450634, 0.14812, -1.19576E-007, -5.34074E-008
241, 0.00000, 0.373872, 0.122897, -8.06911E-008, -3.5861E-008
242, 0.00000, 0.315679, 0.103765, -5.65163E-008, -2.48016E-008
243, 0.00000, 0.284132, 0.0933886, -1.04747E-007, -7.18692E-008
244, 0.00000, 0.269639, 0.0886272, -9.84312E-008, -6.83947E-008
245, 0.00000, 0.26951, 0.088583, -1.01799E-007, -7.13468E-008
246, 0.00000, 0.283693, 0.0932408, -1.06453E-007, -7.34316E-008
247, 0.00000, 0.316525, 0.104038, -6.51574E-008, -3.21017E-008
248, 0.00000, 0.378612, 0.124419, -3.37324E-008, 6.12975E-009
249, 0.00000, 0.476929, 0.156765, 6.52207E-008, 1.11681E-007
250, 0.00000, 0.568334, 0.186804, 9.35491E-008, 1.58597E-007
251, 0.00000, 0.616652, 0.202684, 5.9228E-009, 9.49563E-008
252, 0.00000, 0.635058, 0.208732, -1.05875E-007, 3.86303E-009
253, 0.00000, 0.643618, 0.211544, -1.62737E-007, -4.10488E-008
254, 0.00000, 0.656013, 0.215618, -2.629E-007, -1.22979E-007
255, 0.00000, 0.668273, 0.219651, -3.67299E-007, -1.92492E-007
256, 0.00000, 0.681434, 0.223984, -3.13856E-007, -1.14183E-007
257, 0.00000, 0.715684, 0.235236, -2.74754E-007, -8.73487E-008
258, 0.00000, 0.734725, 0.241493, -1.77307E-007, -8.12681E-009
259, 0.00000, 0.730889, 0.240218, -1.68295E-007, -1.6719E-009
260, 0.00000, 0.728023, 0.239311, -1.82021E-007, -1.53628E-008
261, 0.00000, 0.700402, 0.230211, -3.04799E-007, -1.01223E-007
262, 0.00000, 0.646467, 0.212485, -2.74179E-007, -1.31467E-007
263, 0.00000, 0.568816, 0.186966, -2.07378E-007, -9.88634E-008
264, 0.00000, 0.473939, 0.155781, -1.4056E-007, -6.63075E-008
265, 0.00000, 0.382227, 0.125635, -9.00956E-008, -4.23448E-008
266, 0.00000, 0.321502, 0.105674, -6.11101E-008, -2.77902E-008
267, 0.00000, 0.286321, 0.0941085, -2.13112E-007, -1.6941E-007
268, 0.00000, 0.26879, 0.0883465, -2.65417E-007, -1.84425E-007
269, 0.00000, 0.263446, 0.0865926, -2.04924E-007, -1.65472E-007
270, 0.00000, 0.272162, 0.0894582, -9.15721E-008, -6.20984E-008
271, 0.00000, 0.300582, 0.0987962, 4.43758E-008, 6.0006E-008
272, 0.00000, 0.349795, 0.114974, 6.79956E-008, 8.74815E-008
273, 0.00000, 0.442116, 0.145315, 2.17906E-007, 2.25898E-007
274, 0.00000, 0.540345, 0.1776, 3.26446E-007, 3.32719E-007
275, 0.00000, 0.633289, 0.208152, 5.41783E-007, 8.79374E-007
276, 0.00000, 0.662396, 0.217724, 5.7211E-007, 9.48488E-007
277, 0.00000, 0.657558, 0.216131, 5.26006E-007, 8.11322E-007
278, 0.00000, 0.652644, 0.214531, 4.38321E-008, 1.35712E-007
279, 0.00000, 0.649273, 0.213403, -2.93714E-007, -1.52995E-007
280, 0.00000, 0.639042, 0.210054, -3.28347E-007, -1.50148E-007
281, 0.00000, 0.670506, 0.220385, -2.69715E-007, -1.17636E-007
282, 0.00000, 0.706243, 0.232138, -7.28694E-008, 7.27159E-008
283, 0.00000, 0.719601, 0.236524, -2.98718E-007, -1.00089E-007
284, 0.00000, 0.736689, 0.242158, -2.9142E-007, -1.03742E-007
285, 0.00000, 0.723959, 0.237936, -2.95154E-007, -9.74226E-008
286, 0.00000, 0.661971, 0.217577, -2.84084E-007, -1.25755E-007
287, 0.00000, 0.557603, 0.183281, -2.00101E-007, -9.58396E-008
288, 0.00000, 0.436432, 0.143453, -1.158E-007, -5.34686E-008
289, 0.00000, 0.348745, 0.114629, -7.44212E-008, -3.47197E-008
290, 0.00000, 0.295528, 0.0971366, -5.32011E-008, -2.48415E-008
291, 0.00000, 0.27059, 0.0889391, -4.45825E-008, -2.08537E-008
292, 0.00000, 0.261988, 0.0861128, -4.18129E-008, -1.95827E-008
293, 0.00000, 0.272802, 0.0896637, -4.52903E-008, -2.11631E-008
294, 0.00000, 0.314752, 0.103453, -6.03911E-008, -2.81524E-008
295, 0.00000, 0.398972, 0.131133, -9.80598E-008, -4.5752E-008
296, 0.00000, 0.445142, 0.146313, -8.45242E-008, -2.44915E-008
297, 0.00000, 0.455878, 0.149842, 3.18508E-008, 7.44172E-008
298, 0.00000, 0.469067, 0.154186, 1.14935E-007, 1.43131E-007
299, 0.00000, 0.510014, 0.167626, 4.65905E-007, 7.70666E-007
300, 0.00000, 0.511145, 0.168004, 4.75152E-007, 8.07124E-007
301, 0.00000, 0.497717, 0.163594, 4.3557E-007, 6.82341E-007
302, 0.00000, 0.480009, 0.157753, 7.15867E-008, 1.12314E-007
303, 0.00000, 0.49999, 0.164336, -4.13708E-008, 2.45953E-008
304, 0.00000, 0.549388, 0.180572, -1.92428E-007, -9.08846E-008
305, 0.00000, 0.638761, 0.209943, -2.66688E-007, -1.27521E-007
306, 0.00000, 0.709862, 0.233323, -3.04171E-007, -9.90998E-008
307, 0.00000, 0.732556, 0.240805, -2.91659E-007, -1.02446E-007
308, 0.00000, 0.745557, 0.245061, -2.97935E-007, -1.05536E-007
309, 0.00000, 0.730246, 0.240006, -2.90644E-007, -1.00666E-007
310, 0.00000, 0.674449, 0.221677, -2.91008E-007, -1.18078E-007
311, 0.00000, 0.572378, 0.188137, -2.10253E-007, -1.00193E-007
312, 0.00000, 0.450635, 0.148122, -1.26422E-007, -5.95475E-008
313, 0.00000, 0.348735, 0.114622, -7.43799E-008, -3.46573E-008
314, 0.00000, 0.295528, 0.0971366, -5.32011E-008, -2.48414E-008
315, 0.00000, 0.27059, 0.0889391, -4.45825E-008, -2.08537E-008
316, 0.00000, 0.261976, 0.0861098, -3.8297E-008, -1.66255E-008
317, 0.00000, 0.272797, 0.0896572, -4.13988E-008, -1.76944E-008
318, 0.00000, 0.314752, 0.103453, -6.0391E-008, -2.81522E-008
319, 0.00000, 0.398992, 0.131148, -9.2231E-008, -4.07728E-008
320, 0.00000, 0.445129, 0.146306, -1.13404E-007, -4.92357E-008
321, 0.00000, 0.455882, 0.149843, -9.97873E-008, -3.5127E-008
