hour, t(sec), P1 (kW), Q1 (kvar), P2 (kW), Q2 (kvar)
1, 0.00000, 0.337078, 0.110763, -1.826E-008, -2.72633E-008
2, 0.00000, 0.285622, 0.0938808, -1.34193E-008, -1.83265E-008
3, 0.00000, 0.261524, 0.0859428, -1.07422E-008, -1.45347E-008
4, 0.00000, 0.2532, 0.0832111, -9.62298E-009, -1.17621E-008
5, 0.00000, 0.263676, 0.0866705, -1.06147E-008, -1.24915E-008
6, 0.00000, 0.304208, 0.100003, -1.38798E-008, -1.48417E-008
7, 0.00000, 0.385617, 0.126744, -2.19311E-008, -2.29308E-008
8, 0.00000, 0.430235, 0.141423, -3.5023E-008, -6.23423E-008
9, 0.00000, 0.4406, 0.14482, -2.17395E-008, -1.26763E-008
10, 0.00000, 0.453356, 0.149017, -1.75716E-008, 3.98444E-009
11, 0.00000, 0.456534, 0.150097, -6.71509E-010, 5.32264E-008
12, 0.00000, 0.452984, 0.14889, -3.05077E-010, 5.49365E-008
13, 0.00000, 0.45494, 0.149528, -5.73301E-009, 4.07019E-008
14, 0.00000, 0.463912, 0.152478, -2.39325E-008, -1.21611E-008
15, 0.00000, 0.483237, 0.158832, -3.95407E-008, -5.93673E-008
16, 0.00000, 0.530976, 0.174523, -5.91282E-008, -1.11298E-007
17, 0.00000, 0.617363, 0.202917, -8.23446E-008, -1.58382E-007
18, 0.00000, 0.687494, 0.225963, -1.04542E-007, -2.04828E-007
19, 0.00000, 0.715121, 0.235047, -1.14138E-007, -2.2574E-007
20, 0.00000, 0.731092, 0.240297, -1.19877E-007, -2.38454E-007
21, 0.00000, 0.712463, 0.234174, -1.11458E-007, -2.10058E-007
22, 0.00000, 0.651827, 0.214246, -9.29024E-008, -1.80443E-007
23, 0.00000, 0.553224, 0.181842, -6.48879E-008, -1.22498E-007
24, 0.00000, 0.435536, 0.143159, -3.84029E-008, -7.16889E-008
25, 0.00000, 0.337053, 0.110786, -2.45264E-008, -4.93389E-008
26, 0.00000, 0.285633, 0.0938919, -1.72416E-008, -3.46876E-008
27, 0.00000, 0.261526, 0.0859637, -1.42597E-008, -2.79228E-008
28, 0.00000, 0.253202, 0.0832273, -1.22044E-008, -2.16708E-008
29, 0.00000, 0.263675, 0.0866628, -1.21287E-008, -1.81694E-008
30, 0.00000, 0.304211, 0.0999874, -1.66251E-008, -2.67162E-008
31, 0.00000, 0.385615, 0.126743, -2.88693E-008, -4.97175E-008
32, 0.00000, 0.430218, 0.141405, -3.57281E-008, -6.24982E-008
33, 0.00000, 0.440601, 0.144823, -2.5442E-008, -2.46505E-008
34, 0.00000, 0.453356, 0.149011, -2.07711E-008, -5.59093E-009
35, 0.00000, 0.456559, 0.150068, -1.47155E-008, 1.18079E-008
36, 0.00000, 0.452993, 0.148903, -1.32191E-008, 1.57098E-008
37, 0.00000, 0.454945, 0.149531, -1.84165E-008, 5.39589E-010
38, 0.00000, 0.463896, 0.152471, -2.95788E-008, -3.24019E-008
39, 0.00000, 0.483237, 0.158831, -4.43211E-008, -7.59905E-008
40, 0.00000, 0.530993, 0.174496, -4.20626E-008, -4.21175E-008
41, 0.00000, 0.617415, 0.202944, -8.18997E-008, -1.55893E-007
42, 0.00000, 0.687514, 0.225968, -1.0488E-007, -2.04259E-007
43, 0.00000, 0.715103, 0.235031, -1.1438E-007, -2.24507E-007
44, 0.00000, 0.731081, 0.240288, -1.20042E-007, -2.37668E-007
45, 0.00000, 0.712416, 0.234168, -1.12993E-007, -2.24717E-007
46, 0.00000, 0.651829, 0.214251, -9.26685E-008, -1.80983E-007
47, 0.00000, 0.553196, 0.181833, -6.43932E-008, -1.23102E-007
48, 0.00000, 0.435536, 0.143159, -3.84011E-008, -7.16884E-008
49, 0.00000, 0.337051, 0.110782, -2.25628E-008, -4.07772E-008
50, 0.00000, 0.285625, 0.0938814, -1.60487E-008, -2.88567E-008
51, 0.00000, 0.261523, 0.0859634, -1.56035E-008, -3.42277E-008
52, 0.00000, 0.253212, 0.0832331, -1.49164E-008, -3.21545E-008
53, 0.00000, 0.263675, 0.0866648, -1.61558E-008, -3.4287E-008
54, 0.00000, 0.304204, 0.099982, -2.13107E-008, -4.44095E-008
55, 0.00000, 0.385662, 0.126703, -2.17765E-008, -2.75337E-008
56, 0.00000, 0.430221, 0.141405, -3.00565E-008, -3.85653E-008
57, 0.00000, 0.440612, 0.144832, -3.26768E-008, -5.07552E-008
58, 0.00000, 0.453362, 0.14902, -3.23018E-008, -4.47939E-008
59, 0.00000, 0.456565, 0.150075, -2.92619E-008, -3.37905E-008
60, 0.00000, 0.452992, 0.148895, -2.89133E-008, -3.26115E-008
61, 0.00000, 0.454946, 0.149533, -3.09522E-008, -3.87342E-008
62, 0.00000, 0.463906, 0.152478, -3.61216E-008, -5.36968E-008
63, 0.00000, 0.483237, 0.158832, -3.96513E-008, -5.97583E-008
64, 0.00000, 0.530977, 0.174523, -5.91287E-008, -1.11318E-007
65, 0.00000, 0.617344, 0.202906, -8.22728E-008, -1.58172E-007
66, 0.00000, 0.687581, 0.226, -1.02765E-007, -1.92649E-007
67, 0.00000, 0.715108, 0.23504, -1.14139E-007, -2.25392E-007
68, 0.00000, 0.731089, 0.240295, -1.1988E-007, -2.38335E-007
69, 0.00000, 0.712408, 0.23416, -1.13139E-007, -2.24016E-007
70, 0.00000, 0.651827, 0.214247, -9.28968E-008, -1.80479E-007
71, 0.00000, 0.553195, 0.181828, -6.46717E-008, -1.22551E-007
72, 0.00000, 0.435535, 0.143155, -3.86369E-008, -7.12704E-008
73, 0.00000, 0.361329, 0.118767, -2.57834E-008, -4.77485E-008
74, 0.00000, 0.305101, 0.100289, -1.82336E-008, -3.3485E-008
75, 0.00000, 0.274616, 0.0902652, -1.47414E-008, -2.67684E-008
76, 0.00000, 0.260604, 0.0856579, -1.32819E-008, -2.39496E-008
77, 0.00000, 0.260481, 0.0856161, -1.32951E-008, -2.3853E-008
78, 0.00000, 0.274207, 0.0901272, -1.4763E-008, -2.6489E-008
79, 0.00000, 0.305919, 0.10055, -1.84698E-008, -3.32572E-008
80, 0.00000, 0.365914, 0.12027, -2.52943E-008, -4.34333E-008
81, 0.00000, 0.460956, 0.151509, -3.01959E-008, -3.44399E-008
82, 0.00000, 0.549294, 0.180544, -3.53432E-008, -2.4057E-008
83, 0.00000, 0.595996, 0.195895, -2.99172E-008, 8.20001E-009
84, 0.00000, 0.613782, 0.201749, -3.27166E-008, 5.45118E-009
85, 0.00000, 0.622078, 0.204468, -4.01122E-008, -1.44981E-008
86, 0.00000, 0.634036, 0.208397, -5.93234E-008, -7.20196E-008
87, 0.00000, 0.645956, 0.212311, -1.12712E-007, -2.71882E-007
88, 0.00000, 0.658634, 0.216483, -1.32695E-007, -2.51256E-007
89, 0.00000, 0.691728, 0.227363, -1.13006E-007, -2.38879E-007
90, 0.00000, 0.710065, 0.233389, -9.62102E-008, -1.49588E-007
91, 0.00000, 0.706359, 0.232177, -7.13978E-008, -4.69511E-008
92, 0.00000, 0.703673, 0.231282, -1.10149E-007, -2.16656E-007
93, 0.00000, 0.677021, 0.222524, -1.02029E-007, -1.96012E-007
94, 0.00000, 0.624793, 0.205364, -8.44128E-008, -1.6349E-007
95, 0.00000, 0.549757, 0.180701, -6.35704E-008, -1.21245E-007
96, 0.00000, 0.458059, 0.150561, -4.28088E-008, -8.01326E-008
97, 0.00000, 0.369417, 0.12142, -2.73073E-008, -4.96047E-008
98, 0.00000, 0.310731, 0.102139, -1.87381E-008, -3.48955E-008
99, 0.00000, 0.276731, 0.0909609, -1.49656E-008, -2.72177E-008
100, 0.00000, 0.259796, 0.0853925, -1.31923E-008, -2.38152E-008
101, 0.00000, 0.254624, 0.0836948, -1.26879E-008, -2.29023E-008
102, 0.00000, 0.263029, 0.0864471, -1.35711E-008, -2.41039E-008
103, 0.00000, 0.290511, 0.0954858, -1.66126E-008, -2.98515E-008
104, 0.00000, 0.338075, 0.11112, -2.13899E-008, -3.64265E-008
105, 0.00000, 0.427307, 0.14045, -2.51776E-008, -2.70466E-008
106, 0.00000, 0.522244, 0.171653, -3.09846E-008, -1.86016E-008
107, 0.00000, 0.582171, 0.191341, -2.54205E-008, 4.68199E-009
108, 0.00000, 0.605706, 0.199086, -6.34924E-009, 6.56042E-008
109, 0.00000, 0.62072, 0.204018, -8.23551E-009, 6.46338E-008
110, 0.00000, 0.630764, 0.207322, -4.65191E-008, -3.19637E-008
111, 0.00000, 0.627543, 0.206225, -6.22597E-008, -8.13032E-008
112, 0.00000, 0.622134, 0.204477, -6.32324E-008, -7.42802E-008
113, 0.00000, 0.648066, 0.212972, -6.52561E-008, -6.5976E-008
114, 0.00000, 0.68255, 0.224336, -8.06482E-008, -1.04837E-007
115, 0.00000, 0.699349, 0.229854, -1.09302E-007, -2.12178E-007
116, 0.00000, 0.720381, 0.236768, -1.16224E-007, -2.28933E-007
117, 0.00000, 0.704018, 0.231407, -1.1008E-007, -2.18142E-007
118, 0.00000, 0.63977, 0.210287, -8.89029E-008, -1.731E-007
119, 0.00000, 0.538918, 0.177139, -6.08114E-008, -1.15878E-007
120, 0.00000, 0.421809, 0.138646, -3.58785E-008, -6.67781E-008
121, 0.00000, 0.337051, 0.110782, -2.25629E-008, -4.07777E-008
122, 0.00000, 0.285625, 0.0938814, -1.60487E-008, -2.88567E-008
123, 0.00000, 0.261523, 0.0859589, -1.34073E-008, -2.40523E-008
124, 0.00000, 0.253206, 0.0832265, -1.25618E-008, -2.25346E-008
125, 0.00000, 0.263667, 0.0866609, -1.36216E-008, -2.44123E-008
126, 0.00000, 0.304207, 0.0999874, -1.82569E-008, -3.28602E-008
127, 0.00000, 0.385608, 0.126741, -2.9866E-008, -5.44276E-008
128, 0.00000, 0.430219, 0.141406, -3.57626E-008, -6.26261E-008
129, 0.00000, 0.440609, 0.144823, -2.70349E-008, -2.96475E-008
130, 0.00000, 0.453357, 0.149012, -2.1029E-008, -6.42261E-009
131, 0.00000, 0.45658, 0.150084, 5.5864E-009, 7.04011E-008
132, 0.00000, 0.452978, 0.148883, 9.51986E-009, 7.82711E-008
133, 0.00000, 0.454944, 0.14953, 1.14417E-008, 8.20111E-008
134, 0.00000, 0.463911, 0.152479, -1.69646E-008, 9.09161E-009
135, 0.00000, 0.483252, 0.158822, -3.41222E-008, -4.02584E-008
136, 0.00000, 0.530987, 0.174501, -5.92973E-008, -1.11448E-007
137, 0.00000, 0.617383, 0.20292, -8.24232E-008, -1.58005E-007
138, 0.00000, 0.687517, 0.225975, -1.04588E-007, -2.05039E-007
139, 0.00000, 0.715194, 0.235069, -1.12606E-007, -2.11729E-007
140, 0.00000, 0.731081, 0.240291, -1.19886E-007, -2.38144E-007
141, 0.00000, 0.712408, 0.23416, -1.1314E-007, -2.24022E-007
142, 0.00000, 0.651827, 0.214247, -9.28967E-008, -1.80483E-007
143, 0.00000, 0.553195, 0.181829, -6.46718E-008, -1.22557E-007
144, 0.00000, 0.435535, 0.143155, -3.86369E-008, -7.12748E-008
145, 0.00000, 0.337053, 0.110785, -2.25641E-008, -4.08583E-008
146, 0.00000, 0.285622, 0.093881, -1.50503E-008, -2.56743E-008
147, 0.00000, 0.261523, 0.0859585, -1.34067E-008, -2.40463E-008
148, 0.00000, 0.253199, 0.0832273, -1.15324E-008, -2.00186E-008
149, 0.00000, 0.263676, 0.0866645, -2.20781E-008, -5.76293E-008
150, 0.00000, 0.304202, 0.0999807, -2.83389E-008, -7.30293E-008
151, 0.00000, 0.385614, 0.126743, -4.32238E-008, -1.09484E-007
152, 0.00000, 0.43023, 0.141417, -4.53151E-008, -1.05231E-007
153, 0.00000, 0.440599, 0.144822, -2.7013E-008, -3.42842E-008
154, 0.00000, 0.453358, 0.149022, -2.39883E-008, -1.95764E-008
155, 0.00000, 0.45655, 0.150095, -1.3986E-008, 1.14852E-008
156, 0.00000, 0.452981, 0.148895, -1.18715E-008, 2.04624E-008
157, 0.00000, 0.454949, 0.149517, -1.65175E-008, 9.7325E-009
158, 0.00000, 0.463913, 0.152478, -2.70717E-008, -2.19271E-008
159, 0.00000, 0.483295, 0.158772, -3.77244E-008, -5.57031E-008
160, 0.00000, 0.530981, 0.174517, -5.18452E-008, -8.12853E-008
161, 0.00000, 0.617364, 0.202912, -7.28216E-008, -1.17886E-007
162, 0.00000, 0.687518, 0.225972, -9.13089E-008, -1.4662E-007
163, 0.00000, 0.715124, 0.235065, -7.69602E-008, -6.22023E-008
164, 0.00000, 0.731099, 0.240297, -8.35875E-008, -7.86284E-008
165, 0.00000, 0.712388, 0.234139, -1.11343E-007, -2.09852E-007
166, 0.00000, 0.651827, 0.214246, -9.29026E-008, -1.80443E-007
167, 0.00000, 0.553195, 0.181828, -6.4671E-008, -1.22529E-007
168, 0.00000, 0.435535, 0.143155, -3.86368E-008, -7.12546E-008
169, 0.00000, 0.337058, 0.110781, -1.08161E-007, -1.29477E-007
170, 0.00000, 0.285635, 0.0938865, -5.33554E-008, -1.86637E-007
171, 0.00000, 0.261523, 0.0859603, -4.24968E-008, -1.48332E-007
172, 0.00000, 0.253206, 0.0832295, -3.87513E-008, -1.33851E-007
173, 0.00000, 0.263675, 0.0866637, -4.81225E-008, -1.71642E-007
174, 0.00000, 0.30421, 0.0999903, -4.93506E-008, -1.66398E-007
175, 0.00000, 0.385597, 0.12676, -1.75121E-008, -2.87384E-009
176, 0.00000, 0.430246, 0.141422, -5.41764E-008, -1.39995E-007
177, 0.00000, 0.440598, 0.144825, -2.38106E-008, -2.16315E-008
178, 0.00000, 0.453346, 0.149031, 6.41942E-009, 9.28065E-008
179, 0.00000, 0.456554, 0.150053, 1.4139E-008, 1.08223E-007
180, 0.00000, 0.452981, 0.14888, 8.0621E-009, 9.72106E-008
181, 0.00000, 0.454946, 0.149531, 8.17413E-009, 9.86565E-008
182, 0.00000, 0.46391, 0.152472, 2.16895E-009, 8.82591E-008
183, 0.00000, 0.483238, 0.158821, -1.84881E-008, 2.4447E-008
184, 0.00000, 0.531027, 0.174495, -3.26E-008, -1.28431E-008
185, 0.00000, 0.617398, 0.202899, -5.70203E-008, -5.86182E-008
186, 0.00000, 0.687506, 0.225955, -1.04166E-007, -1.96702E-007
187, 0.00000, 0.715129, 0.235049, -1.14333E-007, -2.25439E-007
188, 0.00000, 0.731093, 0.240297, -1.17307E-007, -2.26466E-007
189, 0.00000, 0.712416, 0.234169, -1.10356E-007, -2.12708E-007
190, 0.00000, 0.651828, 0.21425, -9.27336E-008, -1.80856E-007
191, 0.00000, 0.553196, 0.181833, -6.43936E-008, -1.23102E-007
192, 0.00000, 0.435536, 0.143159, -3.84011E-008, -7.16884E-008
193, 0.00000, 0.325654, 0.107037, -6.12859E-008, -6.94848E-008
194, 0.00000, 0.285648, 0.0938869, -5.48553E-008, -1.90038E-007
195, 0.00000, 0.2615, 0.0859452, -5.01458E-008, -1.82725E-007
196, 0.00000, 0.2532, 0.0832247, -4.44182E-008, -1.59296E-007
197, 0.00000, 0.263678, 0.0866708, -3.34565E-008, -1.08471E-007
198, 0.00000, 0.304218, 0.0999974, -3.49818E-008, -1.03567E-007
199, 0.00000, 0.385615, 0.126748, -2.96636E-008, -5.47623E-008
200, 0.00000, 0.430223, 0.141411, -3.3782E-008, -5.64392E-008
201, 0.00000, 0.440603, 0.144796, -2.04517E-008, -5.48162E-009
202, 0.00000, 0.453357, 0.149016, 1.17105E-008, 1.09503E-007
203, 0.00000, 0.456558, 0.150064, 1.04585E-008, 1.0195E-007
204, 0.00000, 0.452988, 0.148896, 1.05961E-008, 1.03122E-007
205, 0.00000, 0.45495, 0.149537, 1.62322E-008, 1.24724E-007
206, 0.00000, 0.46391, 0.152474, -8.09944E-009, 4.96929E-008
207, 0.00000, 0.483276, 0.158803, -2.57841E-008, -1.15163E-008
208, 0.00000, 0.531019, 0.174494, -5.24293E-008, -8.97842E-008
209, 0.00000, 0.617378, 0.202906, -7.71736E-008, -1.38662E-007
210, 0.00000, 0.687518, 0.225978, -8.92233E-008, -1.37082E-007
211, 0.00000, 0.715135, 0.235049, -9.72736E-008, -1.5113E-007
212, 0.00000, 0.731091, 0.240291, -1.1869E-007, -2.29323E-007
213, 0.00000, 0.712409, 0.234163, -1.13091E-007, -2.24294E-007
214, 0.00000, 0.651829, 0.214251, -9.26704E-008, -1.80983E-007
215, 0.00000, 0.553196, 0.181833, -6.43932E-008, -1.23102E-007
216, 0.00000, 0.435536, 0.143159, -3.69926E-008, -6.60141E-008
217, 0.00000, 0.337052, 0.110783, -6.32981E-008, -2.17105E-007
218, 0.00000, 0.285624, 0.0938818, -4.94987E-008, -1.72874E-007
219, 0.00000, 0.261527, 0.0859626, -4.43923E-008, -1.56691E-007
220, 0.00000, 0.253194, 0.0832184, -4.48051E-008, -1.59823E-007
221, 0.00000, 0.263672, 0.0866627, -4.7695E-008, -1.70323E-007
222, 0.00000, 0.30422, 0.0999978, -5.03247E-008, -1.71828E-007
223, 0.00000, 0.385614, 0.126746, -2.98437E-008, -5.45869E-008
224, 0.00000, 0.430226, 0.141401, -1.84496E-008, 5.28556E-009
225, 0.00000, 0.440598, 0.144823, -1.22879E-008, 3.24583E-008
226, 0.00000, 0.453365, 0.149043, -1.76082E-008, 1.58754E-008
227, 0.00000, 0.456563, 0.15011, -2.35121E-008, -7.23456E-009
228, 0.00000, 0.452983, 0.148889, -6.20807E-009, 4.19288E-008
229, 0.00000, 0.454946, 0.149525, -1.27069E-008, 2.08461E-008
230, 0.00000, 0.463911, 0.152484, -2.44726E-008, -1.56499E-008
231, 0.00000, 0.483236, 0.158828, -4.28727E-008, -6.89623E-008
232, 0.00000, 0.530977, 0.174524, -4.79901E-008, -6.46247E-008
233, 0.00000, 0.617359, 0.202928, -2.80046E-008, 6.48634E-008
234, 0.00000, 0.68752, 0.225973, -4.13282E-008, 5.91773E-008
235, 0.00000, 0.715131, 0.235051, -4.73084E-008, 5.63393E-008
236, 0.00000, 0.731099, 0.240294, -6.00505E-008, 1.79812E-008
237, 0.00000, 0.7124, 0.23415, -1.13817E-007, -2.22822E-007
238, 0.00000, 0.65183, 0.214252, -9.04017E-008, -1.71245E-007
239, 0.00000, 0.553196, 0.181833, -6.25071E-008, -1.15029E-007
240, 0.00000, 0.435535, 0.143157, -3.70487E-008, -6.58649E-008
241, 0.00000, 0.361343, 0.118779, -2.48207E-008, -4.38941E-008
242, 0.00000, 0.305101, 0.100289, -1.7381E-008, -3.00928E-008
243, 0.00000, 0.274612, 0.0902587, -2.65375E-008, -7.33203E-008
244, 0.00000, 0.260604, 0.0856576, -2.45581E-008, -6.95235E-008
245, 0.00000, 0.260479, 0.0856143, -2.53397E-008, -7.24589E-008
246, 0.00000, 0.274199, 0.0901225, -2.67266E-008, -7.51016E-008
247, 0.00000, 0.30592, 0.100552, -1.91527E-008, -3.66653E-008
248, 0.00000, 0.365966, 0.120227, -1.39696E-008, -6.46746E-009
249, 0.00000, 0.460949, 0.151525, -7.22243E-009, 5.75608E-008
250, 0.00000, 0.549293, 0.18055, -1.02746E-008, 7.43866E-008
251, 0.00000, 0.59599, 0.195894, -2.86734E-008, 1.30554E-008
252, 0.00000, 0.613783, 0.201738, -4.9411E-008, -6.41039E-008
253, 0.00000, 0.62206, 0.204457, -6.08519E-008, -1.00069E-007
254, 0.00000, 0.634034, 0.208395, -8.21147E-008, -1.71951E-007
255, 0.00000, 0.645893, 0.212291, -1.07718E-007, -2.61695E-007
256, 0.00000, 0.658654, 0.216486, -1.00794E-007, -2.10602E-007
257, 0.00000, 0.69171, 0.227355, -9.46614E-008, -1.57567E-007
258, 0.00000, 0.710082, 0.233401, -7.5234E-008, -5.9894E-008
259, 0.00000, 0.706382, 0.232156, -7.28187E-008, -5.34534E-008
260, 0.00000, 0.703633, 0.231311, -7.53896E-008, -6.53849E-008
261, 0.00000, 0.676959, 0.222494, -1.01796E-007, -1.95817E-007
262, 0.00000, 0.624793, 0.205364, -8.44127E-008, -1.63488E-007
263, 0.00000, 0.549757, 0.180701, -6.35704E-008, -1.21245E-007
264, 0.00000, 0.458059, 0.150561, -4.28088E-008, -8.01326E-008
265, 0.00000, 0.36942, 0.121426, -2.72223E-008, -5.02267E-008
266, 0.00000, 0.31073, 0.102134, -1.85984E-008, -3.29978E-008
267, 0.00000, 0.276728, 0.0909551, -5.19468E-008, -1.85251E-007
268, 0.00000, 0.254056, 0.0835038, -4.85894E-008, -5.85832E-008
269, 0.00000, 0.254631, 0.0836928, -5.1671E-008, -1.76964E-007
270, 0.00000, 0.263044, 0.0864629, -2.28103E-008, -6.35533E-008
271, 0.00000, 0.29051, 0.0954829, 1.48503E-009, 3.86967E-008
272, 0.00000, 0.338076, 0.111125, 2.38812E-009, 5.22404E-008
273, 0.00000, 0.427303, 0.140445, 1.71246E-008, 1.12921E-007
274, 0.00000, 0.522239, 0.171647, 2.09905E-008, 1.44655E-007
275, 0.00000, 0.634461, 0.208537, -3.68042E-007, 8.32418E-007
276, 0.00000, 0.664524, 0.218419, -4.20873E-007, 8.982E-007
277, 0.00000, 0.658632, 0.216485, -2.88713E-007, 7.48684E-007
278, 0.00000, 0.630804, 0.207389, -2.53178E-008, 3.14153E-008
279, 0.00000, 0.627519, 0.206253, -8.80079E-008, -2.01032E-007
280, 0.00000, 0.622116, 0.20447, -1.09538E-007, -2.74407E-007
281, 0.00000, 0.648047, 0.213005, -8.63029E-008, -1.53973E-007
282, 0.00000, 0.682553, 0.224356, -5.22339E-008, 1.32033E-008
283, 0.00000, 0.69936, 0.229864, -1.09245E-007, -2.12939E-007
284, 0.00000, 0.720379, 0.236767, -1.1651E-007, -2.30173E-007
285, 0.00000, 0.704024, 0.231411, -1.09064E-007, -2.14085E-007
286, 0.00000, 0.63977, 0.210287, -8.89242E-008, -1.73056E-007
287, 0.00000, 0.538918, 0.177139, -6.11069E-008, -1.17105E-007
288, 0.00000, 0.421809, 0.138646, -3.53737E-008, -6.47743E-008
289, 0.00000, 0.337057, 0.110787, -2.25724E-008, -4.08722E-008
290, 0.00000, 0.285625, 0.0938814, -1.60487E-008, -2.88568E-008
291, 0.00000, 0.261523, 0.0859589, -1.34073E-008, -2.40523E-008
292, 0.00000, 0.253206, 0.0832265, -1.25618E-008, -2.25346E-008
293, 0.00000, 0.263667, 0.0866609, -1.36216E-008, -2.44123E-008
294, 0.00000, 0.304207, 0.0999874, -1.82569E-008, -3.28602E-008
295, 0.00000, 0.385608, 0.126741, -2.9866E-008, -5.44276E-008
296, 0.00000, 0.430226, 0.14141, -3.02836E-008, -4.35894E-008
297, 0.00000, 0.440599, 0.144823, -1.15184E-008, 2.00982E-008
298, 0.00000, 0.453357, 0.149029, -1.04147E-009, 5.30274E-008
299, 0.00000, 0.508961, 0.167281, -3.50297E-007, 7.5688E-007
300, 0.00000, 0.510484, 0.167786, -3.87917E-007, 7.9549E-007
301, 0.00000, 0.495981, 0.163023, -2.66399E-007, 6.62232E-007
302, 0.00000, 0.463958, 0.15245, -1.06542E-008, 3.82531E-008
303, 0.00000, 0.483239, 0.15883, -2.67522E-008, -1.57624E-008
304, 0.00000, 0.53098, 0.174522, -5.95175E-008, -1.10897E-007
305, 0.00000, 0.61736, 0.20291, -8.26415E-008, -1.57602E-007
306, 0.00000, 0.687514, 0.225969, -1.04868E-007, -2.04297E-007
307, 0.00000, 0.715103, 0.235031, -1.14379E-007, -2.24507E-007
308, 0.00000, 0.731081, 0.240288, -1.20042E-007, -2.37668E-007
309, 0.00000, 0.712416, 0.234168, -1.12993E-007, -2.24717E-007
310, 0.00000, 0.651829, 0.214251, -9.26685E-008, -1.80983E-007
311, 0.00000, 0.553196, 0.181833, -6.43932E-008, -1.23102E-007
312, 0.00000, 0.435536, 0.143159, -3.84011E-008, -7.16884E-008
313, 0.00000, 0.337051, 0.110782, -2.25628E-008, -4.07772E-008
314, 0.00000, 0.285625, 0.0938814, -1.60487E-008, -2.88567E-008
315, 0.00000, 0.261523, 0.0859589, -1.34073E-008, -2.40523E-008
316, 0.00000, 0.253199, 0.0832266, -1.15944E-008, -2.01245E-008
317, 0.00000, 0.26366, 0.0866538, -1.28674E-008, -2.12224E-008
318, 0.00000, 0.304207, 0.0999872, -1.82567E-008, -3.28578E-008
319, 0.00000, 0.385626, 0.126757, -2.84532E-008, -5.01721E-008
320, 0.00000, 0.430217, 0.141405, -3.57359E-008, -6.25273E-008
