hour, t(sec), P1 (kW), Q1 (kvar), P2 (kW), Q2 (kvar)
1, 0.00000, 0.143811, 0.0472663, -6.84042E-009, -2.77141E-009
2, 0.00000, 0.121866, 0.0400554, -4.66106E-009, -1.42124E-009
3, 0.00000, 0.111585, 0.0366743, -3.74551E-009, -8.71516E-010
4, 0.00000, 0.108033, 0.0355074, -3.18232E-009, -1.68827E-011
5, 0.00000, 0.112501, 0.036978, -3.42676E-009, 9.63369E-011
6, 0.00000, 0.129792, 0.0426629, -4.22906E-009, 1.06168E-009
7, 0.00000, 0.164529, 0.0540779, -6.48996E-009, 2.72349E-009
8, 0.00000, 0.183561, 0.0603359, -1.35114E-008, -1.08054E-008
9, 0.00000, 0.18799, 0.0617895, -4.22612E-009, 6.94285E-009
10, 0.00000, 0.193431, 0.0635787, -5.50146E-010, 1.44481E-008
11, 0.00000, 0.194794, 0.0640303, 1.36271E-008, 3.94158E-008
12, 0.00000, 0.193273, 0.0635258, 1.41826E-008, 4.01769E-008
13, 0.00000, 0.19411, 0.0638003, 9.24014E-009, 3.18609E-008
14, 0.00000, 0.197935, 0.0650579, -4.37543E-009, 8.36761E-009
15, 0.00000, 0.206181, 0.0677684, -1.36822E-008, -7.17733E-009
16, 0.00000, 0.22655, 0.0744633, -2.2877E-008, -2.02083E-008
17, 0.00000, 0.263409, 0.0865781, -3.13544E-008, -2.76332E-008
18, 0.00000, 0.293338, 0.0964133, -3.9344E-008, -3.47046E-008
19, 0.00000, 0.305121, 0.100288, -4.27639E-008, -3.77742E-008
20, 0.00000, 0.311934, 0.102528, -4.48116E-008, -3.9629E-008
21, 0.00000, 0.30396, 0.0999108, -4.07979E-008, -3.3469E-008
22, 0.00000, 0.278112, 0.0914114, -3.51602E-008, -3.09905E-008
23, 0.00000, 0.23603, 0.0775815, -2.48957E-008, -2.20416E-008
24, 0.00000, 0.185828, 0.0610795, -1.52147E-008, -1.35831E-008
25, 0.00000, 0.143809, 0.0472681, -1.04662E-008, -1.16974E-008
26, 0.00000, 0.121867, 0.0400575, -7.45008E-009, -8.33953E-009
27, 0.00000, 0.111583, 0.0366764, -6.13572E-009, -6.72172E-009
28, 0.00000, 0.108032, 0.035509, -4.96981E-009, -4.38993E-009
29, 0.00000, 0.112502, 0.0369776, -4.39255E-009, -2.27419E-009
30, 0.00000, 0.129796, 0.0426618, -6.32834E-009, -4.14312E-009
31, 0.00000, 0.164529, 0.0540778, -1.11383E-008, -8.77634E-009
32, 0.00000, 0.18356, 0.060333, -1.37005E-008, -1.11091E-008
33, 0.00000, 0.18799, 0.0617897, -6.75521E-009, 2.91284E-009
34, 0.00000, 0.193432, 0.0635778, -2.8055E-009, 1.04193E-008
35, 0.00000, 0.194798, 0.0640277, 1.70661E-009, 1.70925E-008
36, 0.00000, 0.193274, 0.0635282, 2.70631E-009, 1.86432E-008
37, 0.00000, 0.194111, 0.0638007, -1.15073E-009, 1.19581E-008
38, 0.00000, 0.197934, 0.0650564, -8.4213E-009, -1.924E-010
39, 0.00000, 0.206181, 0.0677684, -1.65625E-008, -1.2692E-008
40, 0.00000, 0.22655, 0.0744611, -1.19569E-008, 7.21934E-009
41, 0.00000, 0.263412, 0.0865834, -3.09839E-008, -2.68073E-008
42, 0.00000, 0.293341, 0.0964154, -3.93478E-008, -3.46796E-008
43, 0.00000, 0.30512, 0.100285, -4.27728E-008, -3.77064E-008
44, 0.00000, 0.311933, 0.102526, -4.4818E-008, -3.95831E-008
45, 0.00000, 0.303958, 0.0999081, -4.24065E-008, -3.75218E-008
46, 0.00000, 0.278113, 0.091412, -3.51582E-008, -3.10065E-008
47, 0.00000, 0.236029, 0.0775801, -2.49089E-008, -2.20227E-008
48, 0.00000, 0.185828, 0.0610795, -1.52147E-008, -1.35831E-008
49, 0.00000, 0.143809, 0.0472674, -9.07677E-009, -8.23568E-009
50, 0.00000, 0.121866, 0.0400558, -6.53782E-009, -6.03559E-009
51, 0.00000, 0.111583, 0.036676, -7.19659E-009, -9.33903E-009
52, 0.00000, 0.108033, 0.0355107, -6.81206E-009, -8.91357E-009
53, 0.00000, 0.112502, 0.0369774, -7.31034E-009, -9.4358E-009
54, 0.00000, 0.129796, 0.0426608, -9.41488E-009, -1.1719E-008
55, 0.00000, 0.164531, 0.0540749, -7.5134E-009, 9.66571E-011
56, 0.00000, 0.183561, 0.0603332, -9.76872E-009, -5.73076E-010
57, 0.00000, 0.18799, 0.0617912, -1.16103E-008, -6.29151E-009
58, 0.00000, 0.193432, 0.0635792, -1.06636E-008, -3.92198E-009
59, 0.00000, 0.194798, 0.0640288, -8.57585E-009, 1.21443E-010
60, 0.00000, 0.193274, 0.0635273, -8.40012E-009, 2.25129E-010
61, 0.00000, 0.194111, 0.063801, -9.62761E-009, -1.86418E-009
62, 0.00000, 0.197934, 0.0650575, -1.24804E-008, -6.44225E-009
63, 0.00000, 0.206181, 0.0677684, -1.37495E-008, -7.30117E-009
64, 0.00000, 0.22655, 0.0744633, -2.28774E-008, -2.02091E-008
65, 0.00000, 0.263405, 0.0865753, -3.1344E-008, -2.76262E-008
66, 0.00000, 0.293346, 0.0964221, -3.77906E-008, -3.08679E-008
67, 0.00000, 0.30512, 0.100286, -4.27621E-008, -3.77637E-008
68, 0.00000, 0.311934, 0.102527, -4.48109E-008, -3.96243E-008
69, 0.00000, 0.303957, 0.0999068, -4.24144E-008, -3.74783E-008
70, 0.00000, 0.278112, 0.0914115, -3.51601E-008, -3.09909E-008
71, 0.00000, 0.236029, 0.0775796, -2.49175E-008, -2.19916E-008
72, 0.00000, 0.185828, 0.0610791, -1.52242E-008, -1.35587E-008
73, 0.00000, 0.154167, 0.0506724, -1.04261E-008, -9.41854E-009
74, 0.00000, 0.130174, 0.0427874, -7.44032E-009, -6.85482E-009
75, 0.00000, 0.117168, 0.038512, -6.04736E-009, -5.62558E-009
76, 0.00000, 0.111191, 0.0365469, -5.4589E-009, -5.10318E-009
77, 0.00000, 0.111139, 0.0365295, -5.45528E-009, -5.09329E-009
78, 0.00000, 0.116995, 0.0384544, -6.03285E-009, -5.59575E-009
79, 0.00000, 0.130526, 0.0429015, -7.48619E-009, -6.85807E-009
80, 0.00000, 0.156124, 0.0513152, -9.7742E-009, -7.92774E-009
81, 0.00000, 0.196673, 0.0646437, -8.8437E-009, 8.61647E-012
82, 0.00000, 0.234365, 0.0770322, -7.5278E-009, 9.53276E-009
83, 0.00000, 0.254291, 0.0835817, -8.26283E-010, 2.58281E-008
84, 0.00000, 0.261882, 0.0860765, -1.65761E-009, 2.60652E-008
85, 0.00000, 0.265421, 0.0872393, -6.21869E-009, 1.87599E-008
86, 0.00000, 0.270522, 0.0889162, -1.76313E-008, -6.49268E-010
87, 0.00000, 0.275586, 0.0905838, -4.73685E-008, -6.62784E-008
88, 0.00000, 0.281028, 0.0923688, -5.26392E-008, -7.49075E-008
89, 0.00000, 0.295132, 0.0970056, -4.38781E-008, -4.55949E-008
90, 0.00000, 0.302963, 0.0995785, -3.20757E-008, -1.13293E-008
91, 0.00000, 0.301379, 0.0990603, -1.62154E-008, 2.83064E-008
92, 0.00000, 0.300236, 0.098682, -4.13248E-008, -3.64783E-008
93, 0.00000, 0.288841, 0.0949402, -3.804E-008, -3.36691E-008
94, 0.00000, 0.266577, 0.0876205, -3.21581E-008, -2.8358E-008
95, 0.00000, 0.234562, 0.0770976, -2.45874E-008, -2.17386E-008
96, 0.00000, 0.195438, 0.064238, -1.68671E-008, -1.50144E-008
97, 0.00000, 0.157618, 0.0518064, -1.09066E-008, -9.81861E-009
98, 0.00000, 0.132578, 0.0435769, -7.70987E-009, -7.08308E-009
99, 0.00000, 0.11807, 0.0388086, -6.13886E-009, -5.70753E-009
100, 0.00000, 0.110846, 0.0364335, -5.42551E-009, -5.07562E-009
101, 0.00000, 0.108637, 0.0357085, -5.21865E-009, -4.90277E-009
102, 0.00000, 0.11223, 0.0368862, -5.5591E-009, -5.15603E-009
103, 0.00000, 0.123951, 0.0407407, -6.75918E-009, -6.22715E-009
104, 0.00000, 0.144245, 0.0474111, -8.28973E-009, -6.72634E-009
105, 0.00000, 0.182317, 0.0599249, -7.12862E-009, 7.72495E-010
106, 0.00000, 0.222824, 0.0732388, -6.15348E-009, 9.69603E-009
107, 0.00000, 0.248392, 0.0816415, 3.92274E-010, 1.75829E-008
108, 0.00000, 0.258436, 0.0849435, 1.90686E-008, 5.22646E-008
109, 0.00000, 0.264842, 0.0870489, 1.83249E-008, 5.24145E-008
110, 0.00000, 0.269127, 0.0884575, -9.93798E-009, 1.27724E-008
111, 0.00000, 0.267742, 0.0880006, -1.96434E-008, -2.10075E-009
112, 0.00000, 0.265442, 0.0872452, -1.88224E-008, 4.98138E-009
113, 0.00000, 0.2765, 0.0908777, -1.80094E-008, 1.18328E-008
114, 0.00000, 0.29122, 0.0957184, -2.48436E-008, 1.35136E-009
115, 0.00000, 0.298392, 0.0980751, -4.08033E-008, -3.59591E-008
116, 0.00000, 0.307369, 0.101025, -4.3442E-008, -3.83294E-008
117, 0.00000, 0.300376, 0.0987305, -4.13571E-008, -3.65645E-008
118, 0.00000, 0.272967, 0.0897209, -3.38025E-008, -2.98087E-008
119, 0.00000, 0.229937, 0.0755777, -2.35886E-008, -2.08697E-008
120, 0.00000, 0.179971, 0.0591544, -1.42544E-008, -1.27485E-008
121, 0.00000, 0.143809, 0.0472674, -9.07678E-009, -8.2357E-009
122, 0.00000, 0.121866, 0.0400558, -6.53782E-009, -6.03559E-009
123, 0.00000, 0.111583, 0.0366757, -5.49836E-009, -5.13053E-009
124, 0.00000, 0.108033, 0.0355095, -5.16264E-009, -4.83818E-009
125, 0.00000, 0.1125, 0.036976, -5.58528E-009, -5.20498E-009
126, 0.00000, 0.129796, 0.0426615, -7.40326E-009, -6.78593E-009
127, 0.00000, 0.164528, 0.054077, -1.189E-008, -1.0669E-008
128, 0.00000, 0.18356, 0.0603332, -1.37199E-008, -1.11446E-008
129, 0.00000, 0.187991, 0.0617906, -7.7353E-009, 5.77727E-010
130, 0.00000, 0.193432, 0.0635784, -2.98456E-009, 1.00971E-008
131, 0.00000, 0.194798, 0.0640285, 2.08732E-008, 5.15463E-008
132, 0.00000, 0.193272, 0.0635247, 2.55835E-008, 5.89036E-008
133, 0.00000, 0.19411, 0.0638004, 2.83772E-008, 6.34104E-008
134, 0.00000, 0.197935, 0.065058, 5.17475E-010, 1.71369E-008
135, 0.00000, 0.206185, 0.0677674, -1.01547E-008, -6.7114E-010
136, 0.00000, 0.226553, 0.0744604, -2.29002E-008, -2.02233E-008
137, 0.00000, 0.263411, 0.0865798, -3.1354E-008, -2.764E-008
138, 0.00000, 0.293341, 0.0964163, -3.93465E-008, -3.47084E-008
139, 0.00000, 0.305124, 0.100293, -4.1092E-008, -3.37593E-008
140, 0.00000, 0.311933, 0.102526, -4.48104E-008, -3.9619E-008
141, 0.00000, 0.303958, 0.0999069, -4.24145E-008, -3.74786E-008
142, 0.00000, 0.278112, 0.0914115, -3.51602E-008, -3.0991E-008
143, 0.00000, 0.236029, 0.0775796, -2.49176E-008, -2.19918E-008
144, 0.00000, 0.185828, 0.0610791, -1.52243E-008, -1.35589E-008
145, 0.00000, 0.143809, 0.0472679, -9.07836E-009, -8.23874E-009
146, 0.00000, 0.121866, 0.0400554, -5.9553E-009, -4.61181E-009
147, 0.00000, 0.111583, 0.0366756, -5.49821E-009, -5.13027E-009
148, 0.00000, 0.108031, 0.0355087, -4.64249E-009, -3.60265E-009
149, 0.00000, 0.112502, 0.0369774, -1.11606E-008, -1.89264E-008
150, 0.00000, 0.129795, 0.0426606, -1.40023E-008, -2.30823E-008
151, 0.00000, 0.164529, 0.0540778, -2.04335E-008, -3.19725E-008
152, 0.00000, 0.183561, 0.0603347, -2.02487E-008, -2.82852E-008
153, 0.00000, 0.18799, 0.0617896, -8.2658E-009, -2.96768E-009
154, 0.00000, 0.193431, 0.0635792, -5.44636E-009, 3.87763E-009
155, 0.00000, 0.194795, 0.0640304, 1.76456E-009, 1.72012E-008
156, 0.00000, 0.193272, 0.0635263, 3.7353E-009, 2.12863E-008
157, 0.00000, 0.194112, 0.0637991, 6.53899E-010, 1.66413E-008
158, 0.00000, 0.197936, 0.0650579, -6.45643E-009, 4.79376E-009
159, 0.00000, 0.206183, 0.0677635, -1.35294E-008, -5.20325E-009
160, 0.00000, 0.22655, 0.0744625, -1.82677E-008, -8.61144E-009
161, 0.00000, 0.263408, 0.0865769, -2.54435E-008, -1.264E-008
162, 0.00000, 0.29334, 0.0964154, -3.11564E-008, -1.37033E-008
163, 0.00000, 0.305123, 0.100291, -1.88626E-008, 2.34904E-008
164, 0.00000, 0.311935, 0.102527, -2.19091E-008, 1.92224E-008
165, 0.00000, 0.303955, 0.0999037, -4.08265E-008, -3.32711E-008
166, 0.00000, 0.278112, 0.0914114, -3.51602E-008, -3.09905E-008
167, 0.00000, 0.236029, 0.0775795, -2.4917E-008, -2.19907E-008
168, 0.00000, 0.185828, 0.061079, -1.52239E-008, -1.3558E-008
169, 0.00000, 0.143809, 0.047268, -3.77611E-008, -8.03164E-008
170, 0.00000, 0.121866, 0.0400558, -2.87775E-008, -6.14032E-008
171, 0.00000, 0.111583, 0.0366758, -2.36214E-008, -5.01106E-008
172, 0.00000, 0.108032, 0.0355092, -2.16356E-008, -4.56818E-008
173, 0.00000, 0.112502, 0.0369774, -2.65309E-008, -5.72362E-008
174, 0.00000, 0.129796, 0.0426621, -2.67124E-008, -5.48696E-008
175, 0.00000, 0.164528, 0.0540791, -2.71202E-009, 1.20912E-008
176, 0.00000, 0.183561, 0.060336, -2.53654E-008, -4.05109E-008
177, 0.00000, 0.187989, 0.06179, -5.96184E-009, 3.50329E-009
178, 0.00000, 0.193431, 0.063578, 2.0308E-008, 6.54301E-008
179, 0.00000, 0.194798, 0.0640268, 3.07999E-008, 8.1587E-008
180, 0.00000, 0.193272, 0.0635258, 2.38037E-008, 7.05991E-008
181, 0.00000, 0.194111, 0.0638011, 2.28467E-008, 7.10477E-008
182, 0.00000, 0.197935, 0.065058, 1.77967E-008, 6.46396E-008
183, 0.00000, 0.206181, 0.0677683, 1.91532E-009, 3.17758E-008
184, 0.00000, 0.226557, 0.074461, -7.05156E-009, 1.92776E-008
185, 0.00000, 0.263413, 0.0865763, -1.63033E-008, 1.03436E-008
186, 0.00000, 0.293341, 0.0964136, -3.85428E-008, -3.25346E-008
187, 0.00000, 0.305122, 0.100288, -4.27695E-008, -3.77692E-008
188, 0.00000, 0.311934, 0.102527, -4.32461E-008, -3.55485E-008
189, 0.00000, 0.303958, 0.0999082, -4.08022E-008, -3.33689E-008
190, 0.00000, 0.278112, 0.0914119, -3.51599E-008, -3.1004E-008
191, 0.00000, 0.236029, 0.0775801, -2.49089E-008, -2.20227E-008
192, 0.00000, 0.185828, 0.0610795, -1.52147E-008, -1.35831E-008
193, 0.00000, 0.143808, 0.0472667, -4.80824E-008, -1.07628E-007
194, 0.00000, 0.121866, 0.0400564, -2.93113E-008, -6.27805E-008
195, 0.00000, 0.111585, 0.0366761, -2.77797E-008, -6.05022E-008
196, 0.00000, 0.108032, 0.0355085, -2.47654E-008, -5.34977E-008
197, 0.00000, 0.112502, 0.0369781, -1.84729E-008, -3.71312E-008
198, 0.00000, 0.129796, 0.0426626, -1.83562E-008, -3.39856E-008
199, 0.00000, 0.164529, 0.0540783, -1.18931E-008, -1.06735E-008
200, 0.00000, 0.183561, 0.0603337, -1.26055E-008, -9.08561E-009
201, 0.00000, 0.18799, 0.0617888, -2.59803E-009, 1.1927E-008
202, 0.00000, 0.193432, 0.0635775, 2.47043E-008, 7.79868E-008
203, 0.00000, 0.194798, 0.0640268, 2.46945E-008, 7.36273E-008
204, 0.00000, 0.193273, 0.0635264, 2.54345E-008, 7.44855E-008
205, 0.00000, 0.194111, 0.0638011, 3.10528E-008, 9.0693E-008
206, 0.00000, 0.197935, 0.0650581, 8.57801E-009, 4.13532E-008
207, 0.00000, 0.206186, 0.0677667, -5.46988E-009, 1.32796E-008
208, 0.00000, 0.226554, 0.0744608, -1.97422E-008, -1.24626E-008
209, 0.00000, 0.26341, 0.0865769, -2.85387E-008, -2.05346E-008
210, 0.00000, 0.293341, 0.0964165, -2.97316E-008, -1.00521E-008
211, 0.00000, 0.305123, 0.100288, -3.24369E-008, -1.12095E-008
212, 0.00000, 0.311935, 0.102527, -4.37799E-008, -3.68888E-008
213, 0.00000, 0.303957, 0.0999073, -4.24091E-008, -3.75037E-008
214, 0.00000, 0.278113, 0.091412, -3.51583E-008, -3.10065E-008
215, 0.00000, 0.236029, 0.0775801, -2.49089E-008, -2.20227E-008
216, 0.00000, 0.185828, 0.0610795, -1.42978E-008, -1.12957E-008
217, 0.00000, 0.143809, 0.0472676, -3.35691E-008, -6.94656E-008
218, 0.00000, 0.121866, 0.0400556, -2.71074E-008, -5.72221E-008
219, 0.00000, 0.111583, 0.0366763, -2.46377E-008, -5.26595E-008
220, 0.00000, 0.108031, 0.0355079, -2.48937E-008, -5.37987E-008
221, 0.00000, 0.112502, 0.0369771, -2.63618E-008, -5.68131E-008
222, 0.00000, 0.129796, 0.0426626, -2.73177E-008, -5.64036E-008
223, 0.00000, 0.164529, 0.0540783, -1.18934E-008, -1.0674E-008
224, 0.00000, 0.183561, 0.0603334, -1.64799E-009, 1.88485E-008
225, 0.00000, 0.18799, 0.0617895, 3.84887E-009, 3.21928E-008
226, 0.00000, 0.193431, 0.0635798, 4.96485E-010, 2.3954E-008
227, 0.00000, 0.194796, 0.0640299, -3.8153E-009, 1.21395E-008
228, 0.00000, 0.193273, 0.0635255, 8.64043E-009, 3.35686E-008
229, 0.00000, 0.194111, 0.0638007, 3.14767E-009, 2.27989E-008
230, 0.00000, 0.197935, 0.0650589, -5.04798E-009, 7.50502E-009
231, 0.00000, 0.206181, 0.0677679, -1.54824E-008, -9.93438E-009
232, 0.00000, 0.22655, 0.0744635, -1.55675E-008, -1.79834E-009
233, 0.00000, 0.263409, 0.0865794, 6.22544E-009, 6.7018E-008
234, 0.00000, 0.293341, 0.0964157, 3.11374E-009, 7.30305E-008
235, 0.00000, 0.305122, 0.100288, 1.77729E-009, 7.56336E-008
236, 0.00000, 0.311934, 0.102527, -5.76073E-009, 6.01922E-008
237, 0.00000, 0.303956, 0.0999052, -4.24269E-008, -3.74504E-008
238, 0.00000, 0.278113, 0.0914122, -3.37825E-008, -2.74942E-008
239, 0.00000, 0.236029, 0.07758, -2.3707E-008, -1.89868E-008
240, 0.00000, 0.185828, 0.0610793, -1.42998E-008, -1.12876E-008
241, 0.00000, 0.154168, 0.050675, -9.71801E-009, -7.71614E-009
242, 0.00000, 0.130174, 0.0427874, -6.85195E-009, -5.4045E-009
243, 0.00000, 0.117168, 0.038511, -1.36978E-008, -2.44831E-008
244, 0.00000, 0.111191, 0.0365468, -1.29247E-008, -2.35147E-008
245, 0.00000, 0.111138, 0.0365293, -1.33911E-008, -2.46655E-008
246, 0.00000, 0.116993, 0.0384523, -1.39396E-008, -2.51113E-008
247, 0.00000, 0.130526, 0.0429019, -8.04263E-009, -8.24372E-009
248, 0.00000, 0.156128, 0.0513129, -3.41322E-009, 7.68312E-009
249, 0.00000, 0.196672, 0.0646442, 9.71326E-009, 4.60563E-008
250, 0.00000, 0.234364, 0.0770323, 1.30073E-008, 6.08936E-008
251, 0.00000, 0.25429, 0.0835811, 1.4037E-010, 2.82455E-008
252, 0.00000, 0.261885, 0.0860764, -1.48279E-008, -8.58847E-009
253, 0.00000, 0.265419, 0.0872373, -2.15235E-008, -2.04202E-008
254, 0.00000, 0.270522, 0.0889159, -3.31895E-008, -4.17757E-008
255, 0.00000, 0.275583, 0.090579, -4.59217E-008, -6.49119E-008
256, 0.00000, 0.281026, 0.0923677, -3.94387E-008, -4.06494E-008
257, 0.00000, 0.295131, 0.0970047, -3.28096E-008, -1.70626E-008
258, 0.00000, 0.302968, 0.0995822, -1.84067E-008, 2.35428E-008
259, 0.00000, 0.301383, 0.0990593, -1.72969E-008, 2.5555E-008
260, 0.00000, 0.300228, 0.0986822, -1.91213E-008, 2.03172E-008
261, 0.00000, 0.288839, 0.094935, -3.80891E-008, -3.3533E-008
262, 0.00000, 0.266577, 0.0876205, -3.2158E-008, -2.83581E-008
263, 0.00000, 0.234562, 0.0770976, -2.45874E-008, -2.17386E-008
264, 0.00000, 0.195438, 0.064238, -1.68671E-008, -1.50144E-008
265, 0.00000, 0.157619, 0.0518073, -1.09428E-008, -9.93861E-009
266, 0.00000, 0.132578, 0.0435765, -7.45122E-009, -6.41329E-009
267, 0.00000, 0.11807, 0.0388077, -2.84147E-008, -6.10984E-008
268, 0.00000, 0.110845, 0.0364329, -3.59295E-008, -8.19331E-008
269, 0.00000, 0.108636, 0.0357074, -2.747E-008, -6.0205E-008
270, 0.00000, 0.112232, 0.0368893, -1.19631E-008, -2.10051E-008
271, 0.00000, 0.123951, 0.0407408, 7.02128E-009, 2.73413E-008
272, 0.00000, 0.144245, 0.0474115, 1.00505E-008, 3.65666E-008
273, 0.00000, 0.182316, 0.0599238, 2.92008E-008, 8.21847E-008
274, 0.00000, 0.222823, 0.0732376, 4.21701E-008, 1.1416E-007
275, 0.00000, 0.248392, 0.0816487, 5.11639E-008, 1.13451E-007
276, 0.00000, 0.258441, 0.0849498, 5.31705E-008, 1.19879E-007
277, 0.00000, 0.264842, 0.0870491, 5.1614E-008, 1.17774E-007
278, 0.00000, 0.269127, 0.0884593, 4.32183E-009, 3.82934E-008
279, 0.00000, 0.26774, 0.0880018, -3.72683E-008, -5.3312E-008
280, 0.00000, 0.265442, 0.0872447, -4.70416E-008, -6.69328E-008
281, 0.00000, 0.276502, 0.0908814, -3.13337E-008, -2.19402E-008
282, 0.00000, 0.291224, 0.0957226, -5.28925E-009, 5.0926E-008
283, 0.00000, 0.298392, 0.0980764, -4.08006E-008, -3.59863E-008
284, 0.00000, 0.307369, 0.101025, -4.36139E-008, -3.8771E-008
285, 0.00000, 0.300376, 0.0987311, -4.07715E-008, -3.50682E-008
286, 0.00000, 0.272967, 0.0897209, -3.38029E-008, -2.98078E-008
287, 0.00000, 0.229937, 0.0755777, -2.37733E-008, -2.13354E-008
288, 0.00000, 0.179971, 0.0591544, -1.39278E-008, -1.19352E-008
289, 0.00000, 0.14381, 0.0472686, -9.07947E-009, -8.23972E-009
290, 0.00000, 0.121866, 0.0400558, -6.53782E-009, -6.03559E-009
291, 0.00000, 0.111583, 0.0366757, -5.49836E-009, -5.13053E-009
292, 0.00000, 0.108033, 0.0355095, -5.16264E-009, -4.83818E-009
293, 0.00000, 0.1125, 0.036976, -5.58528E-009, -5.20498E-009
294, 0.00000, 0.129796, 0.0426615, -7.40326E-009, -6.78593E-009
295, 0.00000, 0.164528, 0.054077, -1.189E-008, -1.0669E-008
296, 0.00000, 0.183561, 0.0603342, -1.03184E-008, -4.87225E-009
297, 0.00000, 0.187989, 0.06179, 3.49913E-009, 2.07973E-008
298, 0.00000, 0.19343, 0.0635797, 1.34673E-008, 3.89874E-008
299, 0.00000, 0.194789, 0.0640023, 4.13584E-008, 8.82878E-008
300, 0.00000, 0.193273, 0.0635265, 4.23612E-008, 8.89521E-008
301, 0.00000, 0.19411, 0.0638003, 4.04823E-008, 8.58938E-008
302, 0.00000, 0.197938, 0.0650545, 8.20403E-009, 3.07882E-008
303, 0.00000, 0.206182, 0.0677682, -5.29869E-009, 8.14666E-009
304, 0.00000, 0.226551, 0.0744633, -2.28879E-008, -2.01909E-008
305, 0.00000, 0.263409, 0.0865771, -3.1362E-008, -2.75884E-008
306, 0.00000, 0.293341, 0.0964155, -3.93476E-008, -3.4681E-008
307, 0.00000, 0.30512, 0.100285, -4.27728E-008, -3.77064E-008
308, 0.00000, 0.311933, 0.102526, -4.4818E-008, -3.95831E-008
309, 0.00000, 0.303958, 0.0999081, -4.24065E-008, -3.75218E-008
310, 0.00000, 0.278113, 0.091412, -3.51582E-008, -3.10065E-008
311, 0.00000, 0.236029, 0.0775801, -2.49089E-008, -2.20227E-008
312, 0.00000, 0.185828, 0.0610795, -1.52147E-008, -1.35831E-008
313, 0.00000, 0.143809, 0.0472674, -9.07677E-009, -8.23568E-009
314, 0.00000, 0.121866, 0.0400558, -6.53782E-009, -6.03559E-009
315, 0.00000, 0.111583, 0.0366757, -5.49836E-009, -5.13053E-009
316, 0.00000, 0.108031, 0.0355086, -4.67045E-009, -3.66576E-009
317, 0.00000, 0.1125, 0.0369747, -5.05412E-009, -3.87222E-009
318, 0.00000, 0.129796, 0.0426615, -7.40322E-009, -6.7859E-009
