hour, t(sec), V1, VAngle1, V2, VAngle2, V3, VAngle3, V4, VAngle4, I1, IAngle1, I2, IAngle2, I3, IAngle3, I4, IAngle4
0, 60.00000, 223.579, -30.22, 223.747, -150.245, 223.888, 89.7866, 0.00825169, -160.596, 0.772863, 131.587, 1.02977, 11.561, 0.900438, -108.41, 0.222768, 161.71
0, 120.00000, 223.579, -30.22, 223.747, -150.245, 223.888, 89.7866, 0.00825171, -160.596, 0.772863, 131.587, 1.02977, 11.561, 0.900438, -108.41, 0.222769, 161.71
0, 180.00000, 223.579, -30.22, 223.747, -150.245, 223.888, 89.7866, 0.00825171, -160.596, 0.772863, 131.587, 1.02977, 11.561, 0.900438, -108.41, 0.222769, 161.71
0, 240.00000, 223.579, -30.22, 223.747, -150.245, 223.888, 89.7866, 0.00825171, -160.596, 0.772863, 131.587, 1.02977, 11.561, 0.900438, -108.41, 0.222769, 161.71
0, 300.00000, 223.579, -30.22, 223.747, -150.245, 223.888, 89.7866, 0.00825171, -160.596, 0.772863, 131.587, 1.02977, 11.561, 0.900438, -108.41, 0.222769, 161.71
0, 360.00000, 223.509, -30.242, 223.837, -150.246, 223.766, 89.7875, 0.00869781, 81.8445, 0.773111, 131.561, 0.771973, 11.561, 1.1584, -108.407, 0.385857, 71.5104
0, 420.00000, 223.509, -30.242, 223.837, -150.246, 223.766, 89.7875, 0.00869776, 81.8444, 0.773112, 131.561, 0.771973, 11.561, 1.1584, -108.407, 0.385857, 71.5104
0, 480.00000, 223.509, -30.242, 223.837, -150.246, 223.766, 89.7875, 0.00869776, 81.8444, 0.773112, 131.561, 0.771973, 11.561, 1.1584, -108.407, 0.385857, 71.5104
0, 540.00000, 223.509, -30.242, 223.837, -150.246, 223.766, 89.7875, 0.00869776, 81.8444, 0.773112, 131.561, 0.771973, 11.561, 1.1584, -108.407, 0.385857, 71.5104
0, 600.00000, 223.509, -30.242, 223.837, -150.246, 223.766, 89.7875, 0.00869776, 81.8444, 0.773112, 131.561, 0.771973, 11.561, 1.1584, -108.407, 0.385857, 71.5104
0, 660.00000, 223.448, -30.2383, 223.881, -150.247, 223.829, 89.7994, 0.00962886, -85.7455, 1.03114, 131.569, 1.02914, 11.5562, 1.02931, -108.395, 0.00115953, -51.3306
0, 720.00000, 223.448, -30.2383, 223.881, -150.247, 223.829, 89.7994, 0.00962881, -85.7452, 1.03114, 131.569, 1.02914, 11.5562, 1.02931, -108.395, 0.001159, -51.2595
0, 780.00000, 223.448, -30.2383, 223.881, -150.247, 223.829, 89.7994, 0.00962881, -85.7452, 1.03114, 131.569, 1.02914, 11.5562, 1.02931, -108.395, 0.00115899, -51.2591
0, 840.00000, 223.448, -30.2383, 223.881, -150.247, 223.829, 89.7994, 0.00962881, -85.7452, 1.03114, 131.569, 1.02914, 11.5562, 1.02931, -108.395, 0.00115899, -51.2591
0, 900.00000, 223.448, -30.2383, 223.881, -150.247, 223.829, 89.7994, 0.00962881, -85.7452, 1.03114, 131.569, 1.02914, 11.5562, 1.02931, -108.395, 0.00115899, -51.2591
0, 960.00000, 223.61, -30.2106, 223.584, -150.246, 223.821, 89.7635, 0.0104096, -123.776, 0.90159, 131.597, 1.1593, 11.5583, 0.900678, -108.433, 0.25776, -168.35
0, 1020.00000, 223.61, -30.2106, 223.584, -150.246, 223.821, 89.7634, 0.0104093, -123.786, 0.901567, 131.597, 1.15934, 11.5583, 0.900684, -108.433, 0.257808, -168.355
0, 1080.00000, 223.61, -30.2106, 223.584, -150.246, 223.821, 89.7634, 0.0104093, -123.786, 0.901567, 131.597, 1.15934, 11.5583, 0.900684, -108.433, 0.257808, -168.355
0, 1140.00000, 223.61, -30.2106, 223.584, -150.246, 223.821, 89.7634, 0.0104093, -123.786, 0.901567, 131.597, 1.15934, 11.5583, 0.900684, -108.433, 0.257808, -168.355
0, 1200.00000, 223.61, -30.2106, 223.584, -150.246, 223.821, 89.7634, 0.0104093, -123.786, 0.901567, 131.597, 1.15934, 11.5583, 0.900684, -108.433, 0.257808, -168.355
0, 1260.00000, 223.588, -30.209, 223.572, -150.255, 223.889, 89.7689, 0.00310783, -108.7, 0.90166, 131.597, 1.03055, 11.55, 0.900435, -108.426, 0.129187, -168.226
0, 1320.00000, 223.588, -30.209, 223.572, -150.255, 223.889, 89.7689, 0.00310788, -108.701, 0.90166, 131.597, 1.03055, 11.55, 0.900434, -108.426, 0.129189, -168.225
0, 1380.00000, 223.588, -30.209, 223.572, -150.255, 223.889, 89.7689, 0.00310789, -108.701, 0.90166, 131.597, 1.03055, 11.55, 0.900434, -108.426, 0.129189, -168.225
0, 1440.00000, 223.588, -30.209, 223.572, -150.255, 223.889, 89.7689, 0.00310789, -108.701, 0.90166, 131.597, 1.03055, 11.55, 0.900434, -108.426, 0.129189, -168.225
0, 1500.00000, 223.588, -30.209, 223.572, -150.255, 223.889, 89.7689, 0.00310789, -108.701, 0.90166, 131.597, 1.03055, 11.55, 0.900434, -108.426, 0.129189, -168.225
0, 1560.00000, 223.513, -30.2283, 223.837, -150.247, 223.9, 89.7991, 0.0227215, -128.198, 1.0308, 131.583, 1.28677, 11.5561, 0.90033, -108.399, 0.340489, -149.168
0, 1620.00000, 223.513, -30.2283, 223.837, -150.247, 223.9, 89.7991, 0.0227215, -128.198, 1.0308, 131.583, 1.28677, 11.5561, 0.90033, -108.399, 0.340489, -149.168
0, 1680.00000, 223.513, -30.2283, 223.837, -150.247, 223.9, 89.7991, 0.0227215, -128.198, 1.0308, 131.583, 1.28677, 11.5561, 0.90033, -108.399, 0.340489, -149.168
0, 1740.00000, 223.513, -30.2283, 223.837, -150.247, 223.9, 89.7991, 0.0227215, -128.198, 1.0308, 131.583, 1.28677, 11.5561, 0.90033, -108.399, 0.340489, -149.168
0, 1800.00000, 223.513, -30.2283, 223.837, -150.247, 223.9, 89.7991, 0.0227215, -128.198, 1.0308, 131.583, 1.28677, 11.5561, 0.90033, -108.399, 0.340489, -149.168
0, 1860.00000, 223.552, -30.2421, 223.772, -150.238, 223.728, 89.777, 0.0158573, -136.521, 0.901786, 131.567, 1.28712, 11.5665, 0.901048, -108.421, 0.385865, -168.354
0, 1920.00000, 223.552, -30.2421, 223.772, -150.238, 223.728, 89.777, 0.0158572, -136.521, 0.901787, 131.567, 1.28711, 11.5665, 0.901048, -108.421, 0.385864, -168.354
0, 1980.00000, 223.552, -30.2421, 223.772, -150.238, 223.728, 89.777, 0.0158572, -136.521, 0.901787, 131.567, 1.28711, 11.5665, 0.901048, -108.421, 0.385864, -168.354
0, 2040.00000, 223.552, -30.2421, 223.772, -150.238, 223.728, 89.777, 0.0158572, -136.521, 0.901787, 131.567, 1.28711, 11.5665, 0.901048, -108.421, 0.385864, -168.354
0, 2100.00000, 223.552, -30.2421, 223.772, -150.238, 223.728, 89.777, 0.0158572, -136.521, 0.901787, 131.567, 1.28711, 11.5665, 0.901048, -108.421, 0.385864, -168.354
0, 2160.00000, 223.607, -30.2084, 223.706, -150.252, 223.931, 89.7756, 0.0139882, -94.2143, 0.901608, 131.6, 1.02996, 11.5504, 0.771617, -108.42, 0.223156, -138.33
0, 2220.00000, 223.607, -30.2084, 223.706, -150.252, 223.931, 89.7756, 0.0139882, -94.2142, 0.901608, 131.6, 1.02996, 11.5504, 0.771617, -108.42, 0.223155, -138.33
0, 2280.00000, 223.607, -30.2084, 223.706, -150.252, 223.931, 89.7756, 0.0139882, -94.2142, 0.901608, 131.6, 1.02996, 11.5504, 0.771617, -108.42, 0.223155, -138.33
0, 2340.00000, 223.607, -30.2084, 223.706, -150.252, 223.931, 89.7756, 0.0139882, -94.2142, 0.901608, 131.6, 1.02996, 11.5504, 0.771617, -108.42, 0.223155, -138.33
0, 2400.00000, 223.607, -30.2084, 223.706, -150.252, 223.931, 89.7756, 0.0139882, -94.2142, 0.901608, 131.6, 1.02996, 11.5504, 0.771617, -108.42, 0.223155, -138.33
0, 2460.00000, 223.517, -30.2389, 223.845, -150.237, 223.745, 89.7807, 0.0103528, -45.7038, 1.03084, 131.567, 0.900612, 11.5653, 1.02971, -108.412, 0.129341, 11.2264
0, 2520.00000, 223.517, -30.2389, 223.845, -150.237, 223.745, 89.7807, 0.0103529, -45.7034, 1.03084, 131.567, 0.900611, 11.5653, 1.02971, -108.412, 0.129344, 11.2264
0, 2580.00000, 223.517, -30.2389, 223.845, -150.237, 223.745, 89.7807, 0.0103529, -45.7034, 1.03084, 131.567, 0.900611, 11.5653, 1.02971, -108.412, 0.129344, 11.2264
0, 2640.00000, 223.517, -30.2389, 223.845, -150.237, 223.745, 89.7807, 0.0103529, -45.7034, 1.03084, 131.567, 0.900611, 11.5653, 1.02971, -108.412, 0.129344, 11.2264
0, 2700.00000, 223.517, -30.2389, 223.845, -150.237, 223.745, 89.7807, 0.0103529, -45.7034, 1.03084, 131.567, 0.900611, 11.5653, 1.02971, -108.412, 0.129344, 11.2264
0, 2760.00000, 223.556, -30.2324, 223.783, -150.228, 223.742, 89.7797, 0.0176769, -42.8789, 1.28837, 131.574, 0.900854, 11.5728, 1.0297, -108.412, 0.341552, -29.3793
0, 2820.00000, 223.556, -30.2324, 223.783, -150.228, 223.742, 89.7797, 0.017677, -42.879, 1.28837, 131.574, 0.900854, 11.5728, 1.0297, -108.412, 0.341553, -29.3794
0, 2880.00000, 223.556, -30.2324, 223.783, -150.228, 223.742, 89.7797, 0.017677, -42.879, 1.28837, 131.574, 0.900853, 11.5728, 1.0297, -108.412, 0.341553, -29.3794
0, 2940.00000, 223.556, -30.2324, 223.783, -150.228, 223.742, 89.7797, 0.017677, -42.879, 1.28837, 131.574, 0.900853, 11.5728, 1.0297, -108.412, 0.341553, -29.3794
0, 3000.00000, 223.556, -30.2324, 223.783, -150.228, 223.742, 89.7797, 0.017677, -42.879, 1.28837, 131.574, 0.900853, 11.5728, 1.0297, -108.412, 0.341553, -29.3794
0, 3060.00000, 223.545, -30.2295, 223.786, -150.245, 223.818, 89.7745, 0.0134575, -89.1293, 0.901861, 131.579, 0.900886, 11.5575, 0.772008, -108.42, 0.12908, -108.126
0, 3120.00000, 223.545, -30.2295, 223.786, -150.245, 223.818, 89.7745, 0.0134574, -89.1296, 0.90186, 131.579, 0.900887, 11.5575, 0.772008, -108.42, 0.12908, -108.127
0, 3180.00000, 223.545, -30.2295, 223.786, -150.245, 223.818, 89.7745, 0.0134574, -89.1296, 0.90186, 131.579, 0.900887, 11.5575, 0.772008, -108.42, 0.12908, -108.127
0, 3240.00000, 223.545, -30.2295, 223.786, -150.245, 223.818, 89.7745, 0.0134574, -89.1296, 0.90186, 131.579, 0.900887, 11.5575, 0.772008, -108.42, 0.12908, -108.127
0, 3300.00000, 223.545, -30.2295, 223.786, -150.245, 223.818, 89.7745, 0.0134574, -89.1296, 0.90186, 131.579, 0.900887, 11.5575, 0.772008, -108.42, 0.12908, -108.127
0, 3360.00000, 223.683, -30.2222, 223.685, -150.239, 223.775, 89.7645, 0.00568452, -129.551, 1.03002, 131.584, 1.1588, 11.5658, 1.02959, -108.431, 0.128748, -168.351
0, 3420.00000, 223.683, -30.2222, 223.685, -150.239, 223.775, 89.7645, 0.00568458, -129.552, 1.03002, 131.584, 1.1588, 11.5658, 1.02958, -108.431, 0.128751, -168.351
0, 3480.00000, 223.683, -30.2222, 223.685, -150.239, 223.775, 89.7645, 0.00568458, -129.552, 1.03002, 131.584, 1.1588, 11.5658, 1.02958, -108.431, 0.128751, -168.351
0, 3540.00000, 223.683, -30.2222, 223.685, -150.239, 223.775, 89.7645, 0.00568458, -129.552, 1.03002, 131.584, 1.1588, 11.5658, 1.02958, -108.431, 0.128751, -168.351
1, 0.00000, 223.683, -30.2222, 223.685, -150.239, 223.775, 89.7645, 0.00568458, -129.552, 1.03002, 131.584, 1.1588, 11.5658, 1.02958, -108.431, 0.128751, -168.351
1, 60.00000, 223.895, -30.1809, 224.086, -150.195, 224.105, 89.8226, 0.0142994, -129.225, 0.900416, 131.628, 1.15677, 11.6091, 0.899534, -108.375, 0.25676, -168.282
1, 120.00000, 223.895, -30.1809, 224.086, -150.195, 224.105, 89.8226, 0.0142994, -129.225, 0.900415, 131.628, 1.15677, 11.6091, 0.899532, -108.375, 0.256759, -168.282
1, 180.00000, 223.895, -30.1809, 224.086, -150.195, 224.105, 89.8226, 0.0142994, -129.225, 0.900415, 131.628, 1.15677, 11.6091, 0.899532, -108.375, 0.256759, -168.282
1, 240.00000, 223.895, -30.1809, 224.086, -150.195, 224.105, 89.8226, 0.0142994, -129.225, 0.900415, 131.628, 1.15677, 11.6091, 0.899532, -108.375, 0.256759, -168.282
1, 300.00000, 223.895, -30.1809, 224.086, -150.195, 224.105, 89.8226, 0.0142994, -129.225, 0.900415, 131.628, 1.15677, 11.6091, 0.899532, -108.375, 0.256759, -168.282
1, 360.00000, 223.902, -30.1827, 224.073, -150.204, 224.159, 89.826, 0.00931873, -100.482, 0.900405, 131.625, 0.899728, 11.5992, 0.770851, -108.369, 0.12887, -108.24
1, 420.00000, 223.902, -30.1827, 224.073, -150.204, 224.159, 89.826, 0.0093188, -100.482, 0.900406, 131.625, 0.899729, 11.5992, 0.770849, -108.369, 0.128872, -108.24
1, 480.00000, 223.902, -30.1827, 224.073, -150.204, 224.159, 89.826, 0.0093188, -100.482, 0.900406, 131.625, 0.899729, 11.5992, 0.770849, -108.369, 0.128872, -108.24
1, 540.00000, 223.902, -30.1827, 224.073, -150.204, 224.159, 89.826, 0.0093188, -100.482, 0.900406, 131.625, 0.899729, 11.5992, 0.770849, -108.369, 0.128872, -108.24
1, 600.00000, 223.902, -30.1827, 224.073, -150.204, 224.159, 89.826, 0.0093188, -100.482, 0.900406, 131.625, 0.899729, 11.5992, 0.770849, -108.369, 0.128872, -108.24
1, 660.00000, 223.779, -30.1898, 224.112, -150.204, 224.135, 89.8345, 0.0075151, -119.189, 0.77219, 131.617, 0.899575, 11.6002, 0.770941, -108.361, 0.12826, -168.084
1, 720.00000, 223.779, -30.1898, 224.112, -150.204, 224.135, 89.8345, 0.00751507, -119.189, 0.77219, 131.617, 0.899574, 11.6002, 0.770942, -108.361, 0.12826, -168.084
1, 780.00000, 223.779, -30.1898, 224.112, -150.204, 224.135, 89.8345, 0.00751507, -119.189, 0.77219, 131.617, 0.899574, 11.6002, 0.770942, -108.361, 0.12826, -168.084
1, 840.00000, 223.779, -30.1898, 224.112, -150.204, 224.135, 89.8345, 0.00751507, -119.189, 0.77219, 131.617, 0.899574, 11.6002, 0.770942, -108.361, 0.12826, -168.084
1, 900.00000, 223.779, -30.1898, 224.112, -150.204, 224.135, 89.8345, 0.00751507, -119.189, 0.77219, 131.617, 0.899574, 11.6002, 0.770942, -108.361, 0.12826, -168.084
1, 960.00000, 223.85, -30.1911, 224.017, -150.211, 224.126, 89.8165, 0.00628009, 12.309, 0.771961, 131.613, 0.771348, 11.5932, 0.899501, -108.377, 0.128076, 71.5071
1, 1020.00000, 223.85, -30.1911, 224.017, -150.211, 224.126, 89.8165, 0.00628008, 12.3084, 0.771962, 131.613, 0.771348, 11.5932, 0.8995, -108.377, 0.128075, 71.5067
1, 1080.00000, 223.85, -30.1911, 224.017, -150.211, 224.126, 89.8165, 0.00628008, 12.3084, 0.771963, 131.613, 0.771348, 11.5932, 0.8995, -108.377, 0.128075, 71.5067
1, 1140.00000, 223.85, -30.1911, 224.017, -150.211, 224.126, 89.8165, 0.00628008, 12.3084, 0.771963, 131.613, 0.771348, 11.5932, 0.8995, -108.377, 0.128075, 71.5067
1, 1200.00000, 223.85, -30.1911, 224.017, -150.211, 224.126, 89.8165, 0.00628008, 12.3084, 0.771963, 131.613, 0.771348, 11.5932, 0.8995, -108.377, 0.128075, 71.5067
1, 1260.00000, 223.883, -30.1766, 223.979, -150.203, 224.152, 89.8144, 0.0176241, -94.369, 0.9005, 131.633, 0.900124, 11.5985, 0.64237, -108.381, 0.257479, -108.321
1, 1320.00000, 223.883, -30.1766, 223.979, -150.203, 224.152, 89.8144, 0.017624, -94.369, 0.900499, 131.633, 0.900124, 11.5985, 0.642371, -108.381, 0.257477, -108.321
1, 1380.00000, 223.883, -30.1766, 223.979, -150.203, 224.152, 89.8144, 0.017624, -94.369, 0.900499, 131.633, 0.900124, 11.5985, 0.642371, -108.381, 0.257477, -108.321
1, 1440.00000, 223.883, -30.1766, 223.979, -150.203, 224.152, 89.8144, 0.017624, -94.369, 0.900499, 131.633, 0.900124, 11.5985, 0.642371, -108.381, 0.257477, -108.321
1, 1500.00000, 223.883, -30.1766, 223.979, -150.203, 224.152, 89.8144, 0.017624, -94.369, 0.900499, 131.633, 0.900124, 11.5985, 0.642371, -108.381, 0.257477, -108.321
1, 1560.00000, 223.917, -30.1947, 224.143, -150.187, 224.073, 89.818, 0.012615, -33.1297, 0.900384, 131.611, 0.642432, 11.6149, 0.771154, -108.374, 0.223212, -18.4655
1, 1620.00000, 223.917, -30.1947, 224.143, -150.187, 224.073, 89.818, 0.012615, -33.1297, 0.900385, 131.611, 0.642432, 11.6149, 0.771154, -108.374, 0.223213, -18.4655
1, 1680.00000, 223.917, -30.1947, 224.143, -150.187, 224.073, 89.818, 0.012615, -33.1297, 0.900385, 131.611, 0.642432, 11.6149, 0.771154, -108.374, 0.223213, -18.4655
1, 1740.00000, 223.917, -30.1947, 224.143, -150.187, 224.073, 89.818, 0.012615, -33.1297, 0.900385, 131.611, 0.642432, 11.6149, 0.771154, -108.374, 0.223213, -18.4655
1, 1800.00000, 223.917, -30.1947, 224.143, -150.187, 224.073, 89.818, 0.012615, -33.1297, 0.900385, 131.611, 0.642432, 11.6149, 0.771154, -108.374, 0.223213, -18.4655
1, 1860.00000, 223.845, -30.1916, 224.061, -150.196, 224.092, 89.8235, 0.00910048, -29.7968, 0.90066, 131.613, 0.771203, 11.6075, 0.899614, -108.369, 0.128703, 11.306
1, 1920.00000, 223.845, -30.1916, 224.061, -150.196, 224.092, 89.8235, 0.00910049, -29.7971, 0.90066, 131.613, 0.771204, 11.6075, 0.899613, -108.369, 0.128702, 11.3054
1, 1980.00000, 223.845, -30.1916, 224.061, -150.196, 224.092, 89.8235, 0.00910049, -29.7971, 0.90066, 131.613, 0.771204, 11.6075, 0.899613, -108.369, 0.128702, 11.3054
1, 2040.00000, 223.845, -30.1916, 224.061, -150.196, 224.092, 89.8235, 0.00910049, -29.7971, 0.90066, 131.613, 0.771204, 11.6075, 0.899613, -108.369, 0.128702, 11.3054
1, 2100.00000, 223.845, -30.1916, 224.061, -150.196, 224.092, 89.8235, 0.00910049, -29.7971, 0.90066, 131.613, 0.771204, 11.6075, 0.899613, -108.369, 0.128702, 11.3054
1, 2160.00000, 223.908, -30.1815, 223.975, -150.197, 224.113, 89.8127, 0.0184463, -99.2545, 1.02902, 131.628, 1.02874, 11.6044, 0.642481, -108.383, 0.386033, -108.349
1, 2220.00000, 223.908, -30.1815, 223.975, -150.197, 224.113, 89.8127, 0.0184463, -99.2545, 1.02902, 131.628, 1.02874, 11.6044, 0.642482, -108.383, 0.386032, -108.349
1, 2280.00000, 223.908, -30.1815, 223.975, -150.197, 224.113, 89.8127, 0.0184463, -99.2545, 1.02902, 131.628, 1.02874, 11.6044, 0.642482, -108.383, 0.386032, -108.349
1, 2340.00000, 223.908, -30.1815, 223.975, -150.197, 224.113, 89.8127, 0.0184463, -99.2545, 1.02902, 131.628, 1.02874, 11.6044, 0.642482, -108.383, 0.386032, -108.349
1, 2400.00000, 223.908, -30.1815, 223.975, -150.197, 224.113, 89.8127, 0.0184463, -99.2545, 1.02902, 131.628, 1.02874, 11.6044, 0.642482, -108.383, 0.386032, -108.349
1, 2460.00000, 223.941, -30.1912, 224.12, -150.181, 224.028, 89.8198, 0.0201672, -13.9349, 1.02894, 131.612, 0.513991, 11.6208, 0.899858, -108.37, 0.463823, -2.32561
1, 2520.00000, 223.941, -30.1912, 224.12, -150.181, 224.028, 89.8198, 0.0201677, -13.9331, 1.02893, 131.612, 0.513976, 11.6206, 0.899869, -108.37, 0.463837, -2.3231
1, 2580.00000, 223.941, -30.1912, 224.12, -150.181, 224.028, 89.8198, 0.0201677, -13.933, 1.02893, 131.612, 0.513976, 11.6206, 0.899869, -108.37, 0.463837, -2.32308
1, 2640.00000, 223.941, -30.1912, 224.12, -150.181, 224.028, 89.8198, 0.0201677, -13.933, 1.02893, 131.612, 0.513976, 11.6206, 0.899869, -108.37, 0.463837, -2.32308
1, 2700.00000, 223.941, -30.1912, 224.12, -150.181, 224.028, 89.8198, 0.0201677, -13.933, 1.02893, 131.612, 0.513976, 11.6206, 0.899869, -108.37, 0.463837, -2.32308
1, 2760.00000, 223.943, -30.1814, 224.046, -150.197, 224.153, 89.8118, 0.0137885, -74.4913, 0.900267, 131.626, 0.771282, 11.6045, 0.64238, -108.382, 0.223091, -78.3424
1, 2820.00000, 223.943, -30.1814, 224.046, -150.197, 224.153, 89.8118, 0.0137885, -74.4914, 0.900267, 131.626, 0.771282, 11.6045, 0.64238, -108.382, 0.223092, -78.3426
1, 2880.00000, 223.943, -30.1814, 224.046, -150.197, 224.153, 89.8118, 0.0137885, -74.4914, 0.900267, 131.626, 0.771282, 11.6045, 0.64238, -108.382, 0.223092, -78.3426
1, 2940.00000, 223.943, -30.1814, 224.046, -150.197, 224.153, 89.8118, 0.0137885, -74.4914, 0.900267, 131.626, 0.771282, 11.6045, 0.64238, -108.382, 0.223092, -78.3426
1, 3000.00000, 223.943, -30.1814, 224.046, -150.197, 224.153, 89.8118, 0.0137885, -74.4914, 0.900267, 131.626, 0.771282, 11.6045, 0.64238, -108.382, 0.223092, -78.3426
1, 3060.00000, 223.85, -30.1969, 224.163, -150.195, 224.098, 89.8248, 0.0103314, -34.538, 0.900646, 131.608, 0.642376, 11.6077, 0.899585, -108.368, 0.257418, 11.447
1, 3120.00000, 223.85, -30.1969, 224.163, -150.195, 224.098, 89.8248, 0.0103314, -34.5381, 0.900647, 131.608, 0.642376, 11.6077, 0.899584, -108.368, 0.257418, 11.4468
1, 3180.00000, 223.85, -30.1969, 224.163, -150.195, 224.098, 89.8248, 0.0103314, -34.5381, 0.900647, 131.608, 0.642376, 11.6077, 0.899584, -108.368, 0.257418, 11.4468
1, 3240.00000, 223.85, -30.1969, 224.163, -150.195, 224.098, 89.8248, 0.0103314, -34.5381, 0.900647, 131.608, 0.642376, 11.6077, 0.899584, -108.368, 0.257418, 11.4468
1, 3300.00000, 223.85, -30.1969, 224.163, -150.195, 224.098, 89.8248, 0.0103314, -34.5381, 0.900647, 131.608, 0.642376, 11.6077, 0.899584, -108.368, 0.257418, 11.4468
1, 3360.00000, 223.952, -30.1874, 224.054, -150.193, 224.058, 89.8131, 0.00474964, -118.523, 0.642995, 131.619, 0.899797, 11.6117, 0.771214, -108.382, 0.222436, 161.641
1, 3420.00000, 223.952, -30.1874, 224.054, -150.193, 224.058, 89.8131, 0.00474962, -118.524, 0.642994, 131.619, 0.899799, 11.6117, 0.771214, -108.382, 0.222439, 161.641
1, 3480.00000, 223.952, -30.1874, 224.054, -150.193, 224.058, 89.8131, 0.00474962, -118.524, 0.642994, 131.619, 0.899799, 11.6117, 0.771214, -108.382, 0.222439, 161.641
1, 3540.00000, 223.952, -30.1874, 224.054, -150.193, 224.058, 89.8131, 0.00474962, -118.524, 0.642994, 131.619, 0.899799, 11.6117, 0.771214, -108.382, 0.222439, 161.641
