hour, t(sec), V1, VAngle1, V2, VAngle2, V3, VAngle3, V4, VAngle4, I1, IAngle1, I2, IAngle2, I3, IAngle3, I4, IAngle4
0, 60.00000, 221.59, -29.9449, 221.381, -150.01, 221.939, 89.9756, 7.45377E-005, 8.45405, 0.85071, 131.862, 0.742638, 11.7965, 0.86873, -108.217, 0.0764099, 60.3984
0, 120.00000, 221.59, -29.9448, 221.381, -150.01, 221.939, 89.9756, 7.45369E-005, 8.45479, 0.850714, 131.862, 0.742639, 11.7964, 0.868737, -108.217, 0.0764136, 60.3974
0, 180.00000, 221.59, -29.9448, 221.381, -150.01, 221.939, 89.9756, 7.45369E-005, 8.45479, 0.850714, 131.862, 0.742639, 11.7964, 0.868737, -108.217, 0.0764136, 60.3974
0, 240.00000, 221.59, -29.9448, 221.381, -150.01, 221.939, 89.9756, 7.45369E-005, 8.45479, 0.850714, 131.862, 0.742639, 11.7964, 0.868737, -108.217, 0.0764136, 60.3974
0, 300.00000, 221.59, -29.9448, 221.381, -150.01, 221.939, 89.9756, 7.45369E-005, 8.45479, 0.850714, 131.862, 0.742639, 11.7964, 0.868737, -108.217, 0.0764136, 60.3974
0, 360.00000, 221.69, -29.9223, 221.035, -150.011, 221.925, 89.9363, 6.95282E-005, -36.3625, 0.889095, 131.884, 0.852851, 11.7961, 0.913415, -108.257, 0.0166174, 91.0273
0, 420.00000, 221.69, -29.9223, 221.035, -150.011, 221.925, 89.9363, 6.95286E-005, -36.3631, 0.889097, 131.884, 0.852853, 11.7961, 0.913411, -108.257, 0.0166136, 91.0276
0, 480.00000, 221.69, -29.9223, 221.035, -150.011, 221.925, 89.9363, 6.95286E-005, -36.3631, 0.889097, 131.884, 0.852853, 11.7961, 0.913411, -108.257, 0.0166136, 91.0275
0, 540.00000, 221.69, -29.9223, 221.035, -150.011, 221.925, 89.9363, 6.95286E-005, -36.3631, 0.889097, 131.884, 0.852853, 11.7961, 0.913411, -108.257, 0.0166136, 91.0275
0, 600.00000, 221.69, -29.9223, 221.035, -150.011, 221.925, 89.9363, 6.95286E-005, -36.3631, 0.889097, 131.884, 0.852853, 11.7961, 0.913411, -108.257, 0.0166136, 91.0275
0, 660.00000, 221.488, -29.9424, 221.423, -150.029, 222.092, 89.9784, 8.74561E-005, -82.5995, 0.979342, 131.864, 0.761911, 11.777, 0.670443, -108.214, 0.16294, -19.7701
0, 720.00000, 221.488, -29.9424, 221.423, -150.029, 222.092, 89.9785, 8.74552E-005, -82.5996, 0.979339, 131.864, 0.761909, 11.777, 0.670447, -108.214, 0.162939, -19.7687
0, 780.00000, 221.488, -29.9424, 221.423, -150.029, 222.092, 89.9785, 8.74552E-005, -82.5996, 0.979339, 131.864, 0.761909, 11.777, 0.670447, -108.214, 0.162939, -19.7687
0, 840.00000, 221.488, -29.9424, 221.423, -150.029, 222.092, 89.9785, 8.74552E-005, -82.5996, 0.979339, 131.864, 0.761909, 11.777, 0.670447, -108.214, 0.162939, -19.7687
0, 900.00000, 221.488, -29.9424, 221.423, -150.029, 222.092, 89.9785, 8.74552E-005, -82.5996, 0.979339, 131.864, 0.761909, 11.777, 0.670447, -108.214, 0.162939, -19.7687
0, 960.00000, 222.179, -29.9273, 220.984, -149.97, 221.752, 89.8961, 8.04694E-005, 67.9428, 0.670151, 131.879, 0.827789, 11.8364, 0.933407, -108.298, 0.133486, 150.52
0, 1020.00000, 222.179, -29.927, 220.983, -149.971, 221.753, 89.896, 8.04959E-005, 67.9493, 0.670186, 131.88, 0.827691, 11.8365, 0.933505, -108.298, 0.133444, 150.474
0, 1080.00000, 222.179, -29.927, 220.983, -149.971, 221.753, 89.896, 8.04958E-005, 67.9494, 0.670185, 131.88, 0.827691, 11.8365, 0.933505, -108.298, 0.133445, 150.474
0, 1140.00000, 222.179, -29.927, 220.983, -149.971, 221.753, 89.896, 8.04958E-005, 67.9494, 0.670185, 131.88, 0.827691, 11.8365, 0.933505, -108.298, 0.133445, 150.474
0, 1200.00000, 222.179, -29.927, 220.983, -149.971, 221.753, 89.896, 8.04958E-005, 67.9494, 0.670185, 131.88, 0.827691, 11.8365, 0.933505, -108.298, 0.133445, 150.474
0, 1260.00000, 221.065, -29.9284, 221.261, -150.051, 221.98, 90.0063, 6.36763E-005, 148.973, 0.763147, 131.879, 0.935582, 11.7555, 0.868571, -108.187, 0.0741159, 174.273
0, 1320.00000, 221.065, -29.9284, 221.261, -150.051, 221.98, 90.0064, 6.36777E-005, 148.973, 0.763146, 131.879, 0.935578, 11.7555, 0.868576, -108.187, 0.0741129, 174.27
0, 1380.00000, 221.065, -29.9284, 221.261, -150.051, 221.98, 90.0064, 6.36777E-005, 148.973, 0.763146, 131.879, 0.935578, 11.7555, 0.868576, -108.187, 0.074113, 174.27
0, 1440.00000, 221.065, -29.9284, 221.261, -150.051, 221.98, 90.0064, 6.36777E-005, 148.973, 0.763146, 131.879, 0.935578, 11.7555, 0.868576, -108.187, 0.074113, 174.27
0, 1500.00000, 221.065, -29.9284, 221.261, -150.051, 221.98, 90.0064, 6.36777E-005, 148.973, 0.763146, 131.879, 0.935578, 11.7555, 0.868576, -108.187, 0.074113, 174.27
0, 1560.00000, 221.376, -29.976, 221.744, -150.016, 221.898, 90.0172, 0.000126322, -152.156, 0.935089, 131.83, 0.997577, 11.7912, 0.894158, -108.176, 0.0253542, -109.974
0, 1620.00000, 221.377, -29.9761, 221.744, -150.016, 221.898, 90.0172, 0.000126323, -152.156, 0.935086, 131.83, 0.997578, 11.7912, 0.894159, -108.176, 0.0253537, -109.98
0, 1680.00000, 221.377, -29.9761, 221.744, -150.016, 221.898, 90.0172, 0.000126323, -152.156, 0.935086, 131.83, 0.997578, 11.7912, 0.894159, -108.176, 0.0253537, -109.98
0, 1740.00000, 221.377, -29.9761, 221.744, -150.016, 221.898, 90.0172, 0.000126323, -152.156, 0.935086, 131.83, 0.997578, 11.7912, 0.894159, -108.176, 0.0253537, -109.98
0, 1800.00000, 221.377, -29.9761, 221.744, -150.016, 221.898, 90.0172, 0.000126323, -152.156, 0.935086, 131.83, 0.997578, 11.7912, 0.894159, -108.176, 0.0253537, -109.98
0, 1860.00000, 221.424, -29.9883, 221.616, -150, 221.648, 89.9936, 4.34505E-005, 11.2429, 0.915482, 131.819, 1.00406, 11.8061, 0.933935, -108.2, 0.0369223, -168.337
0, 1920.00000, 221.424, -29.9883, 221.616, -150, 221.648, 89.9936, 4.34507E-005, 11.242, 0.915483, 131.819, 1.00406, 11.8061, 0.933934, -108.2, 0.0369226, -168.337
0, 1980.00000, 221.424, -29.9883, 221.616, -150, 221.648, 89.9936, 4.34507E-005, 11.242, 0.915483, 131.819, 1.00406, 11.8061, 0.933934, -108.2, 0.0369226, -168.337
0, 2040.00000, 221.424, -29.9883, 221.616, -150, 221.648, 89.9936, 4.34507E-005, 11.242, 0.915483, 131.819, 1.00406, 11.8061, 0.933934, -108.2, 0.0369226, -168.337
0, 2100.00000, 221.424, -29.9883, 221.616, -150, 221.648, 89.9936, 4.34507E-005, 11.242, 0.915483, 131.819, 1.00406, 11.8061, 0.933934, -108.2, 0.0369226, -168.337
0, 2160.00000, 221.51, -29.9681, 221.696, -150.022, 221.948, 89.9956, 4.98595E-005, 47.6232, 0.806314, 131.838, 0.716309, 11.7854, 0.868705, -108.198, 0.0735183, 75.6223
0, 2220.00000, 221.51, -29.9681, 221.696, -150.022, 221.948, 89.9956, 4.98601E-005, 47.6236, 0.806314, 131.838, 0.716307, 11.7854, 0.868707, -108.198, 0.0735201, 75.6218
0, 2280.00000, 221.51, -29.9681, 221.696, -150.022, 221.948, 89.9956, 4.98601E-005, 47.6236, 0.806314, 131.838, 0.716307, 11.7854, 0.868707, -108.198, 0.0735202, 75.6218
0, 2340.00000, 221.51, -29.9681, 221.696, -150.022, 221.948, 89.9956, 4.98601E-005, 47.6236, 0.806314, 131.838, 0.716307, 11.7854, 0.868707, -108.198, 0.0735202, 75.6218
0, 2400.00000, 221.51, -29.9681, 221.696, -150.022, 221.948, 89.9956, 4.98601E-005, 47.6236, 0.806314, 131.838, 0.716307, 11.7854, 0.868707, -108.198, 0.0735202, 75.6218
0, 2460.00000, 221.701, -29.9255, 221.092, -150, 221.891, 89.9324, 0.000202813, 28.2986, 0.89495, 131.881, 0.654033, 11.8073, 1.10555, -108.261, 0.230592, 81.2623
0, 2520.00000, 221.701, -29.9255, 221.092, -150, 221.891, 89.9324, 0.000202813, 28.2984, 0.894954, 131.881, 0.654034, 11.8074, 1.10554, -108.261, 0.230587, 81.2618
0, 2580.00000, 221.701, -29.9255, 221.092, -150, 221.891, 89.9324, 0.000202813, 28.2984, 0.894954, 131.881, 0.654033, 11.8074, 1.10554, -108.261, 0.230587, 81.2617
0, 2640.00000, 221.701, -29.9255, 221.092, -150, 221.891, 89.9324, 0.000202813, 28.2984, 0.894954, 131.881, 0.654033, 11.8074, 1.10554, -108.261, 0.230587, 81.2617
0, 2700.00000, 221.701, -29.9255, 221.092, -150, 221.891, 89.9324, 0.000202813, 28.2984, 0.894954, 131.881, 0.654033, 11.8074, 1.10554, -108.261, 0.230587, 81.2617
0, 2760.00000, 221.439, -29.9024, 221.296, -150.067, 222.54, 89.9671, 0.000119119, 45.3578, 0.761853, 131.904, 0.762352, 11.7397, 0.99401, -108.227, 0.128372, 105.304
0, 2820.00000, 221.439, -29.9024, 221.296, -150.067, 222.54, 89.9671, 0.00011912, 45.3581, 0.761855, 131.904, 0.762348, 11.7397, 0.994012, -108.226, 0.128372, 105.302
0, 2880.00000, 221.439, -29.9024, 221.296, -150.067, 222.54, 89.9671, 0.00011912, 45.3581, 0.761855, 131.904, 0.762348, 11.7397, 0.994012, -108.226, 0.128372, 105.302
0, 2940.00000, 221.439, -29.9024, 221.296, -150.067, 222.54, 89.9671, 0.00011912, 45.3581, 0.761855, 131.904, 0.762348, 11.7397, 0.994012, -108.226, 0.128372, 105.302
0, 3000.00000, 221.439, -29.9024, 221.296, -150.067, 222.54, 89.9671, 0.00011912, 45.3581, 0.761855, 131.904, 0.762348, 11.7397, 0.994012, -108.226, 0.128372, 105.302
0, 3060.00000, 221.219, -29.9624, 221.582, -150.034, 221.939, 90.0028, 1.34545E-005, -145.304, 0.82681, 131.844, 0.870138, 11.773, 0.824117, -108.191, 0.00963059, -88.0177
0, 3120.00000, 221.219, -29.9625, 221.582, -150.034, 221.939, 90.0028, 1.34543E-005, -145.305, 0.826805, 131.844, 0.870139, 11.773, 0.824121, -108.191, 0.00962697, -88.0374
0, 3180.00000, 221.219, -29.9625, 221.582, -150.034, 221.939, 90.0028, 1.34543E-005, -145.305, 0.826805, 131.844, 0.870139, 11.773, 0.824121, -108.191, 0.00962697, -88.0375
0, 3240.00000, 221.219, -29.9625, 221.582, -150.034, 221.939, 90.0028, 1.34543E-005, -145.305, 0.826805, 131.844, 0.870139, 11.773, 0.824121, -108.191, 0.00962697, -88.0375
0, 3300.00000, 221.219, -29.9625, 221.582, -150.034, 221.939, 90.0028, 1.34543E-005, -145.305, 0.826805, 131.844, 0.870139, 11.773, 0.824121, -108.191, 0.00962697, -88.0375
0, 3360.00000, 221.499, -29.9393, 221.373, -150.032, 222, 89.9721, 0.00010279, 139.995, 0.786958, 131.868, 0.979828, 11.7739, 0.759929, -108.221, 0.107727, -125.695
0, 3420.00000, 221.499, -29.9392, 221.373, -150.032, 222, 89.9721, 0.000102791, 139.995, 0.786957, 131.868, 0.979832, 11.7739, 0.759926, -108.221, 0.107731, -125.695
0, 3480.00000, 221.499, -29.9392, 221.373, -150.032, 222, 89.9721, 0.000102791, 139.995, 0.786957, 131.868, 0.979832, 11.7739, 0.759926, -108.221, 0.107731, -125.695
0, 3540.00000, 221.499, -29.9392, 221.373, -150.032, 222, 89.9721, 0.000102791, 139.995, 0.786957, 131.868, 0.979832, 11.7739, 0.759926, -108.221, 0.107731, -125.695
1, 0.00000, 221.499, -29.9392, 221.373, -150.032, 222, 89.9721, 0.000102791, 139.995, 0.786957, 131.868, 0.979832, 11.7739, 0.759926, -108.221, 0.107731, -125.695
1, 60.00000, 222.655, -30.0056, 222.536, -149.96, 222.284, 89.972, 4.23044E-005, 89.643, 0.693917, 131.802, 0.802605, 11.8465, 0.758957, -108.221, 0.0555613, -168.659
1, 120.00000, 222.655, -30.0056, 222.536, -149.96, 222.284, 89.972, 4.23056E-005, 89.642, 0.693921, 131.802, 0.802599, 11.8465, 0.758957, -108.221, 0.0555555, -168.657
1, 180.00000, 222.655, -30.0056, 222.536, -149.96, 222.284, 89.972, 4.23056E-005, 89.642, 0.693921, 131.802, 0.802599, 11.8465, 0.758957, -108.221, 0.0555555, -168.657
1, 240.00000, 222.655, -30.0056, 222.536, -149.96, 222.284, 89.972, 4.23056E-005, 89.642, 0.693921, 131.802, 0.802599, 11.8465, 0.758957, -108.221, 0.0555555, -168.657
1, 300.00000, 222.655, -30.0056, 222.536, -149.96, 222.284, 89.972, 4.23056E-005, 89.642, 0.693921, 131.802, 0.802599, 11.8465, 0.758957, -108.221, 0.0555555, -168.657
1, 360.00000, 222.002, -29.9314, 222.074, -150.048, 222.811, 90.002, 5.02821E-005, 169.568, 0.65135, 131.875, 0.715099, 11.7597, 0.782322, -108.191, 0.0682297, 130.971
1, 420.00000, 222.002, -29.9314, 222.074, -150.048, 222.811, 90.002, 5.02816E-005, 169.566, 0.651356, 131.875, 0.715092, 11.7597, 0.782322, -108.191, 0.0682233, 130.967
1, 480.00000, 222.002, -29.9314, 222.074, -150.048, 222.811, 90.002, 5.02816E-005, 169.566, 0.651356, 131.875, 0.715092, 11.7597, 0.782322, -108.191, 0.0682233, 130.967
1, 540.00000, 222.002, -29.9314, 222.074, -150.048, 222.811, 90.002, 5.02816E-005, 169.566, 0.651356, 131.875, 0.715092, 11.7597, 0.782322, -108.191, 0.0682233, 130.967
1, 600.00000, 222.002, -29.9314, 222.074, -150.048, 222.811, 90.002, 5.02816E-005, 169.566, 0.651356, 131.875, 0.715092, 11.7597, 0.782322, -108.191, 0.0682233, 130.967
1, 660.00000, 222.052, -30.0269, 222.963, -150.025, 222.622, 90.0424, 9.42997E-005, -113.012, 0.759765, 131.78, 0.648549, 11.7816, 0.541279, -108.15, 0.110408, -22.8092
1, 720.00000, 222.052, -30.027, 222.963, -150.025, 222.622, 90.0424, 9.43001E-005, -113.013, 0.759757, 131.78, 0.648551, 11.7816, 0.541283, -108.15, 0.110401, -22.8072
1, 780.00000, 222.052, -30.027, 222.963, -150.025, 222.622, 90.0424, 9.43001E-005, -113.013, 0.759757, 131.78, 0.648551, 11.7816, 0.541283, -108.15, 0.110401, -22.8073
1, 840.00000, 222.052, -30.027, 222.963, -150.025, 222.622, 90.0424, 9.43001E-005, -113.013, 0.759757, 131.78, 0.648551, 11.7816, 0.541283, -108.15, 0.110401, -22.8073
1, 900.00000, 222.052, -30.027, 222.963, -150.025, 222.622, 90.0424, 9.43001E-005, -113.013, 0.759757, 131.78, 0.648551, 11.7816, 0.541283, -108.15, 0.110401, -22.8073
1, 960.00000, 222.27, -30.0078, 222.287, -149.975, 222.077, 89.9878, 4.74669E-005, -64.1902, 0.66991, 131.799, 0.516894, 11.8323, 0.65115, -108.205, 0.0771796, 57.5433
1, 1020.00000, 222.27, -30.0078, 222.287, -149.975, 222.077, 89.9878, 4.74685E-005, -64.1903, 0.669912, 131.799, 0.516898, 11.8324, 0.651144, -108.205, 0.0771736, 57.5419
1, 1080.00000, 222.27, -30.0078, 222.287, -149.975, 222.077, 89.9878, 4.74685E-005, -64.1903, 0.669913, 131.799, 0.516898, 11.8324, 0.651144, -108.205, 0.0771736, 57.5419
1, 1140.00000, 222.27, -30.0078, 222.287, -149.975, 222.077, 89.9878, 4.74685E-005, -64.1903, 0.669913, 131.799, 0.516898, 11.8324, 0.651144, -108.205, 0.0771736, 57.5419
1, 1200.00000, 222.27, -30.0078, 222.287, -149.975, 222.077, 89.9878, 4.74685E-005, -64.1903, 0.669913, 131.799, 0.516898, 11.8324, 0.651144, -108.205, 0.0771736, 57.5419
1, 1260.00000, 222.112, -29.9722, 222.369, -150.027, 222.647, 90.0045, 6.85415E-005, 9.22699, 0.714966, 131.834, 0.65029, 11.7802, 0.821501, -108.189, 0.0903478, 86.5565
1, 1320.00000, 222.112, -29.9722, 222.369, -150.027, 222.647, 90.0045, 6.85422E-005, 9.22791, 0.714968, 131.835, 0.650285, 11.7802, 0.821504, -108.189, 0.0903495, 86.554
1, 1380.00000, 222.112, -29.9722, 222.369, -150.027, 222.647, 90.0045, 6.85422E-005, 9.22791, 0.714968, 131.835, 0.650285, 11.7802, 0.821504, -108.189, 0.0903495, 86.554
1, 1440.00000, 222.112, -29.9722, 222.369, -150.027, 222.647, 90.0045, 6.85422E-005, 9.22791, 0.714968, 131.835, 0.650285, 11.7802, 0.821504, -108.189, 0.0903495, 86.554
1, 1500.00000, 222.112, -29.9722, 222.369, -150.027, 222.647, 90.0045, 6.85422E-005, 9.22791, 0.714968, 131.835, 0.650285, 11.7802, 0.821504, -108.189, 0.0903495, 86.554
1, 1560.00000, 221.768, -30.005, 222.577, -150.005, 222.284, 90.0441, 9.0565E-005, -3.90041, 0.760735, 131.802, 0.694163, 11.8021, 0.733748, -108.149, 0.0419522, 64.0857
1, 1620.00000, 221.768, -30.005, 222.577, -150.005, 222.284, 90.0441, 9.05643E-005, -3.90031, 0.760732, 131.802, 0.694163, 11.802, 0.733751, -108.149, 0.0419549, 64.0883
1, 1680.00000, 221.768, -30.005, 222.577, -150.005, 222.284, 90.0441, 9.05643E-005, -3.90031, 0.760732, 131.802, 0.694163, 11.802, 0.733751, -108.149, 0.0419549, 64.0883
1, 1740.00000, 221.768, -30.005, 222.577, -150.005, 222.284, 90.0441, 9.05643E-005, -3.90031, 0.760732, 131.802, 0.694163, 11.802, 0.733751, -108.149, 0.0419549, 64.0883
1, 1800.00000, 221.768, -30.005, 222.577, -150.005, 222.284, 90.0441, 9.05643E-005, -3.90031, 0.760732, 131.802, 0.694163, 11.802, 0.733751, -108.149, 0.0419549, 64.0883
1, 1860.00000, 222.07, -29.9789, 222.373, -150.019, 222.616, 90.0085, 9.25788E-005, -139.901, 0.670516, 131.828, 0.75866, 11.7876, 0.585777, -108.185, 0.0775663, -94.2524
1, 1920.00000, 222.07, -29.9789, 222.373, -150.019, 222.616, 90.0085, 9.25782E-005, -139.901, 0.670518, 131.828, 0.75866, 11.7876, 0.585774, -108.185, 0.0775693, -94.2514
1, 1980.00000, 222.07, -29.9789, 222.373, -150.019, 222.616, 90.0085, 9.25782E-005, -139.901, 0.670518, 131.828, 0.75866, 11.7876, 0.585774, -108.185, 0.0775693, -94.2514
1, 2040.00000, 222.07, -29.9789, 222.373, -150.019, 222.616, 90.0085, 9.25782E-005, -139.901, 0.670518, 131.828, 0.75866, 11.7876, 0.585774, -108.185, 0.0775693, -94.2514
1, 2100.00000, 222.07, -29.9789, 222.373, -150.019, 222.616, 90.0085, 9.25782E-005, -139.901, 0.670518, 131.828, 0.75866, 11.7876, 0.585774, -108.185, 0.0775693, -94.2514
1, 2160.00000, 222.239, -29.953, 222.129, -150.02, 222.667, 89.9823, 4.9217E-005, 41.9163, 0.650664, 131.854, 0.695565, 11.7868, 0.713188, -108.211, 0.0310049, 160.84
1, 2220.00000, 222.239, -29.953, 222.129, -150.02, 222.667, 89.9823, 4.92175E-005, 41.9155, 0.650666, 131.854, 0.695564, 11.7868, 0.713186, -108.211, 0.0310035, 160.844
1, 2280.00000, 222.239, -29.953, 222.129, -150.02, 222.667, 89.9823, 4.92175E-005, 41.9155, 0.650666, 131.854, 0.695564, 11.7868, 0.713186, -108.211, 0.0310035, 160.844
1, 2340.00000, 222.239, -29.953, 222.129, -150.02, 222.667, 89.9823, 4.92175E-005, 41.9155, 0.650666, 131.854, 0.695564, 11.7868, 0.713186, -108.211, 0.0310035, 160.844
1, 2400.00000, 222.239, -29.953, 222.129, -150.02, 222.667, 89.9823, 4.92175E-005, 41.9155, 0.650666, 131.854, 0.695564, 11.7868, 0.713186, -108.211, 0.0310035, 160.844
1, 2460.00000, 222.405, -29.957, 222.359, -150.023, 222.839, 89.9778, 3.71925E-005, -105.915, 0.669484, 131.85, 0.739324, 11.7839, 0.648948, -108.216, 0.0481875, -89.1776
1, 2520.00000, 222.405, -29.957, 222.359, -150.023, 222.839, 89.9777, 3.72004E-005, -105.916, 0.669506, 131.85, 0.739381, 11.784, 0.64891, -108.216, 0.048239, -89.2061
1, 2580.00000, 222.405, -29.957, 222.359, -150.023, 222.839, 89.9777, 3.72004E-005, -105.915, 0.669506, 131.85, 0.73938, 11.784, 0.64891, -108.216, 0.048239, -89.206
1, 2640.00000, 222.405, -29.957, 222.359, -150.023, 222.839, 89.9777, 3.72004E-005, -105.915, 0.669506, 131.85, 0.73938, 11.784, 0.64891, -108.216, 0.048239, -89.206
1, 2700.00000, 222.405, -29.957, 222.359, -150.023, 222.839, 89.9777, 3.72004E-005, -105.915, 0.669506, 131.85, 0.73938, 11.784, 0.64891, -108.216, 0.048239, -89.206
1, 2760.00000, 222.039, -29.9832, 222.482, -150.023, 222.595, 90.0161, 7.89827E-005, -166.852, 0.651254, 131.824, 0.669274, 11.7838, 0.585831, -108.177, 0.0338438, -68.0647
1, 2820.00000, 222.039, -29.9832, 222.482, -150.023, 222.595, 90.0161, 7.89831E-005, -166.852, 0.651253, 131.824, 0.669273, 11.7838, 0.585833, -108.177, 0.0338417, -68.0629
1, 2880.00000, 222.039, -29.9832, 222.482, -150.023, 222.595, 90.0161, 7.89831E-005, -166.852, 0.651253, 131.824, 0.669273, 11.7838, 0.585833, -108.177, 0.0338417, -68.0629
1, 2940.00000, 222.039, -29.9832, 222.482, -150.023, 222.595, 90.0161, 7.89831E-005, -166.852, 0.651253, 131.824, 0.669273, 11.7838, 0.585833, -108.177, 0.0338417, -68.0629
1, 3000.00000, 222.039, -29.9832, 222.482, -150.023, 222.595, 90.0161, 7.89831E-005, -166.852, 0.651253, 131.824, 0.669273, 11.7838, 0.585833, -108.177, 0.0338417, -68.0629
1, 3060.00000, 222.101, -29.9961, 222.424, -149.993, 222.344, 90.0054, 8.32922E-005, -104.006, 0.759591, 131.811, 0.650118, 11.814, 0.586494, -108.187, 0.0769646, -18.932
1, 3120.00000, 222.101, -29.9961, 222.424, -149.993, 222.344, 90.0054, 8.32928E-005, -104.006, 0.75959, 131.811, 0.650121, 11.814, 0.586492, -108.187, 0.0769626, -18.9335
1, 3180.00000, 222.101, -29.9961, 222.424, -149.993, 222.344, 90.0054, 8.32928E-005, -104.006, 0.75959, 131.811, 0.650121, 11.814, 0.586492, -108.187, 0.0769626, -18.9335
1, 3240.00000, 222.101, -29.9961, 222.424, -149.993, 222.344, 90.0054, 8.32928E-005, -104.006, 0.75959, 131.811, 0.650121, 11.814, 0.586492, -108.187, 0.0769626, -18.9335
1, 3300.00000, 222.101, -29.9961, 222.424, -149.993, 222.344, 90.0054, 8.32928E-005, -104.006, 0.75959, 131.811, 0.650121, 11.814, 0.586492, -108.187, 0.0769626, -18.9335
1, 3360.00000, 222.367, -29.9652, 222.213, -150, 222.497, 89.9717, 9.95404E-005, 85.6335, 0.586433, 131.842, 0.670085, 11.8071, 0.777555, -108.222, 0.0987476, 125.136
1, 3420.00000, 222.367, -29.9652, 222.213, -150, 222.497, 89.9717, 9.95409E-005, 85.6333, 0.586433, 131.842, 0.670086, 11.8071, 0.777554, -108.222, 0.0987461, 125.137
