hour, t(sec), P1 (kW), Q1 (kvar), P2 (kW), Q2 (kvar), P3 (kW), Q3 (kvar), P4 (kW), Q4 (kvar)
0, 60.00000, -0.0360996, -0.0118655, -0.0577606, -0.018984, -0.0577605, -0.0189857, 3.6244E-007, 4.85655E-008
0, 120.00000, -0.0360994, -0.0118654, -0.0577606, -0.018984, -0.0577604, -0.0189857, 3.62443E-007, 4.8566E-008
0, 180.00000, -0.0360994, -0.0118654, -0.0577606, -0.018984, -0.0577604, -0.0189857, 3.62443E-007, 4.8566E-008
0, 240.00000, -0.0360994, -0.0118654, -0.0577606, -0.018984, -0.0577604, -0.0189857, 3.62443E-007, 4.8566E-008
0, 300.00000, -0.0360994, -0.0118654, -0.0577606, -0.018984, -0.0577604, -0.0189857, 3.62443E-007, 4.8566E-008
0, 360.00000, -0.0577589, -0.018984, -0.0577608, -0.0189853, -0.0505403, -0.0166118, 5.0625E-008, 7.48538E-009
0, 420.00000, -0.0577602, -0.0189845, -0.0577601, -0.0189852, -0.0505397, -0.0166116, 5.06402E-008, 7.48581E-009
0, 480.00000, -0.0577603, -0.0189845, -0.0577601, -0.0189852, -0.0505397, -0.0166116, 5.06402E-008, 7.4858E-009
0, 540.00000, -0.0577603, -0.0189845, -0.0577601, -0.0189852, -0.0505397, -0.0166116, 5.06402E-008, 7.4858E-009
0, 600.00000, -0.0577603, -0.0189845, -0.0577601, -0.0189852, -0.0505397, -0.0166116, 5.06402E-008, 7.4858E-009
0, 660.00000, -0.0433205, -0.0142393, -0.0505397, -0.0166109, -0.0649794, -0.0213577, 2.89069E-007, 2.11348E-008
0, 720.00000, -0.0433195, -0.014239, -0.0505399, -0.0166109, -0.0649809, -0.0213583, 2.89138E-007, 2.11401E-008
0, 780.00000, -0.0433195, -0.014239, -0.0505399, -0.0166109, -0.0649809, -0.0213583, 2.89139E-007, 2.11401E-008
0, 840.00000, -0.0433195, -0.014239, -0.0505399, -0.0166109, -0.0649809, -0.0213583, 2.89139E-007, 2.11401E-008
0, 900.00000, -0.0433195, -0.014239, -0.0505399, -0.0166109, -0.0649809, -0.0213583, 2.89139E-007, 2.11401E-008
0, 960.00000, -0.05054, -0.0166113, -0.057761, -0.0189851, -0.0505382, -0.0166114, 4.44606E-008, 1.3881E-008
0, 1020.00000, -0.0505399, -0.0166114, -0.0577604, -0.0189849, -0.0505397, -0.0166119, 4.44411E-008, 1.38777E-008
0, 1080.00000, -0.0505399, -0.0166114, -0.0577604, -0.0189849, -0.0505398, -0.0166119, 4.4441E-008, 1.38776E-008
0, 1140.00000, -0.0505399, -0.0166114, -0.0577604, -0.0189849, -0.0505398, -0.0166119, 4.4441E-008, 1.38776E-008
0, 1200.00000, -0.0505399, -0.0166114, -0.0577604, -0.0189849, -0.0505398, -0.0166119, 4.4441E-008, 1.38776E-008
0, 1260.00000, -0.0577594, -0.0189844, -0.0577591, -0.0189848, -0.0505418, -0.0166124, 5.45015E-008, 8.38839E-009
0, 1320.00000, -0.0577603, -0.0189845, -0.0577602, -0.0189852, -0.0505396, -0.0166116, 5.45419E-008, 8.39328E-009
0, 1380.00000, -0.0577603, -0.0189845, -0.0577602, -0.0189852, -0.0505396, -0.0166116, 5.45422E-008, 8.3933E-009
0, 1440.00000, -0.0577603, -0.0189845, -0.0577602, -0.0189852, -0.0505396, -0.0166116, 5.45422E-008, 8.3933E-009
0, 1500.00000, -0.0577603, -0.0189845, -0.0577602, -0.0189852, -0.0505396, -0.0166116, 5.45422E-008, 8.3933E-009
0, 1560.00000, -0.0505403, -0.0166113, -0.0577592, -0.0189848, -0.0433203, -0.0142391, 1.45768E-007, 2.53885E-008
0, 1620.00000, -0.0505401, -0.0166111, -0.0577605, -0.0189852, -0.0433195, -0.0142388, 1.45807E-007, 2.5394E-008
0, 1680.00000, -0.0505401, -0.0166111, -0.0577605, -0.0189852, -0.0433195, -0.0142388, 1.45808E-007, 2.5394E-008
0, 1740.00000, -0.0505401, -0.0166111, -0.0577605, -0.0189852, -0.0433195, -0.0142388, 1.45808E-007, 2.5394E-008
0, 1800.00000, -0.0505401, -0.0166111, -0.0577605, -0.0189852, -0.0433195, -0.0142388, 1.45808E-007, 2.5394E-008
0, 1860.00000, -0.0505391, -0.0166114, -0.0649816, -0.0213578, -0.0649788, -0.0213581, 1.55472E-007, 2.19998E-008
0, 1920.00000, -0.0505395, -0.0166116, -0.0649805, -0.0213573, -0.0649802, -0.0213585, 1.55464E-007, 2.19958E-008
0, 1980.00000, -0.0505395, -0.0166116, -0.0649804, -0.0213573, -0.0649803, -0.0213586, 1.55464E-007, 2.19958E-008
0, 2040.00000, -0.0505395, -0.0166116, -0.0649804, -0.0213573, -0.0649803, -0.0213586, 1.55464E-007, 2.19958E-008
0, 2100.00000, -0.0505395, -0.0166116, -0.0649804, -0.0213573, -0.0649803, -0.0213586, 1.55464E-007, 2.19958E-008
0, 2160.00000, -0.0505406, -0.016611, -0.0722019, -0.0237316, -0.0505385, -0.0166121, 3.91446E-007, 6.63527E-008
0, 2220.00000, -0.0505397, -0.0166108, -0.0722013, -0.0237312, -0.0505394, -0.0166124, 3.9142E-007, 6.63488E-008
0, 2280.00000, -0.0505397, -0.0166108, -0.0722013, -0.0237312, -0.0505394, -0.0166124, 3.9142E-007, 6.63489E-008
0, 2340.00000, -0.0505397, -0.0166108, -0.0722013, -0.0237312, -0.0505394, -0.0166124, 3.9142E-007, 6.63489E-008
0, 2400.00000, -0.0505397, -0.0166108, -0.0722013, -0.0237312, -0.0505394, -0.0166124, 3.9142E-007, 6.63489E-008
0, 2460.00000, -0.0722018, -0.0237303, -0.0505411, -0.0166133, -0.0433175, -0.0142372, 6.07885E-007, 4.29732E-008
0, 2520.00000, -0.0722017, -0.0237307, -0.0505396, -0.0166128, -0.0433193, -0.0142378, 6.07847E-007, 4.29692E-008
0, 2580.00000, -0.0722017, -0.0237307, -0.0505396, -0.0166128, -0.0433194, -0.0142378, 6.07846E-007, 4.29692E-008
0, 2640.00000, -0.0722017, -0.0237307, -0.0505396, -0.0166128, -0.0433194, -0.0142378, 6.07846E-007, 4.29692E-008
0, 2700.00000, -0.0722017, -0.0237307, -0.0505396, -0.0166128, -0.0433194, -0.0142378, 6.07846E-007, 4.29692E-008
0, 2760.00000, -0.0649797, -0.0213578, -0.0505406, -0.0166123, -0.0577599, -0.0189842, 1.43442E-007, 1.95221E-009
0, 2820.00000, -0.0649806, -0.0213583, -0.0505395, -0.016612, -0.05776, -0.0189841, 1.43481E-007, 1.95408E-009
0, 2880.00000, -0.0649806, -0.0213583, -0.0505395, -0.016612, -0.05776, -0.0189841, 1.43482E-007, 1.95409E-009
0, 2940.00000, -0.0649806, -0.0213583, -0.0505395, -0.016612, -0.05776, -0.0189841, 1.43482E-007, 1.95409E-009
0, 3000.00000, -0.0649806, -0.0213583, -0.0505395, -0.016612, -0.05776, -0.0189841, 1.43482E-007, 1.95409E-009
0, 3060.00000, -0.0505415, -0.0166127, -0.0505369, -0.0166105, -0.0577611, -0.018985, 3.98271E-008, -1.30982E-009
0, 3120.00000, -0.0505399, -0.0166119, -0.0505398, -0.0166115, -0.0577603, -0.0189848, 3.98094E-008, -1.30769E-009
0, 3180.00000, -0.0505399, -0.0166119, -0.0505399, -0.0166115, -0.0577603, -0.0189848, 3.9809E-008, -1.30768E-009
0, 3240.00000, -0.0505399, -0.0166119, -0.0505399, -0.0166115, -0.0577603, -0.0189848, 3.9809E-008, -1.30768E-009
0, 3300.00000, -0.0505399, -0.0166119, -0.0505399, -0.0166115, -0.0577603, -0.0189848, 3.9809E-008, -1.30768E-009
0, 3360.00000, -0.0649798, -0.0213599, -0.0433172, -0.0142376, -0.0794244, -0.0261037, 8.19575E-007, 5.1083E-008
0, 3420.00000, -0.0649801, -0.0213596, -0.043319, -0.0142381, -0.0794218, -0.026103, 8.19395E-007, 5.10697E-008
0, 3480.00000, -0.0649801, -0.0213596, -0.043319, -0.0142381, -0.0794217, -0.026103, 8.19393E-007, 5.10696E-008
0, 3540.00000, -0.0649801, -0.0213596, -0.043319, -0.0142381, -0.0794217, -0.026103, 8.19393E-007, 5.10696E-008
1, 0.00000, -0.0649801, -0.0213596, -0.043319, -0.0142381, -0.0794217, -0.026103, 8.19393E-007, 5.10696E-008
1, 60.00000, -0.0505432, -0.0166122, -0.0577637, -0.0189863, -0.0433216, -0.0142395, 1.39608E-007, 2.49577E-008
1, 120.00000, -0.0505401, -0.0166111, -0.0577605, -0.0189852, -0.0433195, -0.0142388, 1.39586E-007, 2.49544E-008
1, 180.00000, -0.0505401, -0.0166111, -0.0577605, -0.0189852, -0.0433195, -0.0142388, 1.39586E-007, 2.49544E-008
1, 240.00000, -0.0505401, -0.0166111, -0.0577605, -0.0189852, -0.0433195, -0.0142388, 1.39586E-007, 2.49544E-008
1, 300.00000, -0.0505401, -0.0166111, -0.0577605, -0.0189852, -0.0433195, -0.0142388, 1.39586E-007, 2.49544E-008
1, 360.00000, -0.0433176, -0.0142378, -0.0505405, -0.0166117, -0.0505423, -0.0166128, 3.62082E-008, 9.72243E-009
1, 420.00000, -0.0433198, -0.0142385, -0.0505402, -0.0166115, -0.0505401, -0.016612, 3.61724E-008, 9.71804E-009
1, 480.00000, -0.0433198, -0.0142385, -0.0505402, -0.0166115, -0.0505401, -0.016612, 3.61718E-008, 9.71794E-009
1, 540.00000, -0.0433198, -0.0142385, -0.0505402, -0.0166115, -0.0505401, -0.016612, 3.61718E-008, 9.71794E-009
1, 600.00000, -0.0433198, -0.0142385, -0.0505402, -0.0166115, -0.0505401, -0.016612, 3.61718E-008, 9.71794E-009
1, 660.00000, -0.0361007, -0.0118658, -0.0433201, -0.0142383, -0.043319, -0.0142385, 4.00713E-008, 8.31653E-009
1, 720.00000, -0.0360998, -0.0118655, -0.0433202, -0.0142384, -0.0433201, -0.0142388, 4.00878E-008, 8.31852E-009
1, 780.00000, -0.0360998, -0.0118655, -0.0433202, -0.0142384, -0.0433201, -0.0142388, 4.0088E-008, 8.31856E-009
1, 840.00000, -0.0360998, -0.0118655, -0.0433202, -0.0142384, -0.0433201, -0.0142388, 4.0088E-008, 8.31856E-009
1, 900.00000, -0.0360998, -0.0118655, -0.0433202, -0.0142384, -0.0433201, -0.0142388, 4.0088E-008, 8.31856E-009
1, 960.00000, -0.0505375, -0.0166105, -0.0505419, -0.0166126, -0.0433201, -0.0142387, 5.12047E-008, 7.86474E-009
1, 1020.00000, -0.0505402, -0.0166114, -0.0505402, -0.016612, -0.0433197, -0.0142385, 5.12205E-008, 7.86313E-009
1, 1080.00000, -0.0505402, -0.0166114, -0.0505401, -0.016612, -0.0433197, -0.0142385, 5.12203E-008, 7.86307E-009
1, 1140.00000, -0.0505402, -0.0166114, -0.0505401, -0.016612, -0.0433197, -0.0142385, 5.12203E-008, 7.86307E-009
1, 1200.00000, -0.0505402, -0.0166114, -0.0505401, -0.016612, -0.0433197, -0.0142385, 5.12203E-008, 7.86307E-009
1, 1260.00000, -0.0433224, -0.0142395, -0.0577595, -0.0189841, -0.0577586, -0.0189845, 1.54042E-007, 1.72662E-008
1, 1320.00000, -0.0433196, -0.0142386, -0.0577603, -0.0189843, -0.0577602, -0.0189854, 1.54128E-007, 1.72727E-008
1, 1380.00000, -0.0433195, -0.0142385, -0.0577604, -0.0189843, -0.0577602, -0.0189854, 1.54129E-007, 1.72729E-008
1, 1440.00000, -0.0433195, -0.0142385, -0.0577604, -0.0189843, -0.0577602, -0.0189854, 1.54129E-007, 1.72729E-008
1, 1500.00000, -0.0433195, -0.0142385, -0.0577604, -0.0189843, -0.0577602, -0.0189854, 1.54129E-007, 1.72729E-008
1, 1560.00000, -0.0505388, -0.0166109, -0.0505418, -0.0166126, -0.0433194, -0.0142385, 5.11627E-008, 4.82382E-009
1, 1620.00000, -0.0505402, -0.0166114, -0.0505402, -0.016612, -0.0433197, -0.0142386, 5.11595E-008, 4.82111E-009
1, 1680.00000, -0.0505402, -0.0166114, -0.0505401, -0.016612, -0.0433197, -0.0142386, 5.11592E-008, 4.82106E-009
1, 1740.00000, -0.0505402, -0.0166114, -0.0505401, -0.016612, -0.0433197, -0.0142386, 5.11592E-008, 4.82106E-009
1, 1800.00000, -0.0505402, -0.0166114, -0.0505401, -0.016612, -0.0433197, -0.0142386, 5.11592E-008, 4.82106E-009
1, 1860.00000, -0.0360985, -0.0118654, -0.0360999, -0.0118654, -0.0505418, -0.0166122, 1.58377E-007, 7.08813E-009
1, 1920.00000, -0.0360998, -0.0118658, -0.0360998, -0.0118651, -0.0505406, -0.0166117, 1.58329E-007, 7.08399E-009
1, 1980.00000, -0.0360998, -0.0118658, -0.0360998, -0.0118651, -0.0505406, -0.0166117, 1.58329E-007, 7.08395E-009
1, 2040.00000, -0.0360998, -0.0118658, -0.0360998, -0.0118651, -0.0505406, -0.0166117, 1.58329E-007, 7.08395E-009
1, 2100.00000, -0.0360998, -0.0118658, -0.0360998, -0.0118651, -0.0505406, -0.0166117, 1.58329E-007, 7.08395E-009
1, 2160.00000, -0.0433213, -0.0142393, -0.0433194, -0.0142381, -0.0505391, -0.0166112, 3.87709E-008, 2.11035E-009
1, 2220.00000, -0.0433199, -0.0142388, -0.0433199, -0.0142384, -0.0505403, -0.0166117, 3.8791E-008, 2.1126E-009
1, 2280.00000, -0.0433199, -0.0142388, -0.0433199, -0.0142384, -0.0505403, -0.0166117, 3.8791E-008, 2.11262E-009
1, 2340.00000, -0.0433199, -0.0142388, -0.0433199, -0.0142384, -0.0505403, -0.0166117, 3.8791E-008, 2.11262E-009
1, 2400.00000, -0.0433199, -0.0142388, -0.0433199, -0.0142384, -0.0505403, -0.0166117, 3.8791E-008, 2.11262E-009
1, 2460.00000, -0.0361065, -0.0118684, -0.0505462, -0.0166128, -0.0577523, -0.0189824, 2.77795E-007, 2.86465E-008
1, 2520.00000, -0.0360996, -0.0118657, -0.0505402, -0.016611, -0.0577605, -0.0189854, 2.78166E-007, 2.86645E-008
1, 2580.00000, -0.0360995, -0.0118656, -0.0505402, -0.016611, -0.0577606, -0.0189854, 2.78172E-007, 2.8665E-008
1, 2640.00000, -0.0360995, -0.0118656, -0.0505402, -0.016611, -0.0577606, -0.0189854, 2.78172E-007, 2.8665E-008
1, 2700.00000, -0.0360995, -0.0118656, -0.0505402, -0.016611, -0.0577606, -0.0189854, 2.78172E-007, 2.8665E-008
1, 2760.00000, -0.0577599, -0.0189847, -0.0505389, -0.0166117, -0.0505404, -0.0166116, 5.00049E-008, -5.51202E-010
1, 2820.00000, -0.0577604, -0.0189848, -0.0505398, -0.016612, -0.0505398, -0.0166114, 5.00101E-008, -5.50453E-010
1, 2880.00000, -0.0577604, -0.0189848, -0.0505398, -0.016612, -0.0505398, -0.0166114, 5.00103E-008, -5.50443E-010
1, 2940.00000, -0.0577604, -0.0189848, -0.0505398, -0.016612, -0.0505398, -0.0166114, 5.00103E-008, -5.50442E-010
1, 3000.00000, -0.0577604, -0.0189848, -0.0505398, -0.016612, -0.0505398, -0.0166114, 5.00103E-008, -5.50442E-010
1, 3060.00000, -0.0433189, -0.014238, -0.0505412, -0.0166121, -0.0433204, -0.014239, 4.40917E-008, 1.05504E-008
1, 3120.00000, -0.0433199, -0.0142383, -0.0505403, -0.0166118, -0.0433198, -0.0142388, 4.40804E-008, 1.05481E-008
1, 3180.00000, -0.0433199, -0.0142383, -0.0505403, -0.0166118, -0.0433198, -0.0142388, 4.40802E-008, 1.05481E-008
1, 3240.00000, -0.0433199, -0.0142383, -0.0505403, -0.0166118, -0.0433198, -0.0142388, 4.40802E-008, 1.05481E-008
1, 3300.00000, -0.0433199, -0.0142383, -0.0505403, -0.0166118, -0.0433198, -0.0142388, 4.40802E-008, 1.05481E-008
1, 3360.00000, -0.0505431, -0.0166124, -0.0433166, -0.014238, -0.0361001, -0.0118655, 1.38809E-007, 1.01966E-008
1, 3420.00000, -0.0505405, -0.0166115, -0.0433199, -0.0142391, -0.0360997, -0.0118653, 1.38765E-007, 1.01957E-008
1, 3480.00000, -0.0505405, -0.0166114, -0.04332, -0.0142391, -0.0360997, -0.0118653, 1.38765E-007, 1.01958E-008
1, 3540.00000, -0.0505405, -0.0166114, -0.04332, -0.0142391, -0.0360997, -0.0118653, 1.38765E-007, 1.01958E-008
2, 0.00000, -0.0505405, -0.0166114, -0.04332, -0.0142391, -0.0360997, -0.0118653, 1.38765E-007, 1.01958E-008
2, 60.00000, -0.0433197, -0.0142385, -0.0505419, -0.0166121, -0.0505404, -0.0166121, 3.59259E-008, 7.4323E-009
2, 120.00000, -0.0433198, -0.0142385, -0.0505402, -0.0166115, -0.0505401, -0.0166119, 3.59136E-008, 7.42943E-009
2, 180.00000, -0.0433198, -0.0142385, -0.0505402, -0.0166115, -0.0505401, -0.0166119, 3.59135E-008, 7.4294E-009
2, 240.00000, -0.0433198, -0.0142385, -0.0505402, -0.0166115, -0.0505401, -0.0166119, 3.59135E-008, 7.4294E-009
2, 300.00000, -0.0433198, -0.0142385, -0.0505402, -0.0166115, -0.0505401, -0.0166119, 3.59135E-008, 7.4294E-009
2, 360.00000, -0.0433193, -0.0142386, -0.0433212, -0.0142388, -0.0505395, -0.0166115, 3.5737E-008, -3.65187E-010
2, 420.00000, -0.0433199, -0.0142388, -0.0433199, -0.0142384, -0.0505402, -0.0166117, 3.57503E-008, -3.66208E-010
2, 480.00000, -0.0433199, -0.0142388, -0.0433199, -0.0142384, -0.0505403, -0.0166117, 3.57505E-008, -3.66207E-010
2, 540.00000, -0.0433199, -0.0142388, -0.0433199, -0.0142384, -0.0505403, -0.0166117, 3.57505E-008, -3.66206E-010
2, 600.00000, -0.0433199, -0.0142388, -0.0433199, -0.0142384, -0.0505403, -0.0166117, 3.57505E-008, -3.66206E-010
2, 660.00000, -0.028884, -0.00949512, -0.0361082, -0.0118666, -0.0433133, -0.0142365, 1.16888E-007, 1.05579E-008
2, 720.00000, -0.0288798, -0.00949255, -0.0361, -0.0118651, -0.0433202, -0.0142388, 1.17125E-007, 1.05667E-008
2, 780.00000, -0.0288798, -0.00949251, -0.0361, -0.0118652, -0.0433203, -0.0142388, 1.17129E-007, 1.0567E-008
2, 840.00000, -0.0288798, -0.00949251, -0.0361, -0.0118652, -0.0433203, -0.0142388, 1.17129E-007, 1.0567E-008
2, 900.00000, -0.0288798, -0.00949251, -0.0361, -0.0118652, -0.0433203, -0.0142388, 1.17129E-007, 1.0567E-008
2, 960.00000, -0.0433197, -0.0142382, -0.050538, -0.016611, -0.0433216, -0.0142393, 4.25705E-008, 1.0699E-008
2, 1020.00000, -0.0433199, -0.0142383, -0.0505403, -0.0166118, -0.0433198, -0.0142388, 4.26099E-008, 1.07057E-008
2, 1080.00000, -0.0433199, -0.0142383, -0.0505403, -0.0166118, -0.0433198, -0.0142388, 4.26102E-008, 1.07057E-008
2, 1140.00000, -0.0433199, -0.0142383, -0.0505403, -0.0166118, -0.0433198, -0.0142388, 4.26102E-008, 1.07057E-008
2, 1200.00000, -0.0433199, -0.0142383, -0.0505403, -0.0166118, -0.0433198, -0.0142388, 4.26102E-008, 1.07057E-008
2, 1260.00000, -0.0433267, -0.0142409, -0.0505419, -0.016612, -0.0505375, -0.0166108, 3.70116E-008, 7.90749E-009
2, 1320.00000, -0.0433198, -0.0142386, -0.0505401, -0.0166115, -0.0505401, -0.0166119, 3.70908E-008, 7.91509E-009
2, 1380.00000, -0.0433198, -0.0142385, -0.0505402, -0.0166115, -0.0505401, -0.0166119, 3.7092E-008, 7.91526E-009
2, 1440.00000, -0.0433198, -0.0142385, -0.0505402, -0.0166115, -0.0505401, -0.0166119, 3.7092E-008, 7.91526E-009
2, 1500.00000, -0.0433198, -0.0142385, -0.0505402, -0.0166115, -0.0505401, -0.0166119, 3.7092E-008, 7.91526E-009
2, 1560.00000, -0.0433191, -0.0142385, -0.0433215, -0.0142389, -0.0505398, -0.0166117, 3.57603E-008, 7.80105E-010
2, 1620.00000, -0.0433199, -0.0142388, -0.0433199, -0.0142384, -0.0505402, -0.0166117, 3.57707E-008, 7.78637E-010
2, 1680.00000, -0.0433199, -0.0142388, -0.0433199, -0.0142384, -0.0505403, -0.0166117, 3.57709E-008, 7.78636E-010
2, 1740.00000, -0.0433199, -0.0142388, -0.0433199, -0.0142384, -0.0505403, -0.0166117, 3.57709E-008, 7.78636E-010
2, 1800.00000, -0.0433199, -0.0142388, -0.0433199, -0.0142384, -0.0505403, -0.0166117, 3.57709E-008, 7.78636E-010
2, 1860.00000, -0.0360996, -0.0118653, -0.0360937, -0.0118633, -0.0433185, -0.0142379, 3.59981E-008, 1.91377E-009
2, 1920.00000, -0.0360999, -0.0118656, -0.0360999, -0.0118653, -0.0433202, -0.0142386, 3.59768E-008, 1.91725E-009
2, 1980.00000, -0.0360999, -0.0118656, -0.0360999, -0.0118653, -0.0433202, -0.0142386, 3.59762E-008, 1.91725E-009
2, 2040.00000, -0.0360999, -0.0118656, -0.0360999, -0.0118653, -0.0433202, -0.0142386, 3.59762E-008, 1.91724E-009
2, 2100.00000, -0.0360999, -0.0118656, -0.0360999, -0.0118653, -0.0433202, -0.0142386, 3.59762E-008, 1.91724E-009
2, 2160.00000, -0.0505372, -0.0166114, -0.036103, -0.0118667, -0.0577627, -0.0189855, 2.94321E-007, 9.50312E-009
2, 2220.00000, -0.0505401, -0.0166125, -0.0360995, -0.0118653, -0.0577607, -0.0189842, 2.94379E-007, 9.50401E-009
2, 2280.00000, -0.0505401, -0.0166125, -0.0360995, -0.0118653, -0.0577607, -0.0189842, 2.94381E-007, 9.5041E-009
2, 2340.00000, -0.0505401, -0.0166125, -0.0360995, -0.0118653, -0.0577607, -0.0189842, 2.94381E-007, 9.5041E-009
2, 2400.00000, -0.0505401, -0.0166125, -0.0360995, -0.0118653, -0.0577607, -0.0189842, 2.94381E-007, 9.5041E-009
2, 2460.00000, -0.0433192, -0.0142385, -0.0361005, -0.0118658, -0.0433204, -0.0142385, 4.26632E-008, -4.70652E-010
2, 2520.00000, -0.0433201, -0.0142388, -0.0360998, -0.0118655, -0.0433201, -0.0142384, 4.26774E-008, -4.70328E-010
2, 2580.00000, -0.0433201, -0.0142388, -0.0360998, -0.0118655, -0.0433201, -0.0142384, 4.26776E-008, -4.7032E-010
2, 2640.00000, -0.0433201, -0.0142388, -0.0360998, -0.0118655, -0.0433201, -0.0142384, 4.26776E-008, -4.7032E-010
2, 2700.00000, -0.0433201, -0.0142388, -0.0360998, -0.0118655, -0.0433201, -0.0142384, 4.26776E-008, -4.7032E-010
2, 2760.00000, -0.0505412, -0.016612, -0.0433188, -0.0142385, -0.0433201, -0.0142384, 5.0172E-008, -1.07223E-010
2, 2820.00000, -0.0505404, -0.0166117, -0.0433198, -0.0142388, -0.0433199, -0.0142383, 5.01562E-008, -1.07029E-010
2, 2880.00000, -0.0505403, -0.0166117, -0.0433199, -0.0142389, -0.0433199, -0.0142383, 5.01561E-008, -1.07018E-010
2, 2940.00000, -0.0505403, -0.0166117, -0.0433199, -0.0142389, -0.0433199, -0.0142383, 5.01561E-008, -1.07018E-010
2, 3000.00000, -0.0505403, -0.0166117, -0.0433199, -0.0142389, -0.0433199, -0.0142383, 5.01561E-008, -1.07018E-010
2, 3060.00000, -0.0505427, -0.016613, -0.0360997, -0.0118651, -0.0505378, -0.0166102, 1.7564E-007, -9.48511E-010
2, 3120.00000, -0.0505403, -0.0166122, -0.0360995, -0.0118655, -0.0505403, -0.0166112, 1.7564E-007, -9.48125E-010
2, 3180.00000, -0.0505403, -0.0166122, -0.0360996, -0.0118655, -0.0505403, -0.0166112, 1.7564E-007, -9.48148E-010
2, 3240.00000, -0.0505403, -0.0166122, -0.0360996, -0.0118655, -0.0505403, -0.0166112, 1.75639E-007, -9.48149E-010
2, 3300.00000, -0.0505403, -0.0166122, -0.0360996, -0.0118655, -0.0505403, -0.0166112, 1.75639E-007, -9.48149E-010
2, 3360.00000, -0.0433175, -0.0142379, -0.0360994, -0.0118658, -0.0433228, -0.0142393, 4.31962E-008, -2.21304E-009
