hour, t(sec), V1, VAngle1, V2, VAngle2, V3, VAngle3, V4, VAngle4, I1, IAngle1, I2, IAngle2, I3, IAngle3, I4, IAngle4
0, 60.00000, 222.108, -30.1686, 222.291, -150.193, 222.47, 89.8254, 7.14699E-005, -111.54, 0.46464, 131.637, 0.406224, 11.6118, 0.347912, -108.369, 0.0568006, -34.7327
0, 120.00000, 222.108, -30.1686, 222.291, -150.193, 222.47, 89.8254, 7.14697E-005, -111.54, 0.464639, 131.637, 0.406224, 11.6118, 0.347911, -108.369, 0.0568003, -34.7331
0, 180.00000, 222.108, -30.1686, 222.291, -150.193, 222.47, 89.8254, 7.14697E-005, -111.54, 0.464639, 131.637, 0.406224, 11.6118, 0.347911, -108.369, 0.0568003, -34.7331
0, 240.00000, 222.108, -30.1686, 222.291, -150.193, 222.47, 89.8254, 7.14697E-005, -111.54, 0.464639, 131.637, 0.406224, 11.6118, 0.347911, -108.369, 0.0568003, -34.7331
0, 300.00000, 222.108, -30.1686, 222.291, -150.193, 222.47, 89.8254, 7.14697E-005, -111.54, 0.464639, 131.637, 0.406224, 11.6118, 0.347911, -108.369, 0.0568003, -34.7331
0, 360.00000, 221.903, -30.1695, 222.225, -150.211, 222.455, 89.827, 5.64713E-005, 70.4454, 0.406929, 131.636, 0.464396, 11.5944, 0.521906, -108.368, 0.0592725, 131.145
0, 420.00000, 221.903, -30.1695, 222.225, -150.211, 222.455, 89.827, 5.64672E-005, 70.4435, 0.406934, 131.636, 0.464394, 11.5943, 0.521904, -108.368, 0.059269, 131.143
0, 480.00000, 221.903, -30.1695, 222.225, -150.211, 222.455, 89.827, 5.64672E-005, 70.4435, 0.406934, 131.636, 0.464394, 11.5943, 0.521904, -108.368, 0.059269, 131.143
0, 540.00000, 221.903, -30.1695, 222.225, -150.211, 222.455, 89.827, 5.64672E-005, 70.4435, 0.406934, 131.636, 0.464394, 11.5943, 0.521904, -108.368, 0.059269, 131.143
0, 600.00000, 221.903, -30.1695, 222.225, -150.211, 222.455, 89.827, 5.64672E-005, 70.4435, 0.406934, 131.636, 0.464394, 11.5943, 0.521904, -108.368, 0.059269, 131.143
0, 660.00000, 222.029, -30.173, 222.256, -150.192, 222.4, 89.8241, 0.00013534, -167.392, 0.464809, 131.632, 0.580412, 11.6134, 0.348018, -108.371, 0.105964, -99.7672
0, 720.00000, 222.029, -30.173, 222.256, -150.192, 222.4, 89.8241, 0.000135339, -167.394, 0.464803, 131.632, 0.580413, 11.6135, 0.348022, -108.371, 0.105962, -99.7694
0, 780.00000, 222.029, -30.173, 222.256, -150.192, 222.4, 89.8241, 0.000135339, -167.394, 0.464803, 131.632, 0.580413, 11.6135, 0.348022, -108.371, 0.105962, -99.7694
0, 840.00000, 222.029, -30.173, 222.256, -150.192, 222.4, 89.8241, 0.000135339, -167.394, 0.464803, 131.632, 0.580413, 11.6135, 0.348022, -108.371, 0.105962, -99.7694
0, 900.00000, 222.029, -30.173, 222.256, -150.192, 222.4, 89.8241, 0.000135339, -167.394, 0.464803, 131.632, 0.580413, 11.6135, 0.348022, -108.371, 0.105962, -99.7694
0, 960.00000, 222.096, -30.1795, 222.259, -150.185, 222.268, 89.8151, 0.000102844, -177.182, 0.406584, 131.626, 0.522367, 11.6199, 0.348218, -108.38, 0.0791558, -111.542
0, 1020.00000, 222.096, -30.1795, 222.259, -150.185, 222.268, 89.8151, 0.000102837, -177.185, 0.406581, 131.626, 0.522364, 11.62, 0.348228, -108.38, 0.0791502, -111.546
0, 1080.00000, 222.096, -30.1795, 222.259, -150.185, 222.268, 89.8151, 0.000102837, -177.185, 0.406581, 131.626, 0.522364, 11.62, 0.348228, -108.38, 0.0791501, -111.546
0, 1140.00000, 222.096, -30.1795, 222.259, -150.185, 222.268, 89.8151, 0.000102837, -177.185, 0.406581, 131.626, 0.522364, 11.62, 0.348228, -108.38, 0.0791501, -111.546
0, 1200.00000, 222.096, -30.1795, 222.259, -150.185, 222.268, 89.8151, 0.000102837, -177.185, 0.406581, 131.626, 0.522364, 11.62, 0.348228, -108.38, 0.0791501, -111.546
0, 1260.00000, 222.011, -30.1499, 222.116, -150.22, 222.588, 89.8166, 7.64631E-005, 165.94, 0.406734, 131.655, 0.522697, 11.5848, 0.40569, -108.378, 0.0580668, -133.041
0, 1320.00000, 222.011, -30.1499, 222.116, -150.22, 222.588, 89.8166, 7.64675E-005, 165.944, 0.406737, 131.655, 0.5227, 11.5847, 0.405682, -108.378, 0.05807, -133.036
0, 1380.00000, 222.011, -30.1499, 222.116, -150.22, 222.588, 89.8166, 7.64675E-005, 165.944, 0.406737, 131.655, 0.522701, 11.5847, 0.405682, -108.378, 0.05807, -133.036
0, 1440.00000, 222.011, -30.1499, 222.116, -150.22, 222.588, 89.8166, 7.64675E-005, 165.944, 0.406737, 131.655, 0.522701, 11.5847, 0.405682, -108.378, 0.05807, -133.036
0, 1500.00000, 222.011, -30.1499, 222.116, -150.22, 222.588, 89.8166, 7.64675E-005, 165.944, 0.406737, 131.655, 0.522701, 11.5847, 0.405682, -108.378, 0.05807, -133.036
0, 1560.00000, 222.123, -30.1308, 221.992, -150.207, 222.649, 89.8061, 5.73652E-005, 70.5626, 0.348456, 131.674, 0.406768, 11.5985, 0.463513, -108.389, 0.0589975, 132.218
0, 1620.00000, 222.123, -30.1308, 221.992, -150.207, 222.649, 89.8061, 5.7364E-005, 70.5665, 0.348455, 131.674, 0.406772, 11.5985, 0.46351, -108.389, 0.0589961, 132.221
0, 1680.00000, 222.123, -30.1308, 221.992, -150.207, 222.649, 89.8061, 5.7364E-005, 70.5665, 0.348455, 131.674, 0.406772, 11.5985, 0.46351, -108.389, 0.0589961, 132.221
0, 1740.00000, 222.123, -30.1308, 221.992, -150.207, 222.649, 89.8061, 5.7364E-005, 70.5665, 0.348455, 131.674, 0.406772, 11.5985, 0.46351, -108.389, 0.0589961, 132.221
0, 1800.00000, 222.123, -30.1308, 221.992, -150.207, 222.649, 89.8061, 5.7364E-005, 70.5665, 0.348455, 131.674, 0.406772, 11.5985, 0.46351, -108.389, 0.0589961, 132.221
0, 1860.00000, 221.924, -30.1558, 222.032, -150.206, 222.423, 89.8106, 4.40004E-005, -87.3339, 0.523149, 131.649, 0.464802, 11.599, 0.463976, -108.384, 0.0366456, -0.180311
0, 1920.00000, 221.924, -30.1559, 222.032, -150.206, 222.423, 89.8106, 4.40011E-005, -87.3283, 0.523152, 131.649, 0.464799, 11.599, 0.463981, -108.384, 0.0366474, -0.175038
0, 1980.00000, 221.924, -30.1559, 222.032, -150.206, 222.423, 89.8106, 4.4001E-005, -87.3283, 0.523152, 131.649, 0.464798, 11.599, 0.463981, -108.384, 0.0366474, -0.174987
0, 2040.00000, 221.924, -30.1559, 222.032, -150.206, 222.423, 89.8106, 4.4001E-005, -87.3283, 0.523152, 131.649, 0.464798, 11.599, 0.463981, -108.384, 0.0366474, -0.174987
0, 2100.00000, 221.924, -30.1559, 222.032, -150.206, 222.423, 89.8106, 4.4001E-005, -87.3283, 0.523152, 131.649, 0.464798, 11.599, 0.463981, -108.384, 0.0366474, -0.174987
0, 2160.00000, 222.115, -30.1628, 222.223, -150.191, 222.389, 89.8164, 6.75227E-005, -56.3187, 0.522708, 131.642, 0.406351, 11.6143, 0.464049, -108.378, 0.0629716, 22.5389
0, 2220.00000, 222.115, -30.1628, 222.223, -150.191, 222.389, 89.8164, 6.75209E-005, -56.3153, 0.522703, 131.642, 0.406349, 11.6143, 0.464052, -108.378, 0.0629705, 22.5422
0, 2280.00000, 222.115, -30.1628, 222.223, -150.191, 222.389, 89.8164, 6.75209E-005, -56.3153, 0.522703, 131.642, 0.406349, 11.6143, 0.464052, -108.378, 0.0629705, 22.5423
0, 2340.00000, 222.115, -30.1628, 222.223, -150.191, 222.389, 89.8164, 6.75208E-005, -56.3153, 0.522703, 131.642, 0.406349, 11.6143, 0.464052, -108.378, 0.0629705, 22.5423
0, 2400.00000, 222.115, -30.1628, 222.223, -150.191, 222.389, 89.8164, 6.75208E-005, -56.3153, 0.522703, 131.642, 0.406349, 11.6143, 0.464052, -108.378, 0.0629705, 22.5423
0, 2460.00000, 221.942, -30.2051, 222.454, -150.176, 222.147, 89.8344, 8.03957E-005, -83.7067, 0.523109, 131.6, 0.405931, 11.6293, 0.406482, -108.361, 0.0693209, -6.05021
0, 2520.00000, 221.942, -30.2051, 222.454, -150.176, 222.146, 89.8344, 8.0395E-005, -83.7025, 0.523109, 131.6, 0.405926, 11.6294, 0.406489, -108.361, 0.0693211, -6.04591
0, 2580.00000, 221.942, -30.2051, 222.454, -150.176, 222.146, 89.8344, 8.03949E-005, -83.7024, 0.523109, 131.6, 0.405926, 11.6294, 0.406489, -108.361, 0.0693211, -6.04588
0, 2640.00000, 221.942, -30.2051, 222.454, -150.176, 222.146, 89.8344, 8.03949E-005, -83.7024, 0.523109, 131.6, 0.405926, 11.6294, 0.406489, -108.361, 0.0693211, -6.04588
0, 2700.00000, 221.942, -30.2051, 222.454, -150.176, 222.146, 89.8344, 8.03949E-005, -83.7024, 0.523109, 131.6, 0.405926, 11.6294, 0.406489, -108.361, 0.0693211, -6.04588
0, 2760.00000, 221.822, -30.2065, 222.558, -150.186, 222.237, 89.857, 0.000142089, -95.8162, 0.639697, 131.599, 0.463704, 11.6195, 0.406323, -108.338, 0.121283, -21.6383
0, 2820.00000, 221.822, -30.2065, 222.558, -150.186, 222.237, 89.857, 0.000142093, -95.815, 0.639702, 131.599, 0.4637, 11.6195, 0.406323, -108.338, 0.121286, -21.6372
0, 2880.00000, 221.822, -30.2065, 222.558, -150.186, 222.237, 89.857, 0.000142093, -95.815, 0.639702, 131.599, 0.4637, 11.6195, 0.406323, -108.338, 0.121286, -21.6372
0, 2940.00000, 221.822, -30.2065, 222.558, -150.186, 222.237, 89.857, 0.000142093, -95.815, 0.639702, 131.599, 0.4637, 11.6195, 0.406323, -108.338, 0.121286, -21.6372
0, 3000.00000, 221.822, -30.2065, 222.558, -150.186, 222.237, 89.857, 0.000142093, -95.815, 0.639702, 131.599, 0.4637, 11.6195, 0.406323, -108.338, 0.121286, -21.6372
0, 3060.00000, 222.229, -30.1885, 222.234, -150.16, 222.134, 89.7971, 6.99476E-005, 102.189, 0.232198, 131.617, 0.348273, 11.6452, 0.34844, -108.398, 0.0648073, 163.534
0, 3120.00000, 222.229, -30.1884, 222.233, -150.16, 222.134, 89.7971, 6.99539E-005, 102.195, 0.232192, 131.617, 0.348282, 11.6452, 0.348438, -108.398, 0.0648122, 163.54
0, 3180.00000, 222.229, -30.1884, 222.233, -150.16, 222.134, 89.7971, 6.99539E-005, 102.195, 0.232192, 131.617, 0.348282, 11.6452, 0.348438, -108.398, 0.0648122, 163.54
0, 3240.00000, 222.229, -30.1884, 222.233, -150.16, 222.134, 89.7971, 6.99539E-005, 102.195, 0.232192, 131.617, 0.348282, 11.6452, 0.348438, -108.398, 0.0648122, 163.54
0, 3300.00000, 222.229, -30.1884, 222.233, -150.16, 222.134, 89.7971, 6.99539E-005, 102.195, 0.232192, 131.617, 0.348282, 11.6452, 0.348438, -108.398, 0.0648122, 163.54
0, 3360.00000, 222.178, -30.1528, 221.968, -150.182, 222.278, 89.7912, 0.000135149, -37.5685, 0.638678, 131.652, 0.40681, 11.6234, 0.580362, -108.404, 0.126045, 35.8965
0, 3420.00000, 222.178, -30.1528, 221.967, -150.182, 222.278, 89.7912, 0.000135144, -37.5711, 0.638679, 131.652, 0.406816, 11.6233, 0.580354, -108.404, 0.126041, 35.8943
0, 3480.00000, 222.178, -30.1528, 221.967, -150.182, 222.278, 89.7912, 0.000135144, -37.5711, 0.638679, 131.652, 0.406816, 11.6233, 0.580354, -108.404, 0.126041, 35.8943
0, 3540.00000, 222.178, -30.1528, 221.967, -150.182, 222.278, 89.7912, 0.000135144, -37.5711, 0.638679, 131.652, 0.406816, 11.6233, 0.580354, -108.404, 0.126041, 35.8943
1, 0.00000, 222.178, -30.1528, 221.967, -150.182, 222.278, 89.7912, 0.000135144, -37.5711, 0.638679, 131.652, 0.406816, 11.6233, 0.580354, -108.404, 0.126041, 35.8943
1, 60.00000, 222.673, -30.1284, 222.667, -150.148, 222.842, 89.8387, 0.000104459, -156.992, 0.405538, 131.677, 0.463484, 11.6567, 0.289448, -108.356, 0.081054, -87.856
1, 120.00000, 222.673, -30.1284, 222.667, -150.148, 222.842, 89.8387, 0.000104456, -156.993, 0.405528, 131.677, 0.463473, 11.6567, 0.289442, -108.356, 0.0810515, -87.8564
1, 180.00000, 222.673, -30.1284, 222.667, -150.148, 222.842, 89.8387, 0.000104456, -156.993, 0.405528, 131.677, 0.463473, 11.6567, 0.289442, -108.356, 0.0810514, -87.8564
1, 240.00000, 222.673, -30.1284, 222.667, -150.148, 222.842, 89.8387, 0.000104456, -156.993, 0.405528, 131.677, 0.463473, 11.6567, 0.289442, -108.356, 0.0810514, -87.8564
1, 300.00000, 222.673, -30.1284, 222.667, -150.148, 222.842, 89.8387, 0.000104456, -156.993, 0.405528, 131.677, 0.463473, 11.6567, 0.289442, -108.356, 0.0810514, -87.8564
1, 360.00000, 222.578, -30.111, 222.578, -150.181, 223.082, 89.8453, 9.73394E-005, 144.787, 0.289779, 131.694, 0.46366, 11.6246, 0.346963, -108.35, 0.0813495, -153.252
1, 420.00000, 222.578, -30.111, 222.578, -150.181, 223.083, 89.8454, 9.73375E-005, 144.791, 0.289786, 131.694, 0.463659, 11.6245, 0.346957, -108.35, 0.0813472, -153.248
1, 480.00000, 222.578, -30.111, 222.578, -150.181, 223.083, 89.8454, 9.73374E-005, 144.791, 0.289786, 131.694, 0.463659, 11.6245, 0.346957, -108.35, 0.0813471, -153.248
1, 540.00000, 222.578, -30.111, 222.578, -150.181, 223.083, 89.8454, 9.73374E-005, 144.791, 0.289786, 131.694, 0.463659, 11.6245, 0.346957, -108.35, 0.0813471, -153.248
1, 600.00000, 222.578, -30.111, 222.578, -150.181, 223.083, 89.8454, 9.73374E-005, 144.791, 0.289786, 131.694, 0.463659, 11.6245, 0.346957, -108.35, 0.0813471, -153.248
1, 660.00000, 222.64, -30.1261, 222.572, -150.154, 222.896, 89.8362, 6.19653E-005, 136.265, 0.34765, 131.679, 0.46367, 11.6512, 0.405119, -108.359, 0.051893, -167.049
1, 720.00000, 222.64, -30.1261, 222.572, -150.154, 222.896, 89.8362, 6.19663E-005, 136.262, 0.347647, 131.679, 0.46367, 11.6512, 0.405123, -108.359, 0.0518946, -167.051
1, 780.00000, 222.64, -30.1261, 222.572, -150.154, 222.896, 89.8362, 6.19664E-005, 136.262, 0.347647, 131.679, 0.46367, 11.6512, 0.405123, -108.359, 0.0518946, -167.051
1, 840.00000, 222.64, -30.1261, 222.572, -150.154, 222.896, 89.8362, 6.19664E-005, 136.262, 0.347647, 131.679, 0.46367, 11.6512, 0.405123, -108.359, 0.0518946, -167.051
1, 900.00000, 222.64, -30.1261, 222.572, -150.154, 222.896, 89.8362, 6.19664E-005, 136.262, 0.347647, 131.679, 0.46367, 11.6512, 0.405123, -108.359, 0.0518946, -167.051
1, 960.00000, 222.303, -30.128, 222.578, -150.194, 222.98, 89.8583, 3.88021E-005, 169.694, 0.348166, 131.677, 0.405706, 11.6114, 0.347117, -108.337, 0.0266418, -134.031
1, 1020.00000, 222.302, -30.1281, 222.578, -150.194, 222.98, 89.8584, 3.87977E-005, 169.702, 0.348174, 131.677, 0.4057, 11.6114, 0.347116, -108.337, 0.0266369, -134.022
1, 1080.00000, 222.302, -30.1281, 222.578, -150.194, 222.98, 89.8584, 3.87976E-005, 169.703, 0.348174, 131.677, 0.4057, 11.6114, 0.347116, -108.337, 0.0266368, -134.022
1, 1140.00000, 222.302, -30.1281, 222.578, -150.194, 222.98, 89.8584, 3.87976E-005, 169.703, 0.348174, 131.677, 0.4057, 11.6114, 0.347116, -108.337, 0.0266368, -134.022
1, 1200.00000, 222.302, -30.1281, 222.578, -150.194, 222.98, 89.8584, 3.87976E-005, 169.703, 0.348174, 131.677, 0.4057, 11.6114, 0.347116, -108.337, 0.0266368, -134.022
1, 1260.00000, 222.552, -30.1449, 222.745, -150.157, 222.819, 89.8528, 0.000105054, -100.988, 0.521687, 131.66, 0.405394, 11.6479, 0.347362, -108.342, 0.0880494, -26.1145
1, 1320.00000, 222.552, -30.1449, 222.745, -150.157, 222.819, 89.8528, 0.000105045, -100.989, 0.521675, 131.66, 0.405396, 11.6479, 0.347367, -108.342, 0.0880412, -26.1149
1, 1380.00000, 222.552, -30.1449, 222.745, -150.157, 222.819, 89.8528, 0.000105045, -100.989, 0.521675, 131.66, 0.405396, 11.6479, 0.347367, -108.342, 0.0880411, -26.1149
1, 1440.00000, 222.552, -30.1449, 222.745, -150.157, 222.819, 89.8528, 0.000105045, -100.989, 0.521675, 131.66, 0.405396, 11.6479, 0.347367, -108.342, 0.0880411, -26.1149
1, 1500.00000, 222.552, -30.1449, 222.745, -150.157, 222.819, 89.8528, 0.000105045, -100.989, 0.521675, 131.66, 0.405396, 11.6479, 0.347367, -108.342, 0.0880411, -26.1149
1, 1560.00000, 222.495, -30.1551, 222.847, -150.15, 222.785, 89.86, 3.70393E-005, -31.6491, 0.463827, 131.65, 0.405215, 11.6552, 0.463226, -108.335, 0.0399613, 50.2044
1, 1620.00000, 222.495, -30.1551, 222.848, -150.15, 222.785, 89.86, 3.70442E-005, -31.6508, 0.463832, 131.65, 0.40521, 11.6552, 0.463227, -108.335, 0.0399652, 50.2015
1, 1680.00000, 222.495, -30.1551, 222.848, -150.15, 222.785, 89.86, 3.70442E-005, -31.6508, 0.463832, 131.65, 0.40521, 11.6552, 0.463227, -108.335, 0.0399653, 50.2015
1, 1740.00000, 222.495, -30.1551, 222.848, -150.15, 222.785, 89.86, 3.70442E-005, -31.6508, 0.463832, 131.65, 0.40521, 11.6552, 0.463227, -108.335, 0.0399653, 50.2015
1, 1800.00000, 222.495, -30.1551, 222.848, -150.15, 222.785, 89.86, 3.70442E-005, -31.6508, 0.463832, 131.65, 0.40521, 11.6552, 0.463227, -108.335, 0.0399653, 50.2015
1, 1860.00000, 222.379, -30.1351, 222.734, -150.18, 223.009, 89.8654, 3.87728E-005, 169.684, 0.34805, 131.67, 0.405418, 11.6253, 0.347074, -108.33, 0.0265726, -133.852
1, 1920.00000, 222.379, -30.1351, 222.734, -150.18, 223.01, 89.8654, 3.87732E-005, 169.691, 0.348054, 131.67, 0.405417, 11.6253, 0.34707, -108.329, 0.0265722, -133.843
1, 1980.00000, 222.379, -30.1351, 222.734, -150.18, 223.01, 89.8654, 3.87732E-005, 169.691, 0.348054, 131.67, 0.405417, 11.6253, 0.34707, -108.329, 0.0265721, -133.843
1, 2040.00000, 222.379, -30.1351, 222.734, -150.18, 223.01, 89.8654, 3.87732E-005, 169.691, 0.348054, 131.67, 0.405417, 11.6253, 0.34707, -108.329, 0.0265721, -133.843
1, 2100.00000, 222.379, -30.1351, 222.734, -150.18, 223.01, 89.8654, 3.87732E-005, 169.691, 0.348054, 131.67, 0.405417, 11.6253, 0.34707, -108.329, 0.0265721, -133.843
1, 2160.00000, 222.409, -30.1482, 222.812, -150.171, 222.876, 89.8686, 7.06893E-006, -117.803, 0.406014, 131.657, 0.405274, 11.6345, 0.405154, -108.326, 0.00681186, 58.0375
1, 2220.00000, 222.409, -30.1482, 222.812, -150.171, 222.876, 89.8686, 7.06455E-006, -117.816, 0.406009, 131.657, 0.405275, 11.6345, 0.405158, -108.326, 0.00681165, 58.0727
1, 2280.00000, 222.409, -30.1482, 222.812, -150.171, 222.876, 89.8686, 7.06451E-006, -117.816, 0.406009, 131.657, 0.405275, 11.6345, 0.405158, -108.326, 0.00681162, 58.0731
1, 2340.00000, 222.409, -30.1482, 222.812, -150.171, 222.876, 89.8686, 7.06451E-006, -117.816, 0.406009, 131.657, 0.405275, 11.6345, 0.405158, -108.326, 0.00681162, 58.0731
1, 2400.00000, 222.409, -30.1482, 222.812, -150.171, 222.876, 89.8686, 7.06451E-006, -117.816, 0.406009, 131.657, 0.405275, 11.6345, 0.405158, -108.326, 0.00681162, 58.0731
1, 2460.00000, 222.556, -30.1593, 222.918, -150.144, 222.768, 89.8649, 3.691E-005, -28.4857, 0.347804, 131.646, 0.28936, 11.6616, 0.347425, -108.33, 0.0380074, 49.7527
1, 2520.00000, 222.558, -30.1593, 222.918, -150.144, 222.767, 89.8648, 3.6915E-005, -28.4374, 0.347776, 131.646, 0.289344, 11.6611, 0.347448, -108.33, 0.0380158, 49.7926
1, 2580.00000, 222.558, -30.1593, 222.918, -150.144, 222.767, 89.8648, 3.69148E-005, -28.4368, 0.347775, 131.646, 0.289344, 11.6611, 0.347448, -108.33, 0.0380158, 49.7931
1, 2640.00000, 222.558, -30.1593, 222.918, -150.144, 222.767, 89.8648, 3.69148E-005, -28.4368, 0.347775, 131.646, 0.289344, 11.6611, 0.347448, -108.33, 0.0380158, 49.7931
1, 2700.00000, 222.558, -30.1593, 222.918, -150.144, 222.767, 89.8648, 3.69148E-005, -28.4368, 0.347775, 131.646, 0.289344, 11.6611, 0.347448, -108.33, 0.0380158, 49.7931
1, 2760.00000, 222.469, -30.1499, 222.767, -150.152, 222.746, 89.8597, 5.84338E-005, 70.0463, 0.289927, 131.655, 0.347445, 11.6528, 0.405396, -108.335, 0.0587949, 132.869
1, 2820.00000, 222.469, -30.1498, 222.767, -150.152, 222.746, 89.8597, 5.84321E-005, 70.0482, 0.289928, 131.655, 0.347448, 11.6528, 0.405395, -108.335, 0.0587932, 132.87
1, 2880.00000, 222.469, -30.1498, 222.767, -150.152, 222.746, 89.8597, 5.84321E-005, 70.0482, 0.289928, 131.655, 0.347448, 11.6528, 0.405395, -108.335, 0.0587932, 132.87
1, 2940.00000, 222.469, -30.1498, 222.767, -150.152, 222.746, 89.8597, 5.84321E-005, 70.0482, 0.289928, 131.655, 0.347448, 11.6528, 0.405395, -108.335, 0.0587932, 132.87
1, 3000.00000, 222.469, -30.1498, 222.767, -150.152, 222.746, 89.8597, 5.84321E-005, 70.0482, 0.289928, 131.655, 0.347448, 11.6528, 0.405395, -108.335, 0.0587932, 132.87
1, 3060.00000, 222.429, -30.1535, 222.829, -150.157, 222.813, 89.8638, 3.89619E-005, 171.161, 0.405968, 131.652, 0.463138, 11.6477, 0.405274, -108.331, 0.0254246, -134.54
1, 3120.00000, 222.429, -30.1535, 222.829, -150.157, 222.813, 89.8638, 3.89605E-005, 171.166, 0.405972, 131.652, 0.463135, 11.6477, 0.405272, -108.331, 0.0254227, -134.534
1, 3180.00000, 222.429, -30.1535, 222.829, -150.157, 222.813, 89.8638, 3.89605E-005, 171.166, 0.405972, 131.652, 0.463135, 11.6477, 0.405272, -108.331, 0.0254227, -134.534
1, 3240.00000, 222.429, -30.1535, 222.829, -150.157, 222.813, 89.8638, 3.89605E-005, 171.166, 0.405972, 131.652, 0.463135, 11.6477, 0.405272, -108.331, 0.0254227, -134.534
1, 3300.00000, 222.429, -30.1535, 222.829, -150.157, 222.813, 89.8638, 3.89605E-005, 171.166, 0.405972, 131.652, 0.463135, 11.6477, 0.405272, -108.331, 0.0254227, -134.534
1, 3360.00000, 222.691, -30.1325, 222.589, -150.146, 222.776, 89.8303, 3.17235E-005, 35.4025, 0.347575, 131.673, 0.347716, 11.6589, 0.405341, -108.364, 0.0372128, 101.784
1, 3420.00000, 222.691, -30.1324, 222.589, -150.146, 222.776, 89.8303, 3.1721E-005, 35.4192, 0.347567, 131.673, 0.347727, 11.6589, 0.405339, -108.365, 0.0372105, 101.796
