hour, t(sec), V1, VAngle1, V2, VAngle2, V3, VAngle3, V4, VAngle4, I1, IAngle1, I2, IAngle2, I3, IAngle3, I4, IAngle4
0, 60.00000, 220.971, -30.1173, 221.147, -150.156, 221.451, 89.8592, 0.000154375, 116.789, 1.2563, 131.688, 1.29146, 11.6494, 1.14879, -108.335, 0.0579009, -60.5664
0, 120.00000, 220.971, -30.1173, 221.147, -150.156, 221.451, 89.8592, 0.000154376, 116.789, 1.25629, 131.688, 1.29146, 11.6494, 1.14879, -108.335, 0.057901, -60.5683
0, 180.00000, 220.971, -30.1173, 221.147, -150.156, 221.451, 89.8592, 0.000154376, 116.789, 1.25629, 131.688, 1.29146, 11.6494, 1.14879, -108.335, 0.057901, -60.5684
0, 240.00000, 220.971, -30.1173, 221.147, -150.156, 221.451, 89.8592, 0.000154376, 116.789, 1.25629, 131.688, 1.29146, 11.6494, 1.14879, -108.335, 0.057901, -60.5684
0, 300.00000, 220.971, -30.1173, 221.147, -150.156, 221.451, 89.8592, 0.000154376, 116.789, 1.25629, 131.688, 1.29146, 11.6494, 1.14879, -108.335, 0.057901, -60.5684
0, 360.00000, 220.684, -30.1148, 221.082, -150.182, 221.477, 89.8674, 0.000113648, -105.092, 1.20533, 131.691, 1.1851, 11.6233, 1.09449, -108.327, 0.0536779, -35.4682
0, 420.00000, 220.683, -30.1148, 221.082, -150.182, 221.478, 89.8674, 0.000113659, -105.091, 1.20536, 131.691, 1.1851, 11.6233, 1.09448, -108.327, 0.0536939, -35.4586
0, 480.00000, 220.683, -30.1148, 221.082, -150.182, 221.478, 89.8674, 0.00011366, -105.091, 1.20536, 131.691, 1.1851, 11.6233, 1.09448, -108.327, 0.053694, -35.4585
0, 540.00000, 220.683, -30.1148, 221.082, -150.182, 221.478, 89.8674, 0.00011366, -105.091, 1.20536, 131.691, 1.1851, 11.6233, 1.09448, -108.327, 0.053694, -35.4585
0, 600.00000, 220.683, -30.1148, 221.082, -150.182, 221.478, 89.8674, 0.00011366, -105.091, 1.20536, 131.691, 1.1851, 11.6233, 1.09448, -108.327, 0.053694, -35.4585
0, 660.00000, 220.852, -30.1305, 221.161, -150.15, 221.312, 89.8648, 6.75426E-005, 148.126, 1.18635, 131.675, 1.34383, 11.6552, 1.11336, -108.33, 0.0965935, -103.137
0, 720.00000, 220.852, -30.1305, 221.161, -150.15, 221.311, 89.8648, 6.75426E-005, 148.116, 1.18633, 131.675, 1.34384, 11.6552, 1.11337, -108.33, 0.0965887, -103.148
0, 780.00000, 220.852, -30.1305, 221.161, -150.15, 221.311, 89.8648, 6.75426E-005, 148.116, 1.18633, 131.675, 1.34384, 11.6552, 1.11337, -108.33, 0.0965887, -103.148
0, 840.00000, 220.852, -30.1305, 221.161, -150.15, 221.311, 89.8648, 6.75426E-005, 148.116, 1.18633, 131.675, 1.34384, 11.6552, 1.11337, -108.33, 0.0965887, -103.148
0, 900.00000, 220.852, -30.1305, 221.161, -150.15, 221.311, 89.8648, 6.75426E-005, 148.116, 1.18633, 131.675, 1.34384, 11.6552, 1.11337, -108.33, 0.0965887, -103.148
0, 960.00000, 220.864, -30.14, 221.211, -150.148, 221.191, 89.8634, 0.000106202, -73.8648, 1.29313, 131.665, 1.25494, 11.6573, 1.11394, -108.331, 0.0920159, -40.7114
0, 1020.00000, 220.864, -30.14, 221.211, -150.148, 221.191, 89.8633, 0.0001062, -73.8544, 1.29312, 131.665, 1.25493, 11.6573, 1.11398, -108.331, 0.0919884, -40.702
0, 1080.00000, 220.864, -30.14, 221.211, -150.148, 221.191, 89.8633, 0.0001062, -73.8543, 1.29311, 131.665, 1.25493, 11.6573, 1.11398, -108.331, 0.0919883, -40.702
0, 1140.00000, 220.864, -30.14, 221.211, -150.148, 221.191, 89.8633, 0.0001062, -73.8543, 1.29311, 131.665, 1.25493, 11.6573, 1.11398, -108.331, 0.0919883, -40.702
0, 1200.00000, 220.864, -30.14, 221.211, -150.148, 221.191, 89.8633, 0.0001062, -73.8543, 1.29311, 131.665, 1.25493, 11.6573, 1.11398, -108.331, 0.0919883, -40.702
0, 1260.00000, 220.804, -30.0936, 220.97, -150.193, 221.63, 89.8556, 0.000196592, -119.908, 1.3641, 131.712, 1.20378, 11.6126, 1.16415, -108.339, 0.112163, -5.02351
0, 1320.00000, 220.804, -30.0936, 220.969, -150.193, 221.63, 89.8556, 0.000196604, -119.911, 1.36412, 131.712, 1.2038, 11.6126, 1.16412, -108.339, 0.112177, -5.03487
0, 1380.00000, 220.804, -30.0936, 220.969, -150.193, 221.63, 89.8556, 0.000196605, -119.911, 1.36412, 131.712, 1.2038, 11.6126, 1.16412, -108.339, 0.112177, -5.03493
0, 1440.00000, 220.804, -30.0936, 220.969, -150.193, 221.63, 89.8556, 0.000196605, -119.911, 1.36412, 131.712, 1.2038, 11.6126, 1.16412, -108.339, 0.112177, -5.03493
0, 1500.00000, 220.804, -30.0936, 220.969, -150.193, 221.63, 89.8556, 0.000196605, -119.911, 1.36412, 131.712, 1.2038, 11.6126, 1.16412, -108.339, 0.112177, -5.03493
0, 1560.00000, 220.906, -30.0636, 220.771, -150.185, 221.752, 89.8412, 7.09183E-005, -91.7401, 1.3635, 131.742, 1.27553, 11.6201, 1.26991, -108.353, 0.0653977, 11.5757
0, 1620.00000, 220.906, -30.0636, 220.771, -150.185, 221.752, 89.8412, 7.09154E-005, -91.7474, 1.36349, 131.742, 1.27555, 11.6201, 1.2699, -108.353, 0.0653898, 11.5642
0, 1680.00000, 220.906, -30.0636, 220.771, -150.185, 221.752, 89.8412, 7.09154E-005, -91.7475, 1.36349, 131.742, 1.27555, 11.6201, 1.2699, -108.353, 0.0653898, 11.5641
0, 1740.00000, 220.906, -30.0636, 220.771, -150.185, 221.752, 89.8412, 7.09154E-005, -91.7475, 1.36349, 131.742, 1.27555, 11.6201, 1.2699, -108.353, 0.0653898, 11.5641
0, 1800.00000, 220.906, -30.0636, 220.771, -150.185, 221.752, 89.8412, 7.09154E-005, -91.7475, 1.36349, 131.742, 1.27555, 11.6201, 1.2699, -108.353, 0.0653898, 11.5641
0, 1860.00000, 220.653, -30.1006, 220.861, -150.177, 221.407, 89.854, 6.38507E-005, -5.64759, 1.2581, 131.705, 1.02691, 11.6284, 1.27186, -108.341, 0.159873, 58.7669
0, 1920.00000, 220.653, -30.1006, 220.861, -150.177, 221.407, 89.854, 6.38608E-005, -5.64832, 1.25811, 131.705, 1.0269, 11.6284, 1.27188, -108.341, 0.159889, 58.7686
0, 1980.00000, 220.653, -30.1006, 220.861, -150.177, 221.407, 89.854, 6.38608E-005, -5.6483, 1.25811, 131.705, 1.0269, 11.6284, 1.27188, -108.341, 0.159889, 58.7686
0, 2040.00000, 220.653, -30.1006, 220.861, -150.177, 221.407, 89.854, 6.38608E-005, -5.6483, 1.25811, 131.705, 1.0269, 11.6284, 1.27188, -108.341, 0.159889, 58.7686
0, 2100.00000, 220.653, -30.1006, 220.861, -150.177, 221.407, 89.854, 6.38608E-005, -5.6483, 1.25811, 131.705, 1.0269, 11.6284, 1.27188, -108.341, 0.159889, 58.7686
0, 2160.00000, 220.935, -30.1138, 221.102, -150.155, 221.362, 89.8555, 8.11356E-005, 132.557, 1.11528, 131.692, 1.36229, 11.65, 1.27212, -108.339, 0.112085, -172.686
0, 2220.00000, 220.935, -30.1138, 221.102, -150.155, 221.362, 89.8555, 8.1134E-005, 132.55, 1.11527, 131.692, 1.36228, 11.6501, 1.27214, -108.339, 0.112093, -172.693
0, 2280.00000, 220.935, -30.1138, 221.102, -150.155, 221.362, 89.8555, 8.1134E-005, 132.55, 1.11527, 131.692, 1.36228, 11.6501, 1.27214, -108.339, 0.112093, -172.693
0, 2340.00000, 220.935, -30.1138, 221.102, -150.155, 221.362, 89.8555, 8.1134E-005, 132.55, 1.11527, 131.692, 1.36228, 11.6501, 1.27214, -108.339, 0.112093, -172.693
0, 2400.00000, 220.935, -30.1138, 221.102, -150.155, 221.362, 89.8555, 8.1134E-005, 132.55, 1.11527, 131.692, 1.36228, 11.6501, 1.27214, -108.339, 0.112093, -172.693
0, 2460.00000, 220.714, -30.1705, 221.423, -150.133, 221.015, 89.8836, 8.98738E-005, -57.9858, 1.43536, 131.635, 1.25375, 11.672, 1.2741, -108.311, 0.114632, 10.0441
0, 2520.00000, 220.714, -30.1705, 221.423, -150.133, 221.015, 89.8836, 8.98814E-005, -57.9774, 1.43536, 131.635, 1.25373, 11.672, 1.27413, -108.311, 0.114636, 10.0564
0, 2580.00000, 220.714, -30.1705, 221.423, -150.133, 221.015, 89.8836, 8.98814E-005, -57.9774, 1.43536, 131.635, 1.25373, 11.672, 1.27413, -108.311, 0.114636, 10.0565
0, 2640.00000, 220.714, -30.1705, 221.423, -150.133, 221.015, 89.8836, 8.98814E-005, -57.9774, 1.43536, 131.635, 1.25373, 11.672, 1.27413, -108.311, 0.114636, 10.0565
0, 2700.00000, 220.714, -30.1705, 221.423, -150.133, 221.015, 89.8836, 8.98814E-005, -57.9774, 1.43536, 131.635, 1.25373, 11.672, 1.27413, -108.311, 0.114636, 10.0565
0, 2760.00000, 220.573, -30.1767, 221.568, -150.143, 221.086, 89.9106, 0.000139558, -36.6624, 1.41814, 131.629, 1.21683, 11.6628, 1.25564, -108.284, 0.123644, 12.6158
0, 2820.00000, 220.573, -30.1767, 221.568, -150.143, 221.086, 89.9106, 0.000139565, -36.6645, 1.41815, 131.629, 1.21681, 11.6628, 1.25564, -108.284, 0.12366, 12.6174
0, 2880.00000, 220.573, -30.1767, 221.568, -150.143, 221.086, 89.9106, 0.000139565, -36.6645, 1.41815, 131.629, 1.21681, 11.6628, 1.25564, -108.284, 0.12366, 12.6174
0, 2940.00000, 220.573, -30.1767, 221.568, -150.143, 221.086, 89.9106, 0.000139565, -36.6645, 1.41815, 131.629, 1.21681, 11.6628, 1.25564, -108.284, 0.12366, 12.6174
0, 3000.00000, 220.573, -30.1767, 221.568, -150.143, 221.086, 89.9106, 0.000139565, -36.6645, 1.41815, 131.629, 1.21681, 11.6628, 1.25564, -108.284, 0.12366, 12.6174
0, 3060.00000, 221.082, -30.1462, 221.085, -150.109, 220.969, 89.8323, 0.000300824, -86.9149, 1.46918, 131.659, 1.2556, 11.6965, 1.23822, -108.362, 0.139268, -1.64565
0, 3120.00000, 221.082, -30.1462, 221.084, -150.109, 220.969, 89.8323, 0.000300802, -86.9172, 1.46915, 131.659, 1.25565, 11.6965, 1.23821, -108.362, 0.139238, -1.65543
0, 3180.00000, 221.082, -30.1462, 221.084, -150.109, 220.969, 89.8323, 0.000300802, -86.9172, 1.46915, 131.659, 1.25565, 11.6965, 1.23821, -108.362, 0.139237, -1.65555
0, 3240.00000, 221.082, -30.1462, 221.084, -150.109, 220.969, 89.8323, 0.000300802, -86.9172, 1.46915, 131.659, 1.25565, 11.6965, 1.23821, -108.362, 0.139237, -1.65555
0, 3300.00000, 221.082, -30.1462, 221.084, -150.109, 220.969, 89.8323, 0.000300802, -86.9172, 1.46915, 131.659, 1.25565, 11.6965, 1.23821, -108.362, 0.139237, -1.65555
0, 3360.00000, 221.082, -30.0927, 220.701, -150.139, 221.228, 89.8143, 0.000120929, 119.768, 1.34432, 131.713, 1.38285, 11.6669, 1.37961, -108.38, 0.0265896, 108.185
0, 3420.00000, 221.081, -30.0927, 220.7, -150.139, 221.228, 89.8143, 0.000120939, 119.776, 1.34432, 131.713, 1.38288, 11.6668, 1.37958, -108.38, 0.0265616, 108.207
0, 3480.00000, 221.081, -30.0927, 220.7, -150.139, 221.228, 89.8143, 0.000120939, 119.776, 1.34432, 131.713, 1.38288, 11.6668, 1.37958, -108.38, 0.0265614, 108.207
0, 3540.00000, 221.081, -30.0927, 220.7, -150.139, 221.228, 89.8143, 0.000120939, 119.776, 1.34432, 131.713, 1.38288, 11.6668, 1.37958, -108.38, 0.0265614, 108.207
1, 0.00000, 221.081, -30.0927, 220.7, -150.139, 221.228, 89.8143, 0.000120939, 119.776, 1.34432, 131.713, 1.38288, 11.6668, 1.37958, -108.38, 0.0265614, 108.207
1, 60.00000, 221.705, -30.0887, 221.693, -150.115, 221.944, 89.866, 7.52553E-005, 97.6771, 0.93462, 131.717, 1.09345, 11.6899, 0.951624, -108.329, 0.0686733, -132.437
1, 120.00000, 221.705, -30.0887, 221.693, -150.115, 221.944, 89.866, 7.5254E-005, 97.6756, 0.934586, 131.717, 1.09342, 11.6899, 0.951597, -108.329, 0.0686712, -132.44
1, 180.00000, 221.705, -30.0887, 221.693, -150.115, 221.944, 89.866, 7.5254E-005, 97.6756, 0.934586, 131.717, 1.09342, 11.6899, 0.951597, -108.329, 0.0686712, -132.44
1, 240.00000, 221.705, -30.0887, 221.693, -150.115, 221.944, 89.866, 7.5254E-005, 97.6756, 0.934586, 131.717, 1.09342, 11.6899, 0.951597, -108.329, 0.0686712, -132.44
1, 300.00000, 221.705, -30.0887, 221.693, -150.115, 221.944, 89.866, 7.5254E-005, 97.6756, 0.934586, 131.717, 1.09342, 11.6899, 0.951597, -108.329, 0.0686712, -132.44
1, 360.00000, 221.572, -30.0658, 221.586, -150.155, 222.234, 89.8745, 8.38263E-005, 81.9371, 1.11204, 131.74, 1.13005, 11.6509, 1.21497, -108.32, 0.0688379, 108.185
1, 420.00000, 221.571, -30.0658, 221.586, -150.155, 222.235, 89.8746, 8.38139E-005, 81.9437, 1.11207, 131.74, 1.13004, 11.6507, 1.21494, -108.32, 0.0688161, 108.171
1, 480.00000, 221.571, -30.0658, 221.586, -150.155, 222.235, 89.8746, 8.38137E-005, 81.9437, 1.11207, 131.74, 1.13004, 11.6507, 1.21494, -108.32, 0.068816, 108.171
1, 540.00000, 221.571, -30.0658, 221.586, -150.155, 222.235, 89.8746, 8.38137E-005, 81.9437, 1.11207, 131.74, 1.13004, 11.6507, 1.21494, -108.32, 0.068816, 108.171
1, 600.00000, 221.571, -30.0658, 221.586, -150.155, 222.235, 89.8746, 8.38137E-005, 81.9437, 1.11207, 131.74, 1.13004, 11.6507, 1.21494, -108.32, 0.068816, 108.171
1, 660.00000, 221.614, -30.0859, 221.617, -150.127, 222.021, 89.8695, 4.2846E-005, -109.442, 1.11186, 131.719, 1.04144, 11.6788, 1.18007, -108.325, 0.0885093, 80.4563
1, 720.00000, 221.614, -30.0859, 221.617, -150.127, 222.021, 89.8694, 4.284E-005, -109.437, 1.11185, 131.719, 1.04144, 11.6788, 1.18009, -108.325, 0.0885157, 80.4637
1, 780.00000, 221.614, -30.0859, 221.617, -150.127, 222.021, 89.8694, 4.28399E-005, -109.437, 1.11185, 131.719, 1.04144, 11.6788, 1.18009, -108.325, 0.0885156, 80.4638
1, 840.00000, 221.614, -30.0859, 221.617, -150.127, 222.021, 89.8694, 4.28399E-005, -109.437, 1.11185, 131.719, 1.04144, 11.6788, 1.18009, -108.325, 0.0885156, 80.4638
1, 900.00000, 221.614, -30.0859, 221.617, -150.127, 222.021, 89.8694, 4.28399E-005, -109.437, 1.11185, 131.719, 1.04144, 11.6788, 1.18009, -108.325, 0.0885156, 80.4638
1, 960.00000, 221.153, -30.0833, 221.599, -150.175, 222.124, 89.9003, 0.000174224, -113.401, 1.13222, 131.722, 1.11195, 11.6302, 1.00306, -108.294, 0.0632284, -42.73
1, 1020.00000, 221.153, -30.0834, 221.599, -150.175, 222.124, 89.9003, 0.000174238, -113.399, 1.13226, 131.722, 1.11193, 11.6302, 1.00306, -108.294, 0.0632449, -42.7114
1, 1080.00000, 221.153, -30.0834, 221.599, -150.175, 222.124, 89.9003, 0.000174238, -113.399, 1.13226, 131.722, 1.11193, 11.6302, 1.00306, -108.294, 0.063245, -42.7111
1, 1140.00000, 221.153, -30.0834, 221.599, -150.175, 222.124, 89.9003, 0.000174238, -113.399, 1.13226, 131.722, 1.11193, 11.6302, 1.00306, -108.294, 0.063245, -42.7111
1, 1200.00000, 221.153, -30.0834, 221.599, -150.175, 222.124, 89.9003, 0.000174238, -113.399, 1.13226, 131.722, 1.11193, 11.6302, 1.00306, -108.294, 0.063245, -42.7111
1, 1260.00000, 221.61, -30.1093, 221.789, -150.12, 221.888, 89.8794, 0.000151133, 168.512, 0.953064, 131.696, 1.28771, 11.6857, 1.09244, -108.315, 0.153337, -153.864
1, 1320.00000, 221.611, -30.1092, 221.789, -150.12, 221.888, 89.8793, 0.00015113, 168.507, 0.953031, 131.696, 1.28772, 11.6858, 1.09246, -108.315, 0.153355, -153.871
1, 1380.00000, 221.611, -30.1092, 221.789, -150.12, 221.888, 89.8793, 0.00015113, 168.507, 0.95303, 131.696, 1.28772, 11.6858, 1.09246, -108.315, 0.153356, -153.871
1, 1440.00000, 221.611, -30.1092, 221.789, -150.12, 221.888, 89.8793, 0.00015113, 168.507, 0.95303, 131.696, 1.28772, 11.6858, 1.09246, -108.315, 0.153356, -153.871
1, 1500.00000, 221.611, -30.1092, 221.789, -150.12, 221.888, 89.8793, 0.00015113, 168.507, 0.95303, 131.696, 1.28772, 11.6858, 1.09246, -108.315, 0.153356, -153.871
1, 1560.00000, 221.448, -30.1211, 221.936, -150.12, 221.873, 89.8979, 4.74419E-005, 109.814, 1.02416, 131.684, 1.11026, 11.6849, 1.11055, -108.297, 0.0464375, 152.091
1, 1620.00000, 221.448, -30.1212, 221.936, -150.12, 221.873, 89.8979, 4.74333E-005, 109.813, 1.02418, 131.684, 1.11024, 11.6849, 1.11055, -108.297, 0.0464294, 152.073
1, 1680.00000, 221.448, -30.1212, 221.936, -150.12, 221.873, 89.8979, 4.74332E-005, 109.813, 1.02418, 131.684, 1.11024, 11.6849, 1.11055, -108.297, 0.0464294, 152.073
1, 1740.00000, 221.448, -30.1212, 221.936, -150.12, 221.873, 89.8979, 4.74332E-005, 109.813, 1.02418, 131.684, 1.11024, 11.6849, 1.11055, -108.297, 0.0464294, 152.073
1, 1800.00000, 221.448, -30.1212, 221.936, -150.12, 221.873, 89.8979, 4.74332E-005, 109.813, 1.02418, 131.684, 1.11024, 11.6849, 1.11055, -108.297, 0.0464294, 152.073
1, 1860.00000, 221.287, -30.0958, 221.815, -150.16, 222.167, 89.9064, 0.000106432, 143.18, 0.724839, 131.71, 1.12888, 11.6457, 1.02088, -108.288, 0.203221, -174.158
1, 1920.00000, 221.287, -30.0958, 221.816, -150.16, 222.167, 89.9065, 0.000106433, 143.184, 0.724854, 131.71, 1.12888, 11.6457, 1.02087, -108.288, 0.20321, -174.155
1, 1980.00000, 221.287, -30.0958, 221.816, -150.16, 222.167, 89.9065, 0.000106433, 143.184, 0.724854, 131.71, 1.12888, 11.6457, 1.02087, -108.288, 0.20321, -174.155
1, 2040.00000, 221.287, -30.0958, 221.816, -150.16, 222.167, 89.9065, 0.000106433, 143.184, 0.724854, 131.71, 1.12888, 11.6457, 1.02087, -108.288, 0.20321, -174.155
1, 2100.00000, 221.287, -30.0958, 221.816, -150.16, 222.167, 89.9065, 0.000106433, 143.184, 0.724854, 131.71, 1.12888, 11.6457, 1.02087, -108.288, 0.20321, -174.155
1, 2160.00000, 221.319, -30.1145, 221.917, -150.145, 221.977, 89.9111, 5.66598E-005, -98.2945, 1.04286, 131.691, 0.969733, 11.6603, 1.1803, -108.283, 0.123391, 91.844
1, 2220.00000, 221.319, -30.1145, 221.917, -150.145, 221.977, 89.9111, 5.66519E-005, -98.2911, 1.04284, 131.691, 0.969738, 11.6603, 1.18032, -108.284, 0.123399, 91.8509
1, 2280.00000, 221.319, -30.1145, 221.917, -150.145, 221.977, 89.9111, 5.66518E-005, -98.2911, 1.04284, 131.691, 0.969739, 11.6603, 1.18032, -108.284, 0.123399, 91.851
1, 2340.00000, 221.319, -30.1145, 221.917, -150.145, 221.977, 89.9111, 5.66518E-005, -98.2911, 1.04284, 131.691, 0.969739, 11.6603, 1.18032, -108.284, 0.123399, 91.851
1, 2400.00000, 221.319, -30.1145, 221.917, -150.145, 221.977, 89.9111, 5.66518E-005, -98.2911, 1.04284, 131.691, 0.969739, 11.6603, 1.18032, -108.284, 0.123399, 91.851
1, 2460.00000, 221.523, -30.126, 222.006, -150.113, 221.848, 89.9018, 6.24945E-005, 171.914, 1.02394, 131.68, 1.10995, 11.6919, 1.02224, -108.293, 0.0311799, -126.83
1, 2520.00000, 221.524, -30.1261, 222.006, -150.113, 221.847, 89.9016, 6.24474E-005, 171.886, 1.02383, 131.679, 1.10989, 11.6924, 1.02234, -108.293, 0.0311495, -127.015
1, 2580.00000, 221.524, -30.1261, 222.006, -150.113, 221.847, 89.9016, 6.24472E-005, 171.885, 1.02383, 131.679, 1.10989, 11.6924, 1.02234, -108.293, 0.0311498, -127.018
1, 2640.00000, 221.524, -30.1261, 222.006, -150.113, 221.847, 89.9016, 6.24472E-005, 171.885, 1.02383, 131.679, 1.10989, 11.6924, 1.02234, -108.293, 0.0311498, -127.018
1, 2700.00000, 221.524, -30.1261, 222.006, -150.113, 221.847, 89.9016, 6.24472E-005, 171.885, 1.02383, 131.679, 1.10989, 11.6924, 1.02234, -108.293, 0.0311498, -127.018
1, 2760.00000, 221.373, -30.1178, 221.852, -150.122, 221.796, 89.9019, 0.000144449, 171.706, 1.02452, 131.687, 1.05836, 11.6832, 0.952241, -108.293, 0.0395486, -66.9785
1, 2820.00000, 221.372, -30.1178, 221.852, -150.122, 221.796, 89.9019, 0.000144455, 171.706, 1.02453, 131.688, 1.05837, 11.6832, 0.952235, -108.293, 0.0395565, -66.9816
1, 2880.00000, 221.372, -30.1178, 221.852, -150.122, 221.796, 89.9019, 0.000144455, 171.706, 1.02453, 131.688, 1.05837, 11.6832, 0.952235, -108.293, 0.0395566, -66.9815
1, 2940.00000, 221.372, -30.1178, 221.852, -150.122, 221.796, 89.9019, 0.000144455, 171.706, 1.02453, 131.688, 1.05837, 11.6832, 0.952235, -108.293, 0.0395566, -66.9815
1, 3000.00000, 221.372, -30.1178, 221.852, -150.122, 221.796, 89.9019, 0.000144455, 171.706, 1.02453, 131.688, 1.05837, 11.6832, 0.952235, -108.293, 0.0395566, -66.9815
1, 3060.00000, 221.315, -30.1193, 221.93, -150.133, 221.911, 89.9081, 0.000151198, 4.03666, 1.11335, 131.686, 1.00395, 11.6724, 1.1284, -108.287, 0.0871091, 59.9908
1, 3120.00000, 221.315, -30.1193, 221.93, -150.133, 221.911, 89.9081, 0.000151195, 4.03415, 1.11336, 131.686, 1.00394, 11.6724, 1.12839, -108.287, 0.0871139, 59.9833
1, 3180.00000, 221.315, -30.1193, 221.93, -150.133, 221.911, 89.9081, 0.000151195, 4.03412, 1.11336, 131.686, 1.00394, 11.6724, 1.12839, -108.287, 0.087114, 59.9832
1, 3240.00000, 221.315, -30.1193, 221.93, -150.133, 221.911, 89.9081, 0.000151195, 4.03412, 1.11336, 131.686, 1.00394, 11.6724, 1.12839, -108.287, 0.087114, 59.9832
1, 3300.00000, 221.315, -30.1193, 221.93, -150.133, 221.911, 89.9081, 0.000151195, 4.03412, 1.11336, 131.686, 1.00394, 11.6724, 1.12839, -108.287, 0.087114, 59.9832
1, 3360.00000, 221.755, -30.0906, 221.573, -150.109, 221.857, 89.8524, 0.000104978, -23.4649, 0.811736, 131.715, 0.935106, 11.696, 1.02229, -108.342, 0.107944, 142.927
1, 3420.00000, 221.755, -30.0906, 221.573, -150.109, 221.858, 89.8524, 0.000104965, -23.4585, 0.81171, 131.715, 0.935145, 11.696, 1.02229, -108.342, 0.107952, 142.943
1, 3480.00000, 221.755, -30.0906, 221.573, -150.109, 221.858, 89.8524, 0.000104964, -23.4585, 0.81171, 131.715, 0.935146, 11.696, 1.02229, -108.342, 0.107952, 142.943
1, 3540.00000, 221.755, -30.0906, 221.573, -150.109, 221.858, 89.8524, 0.000104964, -23.4585, 0.81171, 131.715, 0.935146, 11.696, 1.02229, -108.342, 0.107952, 142.943
