hour, t(sec), V1, VAngle1, V2, VAngle2, V3, VAngle3, V4, VAngle4, I1, IAngle1, I2, IAngle2, I3, IAngle3, I4, IAngle4
0, 60.00000, 223.884, -30.2318, 223.993, -150.251, 224.117, 89.7722, 0.00395821, -103.468, 0.217078, 131.574, 0.192865, 11.5532, 0.144565, -108.423, 0.0638707, -89.3004
0, 120.00000, 223.884, -30.2318, 223.993, -150.251, 224.117, 89.7722, 0.00395822, -103.468, 0.217078, 131.574, 0.192865, 11.5532, 0.144565, -108.423, 0.0638707, -89.3005
0, 180.00000, 223.884, -30.2318, 223.993, -150.251, 224.117, 89.7722, 0.00395822, -103.468, 0.217078, 131.574, 0.192865, 11.5532, 0.144565, -108.423, 0.0638707, -89.3005
0, 240.00000, 223.884, -30.2318, 223.993, -150.251, 224.117, 89.7722, 0.00395822, -103.468, 0.217078, 131.574, 0.192865, 11.5532, 0.144565, -108.423, 0.0638707, -89.3005
0, 300.00000, 223.884, -30.2318, 223.993, -150.251, 224.117, 89.7722, 0.00395822, -103.468, 0.217078, 131.574, 0.192865, 11.5532, 0.144565, -108.423, 0.0638707, -89.3005
0, 360.00000, 223.825, -30.2501, 224.054, -150.254, 224.026, 89.7702, 0.00143972, -91.3439, 0.217134, 131.555, 0.192812, 11.551, 0.168729, -108.425, 0.0418761, -78.3499
0, 420.00000, 223.825, -30.2501, 224.054, -150.254, 224.026, 89.7702, 0.00143974, -91.3439, 0.217135, 131.555, 0.192812, 11.551, 0.168729, -108.425, 0.0418763, -78.3499
0, 480.00000, 223.825, -30.2501, 224.054, -150.254, 224.026, 89.7702, 0.00143974, -91.3439, 0.217135, 131.555, 0.192812, 11.551, 0.168729, -108.425, 0.0418763, -78.3499
0, 540.00000, 223.825, -30.2501, 224.054, -150.254, 224.026, 89.7702, 0.00143974, -91.3439, 0.217135, 131.555, 0.192812, 11.551, 0.168729, -108.425, 0.0418763, -78.3499
0, 600.00000, 223.825, -30.2501, 224.054, -150.254, 224.026, 89.7702, 0.00143974, -91.3439, 0.217135, 131.555, 0.192812, 11.551, 0.168729, -108.425, 0.0418763, -78.3499
0, 660.00000, 223.784, -30.2471, 224.097, -150.253, 224.074, 89.7812, 0.00569743, -91.4529, 0.193046, 131.559, 0.192777, 11.5505, 0.144591, -108.414, 0.0482944, -108.262
0, 720.00000, 223.784, -30.2471, 224.097, -150.253, 224.074, 89.7812, 0.00569742, -91.4529, 0.193046, 131.559, 0.192776, 11.5505, 0.144591, -108.414, 0.0482942, -108.262
0, 780.00000, 223.784, -30.2471, 224.097, -150.253, 224.074, 89.7812, 0.00569742, -91.4529, 0.193046, 131.559, 0.192776, 11.5505, 0.144591, -108.414, 0.0482942, -108.262
0, 840.00000, 223.784, -30.2471, 224.097, -150.253, 224.074, 89.7812, 0.00569742, -91.4529, 0.193046, 131.559, 0.192776, 11.5505, 0.144591, -108.414, 0.0482942, -108.262
0, 900.00000, 223.784, -30.2471, 224.097, -150.253, 224.074, 89.7812, 0.00569742, -91.4529, 0.193046, 131.559, 0.192776, 11.5505, 0.144591, -108.414, 0.0482942, -108.262
0, 960.00000, 223.904, -30.2262, 223.879, -150.254, 224.057, 89.7535, 0.00413858, -102.542, 0.192945, 131.58, 0.217079, 11.5499, 0.168703, -108.442, 0.0418066, -138.405
0, 1020.00000, 223.904, -30.2262, 223.879, -150.254, 224.057, 89.7535, 0.00413811, -102.548, 0.192941, 131.58, 0.217085, 11.55, 0.168704, -108.442, 0.0418103, -138.415
0, 1080.00000, 223.904, -30.2262, 223.879, -150.254, 224.057, 89.7535, 0.00413811, -102.548, 0.192941, 131.58, 0.217085, 11.55, 0.168704, -108.442, 0.0418103, -138.415
0, 1140.00000, 223.904, -30.2262, 223.879, -150.254, 224.057, 89.7535, 0.00413811, -102.548, 0.192941, 131.58, 0.217085, 11.55, 0.168704, -108.442, 0.0418103, -138.415
0, 1200.00000, 223.904, -30.2262, 223.879, -150.254, 224.057, 89.7535, 0.00413811, -102.548, 0.192941, 131.58, 0.217085, 11.55, 0.168704, -108.442, 0.0418103, -138.415
0, 1260.00000, 223.887, -30.2266, 223.872, -150.261, 224.106, 89.7589, 0.00308982, -18.473, 0.217077, 131.578, 0.144724, 11.5436, 0.192765, -108.435, 0.0637888, -7.63266
0, 1320.00000, 223.887, -30.2266, 223.872, -150.261, 224.106, 89.7589, 0.0030898, -18.4733, 0.217077, 131.578, 0.144724, 11.5436, 0.192765, -108.435, 0.0637885, -7.63291
0, 1380.00000, 223.887, -30.2266, 223.872, -150.261, 224.106, 89.7589, 0.0030898, -18.4733, 0.217077, 131.578, 0.144724, 11.5436, 0.192765, -108.435, 0.0637885, -7.63291
0, 1440.00000, 223.887, -30.2266, 223.872, -150.261, 224.106, 89.7589, 0.0030898, -18.4733, 0.217077, 131.578, 0.144724, 11.5436, 0.192765, -108.435, 0.0637885, -7.63291
0, 1500.00000, 223.887, -30.2266, 223.872, -150.261, 224.106, 89.7589, 0.0030898, -18.4733, 0.217077, 131.578, 0.144724, 11.5436, 0.192765, -108.435, 0.0637885, -7.63291
0, 1560.00000, 223.837, -30.2381, 224.064, -150.253, 224.127, 89.7822, 0.00857164, -125.802, 0.192997, 131.569, 0.241011, 11.5509, 0.168649, -108.414, 0.0637818, -149.223
0, 1620.00000, 223.837, -30.2381, 224.064, -150.253, 224.127, 89.7822, 0.00857165, -125.802, 0.192997, 131.569, 0.241011, 11.5509, 0.168649, -108.414, 0.0637818, -149.223
0, 1680.00000, 223.837, -30.2381, 224.064, -150.253, 224.127, 89.7822, 0.00857165, -125.802, 0.192997, 131.569, 0.241011, 11.5509, 0.168649, -108.414, 0.0637818, -149.223
0, 1740.00000, 223.837, -30.2381, 224.064, -150.253, 224.127, 89.7822, 0.00857165, -125.802, 0.192997, 131.569, 0.241011, 11.5509, 0.168649, -108.414, 0.0637818, -149.223
0, 1800.00000, 223.837, -30.2381, 224.064, -150.253, 224.127, 89.7822, 0.00857165, -125.802, 0.192997, 131.569, 0.241011, 11.5509, 0.168649, -108.414, 0.0637818, -149.223
0, 1860.00000, 223.855, -30.251, 224.018, -150.249, 223.992, 89.7628, 0.00277381, -125.538, 0.144736, 131.555, 0.168738, 11.5561, 0.192862, -108.433, 0.041696, 101.522
0, 1920.00000, 223.855, -30.251, 224.018, -150.249, 223.992, 89.7628, 0.0027738, -125.538, 0.144736, 131.555, 0.168738, 11.5561, 0.192862, -108.433, 0.041696, 101.522
0, 1980.00000, 223.855, -30.251, 224.018, -150.249, 223.992, 89.7628, 0.0027738, -125.538, 0.144736, 131.555, 0.168738, 11.5561, 0.192862, -108.433, 0.041696, 101.522
0, 2040.00000, 223.855, -30.251, 224.018, -150.249, 223.992, 89.7628, 0.0027738, -125.538, 0.144736, 131.555, 0.168738, 11.5561, 0.192862, -108.433, 0.041696, 101.522
0, 2100.00000, 223.855, -30.251, 224.018, -150.249, 223.992, 89.7628, 0.0027738, -125.538, 0.144736, 131.555, 0.168738, 11.5561, 0.192862, -108.433, 0.041696, 101.522
0, 2160.00000, 223.907, -30.2232, 223.966, -150.257, 224.134, 89.7638, 0.00398066, -81.9953, 0.19294, 131.583, 0.216999, 11.5468, 0.21683, -108.431, 0.0240478, 131.706
0, 2220.00000, 223.907, -30.2231, 223.966, -150.257, 224.134, 89.7638, 0.00398065, -81.9952, 0.192939, 131.583, 0.216999, 11.5468, 0.21683, -108.431, 0.0240479, 131.706
0, 2280.00000, 223.907, -30.2231, 223.966, -150.257, 224.134, 89.7638, 0.00398065, -81.9952, 0.192939, 131.583, 0.216999, 11.5468, 0.21683, -108.431, 0.0240479, 131.706
0, 2340.00000, 223.907, -30.2231, 223.966, -150.257, 224.134, 89.7638, 0.00398065, -81.9952, 0.192939, 131.583, 0.216999, 11.5468, 0.21683, -108.431, 0.0240479, 131.706
0, 2400.00000, 223.907, -30.2231, 223.966, -150.257, 224.134, 89.7638, 0.00398065, -81.9952, 0.192939, 131.583, 0.216999, 11.5468, 0.21683, -108.431, 0.0240479, 131.706
0, 2460.00000, 223.833, -30.2481, 224.071, -150.246, 224.002, 89.7651, 0.00402671, -74.9886, 0.193003, 131.558, 0.216897, 11.558, 0.192852, -108.429, 0.0240065, -168.179
0, 2520.00000, 223.833, -30.2481, 224.071, -150.246, 224.002, 89.7651, 0.00402672, -74.9883, 0.193003, 131.558, 0.216896, 11.558, 0.192852, -108.429, 0.024006, -168.179
0, 2580.00000, 223.833, -30.2481, 224.071, -150.246, 224.002, 89.7651, 0.00402672, -74.9883, 0.193003, 131.558, 0.216896, 11.558, 0.192852, -108.429, 0.024006, -168.179
0, 2640.00000, 223.833, -30.2481, 224.071, -150.246, 224.002, 89.7651, 0.00402672, -74.9883, 0.193003, 131.558, 0.216896, 11.558, 0.192852, -108.429, 0.024006, -168.179
0, 2700.00000, 223.833, -30.2481, 224.071, -150.246, 224.002, 89.7651, 0.00402672, -74.9883, 0.193003, 131.558, 0.216896, 11.558, 0.192852, -108.429, 0.024006, -168.179
0, 2760.00000, 223.863, -30.2431, 224.028, -150.239, 224.009, 89.7668, 0.00357638, -72.8636, 0.168855, 131.563, 0.216938, 11.5653, 0.192847, -108.428, 0.0416679, 161.643
0, 2820.00000, 223.863, -30.2431, 224.028, -150.239, 224.009, 89.7668, 0.00357639, -72.8635, 0.168855, 131.563, 0.216938, 11.5653, 0.192847, -108.428, 0.0416678, 161.643
0, 2880.00000, 223.863, -30.2431, 224.028, -150.239, 224.009, 89.7668, 0.00357639, -72.8635, 0.168855, 131.563, 0.216938, 11.5653, 0.192847, -108.428, 0.0416678, 161.643
0, 2940.00000, 223.863, -30.2431, 224.028, -150.239, 224.009, 89.7668, 0.00357639, -72.8635, 0.168855, 131.563, 0.216938, 11.5653, 0.192847, -108.428, 0.0416678, 161.643
0, 3000.00000, 223.863, -30.2431, 224.028, -150.239, 224.009, 89.7668, 0.00357639, -72.8635, 0.168855, 131.563, 0.216938, 11.5653, 0.192847, -108.428, 0.0416678, 161.643
0, 3060.00000, 223.852, -30.2407, 224.026, -150.252, 224.05, 89.7607, 0.00384103, -82.0535, 0.192987, 131.565, 0.192836, 11.552, 0.216912, -108.434, 0.0240399, 71.3124
0, 3120.00000, 223.852, -30.2407, 224.026, -150.252, 224.05, 89.7607, 0.00384101, -82.0537, 0.192987, 131.565, 0.192836, 11.552, 0.216913, -108.434, 0.02404, 71.3135
0, 3180.00000, 223.852, -30.2407, 224.026, -150.252, 224.05, 89.7607, 0.00384101, -82.0537, 0.192987, 131.565, 0.192836, 11.552, 0.216913, -108.434, 0.02404, 71.3136
0, 3240.00000, 223.852, -30.2407, 224.026, -150.252, 224.05, 89.7607, 0.00384101, -82.0537, 0.192987, 131.565, 0.192836, 11.552, 0.216913, -108.434, 0.02404, 71.3136
0, 3300.00000, 223.852, -30.2407, 224.026, -150.252, 224.05, 89.7607, 0.00384101, -82.0537, 0.192987, 131.565, 0.192836, 11.552, 0.216913, -108.434, 0.02404, 71.3136
0, 3360.00000, 223.96, -30.2346, 223.953, -150.25, 224.024, 89.7542, 0.000697473, -105.131, 0.168781, 131.571, 0.168785, 11.5553, 0.192836, -108.441, 0.0240921, 71.5427
0, 3420.00000, 223.96, -30.2346, 223.953, -150.25, 224.024, 89.7542, 0.000697477, -105.134, 0.168781, 131.571, 0.168786, 11.5553, 0.192836, -108.441, 0.0240919, 71.5439
0, 3480.00000, 223.96, -30.2346, 223.953, -150.25, 224.024, 89.7542, 0.000697477, -105.134, 0.168781, 131.571, 0.168786, 11.5553, 0.192836, -108.441, 0.0240919, 71.5439
0, 3540.00000, 223.96, -30.2346, 223.953, -150.25, 224.024, 89.7542, 0.000697477, -105.134, 0.168781, 131.571, 0.168786, 11.5553, 0.192836, -108.441, 0.0240919, 71.5439
1, 0.00000, 223.96, -30.2346, 223.953, -150.25, 224.024, 89.7542, 0.000697477, -105.134, 0.168781, 131.571, 0.168786, 11.5553, 0.192836, -108.441, 0.0240919, 71.5439
1, 60.00000, 224.151, -30.19, 224.291, -150.202, 224.304, 89.8102, 0.00509789, -108.767, 0.168637, 131.616, 0.168535, 11.6024, 0.144444, -108.385, 0.0241064, -108.212
1, 120.00000, 224.151, -30.19, 224.291, -150.202, 224.304, 89.8102, 0.00509787, -108.767, 0.168637, 131.616, 0.168534, 11.6025, 0.144444, -108.385, 0.0241063, -108.212
1, 180.00000, 224.151, -30.19, 224.291, -150.202, 224.304, 89.8102, 0.00509787, -108.767, 0.168637, 131.616, 0.168534, 11.6025, 0.144444, -108.385, 0.0241063, -108.212
1, 240.00000, 224.151, -30.19, 224.291, -150.202, 224.304, 89.8102, 0.00509787, -108.767, 0.168637, 131.616, 0.168534, 11.6025, 0.144444, -108.385, 0.0241063, -108.212
1, 300.00000, 224.151, -30.19, 224.291, -150.202, 224.304, 89.8102, 0.00509787, -108.767, 0.168637, 131.616, 0.168534, 11.6025, 0.144444, -108.385, 0.0241063, -108.212
1, 360.00000, 224.156, -30.1925, 224.268, -150.21, 224.343, 89.814, 0.00370709, -122.024, 0.144542, 131.614, 0.19263, 11.5949, 0.14442, -108.381, 0.0481598, -168.343
1, 420.00000, 224.156, -30.1926, 224.268, -150.21, 224.343, 89.814, 0.00370711, -122.024, 0.144542, 131.614, 0.19263, 11.5949, 0.14442, -108.381, 0.04816, -168.343
1, 480.00000, 224.156, -30.1926, 224.268, -150.21, 224.343, 89.814, 0.00370711, -122.024, 0.144542, 131.614, 0.19263, 11.5949, 0.14442, -108.381, 0.04816, -168.343
1, 540.00000, 224.156, -30.1926, 224.268, -150.21, 224.343, 89.814, 0.00370711, -122.024, 0.144542, 131.614, 0.19263, 11.5949, 0.14442, -108.381, 0.04816, -168.343
1, 600.00000, 224.156, -30.1926, 224.268, -150.21, 224.343, 89.814, 0.00370711, -122.024, 0.144542, 131.614, 0.19263, 11.5949, 0.14442, -108.381, 0.04816, -168.343
1, 660.00000, 224.062, -30.1987, 224.303, -150.209, 224.325, 89.8196, 0.000926218, -88.7829, 0.120503, 131.607, 0.120373, 11.5964, 0.168505, -108.375, 0.0480854, 71.5489
1, 720.00000, 224.062, -30.1987, 224.303, -150.209, 224.325, 89.8196, 0.000926211, -88.7828, 0.120503, 131.607, 0.120373, 11.5964, 0.168505, -108.375, 0.0480855, 71.5489
1, 780.00000, 224.062, -30.1987, 224.303, -150.209, 224.325, 89.8196, 0.000926211, -88.7828, 0.120503, 131.607, 0.120373, 11.5964, 0.168505, -108.375, 0.0480855, 71.5489
1, 840.00000, 224.062, -30.1987, 224.303, -150.209, 224.325, 89.8196, 0.000926211, -88.7828, 0.120503, 131.607, 0.120373, 11.5964, 0.168505, -108.375, 0.0480855, 71.5489
1, 900.00000, 224.062, -30.1987, 224.303, -150.209, 224.325, 89.8196, 0.000926211, -88.7828, 0.120503, 131.607, 0.120373, 11.5964, 0.168505, -108.375, 0.0480855, 71.5489
1, 960.00000, 224.106, -30.202, 224.223, -150.217, 224.315, 89.8048, 0.00408641, 7.14428, 0.168672, 131.603, 0.120414, 11.5878, 0.192587, -108.389, 0.0636692, 30.6282
1, 1020.00000, 224.106, -30.202, 224.223, -150.217, 224.315, 89.8048, 0.00408641, 7.14406, 0.168673, 131.603, 0.120414, 11.5878, 0.192587, -108.389, 0.0636691, 30.6279
1, 1080.00000, 224.106, -30.202, 224.223, -150.217, 224.315, 89.8048, 0.00408641, 7.14405, 0.168673, 131.603, 0.120414, 11.5878, 0.192587, -108.389, 0.0636691, 30.6279
1, 1140.00000, 224.106, -30.202, 224.223, -150.217, 224.315, 89.8048, 0.00408641, 7.14405, 0.168673, 131.603, 0.120414, 11.5878, 0.192587, -108.389, 0.0636691, 30.6279
1, 1200.00000, 224.106, -30.202, 224.223, -150.217, 224.315, 89.8048, 0.00408641, 7.14405, 0.168673, 131.603, 0.120414, 11.5878, 0.192587, -108.389, 0.0636691, 30.6279
1, 1260.00000, 224.14, -30.189, 224.204, -150.209, 224.333, 89.8045, 0.00454493, -97.1601, 0.120461, 131.617, 0.144513, 11.5953, 0.144425, -108.391, 0.0240386, 131.71
1, 1320.00000, 224.14, -30.189, 224.204, -150.209, 224.333, 89.8045, 0.00454491, -97.1602, 0.120461, 131.617, 0.144513, 11.5953, 0.144425, -108.391, 0.0240388, 131.71
1, 1380.00000, 224.14, -30.189, 224.204, -150.209, 224.333, 89.8045, 0.00454491, -97.1602, 0.120461, 131.617, 0.144513, 11.5953, 0.144425, -108.391, 0.0240388, 131.71
1, 1440.00000, 224.14, -30.189, 224.204, -150.209, 224.333, 89.8045, 0.00454491, -97.1602, 0.120461, 131.617, 0.144513, 11.5953, 0.144425, -108.391, 0.0240388, 131.71
1, 1500.00000, 224.14, -30.189, 224.204, -150.209, 224.333, 89.8045, 0.00454491, -97.1602, 0.120461, 131.617, 0.144513, 11.5953, 0.144425, -108.391, 0.0240388, 131.71
1, 1560.00000, 224.157, -30.2029, 224.326, -150.196, 224.276, 89.8071, 0.00223798, -30.8012, 0.144543, 131.602, 0.168504, 11.6091, 0.192619, -108.387, 0.0416326, 101.538
1, 1620.00000, 224.157, -30.2029, 224.326, -150.196, 224.276, 89.8071, 0.002238, -30.8012, 0.144543, 131.602, 0.168504, 11.6091, 0.192619, -108.387, 0.0416325, 101.538
1, 1680.00000, 224.157, -30.2029, 224.326, -150.196, 224.276, 89.8071, 0.002238, -30.8012, 0.144543, 131.602, 0.168504, 11.6091, 0.192619, -108.387, 0.0416325, 101.538
1, 1740.00000, 224.157, -30.2029, 224.326, -150.196, 224.276, 89.8071, 0.002238, -30.8012, 0.144543, 131.602, 0.168504, 11.6091, 0.192619, -108.387, 0.0416325, 101.538
1, 1800.00000, 224.157, -30.2029, 224.326, -150.196, 224.276, 89.8071, 0.002238, -30.8012, 0.144543, 131.602, 0.168504, 11.6091, 0.192619, -108.387, 0.0416325, 101.538
1, 1860.00000, 224.102, -30.2011, 224.264, -150.203, 224.301, 89.8115, 0.0063056, -45.2872, 0.216871, 131.604, 0.120393, 11.6006, 0.120372, -108.382, 0.0964577, -48.4123
1, 1920.00000, 224.102, -30.2011, 224.264, -150.203, 224.301, 89.8115, 0.00630561, -45.2873, 0.216871, 131.604, 0.120393, 11.6006, 0.120372, -108.382, 0.0964578, -48.4124
1, 1980.00000, 224.102, -30.2011, 224.264, -150.203, 224.301, 89.8115, 0.00630561, -45.2873, 0.216871, 131.604, 0.120393, 11.6006, 0.120372, -108.382, 0.0964578, -48.4124
1, 2040.00000, 224.102, -30.2011, 224.264, -150.203, 224.301, 89.8115, 0.00630561, -45.2873, 0.216871, 131.604, 0.120393, 11.6006, 0.120372, -108.382, 0.0964578, -48.4124
1, 2100.00000, 224.102, -30.2011, 224.264, -150.203, 224.301, 89.8115, 0.00630561, -45.2873, 0.216871, 131.604, 0.120393, 11.6006, 0.120372, -108.382, 0.0964578, -48.4124
1, 2160.00000, 224.156, -30.1932, 224.202, -150.205, 224.305, 89.8034, 0.00479799, -96.0615, 0.168634, 131.613, 0.1686, 11.5994, 0.144443, -108.392, 0.0241393, -108.337
1, 2220.00000, 224.156, -30.1932, 224.202, -150.205, 224.305, 89.8034, 0.00479798, -96.0615, 0.168634, 131.613, 0.1686, 11.5994, 0.144443, -108.392, 0.0241392, -108.337
1, 2280.00000, 224.156, -30.1932, 224.202, -150.205, 224.305, 89.8034, 0.00479798, -96.0615, 0.168634, 131.613, 0.1686, 11.5994, 0.144443, -108.392, 0.0241392, -108.337
1, 2340.00000, 224.156, -30.1932, 224.202, -150.205, 224.305, 89.8034, 0.00479798, -96.0615, 0.168634, 131.613, 0.1686, 11.5994, 0.144443, -108.392, 0.0241392, -108.337
1, 2400.00000, 224.156, -30.1932, 224.202, -150.205, 224.305, 89.8034, 0.00479798, -96.0615, 0.168634, 131.613, 0.1686, 11.5994, 0.144443, -108.392, 0.0241392, -108.337
1, 2460.00000, 224.182, -30.1994, 224.309, -150.191, 224.249, 89.8094, 0.00481222, -16.372, 0.144529, 131.605, 0.12037, 11.6138, 0.16856, -108.384, 0.0417104, 41.5328
1, 2520.00000, 224.182, -30.1994, 224.309, -150.191, 224.249, 89.8094, 0.00481237, -16.3704, 0.144528, 131.605, 0.120368, 11.6137, 0.168562, -108.384, 0.0417136, 41.5335
1, 2580.00000, 224.182, -30.1994, 224.309, -150.191, 224.249, 89.8094, 0.00481237, -16.3704, 0.144528, 131.605, 0.120368, 11.6137, 0.168562, -108.384, 0.0417137, 41.5335
1, 2640.00000, 224.182, -30.1994, 224.309, -150.191, 224.249, 89.8094, 0.00481237, -16.3704, 0.144528, 131.605, 0.120368, 11.6137, 0.168562, -108.384, 0.0417137, 41.5335
1, 2700.00000, 224.182, -30.1994, 224.309, -150.191, 224.249, 89.8094, 0.00481237, -16.3704, 0.144528, 131.605, 0.120368, 11.6137, 0.168562, -108.384, 0.0417137, 41.5335
1, 2760.00000, 224.181, -30.1927, 224.256, -150.204, 224.333, 89.8026, 0.00317488, -53.5704, 0.144528, 131.613, 0.120398, 11.6005, 0.168498, -108.392, 0.0416753, 41.5179
1, 2820.00000, 224.181, -30.1927, 224.256, -150.204, 224.333, 89.8027, 0.00317488, -53.5706, 0.144528, 131.613, 0.120398, 11.6005, 0.168498, -108.392, 0.0416752, 41.5179
1, 2880.00000, 224.181, -30.1927, 224.256, -150.204, 224.333, 89.8027, 0.00317488, -53.5706, 0.144528, 131.613, 0.120398, 11.6005, 0.168498, -108.392, 0.0416752, 41.5179
1, 2940.00000, 224.181, -30.1927, 224.256, -150.204, 224.333, 89.8027, 0.00317488, -53.5706, 0.144528, 131.613, 0.120398, 11.6005, 0.168498, -108.392, 0.0416752, 41.5179
1, 3000.00000, 224.181, -30.1927, 224.256, -150.204, 224.333, 89.8027, 0.00317488, -53.5706, 0.144528, 131.613, 0.120398, 11.6005, 0.168498, -108.392, 0.0416752, 41.5179
1, 3060.00000, 224.107, -30.2047, 224.34, -150.202, 224.299, 89.8115, 0.00432228, -55.9996, 0.168672, 131.601, 0.120353, 11.6025, 0.144448, -108.383, 0.0418063, -18.4908
1, 3120.00000, 224.107, -30.2047, 224.34, -150.202, 224.299, 89.8115, 0.00432229, -55.9996, 0.168672, 131.601, 0.120353, 11.6025, 0.144448, -108.383, 0.0418064, -18.491
1, 3180.00000, 224.107, -30.2047, 224.34, -150.202, 224.299, 89.8115, 0.00432229, -55.9996, 0.168672, 131.601, 0.120353, 11.6025, 0.144448, -108.383, 0.0418064, -18.491
1, 3240.00000, 224.107, -30.2047, 224.34, -150.202, 224.299, 89.8115, 0.00432229, -55.9996, 0.168672, 131.601, 0.120353, 11.6025, 0.144448, -108.383, 0.0418064, -18.491
1, 3300.00000, 224.107, -30.2047, 224.34, -150.202, 224.299, 89.8115, 0.00432229, -55.9996, 0.168672, 131.601, 0.120353, 11.6025, 0.144448, -108.383, 0.0418064, -18.491
1, 3360.00000, 224.186, -30.1961, 224.259, -150.202, 224.264, 89.8029, 0.00295108, -47.6567, 0.168613, 131.609, 0.144475, 11.6029, 0.16855, -108.391, 0.0241076, 11.5149
1, 3420.00000, 224.186, -30.1961, 224.259, -150.202, 224.264, 89.8029, 0.00295106, -47.6568, 0.168612, 131.609, 0.144475, 11.6029, 0.16855, -108.391, 0.0241073, 11.5158
