hour, t(sec), V1, VAngle1, V2, VAngle2, V3, VAngle3, V4, VAngle4, I1, IAngle1, I2, IAngle2, I3, IAngle3, I4, IAngle4
0, 60.00000, 222.973, -30.1332, 223.022, -150.181, 223.356, 89.8391, 0.000189356, -114.658, 1.23916, 131.672, 1.10124, 11.6245, 0.962141, -108.356, 0.141625, -26.0647
0, 120.00000, 222.973, -30.1332, 223.022, -150.181, 223.356, 89.8391, 0.000189357, -114.658, 1.23917, 131.672, 1.10124, 11.6245, 0.962142, -108.356, 0.141626, -26.0647
0, 180.00000, 222.973, -30.1332, 223.022, -150.181, 223.356, 89.8391, 0.000189357, -114.658, 1.23917, 131.672, 1.10124, 11.6245, 0.962142, -108.356, 0.141626, -26.0647
0, 240.00000, 222.973, -30.1332, 223.022, -150.181, 223.356, 89.8391, 0.000189357, -114.658, 1.23917, 131.672, 1.10124, 11.6245, 0.962142, -108.356, 0.141626, -26.0647
0, 300.00000, 222.973, -30.1332, 223.022, -150.181, 223.356, 89.8391, 0.000189357, -114.658, 1.23917, 131.672, 1.10124, 11.6245, 0.962142, -108.356, 0.141626, -26.0647
0, 360.00000, 223.002, -30.1262, 222.828, -150.182, 223.309, 89.8146, 7.96996E-005, 105.271, 1.10133, 131.679, 1.23997, 11.6233, 1.2373, -108.38, 0.0752994, 160.688
0, 420.00000, 223.002, -30.1262, 222.828, -150.182, 223.309, 89.8146, 7.96987E-005, 105.273, 1.10134, 131.679, 1.23997, 11.6233, 1.2373, -108.38, 0.0752977, 160.69
0, 480.00000, 223.002, -30.1262, 222.828, -150.182, 223.309, 89.8146, 7.96987E-005, 105.273, 1.10134, 131.679, 1.23997, 11.6233, 1.2373, -108.38, 0.0752976, 160.69
0, 540.00000, 223.002, -30.1262, 222.828, -150.182, 223.309, 89.8146, 7.96987E-005, 105.273, 1.10134, 131.679, 1.23997, 11.6233, 1.2373, -108.38, 0.0752976, 160.69
0, 600.00000, 223.002, -30.1262, 222.828, -150.182, 223.309, 89.8146, 7.96987E-005, 105.273, 1.10134, 131.679, 1.23997, 11.6233, 1.2373, -108.38, 0.0752976, 160.69
0, 660.00000, 222.989, -30.1408, 223.051, -150.178, 223.329, 89.834, 9.84176E-005, -36.2833, 1.23908, 131.664, 1.1011, 11.6269, 1.23718, -108.361, 0.101448, 56.7857
0, 720.00000, 222.989, -30.1408, 223.051, -150.178, 223.329, 89.834, 9.84185E-005, -36.2815, 1.23907, 131.664, 1.10109, 11.6269, 1.23719, -108.361, 0.101449, 56.7871
0, 780.00000, 222.989, -30.1408, 223.051, -150.178, 223.329, 89.834, 9.84185E-005, -36.2815, 1.23907, 131.664, 1.10109, 11.6269, 1.23719, -108.361, 0.101449, 56.7871
0, 840.00000, 222.989, -30.1408, 223.051, -150.178, 223.329, 89.834, 9.84185E-005, -36.2815, 1.23907, 131.664, 1.10109, 11.6269, 1.23719, -108.361, 0.101449, 56.7871
0, 900.00000, 222.989, -30.1408, 223.051, -150.178, 223.329, 89.834, 9.84185E-005, -36.2815, 1.23907, 131.664, 1.10109, 11.6269, 1.23719, -108.361, 0.101449, 56.7871
0, 960.00000, 223.196, -30.1296, 222.903, -150.172, 223.283, 89.8032, 9.76441E-005, -34.7426, 1.1004, 131.675, 0.964106, 11.6336, 1.09991, -108.392, 0.0991484, 56.8856
0, 1020.00000, 223.196, -30.1295, 222.902, -150.172, 223.283, 89.8032, 9.76492E-005, -34.7174, 1.10038, 131.676, 0.964099, 11.6335, 1.09995, -108.392, 0.0991598, 56.9057
0, 1080.00000, 223.196, -30.1295, 222.902, -150.172, 223.283, 89.8032, 9.76491E-005, -34.7173, 1.10038, 131.676, 0.964099, 11.6335, 1.09995, -108.392, 0.0991597, 56.9057
0, 1140.00000, 223.196, -30.1295, 222.902, -150.172, 223.283, 89.8032, 9.76491E-005, -34.7173, 1.10038, 131.676, 0.964099, 11.6335, 1.09995, -108.392, 0.0991597, 56.9057
0, 1200.00000, 223.196, -30.1295, 222.902, -150.172, 223.283, 89.8032, 9.76491E-005, -34.7173, 1.10038, 131.676, 0.964099, 11.6335, 1.09995, -108.392, 0.0991597, 56.9057
0, 1260.00000, 222.896, -30.1289, 222.924, -150.196, 223.354, 89.8342, 2.0893E-005, -118.239, 1.10186, 131.676, 1.10172, 11.6089, 1.0996, -108.361, 0.0198712, 60.7286
0, 1320.00000, 222.896, -30.1289, 222.924, -150.196, 223.354, 89.8342, 2.08937E-005, -118.237, 1.10186, 131.676, 1.10172, 11.6089, 1.0996, -108.361, 0.0198715, 60.7272
0, 1380.00000, 222.896, -30.1289, 222.924, -150.196, 223.354, 89.8342, 2.08937E-005, -118.237, 1.10186, 131.676, 1.10172, 11.6089, 1.0996, -108.361, 0.0198715, 60.7272
0, 1440.00000, 222.896, -30.1289, 222.924, -150.196, 223.354, 89.8342, 2.08937E-005, -118.237, 1.10186, 131.676, 1.10172, 11.6089, 1.0996, -108.361, 0.0198715, 60.7272
0, 1500.00000, 222.896, -30.1289, 222.924, -150.196, 223.354, 89.8342, 2.08937E-005, -118.237, 1.10186, 131.676, 1.10172, 11.6089, 1.0996, -108.361, 0.0198715, 60.7272
0, 1560.00000, 223.123, -30.15, 223.161, -150.169, 223.322, 89.8375, 0.000178553, 99.2607, 0.825555, 131.655, 1.10055, 11.6362, 1.09976, -108.357, 0.156797, 169.428
0, 1620.00000, 223.123, -30.15, 223.161, -150.169, 223.322, 89.8375, 0.000178555, 99.2603, 0.825553, 131.655, 1.10055, 11.6362, 1.09976, -108.357, 0.156798, 169.428
0, 1680.00000, 223.123, -30.15, 223.161, -150.169, 223.322, 89.8375, 0.000178555, 99.2603, 0.825553, 131.655, 1.10055, 11.6362, 1.09976, -108.357, 0.156798, 169.428
0, 1740.00000, 223.123, -30.15, 223.161, -150.169, 223.322, 89.8375, 0.000178555, 99.2603, 0.825553, 131.655, 1.10055, 11.6362, 1.09976, -108.357, 0.156798, 169.428
0, 1800.00000, 223.123, -30.15, 223.161, -150.169, 223.322, 89.8375, 0.000178555, 99.2603, 0.825553, 131.655, 1.10055, 11.6362, 1.09976, -108.357, 0.156798, 169.428
0, 1860.00000, 222.88, -30.158, 223.169, -150.189, 223.3, 89.842, 0.000278179, -104.428, 1.37742, 131.647, 1.10051, 11.6165, 0.962381, -108.353, 0.220479, -17.9755
0, 1920.00000, 222.88, -30.158, 223.169, -150.189, 223.3, 89.842, 0.00027818, -104.428, 1.37742, 131.647, 1.10051, 11.6165, 0.962381, -108.353, 0.22048, -17.9754
0, 1980.00000, 222.88, -30.158, 223.169, -150.189, 223.3, 89.842, 0.00027818, -104.428, 1.37742, 131.647, 1.10051, 11.6165, 0.962381, -108.353, 0.22048, -17.9754
0, 2040.00000, 222.88, -30.158, 223.169, -150.189, 223.3, 89.842, 0.00027818, -104.428, 1.37742, 131.647, 1.10051, 11.6165, 0.962381, -108.353, 0.22048, -17.9754
0, 2100.00000, 222.88, -30.158, 223.169, -150.189, 223.3, 89.842, 0.00027818, -104.428, 1.37742, 131.647, 1.10051, 11.6165, 0.962381, -108.353, 0.22048, -17.9754
0, 2160.00000, 223.058, -30.1462, 223.157, -150.176, 223.286, 89.8364, 0.000100746, 167.34, 0.963427, 131.659, 1.10057, 11.6291, 0.962443, -108.358, 0.0619198, -125.739
0, 2220.00000, 223.058, -30.1462, 223.157, -150.176, 223.286, 89.8364, 0.000100745, 167.339, 0.963426, 131.659, 1.10057, 11.6291, 0.962444, -108.358, 0.0619193, -125.74
0, 2280.00000, 223.058, -30.1462, 223.157, -150.176, 223.286, 89.8364, 0.000100745, 167.339, 0.963426, 131.659, 1.10057, 11.6291, 0.962444, -108.358, 0.0619193, -125.74
0, 2340.00000, 223.058, -30.1462, 223.157, -150.176, 223.286, 89.8364, 0.000100745, 167.339, 0.963426, 131.659, 1.10057, 11.6291, 0.962444, -108.358, 0.0619193, -125.74
0, 2400.00000, 223.058, -30.1462, 223.157, -150.176, 223.286, 89.8364, 0.000100745, 167.339, 0.963426, 131.659, 1.10057, 11.6291, 0.962444, -108.358, 0.0619193, -125.74
0, 2460.00000, 223.127, -30.1289, 222.864, -150.166, 223.261, 89.8008, 8.22169E-005, 103.98, 0.963126, 131.676, 1.10202, 11.6393, 1.10006, -108.394, 0.0753625, 162.731
0, 2520.00000, 223.127, -30.1289, 222.864, -150.166, 223.261, 89.8008, 8.22158E-005, 103.981, 0.963127, 131.676, 1.10202, 11.6393, 1.10006, -108.394, 0.0753609, 162.732
0, 2580.00000, 223.127, -30.1289, 222.864, -150.166, 223.261, 89.8008, 8.22158E-005, 103.981, 0.963127, 131.676, 1.10202, 11.6393, 1.10006, -108.394, 0.0753609, 162.732
0, 2640.00000, 223.127, -30.1289, 222.864, -150.166, 223.261, 89.8008, 8.22158E-005, 103.981, 0.963127, 131.676, 1.10202, 11.6393, 1.10006, -108.394, 0.0753609, 162.732
0, 2700.00000, 223.127, -30.1289, 222.864, -150.166, 223.261, 89.8008, 8.22158E-005, 103.981, 0.963127, 131.676, 1.10202, 11.6393, 1.10006, -108.394, 0.0753609, 162.732
0, 2760.00000, 223.025, -30.123, 222.986, -150.187, 223.492, 89.8221, 0.000116352, -140.095, 1.10122, 131.682, 1.10142, 11.6178, 0.961558, -108.373, 0.0731678, -51.2521
0, 2820.00000, 223.025, -30.123, 222.986, -150.187, 223.492, 89.8221, 0.000116352, -140.094, 1.10122, 131.682, 1.10141, 11.6178, 0.961557, -108.373, 0.0731684, -51.2507
0, 2880.00000, 223.025, -30.123, 222.986, -150.187, 223.492, 89.8221, 0.000116352, -140.094, 1.10122, 131.682, 1.10141, 11.6178, 0.961557, -108.373, 0.0731684, -51.2507
0, 2940.00000, 223.025, -30.123, 222.986, -150.187, 223.492, 89.8221, 0.000116352, -140.094, 1.10122, 131.682, 1.10141, 11.6178, 0.961557, -108.373, 0.0731684, -51.2507
0, 3000.00000, 223.025, -30.123, 222.986, -150.187, 223.492, 89.8221, 0.000116352, -140.094, 1.10122, 131.682, 1.10141, 11.6178, 0.961557, -108.373, 0.0731684, -51.2507
0, 3060.00000, 222.901, -30.1556, 223.205, -150.185, 223.291, 89.8398, 0.000186877, -114.608, 1.10183, 131.65, 0.962792, 11.6199, 0.824928, -108.355, 0.142189, -26.9207
0, 3120.00000, 222.901, -30.1556, 223.205, -150.185, 223.291, 89.8398, 0.000186874, -114.608, 1.10183, 131.65, 0.962792, 11.6199, 0.824931, -108.355, 0.142187, -26.9204
0, 3180.00000, 222.901, -30.1556, 223.205, -150.185, 223.291, 89.8398, 0.000186874, -114.608, 1.10183, 131.65, 0.962792, 11.6199, 0.824931, -108.355, 0.142187, -26.9204
0, 3240.00000, 222.901, -30.1556, 223.205, -150.185, 223.291, 89.8398, 0.000186874, -114.608, 1.10183, 131.65, 0.962792, 11.6199, 0.824931, -108.355, 0.142187, -26.9204
0, 3300.00000, 222.901, -30.1556, 223.205, -150.185, 223.291, 89.8398, 0.000186874, -114.608, 1.10183, 131.65, 0.962792, 11.6199, 0.824931, -108.355, 0.142187, -26.9204
0, 3360.00000, 222.966, -30.1405, 223.069, -150.188, 223.295, 89.8326, 0.000263204, -46.6708, 1.2392, 131.665, 0.825748, 11.6172, 1.09989, -108.362, 0.230744, 38.3984
0, 3420.00000, 222.966, -30.1405, 223.069, -150.188, 223.295, 89.8326, 0.0002632, -46.6714, 1.2392, 131.665, 0.825752, 11.6172, 1.09989, -108.362, 0.230741, 38.3979
0, 3480.00000, 222.966, -30.1405, 223.069, -150.188, 223.295, 89.8326, 0.0002632, -46.6714, 1.2392, 131.665, 0.825752, 11.6172, 1.09989, -108.362, 0.230741, 38.3979
0, 3540.00000, 222.966, -30.1405, 223.069, -150.188, 223.295, 89.8326, 0.0002632, -46.6714, 1.2392, 131.665, 0.825752, 11.6172, 1.09989, -108.362, 0.230741, 38.3979
1, 0.00000, 222.966, -30.1405, 223.069, -150.188, 223.295, 89.8326, 0.0002632, -46.6714, 1.2392, 131.665, 0.825752, 11.6172, 1.09989, -108.362, 0.230741, 38.3979
1, 60.00000, 223.638, -30.1353, 223.719, -150.124, 223.605, 89.8601, 0.000203092, -85.7651, 0.823652, 131.67, 0.548904, 11.6816, 0.549182, -108.335, 0.167836, -0.872345
1, 120.00000, 223.638, -30.1353, 223.719, -150.124, 223.605, 89.8601, 0.000203094, -85.765, 0.823652, 131.67, 0.548902, 11.6816, 0.549181, -108.335, 0.167838, -0.872213
1, 180.00000, 223.638, -30.1353, 223.719, -150.124, 223.605, 89.8601, 0.000203094, -85.765, 0.823652, 131.67, 0.548902, 11.6816, 0.549181, -108.335, 0.167838, -0.872212
1, 240.00000, 223.638, -30.1353, 223.719, -150.124, 223.605, 89.8601, 0.000203094, -85.765, 0.823652, 131.67, 0.548902, 11.6816, 0.549181, -108.335, 0.167838, -0.872212
1, 300.00000, 223.638, -30.1353, 223.719, -150.124, 223.605, 89.8601, 0.000203094, -85.765, 0.823652, 131.67, 0.548902, 11.6816, 0.549181, -108.335, 0.167838, -0.872212
1, 360.00000, 223.295, -30.1117, 223.533, -150.16, 223.739, 89.883, 0.000291961, -26.8501, 1.09989, 131.693, 0.6867, 11.6448, 1.09771, -108.312, 0.25768, 56.1794
1, 420.00000, 223.295, -30.1117, 223.533, -150.16, 223.739, 89.883, 0.000291961, -26.8506, 1.09989, 131.693, 0.686699, 11.6448, 1.09771, -108.312, 0.25768, 56.179
1, 480.00000, 223.295, -30.1117, 223.533, -150.16, 223.739, 89.883, 0.000291961, -26.8506, 1.09989, 131.693, 0.686699, 11.6448, 1.09771, -108.312, 0.25768, 56.1789
1, 540.00000, 223.295, -30.1117, 223.533, -150.16, 223.739, 89.883, 0.000291961, -26.8506, 1.09989, 131.693, 0.686699, 11.6448, 1.09771, -108.312, 0.25768, 56.1789
1, 600.00000, 223.295, -30.1117, 223.533, -150.16, 223.739, 89.883, 0.000291961, -26.8506, 1.09989, 131.693, 0.686699, 11.6448, 1.09771, -108.312, 0.25768, 56.1789
1, 660.00000, 223.436, -30.1449, 223.766, -150.137, 223.631, 89.8822, 9.79362E-005, -33.1463, 0.961801, 131.66, 0.82318, 11.6681, 0.960955, -108.313, 0.0966739, 56.6933
1, 720.00000, 223.436, -30.1449, 223.766, -150.137, 223.631, 89.8822, 9.79358E-005, -33.1449, 0.961798, 131.66, 0.82318, 11.6682, 0.960957, -108.313, 0.0966741, 56.6945
1, 780.00000, 223.436, -30.1449, 223.766, -150.137, 223.631, 89.8822, 9.79358E-005, -33.1449, 0.961798, 131.66, 0.82318, 11.6682, 0.960957, -108.313, 0.0966741, 56.6945
1, 840.00000, 223.436, -30.1449, 223.766, -150.137, 223.631, 89.8822, 9.79358E-005, -33.1449, 0.961798, 131.66, 0.82318, 11.6682, 0.960957, -108.313, 0.0966741, 56.6945
1, 900.00000, 223.436, -30.1449, 223.766, -150.137, 223.631, 89.8822, 9.79358E-005, -33.1449, 0.961798, 131.66, 0.82318, 11.6682, 0.960957, -108.313, 0.0966741, 56.6945
1, 960.00000, 223.386, -30.1394, 223.537, -150.143, 223.544, 89.8667, 9.79469E-005, -33.1891, 0.962009, 131.666, 0.824022, 11.6623, 0.961336, -108.328, 0.0966819, 56.8654
1, 1020.00000, 223.386, -30.1394, 223.537, -150.143, 223.544, 89.8667, 9.79465E-005, -33.1905, 0.962011, 131.666, 0.824023, 11.6622, 0.961334, -108.328, 0.096681, 56.864
1, 1080.00000, 223.386, -30.1394, 223.537, -150.143, 223.544, 89.8667, 9.79465E-005, -33.1905, 0.962011, 131.666, 0.824023, 11.6622, 0.961334, -108.328, 0.096681, 56.864
1, 1140.00000, 223.386, -30.1394, 223.537, -150.143, 223.544, 89.8667, 9.79465E-005, -33.1905, 0.962011, 131.666, 0.824023, 11.6622, 0.961334, -108.328, 0.096681, 56.864
1, 1200.00000, 223.386, -30.1394, 223.537, -150.143, 223.544, 89.8667, 9.79465E-005, -33.1905, 0.962011, 131.666, 0.824023, 11.6622, 0.961334, -108.328, 0.096681, 56.864
1, 1260.00000, 223.368, -30.1351, 223.665, -150.144, 223.608, 89.8794, 0.000253315, -7.86061, 0.96209, 131.67, 0.686294, 11.6614, 1.09835, -108.315, 0.228461, 74.3249
1, 1320.00000, 223.368, -30.1351, 223.665, -150.144, 223.608, 89.8794, 0.000253317, -7.86053, 0.96209, 131.67, 0.686292, 11.6614, 1.09835, -108.315, 0.228463, 74.3249
1, 1380.00000, 223.368, -30.1351, 223.665, -150.144, 223.608, 89.8794, 0.000253317, -7.86052, 0.96209, 131.67, 0.686292, 11.6614, 1.09835, -108.315, 0.228463, 74.3249
1, 1440.00000, 223.368, -30.1351, 223.665, -150.144, 223.608, 89.8794, 0.000253317, -7.86052, 0.96209, 131.67, 0.686292, 11.6614, 1.09835, -108.315, 0.228463, 74.3249
1, 1500.00000, 223.368, -30.1351, 223.665, -150.144, 223.608, 89.8794, 0.000253317, -7.86052, 0.96209, 131.67, 0.686292, 11.6614, 1.09835, -108.315, 0.228463, 74.3249
1, 1560.00000, 223.289, -30.1377, 223.68, -150.137, 223.575, 89.8835, 9.79203E-005, -33.224, 0.962429, 131.667, 0.823497, 11.6679, 0.961198, -108.311, 0.0967691, 56.49
1, 1620.00000, 223.289, -30.1377, 223.68, -150.137, 223.575, 89.8835, 9.79205E-005, -33.2236, 0.962428, 131.667, 0.823496, 11.6679, 0.961199, -108.311, 0.0967692, 56.4902
1, 1680.00000, 223.289, -30.1377, 223.68, -150.137, 223.575, 89.8835, 9.79205E-005, -33.2236, 0.962428, 131.667, 0.823496, 11.6679, 0.961199, -108.311, 0.0967692, 56.4902
1, 1740.00000, 223.289, -30.1377, 223.68, -150.137, 223.575, 89.8835, 9.79205E-005, -33.2236, 0.962428, 131.667, 0.823496, 11.6679, 0.961199, -108.311, 0.0967692, 56.4902
1, 1800.00000, 223.289, -30.1377, 223.68, -150.137, 223.575, 89.8835, 9.79205E-005, -33.2236, 0.962428, 131.667, 0.823496, 11.6679, 0.961199, -108.311, 0.0967692, 56.4902
1, 1860.00000, 223.402, -30.1343, 223.616, -150.139, 223.645, 89.8738, 9.78014E-005, -33.1083, 0.96194, 131.671, 0.823732, 11.6658, 0.960897, -108.321, 0.0963587, 56.6619
1, 1920.00000, 223.402, -30.1343, 223.616, -150.139, 223.645, 89.8738, 9.78012E-005, -33.1089, 0.961941, 131.671, 0.823733, 11.6658, 0.960896, -108.321, 0.0963581, 56.6614
1, 1980.00000, 223.402, -30.1343, 223.616, -150.139, 223.645, 89.8738, 9.78012E-005, -33.1089, 0.961941, 131.671, 0.823733, 11.6658, 0.960896, -108.321, 0.0963581, 56.6614
1, 2040.00000, 223.402, -30.1343, 223.616, -150.139, 223.645, 89.8738, 9.78012E-005, -33.1089, 0.961941, 131.671, 0.823733, 11.6658, 0.960896, -108.321, 0.0963581, 56.6614
1, 2100.00000, 223.402, -30.1343, 223.616, -150.139, 223.645, 89.8738, 9.78012E-005, -33.1089, 0.961941, 131.671, 0.823733, 11.6658, 0.960896, -108.321, 0.0963581, 56.6614
1, 2160.00000, 223.348, -30.1234, 223.57, -150.151, 223.697, 89.8753, 0.000112866, -89.2515, 1.09963, 131.682, 0.961219, 11.6538, 0.960673, -108.32, 0.09081, 5.95326
1, 2220.00000, 223.348, -30.1234, 223.57, -150.151, 223.697, 89.8753, 0.000112867, -89.2514, 1.09963, 131.682, 0.961218, 11.6538, 0.960672, -108.32, 0.0908107, 5.9535
1, 2280.00000, 223.348, -30.1234, 223.57, -150.151, 223.697, 89.8753, 0.000112867, -89.2514, 1.09963, 131.682, 0.961218, 11.6538, 0.960672, -108.32, 0.0908107, 5.9535
1, 2340.00000, 223.348, -30.1234, 223.57, -150.151, 223.697, 89.8753, 0.000112867, -89.2514, 1.09963, 131.682, 0.961218, 11.6538, 0.960672, -108.32, 0.0908107, 5.9535
1, 2400.00000, 223.348, -30.1234, 223.57, -150.151, 223.697, 89.8753, 0.000112867, -89.2514, 1.09963, 131.682, 0.961218, 11.6538, 0.960672, -108.32, 0.0908107, 5.9535
1, 2460.00000, 223.507, -30.1055, 223.515, -150.147, 223.826, 89.8595, 0.000162218, 131.364, 0.686777, 131.7, 0.961437, 11.6586, 0.822982, -108.335, 0.127843, -158.136
1, 2520.00000, 223.507, -30.1055, 223.515, -150.147, 223.826, 89.8595, 0.000162232, 131.372, 0.686778, 131.7, 0.961456, 11.6584, 0.822962, -108.335, 0.12785, -158.127
1, 2580.00000, 223.507, -30.1055, 223.515, -150.147, 223.826, 89.8594, 0.000162232, 131.372, 0.686778, 131.7, 0.961456, 11.6584, 0.822962, -108.335, 0.12785, -158.127
1, 2640.00000, 223.507, -30.1055, 223.515, -150.147, 223.826, 89.8594, 0.000162232, 131.372, 0.686778, 131.7, 0.961456, 11.6584, 0.822962, -108.335, 0.12785, -158.127
1, 2700.00000, 223.507, -30.1055, 223.515, -150.147, 223.826, 89.8594, 0.000162232, 131.372, 0.686778, 131.7, 0.961456, 11.6584, 0.822962, -108.335, 0.12785, -158.127
1, 2760.00000, 223.41, -30.1317, 223.682, -150.147, 223.695, 89.8746, 1.25076E-005, -116.921, 0.687077, 131.673, 0.686243, 11.6586, 0.686202, -108.32, 0.0123036, 60.2951
1, 2820.00000, 223.41, -30.1317, 223.682, -150.147, 223.695, 89.8746, 1.25066E-005, -116.919, 0.687077, 131.673, 0.686243, 11.6586, 0.686203, -108.32, 0.012304, 60.2991
1, 2880.00000, 223.41, -30.1317, 223.682, -150.147, 223.695, 89.8746, 1.25066E-005, -116.919, 0.687077, 131.673, 0.686243, 11.6586, 0.686203, -108.32, 0.012304, 60.2991
1, 2940.00000, 223.41, -30.1317, 223.682, -150.147, 223.695, 89.8746, 1.25066E-005, -116.919, 0.687077, 131.673, 0.686243, 11.6586, 0.686203, -108.32, 0.012304, 60.2991
1, 3000.00000, 223.41, -30.1317, 223.682, -150.147, 223.695, 89.8746, 1.25066E-005, -116.919, 0.687077, 131.673, 0.686243, 11.6586, 0.686203, -108.32, 0.012304, 60.2991
1, 3060.00000, 223.434, -30.1345, 223.559, -150.124, 223.513, 89.8645, 0.000151597, 66.1884, 0.824404, 131.671, 0.961267, 11.6813, 1.09882, -108.33, 0.143805, 139.217
1, 3120.00000, 223.434, -30.1345, 223.559, -150.124, 223.513, 89.8645, 0.000151597, 66.1887, 0.824404, 131.671, 0.961268, 11.6813, 1.09882, -108.33, 0.143804, 139.217
1, 3180.00000, 223.434, -30.1345, 223.559, -150.124, 223.513, 89.8645, 0.000151597, 66.1887, 0.824404, 131.671, 0.961268, 11.6813, 1.09882, -108.33, 0.143804, 139.217
1, 3240.00000, 223.434, -30.1345, 223.559, -150.124, 223.513, 89.8645, 0.000151597, 66.1887, 0.824404, 131.671, 0.961268, 11.6813, 1.09882, -108.33, 0.143804, 139.217
1, 3300.00000, 223.434, -30.1345, 223.559, -150.124, 223.513, 89.8645, 0.000151597, 66.1887, 0.824404, 131.671, 0.961268, 11.6813, 1.09882, -108.33, 0.143804, 139.217
1, 3360.00000, 223.539, -30.1119, 223.462, -150.142, 223.692, 89.8504, 0.000111237, -140.854, 0.824019, 131.693, 0.824301, 11.6634, 0.686211, -108.345, 0.0741623, -54.5167
1, 3420.00000, 223.539, -30.1119, 223.462, -150.142, 223.692, 89.8504, 0.000111237, -140.855, 0.824017, 131.693, 0.824302, 11.6634, 0.68621, -108.345, 0.0741617, -54.5175
1, 3480.00000, 223.539, -30.1119, 223.462, -150.142, 223.692, 89.8504, 0.000111237, -140.855, 0.824017, 131.693, 0.824302, 11.6634, 0.68621, -108.345, 0.0741617, -54.5175
