hour, t(sec), P1 (kW), Q1 (kvar), P2 (kW), Q2 (kvar), P3 (kW), Q3 (kvar), P4 (kW), Q4 (kvar)
0, 60.00000, -0.128345, -0.0421849, -0.11001, -0.0361585, -0.128345, -0.0421849, 7.86946E-010, -2.84302E-009
0, 120.00000, -0.128345, -0.042185, -0.11001, -0.0361586, -0.128345, -0.0421849, 7.86944E-010, -2.84302E-009
0, 180.00000, -0.128345, -0.042185, -0.11001, -0.0361586, -0.128345, -0.0421849, 7.86944E-010, -2.84302E-009
0, 240.00000, -0.128345, -0.042185, -0.11001, -0.0361586, -0.128345, -0.0421849, 7.86944E-010, -2.84302E-009
0, 300.00000, -0.128345, -0.042185, -0.11001, -0.0361586, -0.128345, -0.0421849, 7.86944E-010, -2.84302E-009
0, 360.00000, -0.165015, -0.0542378, -0.128345, -0.042185, -0.165015, -0.0542377, 3.20738E-009, -1.13638E-008
0, 420.00000, -0.165015, -0.0542378, -0.128345, -0.042185, -0.165015, -0.0542377, 3.20738E-009, -1.13638E-008
0, 480.00000, -0.165015, -0.0542378, -0.128345, -0.042185, -0.165015, -0.0542377, 3.20738E-009, -1.13638E-008
0, 540.00000, -0.165015, -0.0542378, -0.128345, -0.042185, -0.165015, -0.0542377, 3.20738E-009, -1.13638E-008
0, 600.00000, -0.165015, -0.0542378, -0.128345, -0.042185, -0.165015, -0.0542377, 3.20738E-009, -1.13638E-008
0, 660.00000, -0.128345, -0.042185, -0.14668, -0.0482114, -0.14668, -0.0482114, 1.23478E-009, -2.06478E-009
0, 720.00000, -0.128345, -0.042185, -0.14668, -0.0482114, -0.14668, -0.0482114, 1.23479E-009, -2.0648E-009
0, 780.00000, -0.128345, -0.042185, -0.14668, -0.0482114, -0.14668, -0.0482114, 1.23479E-009, -2.0648E-009
0, 840.00000, -0.128345, -0.042185, -0.14668, -0.0482114, -0.14668, -0.0482114, 1.23479E-009, -2.0648E-009
0, 900.00000, -0.128345, -0.042185, -0.14668, -0.0482114, -0.14668, -0.0482114, 1.23479E-009, -2.0648E-009
0, 960.00000, -0.183356, -0.0602663, -0.146673, -0.0482096, -0.128344, -0.0421844, 4.04591E-009, -2.14109E-008
0, 1020.00000, -0.18335, -0.0602641, -0.14668, -0.0482115, -0.128345, -0.0421849, 4.04408E-009, -2.14044E-008
0, 1080.00000, -0.18335, -0.0602641, -0.14668, -0.0482115, -0.128345, -0.042185, 4.04408E-009, -2.14044E-008
0, 1140.00000, -0.18335, -0.0602641, -0.14668, -0.0482115, -0.128345, -0.042185, 4.04408E-009, -2.14044E-008
0, 1200.00000, -0.18335, -0.0602641, -0.14668, -0.0482115, -0.128345, -0.042185, 4.04408E-009, -2.14044E-008
0, 1260.00000, -0.11001, -0.0361585, -0.165015, -0.0542377, -0.11001, -0.0361587, 1.06197E-008, -1.98598E-008
0, 1320.00000, -0.11001, -0.0361585, -0.165015, -0.0542377, -0.11001, -0.0361586, 1.06198E-008, -1.986E-008
0, 1380.00000, -0.11001, -0.0361585, -0.165015, -0.0542377, -0.11001, -0.0361586, 1.06198E-008, -1.986E-008
0, 1440.00000, -0.11001, -0.0361585, -0.165015, -0.0542377, -0.11001, -0.0361586, 1.06198E-008, -1.986E-008
0, 1500.00000, -0.11001, -0.0361585, -0.165015, -0.0542377, -0.11001, -0.0361586, 1.06198E-008, -1.986E-008
0, 1560.00000, -0.14668, -0.0482113, -0.165015, -0.0542378, -0.11001, -0.0361586, 5.96532E-009, -1.88156E-008
0, 1620.00000, -0.14668, -0.0482113, -0.165015, -0.0542378, -0.11001, -0.0361586, 5.96531E-009, -1.88155E-008
0, 1680.00000, -0.14668, -0.0482113, -0.165015, -0.0542378, -0.11001, -0.0361586, 5.96531E-009, -1.88155E-008
0, 1740.00000, -0.14668, -0.0482113, -0.165015, -0.0542378, -0.11001, -0.0361586, 5.96531E-009, -1.88155E-008
0, 1800.00000, -0.14668, -0.0482113, -0.165015, -0.0542378, -0.11001, -0.0361586, 5.96531E-009, -1.88155E-008
0, 1860.00000, -0.14668, -0.0482113, -0.14668, -0.0482114, -0.128345, -0.0421849, 2.77311E-010, -3.15078E-009
0, 1920.00000, -0.14668, -0.0482113, -0.14668, -0.0482114, -0.128345, -0.042185, 2.77297E-010, -3.15076E-009
0, 1980.00000, -0.14668, -0.0482113, -0.14668, -0.0482114, -0.128345, -0.042185, 2.77297E-010, -3.15076E-009
0, 2040.00000, -0.14668, -0.0482113, -0.14668, -0.0482114, -0.128345, -0.042185, 2.77297E-010, -3.15076E-009
0, 2100.00000, -0.14668, -0.0482113, -0.14668, -0.0482114, -0.128345, -0.042185, 2.77297E-010, -3.15076E-009
0, 2160.00000, -0.14668, -0.0482113, -0.11001, -0.0361586, -0.0733399, -0.0241057, 1.09425E-008, -3.16203E-008
0, 2220.00000, -0.14668, -0.0482113, -0.11001, -0.0361586, -0.0733399, -0.0241057, 1.09424E-008, -3.16203E-008
0, 2280.00000, -0.14668, -0.0482113, -0.11001, -0.0361586, -0.0733399, -0.0241057, 1.09424E-008, -3.16203E-008
0, 2340.00000, -0.14668, -0.0482113, -0.11001, -0.0361586, -0.0733399, -0.0241057, 1.09424E-008, -3.16203E-008
0, 2400.00000, -0.14668, -0.0482113, -0.11001, -0.0361586, -0.0733399, -0.0241057, 1.09424E-008, -3.16203E-008
0, 2460.00000, -0.165015, -0.0542378, -0.14668, -0.0482115, -0.165015, -0.0542377, 3.80548E-010, -3.34914E-009
0, 2520.00000, -0.165015, -0.0542378, -0.14668, -0.0482114, -0.165015, -0.0542378, 3.80589E-010, -3.34927E-009
0, 2580.00000, -0.165015, -0.0542378, -0.14668, -0.0482114, -0.165015, -0.0542378, 3.80589E-010, -3.34927E-009
0, 2640.00000, -0.165015, -0.0542378, -0.14668, -0.0482114, -0.165015, -0.0542378, 3.80589E-010, -3.34927E-009
0, 2700.00000, -0.165015, -0.0542378, -0.14668, -0.0482114, -0.165015, -0.0542378, 3.80589E-010, -3.34927E-009
0, 2760.00000, -0.128345, -0.042185, -0.14668, -0.0482113, -0.165015, -0.0542378, 3.5181E-009, -6.75225E-009
0, 2820.00000, -0.128345, -0.042185, -0.14668, -0.0482113, -0.165015, -0.0542378, 3.51807E-009, -6.75219E-009
0, 2880.00000, -0.128345, -0.042185, -0.14668, -0.0482113, -0.165015, -0.0542378, 3.51807E-009, -6.75219E-009
0, 2940.00000, -0.128345, -0.042185, -0.14668, -0.0482113, -0.165015, -0.0542378, 3.51807E-009, -6.75219E-009
0, 3000.00000, -0.128345, -0.042185, -0.14668, -0.0482113, -0.165015, -0.0542378, 3.51807E-009, -6.75219E-009
0, 3060.00000, -0.128345, -0.042185, -0.14668, -0.0482113, -0.14668, -0.0482114, 1.51819E-009, -1.51467E-009
0, 3120.00000, -0.128345, -0.042185, -0.14668, -0.0482114, -0.14668, -0.0482114, 1.51824E-009, -1.51475E-009
0, 3180.00000, -0.128345, -0.042185, -0.14668, -0.0482114, -0.14668, -0.0482114, 1.51824E-009, -1.51475E-009
0, 3240.00000, -0.128345, -0.042185, -0.14668, -0.0482114, -0.14668, -0.0482114, 1.51824E-009, -1.51475E-009
0, 3300.00000, -0.128345, -0.042185, -0.14668, -0.0482114, -0.14668, -0.0482114, 1.51824E-009, -1.51475E-009
0, 3360.00000, -0.11001, -0.0361585, -0.18335, -0.060264, -0.11001, -0.0361587, 1.7112E-008, -3.75907E-008
0, 3420.00000, -0.11001, -0.0361585, -0.18335, -0.0602641, -0.11001, -0.0361587, 1.71123E-008, -3.75911E-008
0, 3480.00000, -0.11001, -0.0361585, -0.18335, -0.0602641, -0.11001, -0.0361587, 1.71123E-008, -3.75911E-008
0, 3540.00000, -0.11001, -0.0361585, -0.18335, -0.0602641, -0.11001, -0.0361587, 1.71123E-008, -3.75911E-008
1, 0.00000, -0.11001, -0.0361585, -0.18335, -0.0602641, -0.11001, -0.0361587, 1.71123E-008, -3.75911E-008
1, 60.00000, -0.0916751, -0.0301322, -0.128345, -0.042185, -0.0916752, -0.0301322, 4.04122E-009, -9.56563E-009
1, 120.00000, -0.091675, -0.0301321, -0.128345, -0.0421849, -0.091675, -0.0301322, 4.04119E-009, -9.56557E-009
1, 180.00000, -0.091675, -0.0301321, -0.128345, -0.0421849, -0.091675, -0.0301322, 4.04119E-009, -9.56557E-009
1, 240.00000, -0.091675, -0.0301321, -0.128345, -0.0421849, -0.091675, -0.0301322, 4.04119E-009, -9.56557E-009
1, 300.00000, -0.091675, -0.0301321, -0.128345, -0.0421849, -0.091675, -0.0301322, 4.04119E-009, -9.56557E-009
1, 360.00000, -0.11001, -0.0361585, -0.11001, -0.0361585, -0.128345, -0.042185, 9.64707E-010, -2.54793E-009
1, 420.00000, -0.11001, -0.0361586, -0.11001, -0.0361585, -0.128345, -0.0421849, 9.64678E-010, -2.54786E-009
1, 480.00000, -0.11001, -0.0361586, -0.11001, -0.0361585, -0.128345, -0.0421849, 9.64678E-010, -2.54786E-009
1, 540.00000, -0.11001, -0.0361586, -0.11001, -0.0361585, -0.128345, -0.0421849, 9.64678E-010, -2.54786E-009
1, 600.00000, -0.11001, -0.0361586, -0.11001, -0.0361585, -0.128345, -0.0421849, 9.64678E-010, -2.54786E-009
1, 660.00000, -0.128345, -0.0421849, -0.11001, -0.0361586, -0.0916749, -0.0301321, 2.03179E-009, -8.89277E-009
1, 720.00000, -0.128345, -0.0421849, -0.11001, -0.0361586, -0.091675, -0.0301321, 2.03177E-009, -8.89274E-009
1, 780.00000, -0.128345, -0.0421849, -0.11001, -0.0361586, -0.091675, -0.0301321, 2.03177E-009, -8.89274E-009
1, 840.00000, -0.128345, -0.0421849, -0.11001, -0.0361586, -0.091675, -0.0301321, 2.03177E-009, -8.89274E-009
1, 900.00000, -0.128345, -0.0421849, -0.11001, -0.0361586, -0.091675, -0.0301321, 2.03177E-009, -8.89274E-009
1, 960.00000, -0.165015, -0.0542376, -0.091675, -0.0301322, -0.07334, -0.0241057, 1.71417E-008, -5.77537E-008
1, 1020.00000, -0.165015, -0.0542377, -0.091675, -0.0301322, -0.0733399, -0.0241057, 1.71418E-008, -5.7754E-008
1, 1080.00000, -0.165015, -0.0542377, -0.091675, -0.0301322, -0.0733399, -0.0241057, 1.71418E-008, -5.7754E-008
1, 1140.00000, -0.165015, -0.0542377, -0.091675, -0.0301322, -0.0733399, -0.0241057, 1.71418E-008, -5.7754E-008
1, 1200.00000, -0.165015, -0.0542377, -0.091675, -0.0301322, -0.0733399, -0.0241057, 1.71418E-008, -5.7754E-008
1, 1260.00000, -0.11001, -0.0361586, -0.11001, -0.0361586, -0.11001, -0.0361585, -5.27993E-011, -1.56264E-012
1, 1320.00000, -0.11001, -0.0361585, -0.11001, -0.0361585, -0.11001, -0.0361585, -5.2799E-011, -1.56195E-012
1, 1380.00000, -0.11001, -0.0361585, -0.11001, -0.0361585, -0.11001, -0.0361585, -5.2799E-011, -1.56188E-012
1, 1440.00000, -0.11001, -0.0361585, -0.11001, -0.0361585, -0.11001, -0.0361585, -5.2799E-011, -1.56188E-012
1, 1500.00000, -0.11001, -0.0361585, -0.11001, -0.0361585, -0.11001, -0.0361585, -5.2799E-011, -1.56188E-012
1, 1560.00000, -0.11001, -0.0361585, -0.11001, -0.0361586, -0.11001, -0.0361585, -1.08231E-010, -5.26651E-012
1, 1620.00000, -0.11001, -0.0361585, -0.11001, -0.0361585, -0.11001, -0.0361585, -1.08234E-010, -5.2719E-012
1, 1680.00000, -0.11001, -0.0361585, -0.11001, -0.0361585, -0.11001, -0.0361585, -1.08234E-010, -5.27197E-012
1, 1740.00000, -0.11001, -0.0361585, -0.11001, -0.0361585, -0.11001, -0.0361585, -1.08234E-010, -5.27197E-012
1, 1800.00000, -0.11001, -0.0361585, -0.11001, -0.0361585, -0.11001, -0.0361585, -1.08234E-010, -5.27197E-012
1, 1860.00000, -0.128345, -0.0421848, -0.14668, -0.0482114, -0.091675, -0.0301322, 5.47966E-009, -1.87602E-008
1, 1920.00000, -0.128345, -0.0421849, -0.14668, -0.0482114, -0.091675, -0.0301322, 5.47971E-009, -1.87604E-008
1, 1980.00000, -0.128345, -0.0421849, -0.14668, -0.0482114, -0.091675, -0.0301322, 5.47971E-009, -1.87604E-008
1, 2040.00000, -0.128345, -0.0421849, -0.14668, -0.0482114, -0.091675, -0.0301322, 5.47971E-009, -1.87604E-008
1, 2100.00000, -0.128345, -0.0421849, -0.14668, -0.0482114, -0.091675, -0.0301322, 5.47971E-009, -1.87604E-008
1, 2160.00000, -0.14668, -0.0482114, -0.11001, -0.0361586, -0.11001, -0.0361585, 2.32938E-009, -1.20942E-008
1, 2220.00000, -0.14668, -0.0482113, -0.11001, -0.0361586, -0.11001, -0.0361585, 2.32936E-009, -1.20942E-008
1, 2280.00000, -0.14668, -0.0482113, -0.11001, -0.0361586, -0.11001, -0.0361585, 2.32936E-009, -1.20942E-008
1, 2340.00000, -0.14668, -0.0482113, -0.11001, -0.0361586, -0.11001, -0.0361585, 2.32936E-009, -1.20942E-008
1, 2400.00000, -0.14668, -0.0482113, -0.11001, -0.0361586, -0.11001, -0.0361585, 2.32936E-009, -1.20942E-008
1, 2460.00000, -0.110011, -0.0361587, -0.128348, -0.0421859, -0.128343, -0.0421844, 1.46263E-009, -1.66773E-009
1, 2520.00000, -0.11001, -0.0361586, -0.128345, -0.0421849, -0.128345, -0.042185, 1.4626E-009, -1.66787E-009
1, 2580.00000, -0.11001, -0.0361585, -0.128345, -0.0421849, -0.128345, -0.042185, 1.4626E-009, -1.66788E-009
1, 2640.00000, -0.11001, -0.0361585, -0.128345, -0.0421849, -0.128345, -0.042185, 1.4626E-009, -1.66788E-009
1, 2700.00000, -0.11001, -0.0361585, -0.128345, -0.0421849, -0.128345, -0.042185, 1.4626E-009, -1.66788E-009
1, 2760.00000, -0.128345, -0.0421849, -0.128345, -0.042185, -0.11001, -0.0361586, 4.90352E-010, -2.61094E-009
1, 2820.00000, -0.128345, -0.0421849, -0.128345, -0.042185, -0.11001, -0.0361586, 4.90364E-010, -2.61095E-009
1, 2880.00000, -0.128345, -0.0421849, -0.128345, -0.042185, -0.11001, -0.0361586, 4.90364E-010, -2.61095E-009
1, 2940.00000, -0.128345, -0.0421849, -0.128345, -0.042185, -0.11001, -0.0361586, 4.90364E-010, -2.61095E-009
1, 3000.00000, -0.128345, -0.0421849, -0.128345, -0.042185, -0.11001, -0.0361586, 4.90364E-010, -2.61095E-009
1, 3060.00000, -0.11001, -0.0361585, -0.14668, -0.0482113, -0.128345, -0.042185, 3.07049E-009, -7.21026E-009
1, 3120.00000, -0.11001, -0.0361585, -0.14668, -0.0482113, -0.128345, -0.042185, 3.07047E-009, -7.21023E-009
1, 3180.00000, -0.11001, -0.0361585, -0.14668, -0.0482113, -0.128345, -0.042185, 3.07047E-009, -7.21023E-009
1, 3240.00000, -0.11001, -0.0361585, -0.14668, -0.0482113, -0.128345, -0.042185, 3.07047E-009, -7.21023E-009
1, 3300.00000, -0.11001, -0.0361585, -0.14668, -0.0482113, -0.128345, -0.042185, 3.07047E-009, -7.21023E-009
1, 3360.00000, -0.0916751, -0.0301322, -0.128345, -0.0421848, -0.14668, -0.0482114, 8.16546E-009, -1.58344E-008
1, 3420.00000, -0.091675, -0.0301322, -0.128345, -0.0421849, -0.14668, -0.0482114, 8.16556E-009, -1.58346E-008
1, 3480.00000, -0.091675, -0.0301322, -0.128345, -0.0421849, -0.14668, -0.0482114, 8.16556E-009, -1.58346E-008
1, 3540.00000, -0.091675, -0.0301322, -0.128345, -0.0421849, -0.14668, -0.0482114, 8.16556E-009, -1.58346E-008
2, 0.00000, -0.091675, -0.0301322, -0.128345, -0.0421849, -0.14668, -0.0482114, 8.16556E-009, -1.58346E-008
2, 60.00000, -0.091675, -0.0301321, -0.0916751, -0.0301321, -0.11001, -0.0361586, 8.51175E-010, -2.68702E-009
2, 120.00000, -0.091675, -0.0301321, -0.091675, -0.0301321, -0.11001, -0.0361585, 8.51172E-010, -2.68702E-009
2, 180.00000, -0.091675, -0.0301321, -0.091675, -0.0301321, -0.11001, -0.0361585, 8.51172E-010, -2.68702E-009
2, 240.00000, -0.091675, -0.0301321, -0.091675, -0.0301321, -0.11001, -0.0361585, 8.51172E-010, -2.68702E-009
2, 300.00000, -0.091675, -0.0301321, -0.091675, -0.0301321, -0.11001, -0.0361585, 8.51172E-010, -2.68702E-009
2, 360.00000, -0.128345, -0.0421849, -0.128345, -0.042185, -0.128345, -0.042185, -2.67457E-010, -7.80508E-012
2, 420.00000, -0.128345, -0.042185, -0.128345, -0.042185, -0.128345, -0.042185, -2.67459E-010, -7.81055E-012
2, 480.00000, -0.128345, -0.042185, -0.128345, -0.042185, -0.128345, -0.042185, -2.67459E-010, -7.81056E-012
2, 540.00000, -0.128345, -0.042185, -0.128345, -0.042185, -0.128345, -0.042185, -2.67459E-010, -7.81056E-012
2, 600.00000, -0.128345, -0.042185, -0.128345, -0.042185, -0.128345, -0.042185, -2.67459E-010, -7.81056E-012
2, 660.00000, -0.128345, -0.0421851, -0.11001, -0.0361587, -0.11001, -0.0361586, 5.90029E-010, -3.11108E-009
2, 720.00000, -0.128345, -0.0421849, -0.11001, -0.0361586, -0.11001, -0.0361585, 5.90035E-010, -3.11108E-009
2, 780.00000, -0.128345, -0.0421849, -0.11001, -0.0361586, -0.11001, -0.0361585, 5.90034E-010, -3.11108E-009
2, 840.00000, -0.128345, -0.0421849, -0.11001, -0.0361586, -0.11001, -0.0361585, 5.90034E-010, -3.11108E-009
2, 900.00000, -0.128345, -0.0421849, -0.11001, -0.0361586, -0.11001, -0.0361585, 5.90034E-010, -3.11108E-009
2, 960.00000, -0.11001, -0.0361586, -0.128345, -0.0421849, -0.128345, -0.042185, 1.52971E-009, -1.50654E-009
2, 1020.00000, -0.11001, -0.0361585, -0.128345, -0.0421849, -0.128345, -0.042185, 1.52973E-009, -1.50656E-009
2, 1080.00000, -0.11001, -0.0361585, -0.128345, -0.0421849, -0.128345, -0.042185, 1.52973E-009, -1.50656E-009
2, 1140.00000, -0.11001, -0.0361585, -0.128345, -0.0421849, -0.128345, -0.042185, 1.52973E-009, -1.50656E-009
2, 1200.00000, -0.11001, -0.0361585, -0.128345, -0.0421849, -0.128345, -0.042185, 1.52973E-009, -1.50656E-009
2, 1260.00000, -0.0916775, -0.0301329, -0.128344, -0.0421845, -0.0916747, -0.030132, 5.04381E-009, -8.00966E-009
2, 1320.00000, -0.091675, -0.0301321, -0.128345, -0.0421849, -0.091675, -0.0301322, 5.04456E-009, -8.01064E-009
2, 1380.00000, -0.091675, -0.0301321, -0.128345, -0.0421849, -0.091675, -0.0301322, 5.04457E-009, -8.01064E-009
2, 1440.00000, -0.091675, -0.0301321, -0.128345, -0.0421849, -0.091675, -0.0301322, 5.04457E-009, -8.01064E-009
2, 1500.00000, -0.091675, -0.0301321, -0.128345, -0.0421849, -0.091675, -0.0301322, 5.04457E-009, -8.01064E-009
2, 1560.00000, -0.128345, -0.042185, -0.091675, -0.0301322, -0.128345, -0.0421849, 3.93868E-009, -1.01841E-008
2, 1620.00000, -0.128345, -0.042185, -0.091675, -0.0301321, -0.128345, -0.0421849, 3.9387E-009, -1.01841E-008
2, 1680.00000, -0.128345, -0.042185, -0.091675, -0.0301321, -0.128345, -0.0421849, 3.9387E-009, -1.01841E-008
2, 1740.00000, -0.128345, -0.042185, -0.091675, -0.0301321, -0.128345, -0.0421849, 3.9387E-009, -1.01841E-008
2, 1800.00000, -0.128345, -0.042185, -0.091675, -0.0301321, -0.128345, -0.0421849, 3.9387E-009, -1.01841E-008
2, 1860.00000, -0.11001, -0.0361584, -0.0916748, -0.0301322, -0.128345, -0.0421848, 2.73994E-009, -7.92742E-009
2, 1920.00000, -0.11001, -0.0361586, -0.091675, -0.0301321, -0.128345, -0.0421849, 2.73992E-009, -7.92741E-009
2, 1980.00000, -0.11001, -0.0361586, -0.091675, -0.0301321, -0.128345, -0.0421849, 2.73992E-009, -7.92741E-009
2, 2040.00000, -0.11001, -0.0361586, -0.091675, -0.0301321, -0.128345, -0.0421849, 2.73992E-009, -7.92741E-009
2, 2100.00000, -0.11001, -0.0361586, -0.091675, -0.0301321, -0.128345, -0.0421849, 2.73992E-009, -7.92741E-009
2, 2160.00000, -0.146679, -0.0482111, -0.0916755, -0.0301323, -0.128346, -0.0421851, 5.51931E-009, -1.98079E-008
2, 2220.00000, -0.14668, -0.0482114, -0.091675, -0.0301322, -0.128345, -0.0421849, 5.51962E-009, -1.98086E-008
2, 2280.00000, -0.14668, -0.0482114, -0.091675, -0.0301322, -0.128345, -0.0421849, 5.51962E-009, -1.98086E-008
2, 2340.00000, -0.14668, -0.0482114, -0.091675, -0.0301322, -0.128345, -0.0421849, 5.51962E-009, -1.98086E-008
2, 2400.00000, -0.14668, -0.0482114, -0.091675, -0.0301322, -0.128345, -0.0421849, 5.51962E-009, -1.98086E-008
2, 2460.00000, -0.0916749, -0.0301321, -0.11001, -0.0361585, -0.11001, -0.0361586, 1.6755E-009, -1.06704E-009
2, 2520.00000, -0.091675, -0.0301321, -0.11001, -0.0361585, -0.11001, -0.0361586, 1.67549E-009, -1.06703E-009
2, 2580.00000, -0.091675, -0.0301321, -0.11001, -0.0361585, -0.11001, -0.0361586, 1.67549E-009, -1.06703E-009
2, 2640.00000, -0.091675, -0.0301321, -0.11001, -0.0361585, -0.11001, -0.0361586, 1.67549E-009, -1.06703E-009
2, 2700.00000, -0.091675, -0.0301321, -0.11001, -0.0361585, -0.11001, -0.0361586, 1.67549E-009, -1.06703E-009
2, 2760.00000, -0.128345, -0.0421849, -0.165015, -0.0542378, -0.0916749, -0.0301322, 1.13361E-008, -3.01296E-008
2, 2820.00000, -0.128345, -0.0421849, -0.165015, -0.0542378, -0.091675, -0.0301322, 1.13361E-008, -3.01296E-008
2, 2880.00000, -0.128345, -0.0421849, -0.165015, -0.0542378, -0.091675, -0.0301322, 1.13361E-008, -3.01296E-008
2, 2940.00000, -0.128345, -0.0421849, -0.165015, -0.0542378, -0.091675, -0.0301322, 1.13361E-008, -3.01296E-008
2, 3000.00000, -0.128345, -0.0421849, -0.165015, -0.0542378, -0.091675, -0.0301322, 1.13361E-008, -3.01296E-008
2, 3060.00000, -0.091675, -0.0301321, -0.11001, -0.0361585, -0.11001, -0.0361585, 1.58766E-009, -1.36621E-009
2, 3120.00000, -0.091675, -0.0301321, -0.11001, -0.0361585, -0.11001, -0.0361586, 1.58767E-009, -1.36623E-009
2, 3180.00000, -0.091675, -0.0301321, -0.11001, -0.0361585, -0.11001, -0.0361586, 1.58767E-009, -1.36623E-009
2, 3240.00000, -0.091675, -0.0301321, -0.11001, -0.0361585, -0.11001, -0.0361586, 1.58767E-009, -1.36623E-009
2, 3300.00000, -0.091675, -0.0301321, -0.11001, -0.0361585, -0.11001, -0.0361586, 1.58767E-009, -1.36623E-009
2, 3360.00000, -0.11001, -0.0361585, -0.128345, -0.0421849, -0.128345, -0.0421851, 1.03312E-009, -2.43635E-009
2, 3420.00000, -0.11001, -0.0361586, -0.128345, -0.0421849, -0.128345, -0.042185, 1.03311E-009, -2.43634E-009
2, 3480.00000, -0.11001, -0.0361586, -0.128345, -0.0421849, -0.128345, -0.042185, 1.03311E-009, -2.43634E-009
2, 3540.00000, -0.11001, -0.0361586, -0.128345, -0.0421849, -0.128345, -0.042185, 1.03311E-009, -2.43634E-009
3, 0.00000, -0.11001, -0.0361586, -0.128345, -0.0421849, -0.128345, -0.042185, 1.03311E-009, -2.43634E-009
3, 60.00000, -0.11001, -0.0361586, -0.0733401, -0.0241057, -0.0916749, -0.0301321, 2.75093E-009, -7.98218E-009
