hour, t(sec), P1 (kW), Q1 (kvar), P2 (kW), Q2 (kvar), P3 (kW), Q3 (kvar), P4 (kW), Q4 (kvar)
0, 60.00000, -0.465034, -0.152853, -0.473482, -0.155595, -0.522959, -0.171881, -4.66482E-009, 1.5347E-008
0, 120.00000, -0.465031, -0.152852, -0.473482, -0.155595, -0.522958, -0.171881, -4.66404E-009, 1.53471E-008
0, 180.00000, -0.465031, -0.152852, -0.473482, -0.155595, -0.522958, -0.171881, -4.66404E-009, 1.53471E-008
0, 240.00000, -0.465031, -0.152852, -0.473482, -0.155595, -0.522958, -0.171881, -4.66404E-009, 1.53471E-008
0, 300.00000, -0.465031, -0.152852, -0.473482, -0.155595, -0.522958, -0.171881, -4.66404E-009, 1.53471E-008
0, 360.00000, -0.503539, -0.165501, -0.473097, -0.155491, -0.525096, -0.172569, 4.15131E-009, 6.07977E-009
0, 420.00000, -0.503555, -0.165507, -0.47309, -0.155489, -0.525089, -0.172566, 4.14786E-009, 6.08105E-009
0, 480.00000, -0.503556, -0.165507, -0.47309, -0.155489, -0.525089, -0.172566, 4.14784E-009, 6.08106E-009
0, 540.00000, -0.503556, -0.165507, -0.47309, -0.155489, -0.525089, -0.172566, 4.14784E-009, 6.08106E-009
0, 600.00000, -0.503556, -0.165507, -0.47309, -0.155489, -0.525089, -0.172566, 4.14784E-009, 6.08106E-009
0, 660.00000, -0.539513, -0.177328, -0.445603, -0.146465, -0.466337, -0.153243, -1.07324E-008, -1.43076E-009
0, 720.00000, -0.539497, -0.177323, -0.445606, -0.146466, -0.466351, -0.153247, -1.07292E-008, -1.42592E-009
0, 780.00000, -0.539497, -0.177323, -0.445606, -0.146466, -0.466351, -0.153247, -1.07292E-008, -1.42588E-009
0, 840.00000, -0.539497, -0.177323, -0.445606, -0.146466, -0.466351, -0.153247, -1.07292E-008, -1.42588E-009
0, 900.00000, -0.539497, -0.177323, -0.445606, -0.146466, -0.466351, -0.153247, -1.07292E-008, -1.42588E-009
0, 960.00000, -0.490503, -0.161184, -0.577499, -0.189814, -0.478867, -0.157403, 1.23103E-008, -7.58034E-009
0, 1020.00000, -0.490503, -0.161185, -0.577493, -0.189812, -0.47888, -0.157407, 1.23077E-008, -7.57623E-009
0, 1080.00000, -0.490503, -0.161185, -0.577493, -0.189812, -0.47888, -0.157407, 1.23077E-008, -7.57619E-009
0, 1140.00000, -0.490503, -0.161185, -0.577493, -0.189812, -0.47888, -0.157407, 1.23077E-008, -7.57619E-009
0, 1200.00000, -0.490503, -0.161185, -0.577493, -0.189812, -0.47888, -0.157407, 1.23077E-008, -7.57619E-009
0, 1260.00000, -0.478146, -0.157143, -0.467604, -0.153683, -0.474749, -0.156036, -2.74268E-009, -3.50078E-009
0, 1320.00000, -0.478156, -0.157145, -0.467614, -0.153687, -0.474725, -0.156028, -2.73735E-009, -3.50272E-009
0, 1380.00000, -0.478156, -0.157145, -0.467614, -0.153687, -0.474725, -0.156028, -2.73731E-009, -3.50276E-009
0, 1440.00000, -0.478156, -0.157145, -0.467614, -0.153687, -0.474725, -0.156028, -2.73731E-009, -3.50276E-009
0, 1500.00000, -0.478156, -0.157145, -0.467614, -0.153687, -0.474725, -0.156028, -2.73731E-009, -3.50276E-009
0, 1560.00000, -0.462958, -0.152161, -0.487345, -0.160164, -0.49756, -0.16353, 5.38955E-009, 6.15876E-009
0, 1620.00000, -0.462956, -0.15216, -0.487357, -0.160169, -0.49755, -0.163527, 5.39165E-009, 6.15435E-009
0, 1680.00000, -0.462956, -0.15216, -0.487358, -0.160169, -0.49755, -0.163527, 5.39165E-009, 6.15431E-009
0, 1740.00000, -0.462956, -0.15216, -0.487358, -0.160169, -0.49755, -0.163527, 5.39165E-009, 6.15431E-009
0, 1800.00000, -0.462956, -0.15216, -0.487358, -0.160169, -0.49755, -0.163527, 5.39165E-009, 6.15431E-009
0, 1860.00000, -0.492904, -0.161999, -0.45659, -0.150065, -0.509873, -0.167571, 1.6379E-009, -1.74993E-009
0, 1920.00000, -0.492909, -0.162002, -0.45658, -0.150062, -0.509888, -0.167576, 1.63903E-009, -1.75206E-009
0, 1980.00000, -0.492909, -0.162002, -0.45658, -0.150062, -0.509888, -0.167576, 1.63904E-009, -1.75207E-009
0, 2040.00000, -0.492909, -0.162002, -0.45658, -0.150062, -0.509888, -0.167576, 1.63904E-009, -1.75207E-009
0, 2100.00000, -0.492909, -0.162002, -0.45658, -0.150062, -0.509888, -0.167576, 1.63904E-009, -1.75207E-009
0, 2160.00000, -0.495941, -0.162998, -0.504366, -0.165765, -0.498855, -0.163954, -1.87725E-009, 1.50675E-009
0, 2220.00000, -0.495929, -0.162994, -0.504361, -0.165763, -0.498866, -0.163957, -1.87656E-009, 1.51187E-009
0, 2280.00000, -0.495929, -0.162994, -0.504361, -0.165763, -0.498866, -0.163957, -1.87654E-009, 1.51191E-009
0, 2340.00000, -0.495929, -0.162994, -0.504361, -0.165763, -0.498866, -0.163957, -1.87654E-009, 1.51191E-009
0, 2400.00000, -0.495929, -0.162994, -0.504361, -0.165763, -0.498866, -0.163957, -1.87654E-009, 1.51191E-009
0, 2460.00000, -0.449357, -0.147685, -0.454027, -0.149215, -0.527531, -0.173385, 2.98437E-009, -9.571E-009
0, 2520.00000, -0.449356, -0.147685, -0.454012, -0.14921, -0.527554, -0.173392, 2.98652E-009, -9.57796E-009
0, 2580.00000, -0.449356, -0.147685, -0.454012, -0.14921, -0.527554, -0.173392, 2.98654E-009, -9.57802E-009
0, 2640.00000, -0.449356, -0.147685, -0.454012, -0.14921, -0.527554, -0.173392, 2.98654E-009, -9.57802E-009
0, 2700.00000, -0.449356, -0.147685, -0.454012, -0.14921, -0.527554, -0.173392, 2.98654E-009, -9.57802E-009
0, 2760.00000, -0.503549, -0.165501, -0.460371, -0.151312, -0.487075, -0.160071, -2.23971E-009, -1.59825E-009
0, 2820.00000, -0.50356, -0.165505, -0.460359, -0.151308, -0.487076, -0.160071, -2.24019E-009, -1.60024E-009
0, 2880.00000, -0.50356, -0.165505, -0.460359, -0.151308, -0.487076, -0.160071, -2.2402E-009, -1.60025E-009
0, 2940.00000, -0.50356, -0.165505, -0.460359, -0.151308, -0.487076, -0.160071, -2.2402E-009, -1.60025E-009
0, 3000.00000, -0.50356, -0.165505, -0.460359, -0.151308, -0.487076, -0.160071, -2.2402E-009, -1.60025E-009
0, 3060.00000, -0.387505, -0.127349, -0.478126, -0.157134, -0.485271, -0.159504, 8.40412E-009, -8.00821E-009
0, 3120.00000, -0.387486, -0.127343, -0.478156, -0.157144, -0.485262, -0.159501, 8.4079E-009, -8.01462E-009
0, 3180.00000, -0.387486, -0.127343, -0.478157, -0.157144, -0.485262, -0.159501, 8.40792E-009, -8.01464E-009
0, 3240.00000, -0.387486, -0.127343, -0.478157, -0.157144, -0.485262, -0.159501, 8.40792E-009, -8.01464E-009
0, 3300.00000, -0.387486, -0.127343, -0.478157, -0.157144, -0.485262, -0.159501, 8.40792E-009, -8.01464E-009
0, 3360.00000, -0.500481, -0.164482, -0.518603, -0.170451, -0.48347, -0.1589, 1.63219E-009, -2.01644E-009
0, 3420.00000, -0.500484, -0.164481, -0.518622, -0.170458, -0.483448, -0.158893, 1.63623E-009, -2.02046E-009
0, 3480.00000, -0.500484, -0.164481, -0.518623, -0.170458, -0.483447, -0.158893, 1.63626E-009, -2.0205E-009
0, 3540.00000, -0.500484, -0.164481, -0.518623, -0.170458, -0.483447, -0.158893, 1.63626E-009, -2.0205E-009
1, 0.00000, -0.500484, -0.164481, -0.518623, -0.170458, -0.483447, -0.158893, 1.63626E-009, -2.0205E-009
1, 60.00000, -0.377043, -0.12392, -0.356249, -0.117072, -0.458207, -0.150602, 3.83412E-010, -2.62743E-008
1, 120.00000, -0.377017, -0.123911, -0.356228, -0.117065, -0.458183, -0.150594, 3.83204E-010, -2.62725E-008
1, 180.00000, -0.377017, -0.123911, -0.356228, -0.117065, -0.458183, -0.150594, 3.83199E-010, -2.62725E-008
1, 240.00000, -0.377017, -0.123911, -0.356228, -0.117065, -0.458183, -0.150594, 3.83199E-010, -2.62725E-008
1, 300.00000, -0.377017, -0.123911, -0.356228, -0.117065, -0.458183, -0.150594, 3.83199E-010, -2.62725E-008
1, 360.00000, -0.414191, -0.136112, -0.429881, -0.141297, -0.373612, -0.122789, 2.50146E-009, -4.46236E-009
1, 420.00000, -0.414211, -0.136119, -0.429877, -0.141298, -0.37359, -0.122783, 2.50252E-009, -4.46773E-009
1, 480.00000, -0.414212, -0.136119, -0.429877, -0.141298, -0.37359, -0.122783, 2.50251E-009, -4.46777E-009
1, 540.00000, -0.414212, -0.136119, -0.429877, -0.141298, -0.37359, -0.122783, 2.50251E-009, -4.46777E-009
1, 600.00000, -0.414212, -0.136119, -0.429877, -0.141298, -0.37359, -0.122783, 2.50251E-009, -4.46777E-009
1, 660.00000, -0.408405, -0.13423, -0.346896, -0.114009, -0.391367, -0.128619, -1.60254E-009, -1.04296E-008
1, 720.00000, -0.408396, -0.134227, -0.346896, -0.114009, -0.391378, -0.128623, -1.60369E-009, -1.04277E-008
1, 780.00000, -0.408396, -0.134227, -0.346896, -0.114009, -0.391378, -0.128623, -1.6037E-009, -1.04277E-008
1, 840.00000, -0.408396, -0.134227, -0.346896, -0.114009, -0.391378, -0.128623, -1.6037E-009, -1.04277E-008
1, 900.00000, -0.408396, -0.134227, -0.346896, -0.114009, -0.391378, -0.128623, -1.6037E-009, -1.04277E-008
1, 960.00000, -0.425209, -0.139744, -0.409539, -0.134605, -0.415506, -0.136555, 1.03231E-009, -1.44177E-012
1, 1020.00000, -0.425233, -0.139752, -0.409525, -0.134601, -0.415502, -0.136554, 1.03343E-009, -2.01185E-012
1, 1080.00000, -0.425233, -0.139752, -0.409525, -0.134601, -0.415502, -0.136554, 1.03345E-009, -2.02737E-012
1, 1140.00000, -0.425233, -0.139752, -0.409525, -0.134601, -0.415502, -0.136554, 1.03345E-009, -2.02761E-012
1, 1200.00000, -0.425233, -0.139752, -0.409525, -0.134601, -0.415502, -0.136554, 1.03345E-009, -2.02762E-012
1, 1260.00000, -0.362621, -0.119163, -0.419235, -0.137793, -0.416802, -0.136993, -5.5079E-009, -9.10117E-009
1, 1320.00000, -0.362596, -0.119155, -0.419241, -0.137794, -0.416818, -0.136998, -5.51113E-009, -9.11047E-009
1, 1380.00000, -0.362596, -0.119155, -0.419242, -0.137794, -0.416818, -0.136998, -5.51119E-009, -9.11053E-009
1, 1440.00000, -0.362596, -0.119155, -0.419242, -0.137794, -0.416818, -0.136998, -5.51119E-009, -9.11053E-009
1, 1500.00000, -0.362596, -0.119155, -0.419242, -0.137794, -0.416818, -0.136998, -5.51119E-009, -9.11053E-009
1, 1560.00000, -0.392708, -0.12905, -0.383326, -0.125996, -0.348207, -0.11444, 8.35343E-009, -5.14591E-010
1, 1620.00000, -0.392719, -0.129055, -0.383313, -0.125992, -0.348209, -0.114441, 8.35609E-009, -5.19238E-010
1, 1680.00000, -0.392719, -0.129055, -0.383313, -0.125992, -0.348209, -0.114441, 8.35609E-009, -5.19286E-010
1, 1740.00000, -0.392719, -0.129055, -0.383313, -0.125992, -0.348209, -0.114441, 8.35609E-009, -5.19286E-010
1, 1800.00000, -0.392719, -0.129055, -0.383313, -0.125992, -0.348209, -0.114441, 8.35609E-009, -5.19286E-010
1, 1860.00000, -0.412114, -0.135447, -0.386222, -0.126942, -0.381686, -0.125431, -4.83158E-009, 4.74328E-009
1, 1920.00000, -0.412127, -0.135451, -0.38622, -0.126942, -0.381674, -0.125427, -4.83618E-009, 4.74305E-009
1, 1980.00000, -0.412127, -0.135451, -0.38622, -0.126942, -0.381674, -0.125427, -4.83622E-009, 4.74308E-009
1, 2040.00000, -0.412127, -0.135451, -0.38622, -0.126942, -0.381674, -0.125427, -4.83622E-009, 4.74308E-009
1, 2100.00000, -0.412127, -0.135451, -0.38622, -0.126942, -0.381674, -0.125427, -4.83622E-009, 4.74308E-009
1, 2160.00000, -0.386749, -0.127095, -0.402399, -0.132264, -0.375183, -0.123307, -8.0643E-010, 1.41869E-009
1, 2220.00000, -0.386736, -0.127091, -0.402403, -0.132265, -0.375195, -0.12331, -8.07934E-010, 1.41653E-009
1, 2280.00000, -0.386736, -0.127091, -0.402404, -0.132265, -0.375195, -0.12331, -8.07967E-010, 1.41651E-009
1, 2340.00000, -0.386736, -0.127091, -0.402404, -0.132265, -0.375195, -0.12331, -8.07967E-010, 1.41651E-009
1, 2400.00000, -0.386736, -0.127091, -0.402404, -0.132265, -0.375195, -0.12331, -8.07967E-010, 1.41651E-009
1, 2460.00000, -0.423496, -0.139177, -0.378307, -0.124344, -0.384548, -0.12638, -4.16034E-010, -9.49409E-009
1, 2520.00000, -0.423424, -0.139158, -0.378263, -0.124326, -0.384622, -0.126403, -4.31198E-010, -9.47664E-009
1, 2580.00000, -0.423423, -0.139158, -0.378263, -0.124326, -0.384623, -0.126404, -4.31343E-010, -9.47623E-009
1, 2640.00000, -0.423423, -0.139158, -0.378263, -0.124326, -0.384623, -0.126404, -4.31344E-010, -9.47622E-009
1, 2700.00000, -0.423423, -0.139158, -0.378263, -0.124326, -0.384623, -0.126404, -4.31344E-010, -9.47622E-009
1, 2760.00000, -0.341855, -0.112348, -0.427309, -0.140424, -0.45401, -0.149233, 5.04888E-009, -1.88075E-009
1, 2820.00000, -0.341859, -0.112349, -0.427316, -0.140427, -0.454005, -0.149231, 5.04938E-009, -1.87977E-009
1, 2880.00000, -0.341859, -0.112349, -0.427316, -0.140427, -0.454005, -0.149231, 5.04937E-009, -1.87975E-009
1, 2940.00000, -0.341859, -0.112349, -0.427316, -0.140427, -0.454005, -0.149231, 5.04937E-009, -1.87975E-009
1, 3000.00000, -0.341859, -0.112349, -0.427316, -0.140427, -0.454005, -0.149231, 5.04937E-009, -1.87975E-009
1, 3060.00000, -0.456491, -0.150013, -0.45193, -0.148549, -0.393833, -0.129434, 4.26238E-009, -4.25691E-009
1, 3120.00000, -0.456501, -0.150017, -0.451923, -0.148547, -0.393826, -0.129432, 4.2636E-009, -4.25942E-009
1, 3180.00000, -0.456501, -0.150017, -0.451923, -0.148547, -0.393826, -0.129432, 4.2636E-009, -4.25944E-009
1, 3240.00000, -0.456501, -0.150017, -0.451923, -0.148547, -0.393826, -0.129432, 4.2636E-009, -4.25944E-009
1, 3300.00000, -0.456501, -0.150017, -0.451923, -0.148547, -0.393826, -0.129432, 4.2636E-009, -4.25944E-009
1, 3360.00000, -0.409569, -0.134595, -0.440108, -0.144658, -0.373216, -0.122663, 1.44525E-009, -1.3712E-009
1, 3420.00000, -0.409548, -0.134586, -0.440137, -0.144667, -0.373212, -0.12266, 1.4451E-009, -1.37275E-009
1, 3480.00000, -0.409548, -0.134586, -0.440138, -0.144668, -0.373211, -0.12266, 1.44511E-009, -1.3728E-009
1, 3540.00000, -0.409548, -0.134586, -0.440138, -0.144668, -0.373211, -0.12266, 1.44511E-009, -1.3728E-009
2, 0.00000, -0.409548, -0.134586, -0.440138, -0.144668, -0.373211, -0.12266, 1.44511E-009, -1.3728E-009
2, 60.00000, -0.369339, -0.121374, -0.45612, -0.14991, -0.416646, -0.136944, 1.09995E-008, -2.49322E-009
2, 120.00000, -0.36934, -0.121374, -0.456106, -0.149905, -0.416643, -0.136943, 1.09967E-008, -2.49093E-009
2, 180.00000, -0.36934, -0.121374, -0.456106, -0.149905, -0.416643, -0.136943, 1.09967E-008, -2.4909E-009
2, 240.00000, -0.36934, -0.121374, -0.456106, -0.149905, -0.416643, -0.136943, 1.09967E-008, -2.4909E-009
2, 300.00000, -0.36934, -0.121374, -0.456106, -0.149905, -0.416643, -0.136943, 1.09967E-008, -2.4909E-009
2, 360.00000, -0.402415, -0.132248, -0.391386, -0.128641, -0.364654, -0.119842, -4.71525E-011, -1.46374E-009
2, 420.00000, -0.40242, -0.13225, -0.391376, -0.128638, -0.364661, -0.119844, -4.71196E-011, -1.46357E-009
2, 480.00000, -0.40242, -0.13225, -0.391376, -0.128638, -0.364661, -0.119844, -4.71206E-011, -1.46356E-009
2, 540.00000, -0.40242, -0.13225, -0.391376, -0.128638, -0.364661, -0.119844, -4.71206E-011, -1.46356E-009
2, 600.00000, -0.40242, -0.13225, -0.391376, -0.128638, -0.364661, -0.119844, -4.71206E-011, -1.46356E-009
2, 660.00000, -0.442945, -0.145578, -0.360069, -0.118341, -0.396343, -0.130252, -1.07095E-008, -1.78777E-008
2, 720.00000, -0.442891, -0.145568, -0.360003, -0.118316, -0.39642, -0.130277, -1.07248E-008, -1.78586E-008
2, 780.00000, -0.44289, -0.145567, -0.360003, -0.118316, -0.396421, -0.130277, -1.07249E-008, -1.7858E-008
2, 840.00000, -0.44289, -0.145567, -0.360003, -0.118316, -0.396421, -0.130277, -1.07249E-008, -1.7858E-008
2, 900.00000, -0.44289, -0.145567, -0.360003, -0.118316, -0.396421, -0.130277, -1.07249E-008, -1.7858E-008
2, 960.00000, -0.344337, -0.113148, -0.429876, -0.141292, -0.328748, -0.108056, 8.9355E-009, -2.51942E-009
2, 1020.00000, -0.344339, -0.113148, -0.429894, -0.141299, -0.328731, -0.10805, 8.94063E-009, -2.5241E-009
2, 1080.00000, -0.344339, -0.113148, -0.429894, -0.141299, -0.328731, -0.10805, 8.94069E-009, -2.52415E-009
2, 1140.00000, -0.344339, -0.113148, -0.429894, -0.141299, -0.328731, -0.10805, 8.94069E-009, -2.52415E-009
2, 1200.00000, -0.344339, -0.113148, -0.429894, -0.141299, -0.328731, -0.10805, 8.94069E-009, -2.52415E-009
2, 1260.00000, -0.341925, -0.112378, -0.337213, -0.110822, -0.362559, -0.119158, -3.01733E-009, 2.13119E-009
2, 1320.00000, -0.341866, -0.112359, -0.337201, -0.110818, -0.362586, -0.119165, -3.01343E-009, 2.13924E-009
2, 1380.00000, -0.341866, -0.112358, -0.337202, -0.110818, -0.362586, -0.119165, -3.01333E-009, 2.13934E-009
2, 1440.00000, -0.341866, -0.112358, -0.337202, -0.110818, -0.362586, -0.119165, -3.01333E-009, 2.13934E-009
2, 1500.00000, -0.341866, -0.112358, -0.337202, -0.110818, -0.362586, -0.119165, -3.01333E-009, 2.13934E-009
2, 1560.00000, -0.411632, -0.135282, -0.355355, -0.116801, -0.326169, -0.107185, 2.03934E-009, -8.59501E-009
2, 1620.00000, -0.411639, -0.135285, -0.355343, -0.116797, -0.326172, -0.107187, 2.03995E-009, -8.59693E-009
2, 1680.00000, -0.411639, -0.135285, -0.355343, -0.116797, -0.326172, -0.107187, 2.03995E-009, -8.59692E-009
2, 1740.00000, -0.411639, -0.135285, -0.355343, -0.116797, -0.326172, -0.107187, 2.03995E-009, -8.59692E-009
2, 1800.00000, -0.411639, -0.135285, -0.355343, -0.116797, -0.326172, -0.107187, 2.03995E-009, -8.59692E-009
2, 1860.00000, -0.35337, -0.116139, -0.398453, -0.130943, -0.448008, -0.147249, 1.07013E-008, -3.13649E-009
2, 1920.00000, -0.353371, -0.116139, -0.398511, -0.130962, -0.448027, -0.147256, 1.07065E-008, -3.1416E-009
2, 1980.00000, -0.353371, -0.116139, -0.398512, -0.130962, -0.448027, -0.147256, 1.07065E-008, -3.14159E-009
2, 2040.00000, -0.353371, -0.116139, -0.398512, -0.130962, -0.448027, -0.147256, 1.07065E-008, -3.14159E-009
2, 2100.00000, -0.353371, -0.116139, -0.398512, -0.130962, -0.448027, -0.147256, 1.07065E-008, -3.14159E-009
2, 2160.00000, -0.324071, -0.106507, -0.322804, -0.106085, -0.379607, -0.124763, -1.45247E-009, -7.70312E-009
2, 2220.00000, -0.324095, -0.106514, -0.322773, -0.106074, -0.379589, -0.124758, -1.45047E-009, -7.70393E-009
2, 2280.00000, -0.324095, -0.106514, -0.322772, -0.106074, -0.379589, -0.124758, -1.45045E-009, -7.70402E-009
2, 2340.00000, -0.324095, -0.106514, -0.322772, -0.106074, -0.379589, -0.124758, -1.45045E-009, -7.70402E-009
2, 2400.00000, -0.324095, -0.106514, -0.322772, -0.106074, -0.379589, -0.124758, -1.45045E-009, -7.70402E-009
2, 2460.00000, -0.406955, -0.133754, -0.373124, -0.122627, -0.415515, -0.136558, -2.32994E-009, -2.01676E-010
2, 2520.00000, -0.406964, -0.133757, -0.373117, -0.122625, -0.415512, -0.136557, -2.33086E-009, -2.03092E-010
2, 2580.00000, -0.406964, -0.133757, -0.373117, -0.122625, -0.415512, -0.136557, -2.33086E-009, -2.03107E-010
2, 2640.00000, -0.406964, -0.133757, -0.373117, -0.122625, -0.415512, -0.136557, -2.33086E-009, -2.03107E-010
2, 2700.00000, -0.406964, -0.133757, -0.373117, -0.122625, -0.415512, -0.136557, -2.33086E-009, -2.03107E-010
2, 2760.00000, -0.376479, -0.123732, -0.344423, -0.113198, -0.362583, -0.119161, -2.16014E-009, -3.44532E-009
2, 2820.00000, -0.376472, -0.123729, -0.344431, -0.113201, -0.36258, -0.11916, -2.15956E-009, -3.44336E-009
2, 2880.00000, -0.376472, -0.123729, -0.344431, -0.113201, -0.36258, -0.11916, -2.15955E-009, -3.44335E-009
2, 2940.00000, -0.376472, -0.123729, -0.344431, -0.113201, -0.36258, -0.11916, -2.15955E-009, -3.44335E-009
2, 3000.00000, -0.376472, -0.123729, -0.344431, -0.113201, -0.36258, -0.11916, -2.15955E-009, -3.44335E-009
2, 3060.00000, -0.364704, -0.119857, -0.346899, -0.114015, -0.359217, -0.118056, 3.16943E-010, -2.34097E-009
2, 3120.00000, -0.364685, -0.119851, -0.346899, -0.114015, -0.359241, -0.118063, 3.14937E-010, -2.34051E-009
2, 3180.00000, -0.364685, -0.119851, -0.346899, -0.114015, -0.359241, -0.118063, 3.14911E-010, -2.34048E-009
2, 3240.00000, -0.364685, -0.119851, -0.346899, -0.114015, -0.359241, -0.118063, 3.14911E-010, -2.34048E-009
2, 3300.00000, -0.364685, -0.119851, -0.346899, -0.114015, -0.359241, -0.118063, 3.14911E-010, -2.34048E-009
2, 3360.00000, -0.352875, -0.115959, -0.398512, -0.130982, -0.324104, -0.10652, 5.4883E-009, -3.51812E-009
2, 3420.00000, -0.352898, -0.115966, -0.398513, -0.130985, -0.324077, -0.106513, 5.49145E-009, -3.52387E-009
2, 3480.00000, -0.352898, -0.115966, -0.398513, -0.130985, -0.324077, -0.106513, 5.49145E-009, -3.52391E-009
2, 3540.00000, -0.352898, -0.115966, -0.398513, -0.130985, -0.324077, -0.106513, 5.49145E-009, -3.5239E-009
3, 0.00000, -0.352898, -0.115966, -0.398513, -0.130985, -0.324077, -0.106513, 5.49145E-009, -3.5239E-009
3, 60.00000, -0.294936, -0.0969325, -0.337966, -0.111063, -0.378258, -0.124325, 3.91069E-009, 5.05626E-009
3, 120.00000, -0.294918, -0.0969265, -0.337972, -0.111064, -0.378271, -0.124329, 3.91526E-009, 5.05525E-009
3, 180.00000, -0.294918, -0.0969264, -0.337972, -0.111064, -0.378271, -0.124329, 3.91533E-009, 5.05524E-009
