hour, t(sec), V1, VAngle1, V2, VAngle2, V3, VAngle3, V4, VAngle4, I1, IAngle1, I2, IAngle2, I3, IAngle3, I4, IAngle4
0, 60.00000, 219.917, -30.0811, 220.183, -150.113, 220.439, 89.8982, 3.62314E-005, -151.086, 1.15544, 131.724, 1.15404, 11.6918, 1.1527, -108.297, 0.0360895, 25.805
0, 120.00000, 219.917, -30.0811, 220.183, -150.113, 220.439, 89.8982, 3.6232E-005, -151.089, 1.15544, 131.724, 1.15404, 11.6918, 1.1527, -108.297, 0.036087, 25.8052
0, 180.00000, 219.917, -30.0811, 220.183, -150.113, 220.439, 89.8982, 3.6232E-005, -151.089, 1.15544, 131.724, 1.15404, 11.6918, 1.1527, -108.297, 0.036087, 25.8052
0, 240.00000, 219.917, -30.0811, 220.183, -150.113, 220.439, 89.8982, 3.6232E-005, -151.089, 1.15544, 131.724, 1.15404, 11.6918, 1.1527, -108.297, 0.036087, 25.8052
0, 300.00000, 219.917, -30.0811, 220.183, -150.113, 220.439, 89.8982, 3.6232E-005, -151.089, 1.15544, 131.724, 1.15404, 11.6918, 1.1527, -108.297, 0.036087, 25.8052
0, 360.00000, 219.435, -30.0656, 220.079, -150.162, 220.577, 89.9199, 0.000135233, -93.3273, 1.32337, 131.74, 1.1546, 11.6434, 1.15199, -108.275, 0.119574, 4.02794
0, 420.00000, 219.434, -30.0656, 220.079, -150.162, 220.577, 89.9199, 0.000135258, -93.3254, 1.3234, 131.74, 1.15459, 11.6434, 1.15198, -108.275, 0.119598, 4.02382
0, 480.00000, 219.434, -30.0656, 220.079, -150.162, 220.577, 89.9199, 0.000135259, -93.3254, 1.3234, 131.74, 1.15459, 11.6434, 1.15198, -108.275, 0.119598, 4.02383
0, 540.00000, 219.434, -30.0656, 220.079, -150.162, 220.577, 89.9199, 0.000135259, -93.3254, 1.3234, 131.74, 1.15459, 11.6434, 1.15198, -108.275, 0.119598, 4.02383
0, 600.00000, 219.434, -30.0656, 220.079, -150.162, 220.577, 89.9199, 0.000135259, -93.3254, 1.3234, 131.74, 1.15459, 11.6434, 1.15198, -108.275, 0.119598, 4.02383
0, 660.00000, 219.791, -30.0969, 220.175, -150.101, 220.226, 89.9034, 0.000268463, 147.754, 1.15612, 131.708, 1.64869, 11.7041, 1.31862, -108.291, 0.222752, -156.508
0, 720.00000, 219.791, -30.0969, 220.174, -150.101, 220.226, 89.9034, 0.00026847, 147.749, 1.1561, 131.708, 1.64869, 11.7043, 1.31864, -108.292, 0.222764, -156.514
0, 780.00000, 219.791, -30.0969, 220.174, -150.101, 220.226, 89.9034, 0.00026847, 147.749, 1.1561, 131.708, 1.64869, 11.7043, 1.31864, -108.292, 0.222764, -156.514
0, 840.00000, 219.791, -30.0969, 220.174, -150.101, 220.226, 89.9034, 0.00026847, 147.749, 1.1561, 131.708, 1.64869, 11.7043, 1.31864, -108.292, 0.222764, -156.514
0, 900.00000, 219.791, -30.0969, 220.174, -150.101, 220.226, 89.9034, 0.00026847, 147.749, 1.1561, 131.708, 1.64869, 11.7043, 1.31864, -108.292, 0.222764, -156.514
0, 960.00000, 219.797, -30.1045, 220.234, -150.103, 220.148, 89.9029, 0.00028917, 105.455, 0.825764, 131.701, 1.31862, 11.7018, 1.31907, -108.292, 0.266385, 160.317
0, 1020.00000, 219.797, -30.1045, 220.234, -150.103, 220.148, 89.9029, 0.000289175, 105.449, 0.825761, 131.701, 1.3186, 11.7019, 1.31912, -108.292, 0.266397, 160.31
0, 1080.00000, 219.797, -30.1045, 220.234, -150.103, 220.148, 89.9029, 0.000289175, 105.449, 0.825761, 131.701, 1.3186, 11.7019, 1.31912, -108.292, 0.266397, 160.31
0, 1140.00000, 219.797, -30.1045, 220.234, -150.103, 220.148, 89.9029, 0.000289175, 105.449, 0.825761, 131.701, 1.3186, 11.7019, 1.31912, -108.292, 0.266397, 160.31
0, 1200.00000, 219.797, -30.1045, 220.234, -150.103, 220.148, 89.9029, 0.000289175, 105.449, 0.825761, 131.701, 1.3186, 11.7019, 1.31912, -108.292, 0.266397, 160.31
0, 1260.00000, 219.689, -30.0335, 219.882, -150.171, 220.796, 89.891, 0.000225187, -86.8166, 1.48708, 131.772, 1.1556, 11.6346, 1.15088, -108.304, 0.209169, -6.76535
0, 1320.00000, 219.689, -30.0335, 219.881, -150.171, 220.797, 89.891, 0.000225209, -86.8236, 1.48711, 131.772, 1.15562, 11.6345, 1.15083, -108.304, 0.209184, -6.77379
0, 1380.00000, 219.689, -30.0335, 219.881, -150.171, 220.797, 89.891, 0.000225209, -86.8236, 1.48711, 131.772, 1.15562, 11.6345, 1.15083, -108.304, 0.209184, -6.77384
0, 1440.00000, 219.689, -30.0335, 219.881, -150.171, 220.797, 89.891, 0.000225209, -86.8236, 1.48711, 131.772, 1.15562, 11.6345, 1.15083, -108.304, 0.209185, -6.77384
0, 1500.00000, 219.689, -30.0335, 219.881, -150.171, 220.797, 89.891, 0.000225209, -86.8236, 1.48711, 131.772, 1.15562, 11.6345, 1.15083, -108.304, 0.209185, -6.77384
0, 1560.00000, 219.86, -29.9934, 219.549, -150.157, 220.898, 89.8624, 0.000205244, -166.467, 1.32085, 131.812, 1.48802, 11.6487, 1.15032, -108.333, 0.145776, -96.0762
0, 1620.00000, 219.86, -29.9933, 219.549, -150.157, 220.898, 89.8624, 0.000205265, -166.469, 1.32084, 131.812, 1.48805, 11.6486, 1.15031, -108.333, 0.145795, -96.0798
0, 1680.00000, 219.86, -29.9933, 219.549, -150.157, 220.898, 89.8624, 0.000205266, -166.469, 1.32084, 131.812, 1.48805, 11.6486, 1.15031, -108.333, 0.145795, -96.0798
0, 1740.00000, 219.86, -29.9933, 219.549, -150.157, 220.898, 89.8624, 0.000205266, -166.469, 1.32084, 131.812, 1.48805, 11.6486, 1.15031, -108.333, 0.145795, -96.0798
0, 1800.00000, 219.86, -29.9933, 219.549, -150.157, 220.898, 89.8624, 0.000205266, -166.469, 1.32084, 131.812, 1.48805, 11.6486, 1.15031, -108.333, 0.145795, -96.0798
0, 1860.00000, 219.515, -30.0304, 219.606, -150.148, 220.493, 89.8812, 0.000207642, 104.431, 0.992179, 131.775, 1.32239, 11.6574, 1.31703, -108.314, 0.173715, 165.978
0, 1920.00000, 219.515, -30.0304, 219.606, -150.148, 220.492, 89.8813, 0.000207636, 104.424, 0.992188, 131.775, 1.32237, 11.6575, 1.31705, -108.314, 0.173711, 165.97
0, 1980.00000, 219.515, -30.0304, 219.606, -150.148, 220.492, 89.8813, 0.000207636, 104.424, 0.992188, 131.775, 1.32237, 11.6575, 1.31705, -108.314, 0.173711, 165.97
0, 2040.00000, 219.515, -30.0304, 219.606, -150.148, 220.492, 89.8813, 0.000207636, 104.424, 0.992188, 131.775, 1.32237, 11.6575, 1.31705, -108.314, 0.173711, 165.97
0, 2100.00000, 219.515, -30.0304, 219.606, -150.148, 220.492, 89.8813, 0.000207636, 104.424, 0.992188, 131.775, 1.32237, 11.6575, 1.31705, -108.314, 0.173711, 165.97
0, 2160.00000, 219.897, -30.0688, 220.098, -150.119, 220.429, 89.89, 0.00010386, -40.1886, 1.15556, 131.736, 0.989569, 11.6859, 1.15274, -108.305, 0.128896, 49.9681
0, 2220.00000, 219.897, -30.0688, 220.098, -150.119, 220.428, 89.89, 0.000103858, -40.1768, 1.15554, 131.736, 0.98956, 11.686, 1.15276, -108.305, 0.128902, 49.9769
0, 2280.00000, 219.897, -30.0688, 220.098, -150.119, 220.428, 89.89, 0.000103857, -40.1767, 1.15554, 131.736, 0.98956, 11.686, 1.15276, -108.305, 0.128902, 49.977
0, 2340.00000, 219.897, -30.0688, 220.098, -150.119, 220.428, 89.89, 0.000103857, -40.1767, 1.15554, 131.736, 0.98956, 11.686, 1.15276, -108.305, 0.128902, 49.977
0, 2400.00000, 219.897, -30.0688, 220.098, -150.119, 220.428, 89.89, 0.000103857, -40.1767, 1.15554, 131.736, 0.98956, 11.686, 1.15276, -108.305, 0.128902, 49.977
0, 2460.00000, 219.581, -30.1438, 220.527, -150.09, 219.944, 89.9341, 0.000469037, -47.5352, 1.65315, 131.662, 0.823052, 11.7149, 1.32029, -108.261, 0.437254, 26.8738
0, 2520.00000, 219.581, -30.1438, 220.527, -150.09, 219.943, 89.9341, 0.000469048, -47.5316, 1.65315, 131.661, 0.823028, 11.7148, 1.32034, -108.261, 0.437268, 26.8774
0, 2580.00000, 219.581, -30.1438, 220.527, -150.09, 219.943, 89.9341, 0.000469048, -47.5315, 1.65315, 131.661, 0.823028, 11.7148, 1.32034, -108.261, 0.437268, 26.8775
0, 2640.00000, 219.581, -30.1438, 220.527, -150.09, 219.943, 89.9341, 0.000469048, -47.5315, 1.65315, 131.661, 0.823028, 11.7148, 1.32034, -108.261, 0.437268, 26.8775
0, 2700.00000, 219.581, -30.1438, 220.527, -150.09, 219.943, 89.9341, 0.000469048, -47.5315, 1.65315, 131.661, 0.823028, 11.7148, 1.32034, -108.261, 0.437268, 26.8775
0, 2760.00000, 219.326, -30.1488, 220.695, -150.11, 220.05, 89.972, 0.000134942, -144.61, 1.32403, 131.656, 1.31587, 11.6954, 1.15474, -108.223, 0.102379, -52.3035
0, 2820.00000, 219.326, -30.1488, 220.695, -150.11, 220.05, 89.972, 0.00013494, -144.601, 1.32406, 131.656, 1.31584, 11.6954, 1.15474, -108.223, 0.102386, -52.2921
0, 2880.00000, 219.326, -30.1488, 220.695, -150.11, 220.05, 89.972, 0.00013494, -144.601, 1.32406, 131.656, 1.31584, 11.6954, 1.15474, -108.223, 0.102386, -52.292
0, 2940.00000, 219.326, -30.1488, 220.695, -150.11, 220.05, 89.972, 0.00013494, -144.601, 1.32406, 131.656, 1.31584, 11.6954, 1.15474, -108.223, 0.102386, -52.292
0, 3000.00000, 219.326, -30.1488, 220.695, -150.11, 220.05, 89.972, 0.00013494, -144.601, 1.32406, 131.656, 1.31584, 11.6954, 1.15474, -108.223, 0.102386, -52.292
0, 3060.00000, 220.047, -30.1122, 220.1, -150.06, 219.901, 89.8691, 0.00020293, 42.4457, 1.15479, 131.693, 1.15442, 11.745, 1.48568, -108.326, 0.181692, 104.267
0, 3120.00000, 220.048, -30.1121, 220.1, -150.06, 219.901, 89.869, 0.000202918, 42.4591, 1.15475, 131.693, 1.15447, 11.7449, 1.48567, -108.326, 0.181677, 104.281
0, 3180.00000, 220.048, -30.1121, 220.1, -150.06, 219.901, 89.869, 0.000202918, 42.4592, 1.15475, 131.693, 1.15447, 11.7449, 1.48567, -108.326, 0.181677, 104.281
0, 3240.00000, 220.048, -30.1121, 220.1, -150.06, 219.901, 89.869, 0.000202918, 42.4592, 1.15475, 131.693, 1.15447, 11.7449, 1.48567, -108.326, 0.181677, 104.281
0, 3300.00000, 220.048, -30.1121, 220.1, -150.06, 219.901, 89.869, 0.000202918, 42.4592, 1.15475, 131.693, 1.15447, 11.7449, 1.48567, -108.326, 0.181677, 104.281
0, 3360.00000, 220.171, -30.0326, 219.505, -150.093, 220.277, 89.8262, 8.72876E-005, 31.2462, 1.31897, 131.772, 1.32294, 11.7127, 1.48318, -108.369, 0.112659, 102.28
0, 3420.00000, 220.171, -30.0326, 219.505, -150.093, 220.278, 89.8262, 8.72474E-005, 31.2546, 1.31898, 131.773, 1.32298, 11.7126, 1.48313, -108.369, 0.112621, 102.287
0, 3480.00000, 220.171, -30.0326, 219.505, -150.093, 220.278, 89.8262, 8.72471E-005, 31.2546, 1.31898, 131.773, 1.32298, 11.7126, 1.48313, -108.369, 0.112621, 102.287
0, 3540.00000, 220.171, -30.0326, 219.505, -150.093, 220.278, 89.8262, 8.72471E-005, 31.2546, 1.31898, 131.773, 1.32298, 11.7126, 1.48313, -108.369, 0.112621, 102.287
1, 0.00000, 220.171, -30.0326, 219.505, -150.093, 220.278, 89.8262, 8.72471E-005, 31.2546, 1.31898, 131.773, 1.32298, 11.7126, 1.48313, -108.369, 0.112621, 102.287
1, 60.00000, 220.847, -30.0622, 220.832, -150.074, 221.018, 89.8908, 0.000200368, -165.075, 0.986253, 131.743, 1.1507, 11.7315, 0.821231, -108.304, 0.139794, -97.605
1, 120.00000, 220.847, -30.0622, 220.833, -150.074, 221.018, 89.8908, 0.000200356, -165.076, 0.986203, 131.743, 1.15065, 11.7315, 0.821199, -108.304, 0.139784, -97.6067
1, 180.00000, 220.847, -30.0622, 220.833, -150.074, 221.018, 89.8908, 0.000200356, -165.076, 0.986202, 131.743, 1.15065, 11.7315, 0.821198, -108.304, 0.139784, -97.6068
1, 240.00000, 220.847, -30.0622, 220.833, -150.074, 221.018, 89.8908, 0.000200356, -165.076, 0.986202, 131.743, 1.15065, 11.7315, 0.821198, -108.304, 0.139784, -97.6068
1, 300.00000, 220.847, -30.0622, 220.833, -150.074, 221.018, 89.8908, 0.000200356, -165.076, 0.986202, 131.743, 1.15065, 11.7315, 0.821198, -108.304, 0.139784, -97.6068
1, 360.00000, 220.64, -30.025, 220.69, -150.132, 221.465, 89.9022, 0.000284968, -4.99066, 0.987091, 131.78, 0.65794, 11.6726, 1.14739, -108.293, 0.260871, 69.9148
1, 420.00000, 220.64, -30.025, 220.69, -150.132, 221.466, 89.9023, 0.000284955, -4.99876, 0.98713, 131.78, 0.657936, 11.673, 1.14736, -108.293, 0.260854, 69.9064
1, 480.00000, 220.64, -30.025, 220.69, -150.132, 221.466, 89.9023, 0.000284955, -4.99885, 0.98713, 131.78, 0.657935, 11.673, 1.14735, -108.293, 0.260854, 69.9063
1, 540.00000, 220.64, -30.025, 220.69, -150.132, 221.466, 89.9023, 0.000284955, -4.99885, 0.98713, 131.78, 0.657935, 11.673, 1.14735, -108.293, 0.260854, 69.9063
1, 600.00000, 220.64, -30.025, 220.69, -150.132, 221.466, 89.9023, 0.000284955, -4.99885, 0.98713, 131.78, 0.657935, 11.673, 1.14735, -108.293, 0.260854, 69.9063
1, 660.00000, 220.694, -30.0429, 220.697, -150.104, 221.254, 89.8948, 9.74036E-005, 31.0981, 0.986901, 131.762, 0.986872, 11.7016, 1.14844, -108.3, 0.108528, 107.066
1, 720.00000, 220.695, -30.0429, 220.697, -150.104, 221.253, 89.8948, 9.74192E-005, 31.104, 0.986884, 131.762, 0.986873, 11.7016, 1.14846, -108.3, 0.108545, 107.07
1, 780.00000, 220.695, -30.0429, 220.697, -150.104, 221.253, 89.8948, 9.74193E-005, 31.1042, 0.986884, 131.762, 0.986873, 11.7016, 1.14846, -108.3, 0.108545, 107.07
1, 840.00000, 220.695, -30.0429, 220.697, -150.104, 221.253, 89.8948, 9.74193E-005, 31.1042, 0.986884, 131.762, 0.986873, 11.7016, 1.14846, -108.3, 0.108545, 107.07
1, 900.00000, 220.695, -30.0429, 220.697, -150.104, 221.253, 89.8948, 9.74193E-005, 31.1042, 0.986884, 131.762, 0.986873, 11.7016, 1.14846, -108.3, 0.108545, 107.07
1, 960.00000, 220.11, -30.0419, 220.683, -150.156, 221.319, 89.9365, 0.000194729, 39.0465, 0.989463, 131.763, 0.986961, 11.6492, 1.31214, -108.259, 0.192099, 104.386
1, 1020.00000, 220.109, -30.042, 220.684, -150.156, 221.319, 89.9366, 0.000194718, 39.037, 0.989508, 131.763, 0.986932, 11.6492, 1.31213, -108.258, 0.192089, 104.376
1, 1080.00000, 220.109, -30.042, 220.684, -150.156, 221.319, 89.9366, 0.000194719, 39.0369, 0.989509, 131.763, 0.986932, 11.6492, 1.31213, -108.258, 0.192089, 104.376
1, 1140.00000, 220.109, -30.042, 220.684, -150.156, 221.319, 89.9366, 0.000194719, 39.0369, 0.989509, 131.763, 0.986932, 11.6492, 1.31213, -108.258, 0.192089, 104.376
1, 1200.00000, 220.109, -30.042, 220.684, -150.156, 221.319, 89.9366, 0.000194719, 39.0369, 0.989509, 131.763, 0.986932, 11.6492, 1.31213, -108.258, 0.192089, 104.376
1, 1260.00000, 220.646, -30.0767, 220.955, -150.095, 221.074, 89.914, 1.86395E-005, -164.576, 1.15167, 131.728, 1.14999, 11.7101, 1.14936, -108.281, 0.0192857, 10.1857
1, 1320.00000, 220.647, -30.0767, 220.955, -150.095, 221.074, 89.9139, 1.86253E-005, -164.696, 1.15161, 131.728, 1.15001, 11.7102, 1.14939, -108.281, 0.0192529, 10.2615
1, 1380.00000, 220.647, -30.0767, 220.955, -150.095, 221.074, 89.9139, 1.86254E-005, -164.698, 1.15161, 131.728, 1.15001, 11.7102, 1.14939, -108.281, 0.0192524, 10.2617
1, 1440.00000, 220.647, -30.0767, 220.955, -150.095, 221.074, 89.9139, 1.86254E-005, -164.698, 1.15161, 131.728, 1.15001, 11.7102, 1.14939, -108.281, 0.0192524, 10.2617
1, 1500.00000, 220.647, -30.0767, 220.955, -150.095, 221.074, 89.9139, 1.86254E-005, -164.698, 1.15161, 131.728, 1.15001, 11.7102, 1.14939, -108.281, 0.0192524, 10.2617
1, 1560.00000, 220.357, -30.0891, 221.15, -150.108, 221.104, 89.9462, 0.00023224, -142.331, 1.1531, 131.716, 1.14902, 11.6974, 0.820878, -108.249, 0.19116, -64.2504
1, 1620.00000, 220.357, -30.0891, 221.151, -150.108, 221.103, 89.9463, 0.000232237, -142.325, 1.15313, 131.716, 1.14899, 11.6974, 0.820882, -108.249, 0.191162, -64.2425
1, 1680.00000, 220.357, -30.0891, 221.151, -150.108, 221.103, 89.9463, 0.000232237, -142.324, 1.15313, 131.716, 1.14899, 11.6974, 0.820882, -108.249, 0.191162, -64.2424
1, 1740.00000, 220.357, -30.0891, 221.151, -150.108, 221.103, 89.9463, 0.000232237, -142.324, 1.15313, 131.716, 1.14899, 11.6974, 0.820882, -108.249, 0.191162, -64.2424
1, 1800.00000, 220.357, -30.0891, 221.151, -150.108, 221.103, 89.9463, 0.000232237, -142.324, 1.15313, 131.716, 1.14899, 11.6974, 0.820882, -108.249, 0.191162, -64.2424
1, 1860.00000, 220.178, -30.0533, 220.949, -150.151, 221.434, 89.9508, 0.000123841, -139.799, 1.15404, 131.752, 1.15004, 11.654, 0.983607, -108.244, 0.0909026, -60.5656
1, 1920.00000, 220.177, -30.0533, 220.949, -150.151, 221.435, 89.9508, 0.00012386, -139.792, 1.15407, 131.752, 1.15004, 11.6539, 0.983586, -108.244, 0.0909241, -60.5597
1, 1980.00000, 220.177, -30.0533, 220.949, -150.151, 221.435, 89.9508, 0.00012386, -139.792, 1.15407, 131.752, 1.15004, 11.6539, 0.983586, -108.244, 0.0909243, -60.5595
1, 2040.00000, 220.177, -30.0533, 220.949, -150.151, 221.435, 89.9508, 0.00012386, -139.792, 1.15407, 131.752, 1.15004, 11.6539, 0.983586, -108.244, 0.0909243, -60.5595
1, 2100.00000, 220.177, -30.0533, 220.949, -150.151, 221.435, 89.9508, 0.00012386, -139.792, 1.15407, 131.752, 1.15004, 11.6539, 0.983586, -108.244, 0.0909243, -60.5595
1, 2160.00000, 220.307, -30.0845, 221.07, -150.117, 221.104, 89.9495, 7.89071E-005, 41.1423, 0.988642, 131.721, 0.985199, 11.6877, 1.14921, -108.245, 0.102225, 93.6193
1, 2220.00000, 220.308, -30.0844, 221.07, -150.117, 221.104, 89.9494, 7.89256E-005, 41.1529, 0.988617, 131.721, 0.985208, 11.6877, 1.14923, -108.245, 0.102239, 93.6297
1, 2280.00000, 220.308, -30.0844, 221.07, -150.117, 221.104, 89.9494, 7.89257E-005, 41.1531, 0.988617, 131.721, 0.985208, 11.6877, 1.14923, -108.245, 0.102239, 93.6299
1, 2340.00000, 220.308, -30.0844, 221.07, -150.117, 221.104, 89.9494, 7.89257E-005, 41.1531, 0.988617, 131.721, 0.985208, 11.6877, 1.14923, -108.245, 0.102239, 93.6299
1, 2400.00000, 220.308, -30.0844, 221.07, -150.117, 221.104, 89.9494, 7.89257E-005, 41.1531, 0.988617, 131.721, 0.985208, 11.6877, 1.14923, -108.245, 0.102239, 93.6299
1, 2460.00000, 220.515, -30.1052, 221.252, -150.085, 220.961, 89.9458, 0.000218004, -26.8738, 1.15245, 131.7, 0.820414, 11.7214, 1.14984, -108.249, 0.208171, 51.7241
1, 2520.00000, 220.517, -30.1054, 221.252, -150.084, 220.959, 89.9455, 0.000218035, -26.8313, 1.1523, 131.7, 0.820329, 11.7209, 1.14998, -108.249, 0.208229, 51.7648
1, 2580.00000, 220.517, -30.1054, 221.252, -150.084, 220.959, 89.9455, 0.000218035, -26.8308, 1.15229, 131.7, 0.82033, 11.7209, 1.14999, -108.249, 0.208229, 51.7654
1, 2640.00000, 220.517, -30.1054, 221.252, -150.084, 220.959, 89.9455, 0.000218035, -26.8308, 1.15229, 131.7, 0.82033, 11.7209, 1.14999, -108.249, 0.208229, 51.7654
1, 2700.00000, 220.517, -30.1054, 221.252, -150.084, 220.959, 89.9455, 0.000218035, -26.8308, 1.15229, 131.7, 0.82033, 11.7209, 1.14999, -108.249, 0.208229, 51.7654
1, 2760.00000, 220.336, -30.0821, 220.941, -150.095, 220.914, 89.9383, 0.0002092, -113.353, 1.15323, 131.723, 0.985772, 11.7101, 0.821594, -108.257, 0.167804, -31.8332
1, 2820.00000, 220.336, -30.082, 220.94, -150.095, 220.914, 89.9383, 0.000209208, -113.356, 1.15324, 131.723, 0.985787, 11.71, 0.821586, -108.257, 0.16781, -31.8364
1, 2880.00000, 220.336, -30.082, 220.94, -150.095, 220.914, 89.9383, 0.000209209, -113.356, 1.15324, 131.723, 0.985787, 11.71, 0.821586, -108.257, 0.167811, -31.8364
1, 2940.00000, 220.336, -30.082, 220.94, -150.095, 220.914, 89.9383, 0.000209209, -113.356, 1.15324, 131.723, 0.985787, 11.71, 0.821586, -108.257, 0.167811, -31.8364
1, 3000.00000, 220.336, -30.082, 220.94, -150.095, 220.914, 89.9383, 0.000209209, -113.356, 1.15324, 131.723, 0.985787, 11.71, 0.821586, -108.257, 0.167811, -31.8364
1, 3060.00000, 220.273, -30.0826, 221.054, -150.112, 221.094, 89.9469, 3.6219E-005, -150.959, 1.15355, 131.723, 1.14951, 11.6927, 1.14929, -108.248, 0.0368565, 24.2458
1, 3120.00000, 220.273, -30.0826, 221.054, -150.112, 221.094, 89.9469, 3.62245E-005, -150.931, 1.15357, 131.723, 1.14949, 11.6927, 1.14928, -108.248, 0.0368707, 24.229
1, 3180.00000, 220.273, -30.0826, 221.054, -150.112, 221.094, 89.9469, 3.62245E-005, -150.931, 1.15357, 131.723, 1.14949, 11.6927, 1.14928, -108.248, 0.0368709, 24.229
1, 3240.00000, 220.273, -30.0826, 221.054, -150.112, 221.094, 89.9469, 3.62245E-005, -150.931, 1.15357, 131.723, 1.14949, 11.6927, 1.14928, -108.248, 0.0368709, 24.229
1, 3300.00000, 220.273, -30.0826, 221.054, -150.112, 221.094, 89.9469, 3.62245E-005, -150.931, 1.15357, 131.723, 1.14949, 11.6927, 1.14928, -108.248, 0.0368709, 24.229
1, 3360.00000, 220.917, -30.0499, 220.582, -150.069, 220.969, 89.8671, 0.000253403, 79.9715, 0.821611, 131.755, 1.15189, 11.7357, 1.31422, -108.327, 0.259793, 144.513
1, 3420.00000, 220.918, -30.0497, 220.581, -150.069, 220.97, 89.867, 0.000253422, 79.9815, 0.821572, 131.755, 1.15196, 11.7357, 1.31421, -108.328, 0.259812, 144.522
1, 3480.00000, 220.918, -30.0497, 220.581, -150.069, 220.97, 89.867, 0.000253422, 79.9817, 0.821572, 131.755, 1.15196, 11.7357, 1.31421, -108.328, 0.259812, 144.523
1, 3540.00000, 220.918, -30.0497, 220.581, -150.069, 220.97, 89.867, 0.000253422, 79.9817, 0.821572, 131.755, 1.15196, 11.7357, 1.31421, -108.328, 0.259812, 144.523
