hour, t(sec), P1 (kW), Q1 (kvar), P2 (kW), Q2 (kvar), P3 (kW), Q3 (kvar), P4 (kW), Q4 (kvar)
0, 60.00000, -0.0360988, -0.0118652, -0.0577601, -0.0189838, -0.05776, -0.0189856, 3.63644E-007, 4.87671E-008
0, 120.00000, -0.0360994, -0.0118654, -0.0577606, -0.018984, -0.0577604, -0.0189857, 3.63641E-007, 4.87673E-008
0, 180.00000, -0.0360994, -0.0118654, -0.0577606, -0.018984, -0.0577604, -0.0189857, 3.63641E-007, 4.87673E-008
0, 240.00000, -0.0360994, -0.0118654, -0.0577606, -0.018984, -0.0577604, -0.0189857, 3.63641E-007, 4.87673E-008
0, 300.00000, -0.0360994, -0.0118654, -0.0577606, -0.018984, -0.0577604, -0.0189857, 3.63641E-007, 4.87673E-008
0, 360.00000, -0.0577588, -0.018984, -0.0577607, -0.0189853, -0.0505404, -0.0166119, 5.09274E-008, 7.51583E-009
0, 420.00000, -0.0577602, -0.0189845, -0.0577601, -0.0189852, -0.0505397, -0.0166116, 5.09438E-008, 7.51638E-009
0, 480.00000, -0.0577603, -0.0189845, -0.0577601, -0.0189852, -0.0505397, -0.0166116, 5.09438E-008, 7.51638E-009
0, 540.00000, -0.0577603, -0.0189845, -0.0577601, -0.0189852, -0.0505397, -0.0166116, 5.09438E-008, 7.51638E-009
0, 600.00000, -0.0577603, -0.0189845, -0.0577601, -0.0189852, -0.0505397, -0.0166116, 5.09438E-008, 7.51638E-009
0, 660.00000, -0.0433206, -0.0142393, -0.0505398, -0.0166109, -0.0649794, -0.0213577, 2.89888E-007, 2.12151E-008
0, 720.00000, -0.0433195, -0.014239, -0.0505399, -0.0166109, -0.0649809, -0.0213583, 2.89959E-007, 2.12203E-008
0, 780.00000, -0.0433195, -0.014239, -0.0505399, -0.0166109, -0.0649809, -0.0213583, 2.89959E-007, 2.12203E-008
0, 840.00000, -0.0433195, -0.014239, -0.0505399, -0.0166109, -0.0649809, -0.0213583, 2.89959E-007, 2.12203E-008
0, 900.00000, -0.0433195, -0.014239, -0.0505399, -0.0166109, -0.0649809, -0.0213583, 2.89959E-007, 2.12203E-008
0, 960.00000, -0.05054, -0.0166114, -0.0577604, -0.0189849, -0.0505395, -0.0166118, 4.46269E-008, 1.39332E-008
0, 1020.00000, -0.0505399, -0.0166114, -0.0577604, -0.0189849, -0.0505398, -0.0166119, 4.46247E-008, 1.39329E-008
0, 1080.00000, -0.0505399, -0.0166114, -0.0577604, -0.0189849, -0.0505398, -0.0166119, 4.46247E-008, 1.39329E-008
0, 1140.00000, -0.0505399, -0.0166114, -0.0577604, -0.0189849, -0.0505398, -0.0166119, 4.46247E-008, 1.39329E-008
0, 1200.00000, -0.0505399, -0.0166114, -0.0577604, -0.0189849, -0.0505398, -0.0166119, 4.46247E-008, 1.39329E-008
0, 1260.00000, -0.0577594, -0.0189844, -0.0577591, -0.0189848, -0.0505419, -0.0166124, 5.48214E-008, 8.42151E-009
0, 1320.00000, -0.0577603, -0.0189845, -0.0577602, -0.0189852, -0.0505396, -0.0166116, 5.48636E-008, 8.42648E-009
0, 1380.00000, -0.0577603, -0.0189845, -0.0577602, -0.0189852, -0.0505396, -0.0166116, 5.48639E-008, 8.42651E-009
0, 1440.00000, -0.0577603, -0.0189845, -0.0577602, -0.0189852, -0.0505396, -0.0166116, 5.48639E-008, 8.42651E-009
0, 1500.00000, -0.0577603, -0.0189845, -0.0577602, -0.0189852, -0.0505396, -0.0166116, 5.48639E-008, 8.42651E-009
0, 1560.00000, -0.0505403, -0.0166113, -0.0577593, -0.0189848, -0.0433203, -0.0142391, 1.46436E-007, 2.54894E-008
0, 1620.00000, -0.0505401, -0.0166111, -0.0577605, -0.0189852, -0.0433195, -0.0142388, 1.46473E-007, 2.54945E-008
0, 1680.00000, -0.0505401, -0.0166111, -0.0577605, -0.0189852, -0.0433195, -0.0142388, 1.46473E-007, 2.54945E-008
0, 1740.00000, -0.0505401, -0.0166111, -0.0577605, -0.0189852, -0.0433195, -0.0142388, 1.46473E-007, 2.54945E-008
0, 1800.00000, -0.0505401, -0.0166111, -0.0577605, -0.0189852, -0.0433195, -0.0142388, 1.46473E-007, 2.54945E-008
0, 1860.00000, -0.0505391, -0.0166114, -0.0649815, -0.0213577, -0.0649788, -0.0213581, 1.55906E-007, 2.20945E-008
0, 1920.00000, -0.0505394, -0.0166116, -0.0649805, -0.0213573, -0.0649802, -0.0213586, 1.55898E-007, 2.20907E-008
0, 1980.00000, -0.0505394, -0.0166116, -0.0649804, -0.0213573, -0.0649803, -0.0213586, 1.55898E-007, 2.20907E-008
0, 2040.00000, -0.0505394, -0.0166116, -0.0649804, -0.0213573, -0.0649803, -0.0213586, 1.55898E-007, 2.20907E-008
0, 2100.00000, -0.0505394, -0.0166116, -0.0649804, -0.0213573, -0.0649803, -0.0213586, 1.55898E-007, 2.20907E-008
0, 2160.00000, -0.0505406, -0.016611, -0.072202, -0.0237316, -0.0505384, -0.0166121, 3.92958E-007, 6.66177E-008
0, 2220.00000, -0.0505397, -0.0166108, -0.0722013, -0.0237312, -0.0505394, -0.0166124, 3.92928E-007, 6.66133E-008
0, 2280.00000, -0.0505397, -0.0166108, -0.0722013, -0.0237312, -0.0505394, -0.0166124, 3.92928E-007, 6.66133E-008
0, 2340.00000, -0.0505397, -0.0166108, -0.0722013, -0.0237312, -0.0505394, -0.0166124, 3.92928E-007, 6.66133E-008
0, 2400.00000, -0.0505397, -0.0166108, -0.0722013, -0.0237312, -0.0505394, -0.0166124, 3.92928E-007, 6.66133E-008
0, 2460.00000, -0.0722017, -0.0237303, -0.0505412, -0.0166133, -0.0433175, -0.0142372, 6.10639E-007, 4.31343E-008
0, 2520.00000, -0.0722017, -0.0237307, -0.0505396, -0.0166128, -0.0433193, -0.0142378, 6.10609E-007, 4.31311E-008
0, 2580.00000, -0.0722017, -0.0237307, -0.0505396, -0.0166128, -0.0433194, -0.0142378, 6.10608E-007, 4.31311E-008
0, 2640.00000, -0.0722017, -0.0237307, -0.0505396, -0.0166128, -0.0433194, -0.0142378, 6.10608E-007, 4.31311E-008
0, 2700.00000, -0.0722017, -0.0237307, -0.0505396, -0.0166128, -0.0433194, -0.0142378, 6.10608E-007, 4.31311E-008
0, 2760.00000, -0.0649798, -0.0213579, -0.0505405, -0.0166123, -0.05776, -0.0189842, 1.44122E-007, 1.95448E-009
0, 2820.00000, -0.0649806, -0.0213583, -0.0505395, -0.016612, -0.05776, -0.0189841, 1.44157E-007, 1.9561E-009
0, 2880.00000, -0.0649806, -0.0213583, -0.0505395, -0.016612, -0.05776, -0.0189841, 1.44157E-007, 1.95611E-009
0, 2940.00000, -0.0649806, -0.0213583, -0.0505395, -0.016612, -0.05776, -0.0189841, 1.44157E-007, 1.95611E-009
0, 3000.00000, -0.0649806, -0.0213583, -0.0505395, -0.016612, -0.05776, -0.0189841, 1.44157E-007, 1.95611E-009
0, 3060.00000, -0.0505415, -0.0166127, -0.050537, -0.0166105, -0.0577609, -0.0189849, 3.98869E-008, -1.31416E-009
0, 3120.00000, -0.0505399, -0.0166119, -0.0505398, -0.0166115, -0.0577603, -0.0189848, 3.98731E-008, -1.31186E-009
0, 3180.00000, -0.0505399, -0.0166119, -0.0505399, -0.0166115, -0.0577603, -0.0189848, 3.98728E-008, -1.31185E-009
0, 3240.00000, -0.0505399, -0.0166119, -0.0505399, -0.0166115, -0.0577603, -0.0189848, 3.98728E-008, -1.31185E-009
0, 3300.00000, -0.0505399, -0.0166119, -0.0505399, -0.0166115, -0.0577603, -0.0189848, 3.98728E-008, -1.31185E-009
0, 3360.00000, -0.0649799, -0.0213599, -0.0433171, -0.0142375, -0.0794245, -0.0261037, 8.22291E-007, 5.12475E-008
0, 3420.00000, -0.0649801, -0.0213596, -0.043319, -0.0142381, -0.0794218, -0.026103, 8.22101E-007, 5.12341E-008
0, 3480.00000, -0.0649801, -0.0213596, -0.043319, -0.0142381, -0.0794217, -0.026103, 8.22099E-007, 5.1234E-008
0, 3540.00000, -0.0649801, -0.0213596, -0.043319, -0.0142381, -0.0794217, -0.026103, 8.22099E-007, 5.1234E-008
1, 0.00000, -0.0649801, -0.0213596, -0.043319, -0.0142381, -0.0794217, -0.026103, 8.22099E-007, 5.1234E-008
1, 60.00000, -0.0505408, -0.0166112, -0.0577631, -0.0189861, -0.0433193, -0.0142386, 1.39918E-007, 2.50061E-008
1, 120.00000, -0.0505401, -0.0166111, -0.0577605, -0.0189852, -0.0433195, -0.0142388, 1.39865E-007, 2.49985E-008
1, 180.00000, -0.0505401, -0.0166111, -0.0577605, -0.0189852, -0.0433195, -0.0142388, 1.39865E-007, 2.49985E-008
1, 240.00000, -0.0505401, -0.0166111, -0.0577605, -0.0189852, -0.0433195, -0.0142388, 1.39865E-007, 2.49985E-008
1, 300.00000, -0.0505401, -0.0166111, -0.0577605, -0.0189852, -0.0433195, -0.0142388, 1.39865E-007, 2.49985E-008
1, 360.00000, -0.0433189, -0.0142383, -0.05054, -0.0166115, -0.0505416, -0.0166125, 3.62306E-008, 9.74177E-009
1, 420.00000, -0.0433198, -0.0142385, -0.0505402, -0.0166115, -0.0505401, -0.016612, 3.62146E-008, 9.74061E-009
1, 480.00000, -0.0433198, -0.0142385, -0.0505402, -0.0166115, -0.0505401, -0.016612, 3.62145E-008, 9.74059E-009
1, 540.00000, -0.0433198, -0.0142385, -0.0505402, -0.0166115, -0.0505401, -0.016612, 3.62145E-008, 9.74059E-009
1, 600.00000, -0.0433198, -0.0142385, -0.0505402, -0.0166115, -0.0505401, -0.016612, 3.62145E-008, 9.74059E-009
1, 660.00000, -0.0361001, -0.0118655, -0.0433203, -0.0142384, -0.0433194, -0.0142386, 4.01312E-008, 8.33764E-009
1, 720.00000, -0.0360998, -0.0118655, -0.0433202, -0.0142384, -0.0433201, -0.0142388, 4.01378E-008, 8.3382E-009
1, 780.00000, -0.0360998, -0.0118655, -0.0433202, -0.0142384, -0.0433201, -0.0142388, 4.01378E-008, 8.33821E-009
1, 840.00000, -0.0360998, -0.0118655, -0.0433202, -0.0142384, -0.0433201, -0.0142388, 4.01378E-008, 8.33821E-009
1, 900.00000, -0.0360998, -0.0118655, -0.0433202, -0.0142384, -0.0433201, -0.0142388, 4.01378E-008, 8.33821E-009
1, 960.00000, -0.0505389, -0.016611, -0.0505408, -0.0166123, -0.0433201, -0.0142386, 5.13378E-008, 7.87496E-009
1, 1020.00000, -0.0505402, -0.0166114, -0.0505401, -0.016612, -0.0433197, -0.0142385, 5.13494E-008, 7.87472E-009
1, 1080.00000, -0.0505402, -0.0166114, -0.0505401, -0.016612, -0.0433197, -0.0142385, 5.13495E-008, 7.87471E-009
1, 1140.00000, -0.0505402, -0.0166114, -0.0505401, -0.016612, -0.0433197, -0.0142385, 5.13495E-008, 7.87471E-009
1, 1200.00000, -0.0505402, -0.0166114, -0.0505401, -0.016612, -0.0433197, -0.0142385, 5.13495E-008, 7.87471E-009
1, 1260.00000, -0.0433208, -0.0142389, -0.0577602, -0.0189843, -0.057759, -0.0189849, 1.54304E-007, 1.73137E-008
1, 1320.00000, -0.0433195, -0.0142385, -0.0577604, -0.0189843, -0.0577602, -0.0189854, 1.54348E-007, 1.73158E-008
1, 1380.00000, -0.0433195, -0.0142385, -0.0577604, -0.0189843, -0.0577602, -0.0189854, 1.54348E-007, 1.73159E-008
1, 1440.00000, -0.0433195, -0.0142385, -0.0577604, -0.0189843, -0.0577602, -0.0189854, 1.54348E-007, 1.73159E-008
1, 1500.00000, -0.0433195, -0.0142385, -0.0577604, -0.0189843, -0.0577602, -0.0189854, 1.54348E-007, 1.73159E-008
1, 1560.00000, -0.0505395, -0.0166111, -0.050541, -0.0166123, -0.0433196, -0.0142385, 5.1287E-008, 4.82786E-009
1, 1620.00000, -0.0505402, -0.0166114, -0.0505401, -0.016612, -0.0433197, -0.0142386, 5.12864E-008, 4.82656E-009
1, 1680.00000, -0.0505402, -0.0166114, -0.0505401, -0.016612, -0.0433197, -0.0142386, 5.12863E-008, 4.82655E-009
1, 1740.00000, -0.0505402, -0.0166114, -0.0505401, -0.016612, -0.0433197, -0.0142386, 5.12863E-008, 4.82655E-009
1, 1800.00000, -0.0505402, -0.0166114, -0.0505401, -0.016612, -0.0433197, -0.0142386, 5.12863E-008, 4.82655E-009
1, 1860.00000, -0.0360992, -0.0118657, -0.0360997, -0.0118652, -0.0505416, -0.016612, 1.5856E-007, 7.10193E-009
1, 1920.00000, -0.0360998, -0.0118658, -0.0360998, -0.0118651, -0.0505406, -0.0166117, 1.58526E-007, 7.09952E-009
1, 1980.00000, -0.0360998, -0.0118658, -0.0360998, -0.0118651, -0.0505406, -0.0166117, 1.58526E-007, 7.09951E-009
1, 2040.00000, -0.0360998, -0.0118658, -0.0360998, -0.0118651, -0.0505406, -0.0166117, 1.58526E-007, 7.09951E-009
1, 2100.00000, -0.0360998, -0.0118658, -0.0360998, -0.0118651, -0.0505406, -0.0166117, 1.58526E-007, 7.09951E-009
1, 2160.00000, -0.0433205, -0.014239, -0.0433198, -0.0142383, -0.0505394, -0.0166114, 3.88092E-008, 2.11629E-009
1, 2220.00000, -0.0433199, -0.0142388, -0.0433199, -0.0142384, -0.0505403, -0.0166117, 3.8823E-008, 2.11751E-009
1, 2280.00000, -0.0433199, -0.0142388, -0.0433199, -0.0142384, -0.0505403, -0.0166117, 3.8823E-008, 2.11752E-009
1, 2340.00000, -0.0433199, -0.0142388, -0.0433199, -0.0142384, -0.0505403, -0.0166117, 3.8823E-008, 2.11752E-009
1, 2400.00000, -0.0433199, -0.0142388, -0.0433199, -0.0142384, -0.0505403, -0.0166117, 3.8823E-008, 2.11752E-009
1, 2460.00000, -0.0361043, -0.0118671, -0.050545, -0.0166125, -0.0577531, -0.0189829, 2.78278E-007, 2.8717E-008
1, 2520.00000, -0.0360995, -0.0118656, -0.0505402, -0.016611, -0.0577605, -0.0189854, 2.78569E-007, 2.87281E-008
1, 2580.00000, -0.0360995, -0.0118656, -0.0505402, -0.016611, -0.0577606, -0.0189854, 2.78572E-007, 2.87282E-008
1, 2640.00000, -0.0360995, -0.0118656, -0.0505402, -0.016611, -0.0577606, -0.0189854, 2.78572E-007, 2.87282E-008
1, 2700.00000, -0.0360995, -0.0118656, -0.0505402, -0.016611, -0.0577606, -0.0189854, 2.78572E-007, 2.87282E-008
1, 2760.00000, -0.0577567, -0.0189845, -0.0505304, -0.0166089, -0.0505408, -0.0166118, 5.01398E-008, -5.60478E-010
1, 2820.00000, -0.0577604, -0.0189848, -0.0505398, -0.016612, -0.0505399, -0.0166114, 5.01353E-008, -5.57367E-010
1, 2880.00000, -0.0577604, -0.0189848, -0.0505398, -0.016612, -0.0505398, -0.0166114, 5.01356E-008, -5.57339E-010
1, 2940.00000, -0.0577604, -0.0189848, -0.0505398, -0.016612, -0.0505398, -0.0166114, 5.01356E-008, -5.57339E-010
1, 3000.00000, -0.0577604, -0.0189848, -0.0505398, -0.016612, -0.0505398, -0.0166114, 5.01356E-008, -5.57339E-010
1, 3060.00000, -0.0433154, -0.0142369, -0.0505443, -0.0166132, -0.0433272, -0.0142409, 4.41888E-008, 1.05763E-008
1, 3120.00000, -0.0433199, -0.0142383, -0.0505403, -0.0166118, -0.0433198, -0.0142388, 4.4166E-008, 1.05699E-008
1, 3180.00000, -0.0433199, -0.0142383, -0.0505403, -0.0166118, -0.0433198, -0.0142388, 4.41655E-008, 1.05698E-008
1, 3240.00000, -0.0433199, -0.0142383, -0.0505403, -0.0166118, -0.0433198, -0.0142388, 4.41655E-008, 1.05698E-008
1, 3300.00000, -0.0433199, -0.0142383, -0.0505403, -0.0166118, -0.0433198, -0.0142388, 4.41655E-008, 1.05698E-008
1, 3360.00000, -0.0505418, -0.016612, -0.0433182, -0.0142385, -0.0360997, -0.0118655, 1.39089E-007, 1.02063E-008
1, 3420.00000, -0.0505405, -0.0166115, -0.04332, -0.0142391, -0.0360997, -0.0118653, 1.3906E-007, 1.02053E-008
1, 3480.00000, -0.0505405, -0.0166114, -0.04332, -0.0142391, -0.0360997, -0.0118653, 1.3906E-007, 1.02053E-008
1, 3540.00000, -0.0505405, -0.0166114, -0.04332, -0.0142391, -0.0360997, -0.0118653, 1.3906E-007, 1.02053E-008
2, 0.00000, -0.0505405, -0.0166114, -0.04332, -0.0142391, -0.0360997, -0.0118653, 1.3906E-007, 1.02053E-008
2, 60.00000, -0.0433196, -0.0142385, -0.0505412, -0.0166118, -0.0505405, -0.0166121, 3.59621E-008, 7.44993E-009
2, 120.00000, -0.0433198, -0.0142385, -0.0505402, -0.0166115, -0.0505401, -0.0166119, 3.59522E-008, 7.44806E-009
2, 180.00000, -0.0433198, -0.0142385, -0.0505402, -0.0166115, -0.0505401, -0.0166119, 3.59522E-008, 7.44805E-009
2, 240.00000, -0.0433198, -0.0142385, -0.0505402, -0.0166115, -0.0505401, -0.0166119, 3.59522E-008, 7.44805E-009
2, 300.00000, -0.0433198, -0.0142385, -0.0505402, -0.0166115, -0.0505401, -0.0166119, 3.59522E-008, 7.44805E-009
2, 360.00000, -0.0433197, -0.0142387, -0.0433205, -0.0142386, -0.0505398, -0.0166115, 3.57724E-008, -3.64861E-010
2, 420.00000, -0.0433199, -0.0142388, -0.0433199, -0.0142384, -0.0505402, -0.0166117, 3.57796E-008, -3.65401E-010
2, 480.00000, -0.0433199, -0.0142388, -0.0433199, -0.0142384, -0.0505403, -0.0166117, 3.57797E-008, -3.65401E-010
2, 540.00000, -0.0433199, -0.0142388, -0.0433199, -0.0142384, -0.0505403, -0.0166117, 3.57797E-008, -3.65401E-010
2, 600.00000, -0.0433199, -0.0142388, -0.0433199, -0.0142384, -0.0505403, -0.0166117, 3.57797E-008, -3.65401E-010
2, 660.00000, -0.0288822, -0.00949347, -0.036106, -0.0118665, -0.0433154, -0.0142371, 1.1714E-007, 1.05907E-008
2, 720.00000, -0.0288798, -0.00949252, -0.0361, -0.0118652, -0.0433203, -0.0142388, 1.17284E-007, 1.05932E-008
2, 780.00000, -0.0288798, -0.00949251, -0.0361, -0.0118652, -0.0433203, -0.0142388, 1.17285E-007, 1.05933E-008
2, 840.00000, -0.0288798, -0.00949251, -0.0361, -0.0118652, -0.0433203, -0.0142388, 1.17285E-007, 1.05933E-008
2, 900.00000, -0.0288798, -0.00949251, -0.0361, -0.0118652, -0.0433203, -0.0142388, 1.17285E-007, 1.05933E-008
2, 960.00000, -0.04332, -0.0142384, -0.0505389, -0.0166113, -0.0433207, -0.0142391, 4.26725E-008, 1.07246E-008
2, 1020.00000, -0.0433199, -0.0142383, -0.0505403, -0.0166118, -0.0433198, -0.0142388, 4.26952E-008, 1.07284E-008
2, 1080.00000, -0.0433199, -0.0142383, -0.0505403, -0.0166118, -0.0433198, -0.0142388, 4.26953E-008, 1.07284E-008
2, 1140.00000, -0.0433199, -0.0142383, -0.0505403, -0.0166118, -0.0433198, -0.0142388, 4.26953E-008, 1.07284E-008
2, 1200.00000, -0.0433199, -0.0142383, -0.0505403, -0.0166118, -0.0433198, -0.0142388, 4.26953E-008, 1.07284E-008
2, 1260.00000, -0.043324, -0.0142398, -0.0505418, -0.016612, -0.0505378, -0.0166112, 3.70843E-008, 7.93075E-009
2, 1320.00000, -0.0433198, -0.0142386, -0.0505402, -0.0166115, -0.0505401, -0.0166119, 3.71344E-008, 7.93433E-009
2, 1380.00000, -0.0433198, -0.0142385, -0.0505402, -0.0166115, -0.0505401, -0.0166119, 3.71348E-008, 7.93437E-009
2, 1440.00000, -0.0433198, -0.0142385, -0.0505402, -0.0166115, -0.0505401, -0.0166119, 3.71348E-008, 7.93438E-009
2, 1500.00000, -0.0433198, -0.0142385, -0.0505402, -0.0166115, -0.0505401, -0.0166119, 3.71348E-008, 7.93438E-009
2, 1560.00000, -0.0433195, -0.0142386, -0.0433207, -0.0142387, -0.0505401, -0.0166116, 3.57946E-008, 7.81913E-010
2, 1620.00000, -0.0433199, -0.0142388, -0.0433199, -0.0142384, -0.0505402, -0.0166117, 3.57988E-008, 7.80977E-010
2, 1680.00000, -0.0433199, -0.0142388, -0.0433199, -0.0142384, -0.0505403, -0.0166117, 3.57988E-008, 7.80974E-010
2, 1740.00000, -0.0433199, -0.0142388, -0.0433199, -0.0142384, -0.0505403, -0.0166117, 3.57988E-008, 7.80974E-010
2, 1800.00000, -0.0433199, -0.0142388, -0.0433199, -0.0142384, -0.0505403, -0.0166117, 3.57988E-008, 7.80974E-010
2, 1860.00000, -0.0360994, -0.0118655, -0.0360964, -0.0118641, -0.0433176, -0.0142379, 3.60033E-008, 1.91855E-009
2, 1920.00000, -0.0360999, -0.0118657, -0.0360999, -0.0118653, -0.0433202, -0.0142386, 3.60093E-008, 1.9217E-009
2, 1980.00000, -0.0360999, -0.0118656, -0.0360999, -0.0118653, -0.0433202, -0.0142386, 3.60092E-008, 1.92172E-009
2, 2040.00000, -0.0360999, -0.0118656, -0.0360999, -0.0118653, -0.0433202, -0.0142386, 3.60092E-008, 1.92172E-009
2, 2100.00000, -0.0360999, -0.0118656, -0.0360999, -0.0118653, -0.0433202, -0.0142386, 3.60092E-008, 1.92172E-009
2, 2160.00000, -0.0505385, -0.0166119, -0.0361009, -0.0118661, -0.0577636, -0.0189853, 2.9485E-007, 9.51686E-009
2, 2220.00000, -0.0505401, -0.0166125, -0.0360995, -0.0118653, -0.0577607, -0.0189842, 2.94832E-007, 9.51304E-009
2, 2280.00000, -0.0505401, -0.0166125, -0.0360995, -0.0118653, -0.0577607, -0.0189842, 2.94832E-007, 9.51302E-009
2, 2340.00000, -0.0505401, -0.0166125, -0.0360995, -0.0118653, -0.0577607, -0.0189842, 2.94832E-007, 9.51302E-009
2, 2400.00000, -0.0505401, -0.0166125, -0.0360995, -0.0118653, -0.0577607, -0.0189842, 2.94832E-007, 9.51302E-009
2, 2460.00000, -0.043314, -0.0142368, -0.036103, -0.0118672, -0.0433251, -0.0142396, 4.26862E-008, -4.74747E-010
2, 2520.00000, -0.0433201, -0.0142388, -0.0360998, -0.0118655, -0.0433201, -0.0142384, 4.27462E-008, -4.75618E-010
2, 2580.00000, -0.0433201, -0.0142388, -0.0360998, -0.0118655, -0.0433201, -0.0142384, 4.27468E-008, -4.7561E-010
2, 2640.00000, -0.0433201, -0.0142388, -0.0360998, -0.0118655, -0.0433201, -0.0142384, 4.27468E-008, -4.7561E-010
2, 2700.00000, -0.0433201, -0.0142388, -0.0360998, -0.0118655, -0.0433201, -0.0142384, 4.27468E-008, -4.7561E-010
2, 2760.00000, -0.0505408, -0.0166119, -0.0433193, -0.0142387, -0.04332, -0.0142384, 5.02857E-008, -1.12856E-010
2, 2820.00000, -0.0505404, -0.0166117, -0.0433198, -0.0142389, -0.0433199, -0.0142383, 5.02771E-008, -1.12789E-010
2, 2880.00000, -0.0505403, -0.0166117, -0.0433199, -0.0142389, -0.0433199, -0.0142383, 5.02771E-008, -1.12787E-010
2, 2940.00000, -0.0505403, -0.0166117, -0.0433199, -0.0142389, -0.0433199, -0.0142383, 5.02771E-008, -1.12787E-010
2, 3000.00000, -0.0505403, -0.0166117, -0.0433199, -0.0142389, -0.0433199, -0.0142383, 5.02771E-008, -1.12787E-010
2, 3060.00000, -0.0505413, -0.0166124, -0.0360999, -0.0118654, -0.0505385, -0.0166106, 1.75924E-007, -9.5807E-010
2, 3120.00000, -0.0505403, -0.0166122, -0.0360996, -0.0118655, -0.0505403, -0.0166112, 1.75936E-007, -9.57136E-010
2, 3180.00000, -0.0505403, -0.0166122, -0.0360996, -0.0118655, -0.0505403, -0.0166112, 1.75936E-007, -9.57134E-010
2, 3240.00000, -0.0505403, -0.0166122, -0.0360996, -0.0118655, -0.0505403, -0.0166112, 1.75936E-007, -9.57134E-010
2, 3300.00000, -0.0505403, -0.0166122, -0.0360996, -0.0118655, -0.0505403, -0.0166112, 1.75936E-007, -9.57134E-010
