hour, t(sec), V1, VAngle1, V2, VAngle2, V3, VAngle3, V4, VAngle4, I1, IAngle1, I2, IAngle2, I3, IAngle3, I4, IAngle4
0, 60.00000, 220.676, -30.1744, 220.847, -150.216, 221.184, 89.7989, 0.00177506, 137.925, 0.54876, 131.631, 0.626676, 11.5891, 0.625723, -108.396, 0.077579, 131.964
0, 120.00000, 220.675, -30.1744, 220.847, -150.216, 221.184, 89.7989, 0.00177501, 137.926, 0.548765, 131.631, 0.62668, 11.5891, 0.625726, -108.396, 0.077577, 131.965
0, 180.00000, 220.675, -30.1744, 220.847, -150.216, 221.184, 89.7989, 0.00177501, 137.926, 0.548765, 131.631, 0.62668, 11.5891, 0.625726, -108.396, 0.077577, 131.965
0, 240.00000, 220.675, -30.1744, 220.847, -150.216, 221.184, 89.7989, 0.00177501, 137.926, 0.548765, 131.631, 0.62668, 11.5891, 0.625726, -108.396, 0.077577, 131.965
0, 300.00000, 220.675, -30.1744, 220.847, -150.216, 221.184, 89.7989, 0.00177501, 137.926, 0.548765, 131.631, 0.62668, 11.5891, 0.625726, -108.396, 0.077577, 131.965
0, 360.00000, 220.389, -30.1721, 220.777, -150.241, 221.2, 89.8068, 0.00165176, 140.12, 0.627965, 131.633, 0.705243, 11.5641, 0.703898, -108.388, 0.0771137, 132.087
0, 420.00000, 220.389, -30.1722, 220.777, -150.241, 221.2, 89.8068, 0.00165141, 140.123, 0.627976, 131.633, 0.70524, 11.5641, 0.703892, -108.388, 0.0770994, 132.088
0, 480.00000, 220.389, -30.1722, 220.777, -150.241, 221.2, 89.8068, 0.00165141, 140.123, 0.627976, 131.633, 0.705239, 11.5641, 0.703892, -108.388, 0.0770993, 132.088
0, 540.00000, 220.389, -30.1722, 220.777, -150.241, 221.2, 89.8068, 0.00165141, 140.123, 0.627976, 131.633, 0.705239, 11.5641, 0.703892, -108.388, 0.0770993, 132.088
0, 600.00000, 220.389, -30.1722, 220.777, -150.241, 221.2, 89.8068, 0.00165141, 140.123, 0.627976, 131.633, 0.705239, 11.5641, 0.703892, -108.388, 0.0770993, 132.088
0, 660.00000, 220.536, -30.1893, 220.879, -150.211, 221.041, 89.8071, 0.00235175, -105.56, 0.627573, 131.616, 0.626591, 11.5933, 0.547847, -108.388, 0.0790197, -107.828
0, 720.00000, 220.536, -30.1893, 220.879, -150.211, 221.041, 89.8071, 0.00235141, -105.565, 0.627563, 131.616, 0.626592, 11.5934, 0.547856, -108.388, 0.0790067, -107.835
0, 780.00000, 220.536, -30.1893, 220.879, -150.211, 221.041, 89.8071, 0.00235141, -105.565, 0.627563, 131.616, 0.626592, 11.5934, 0.547856, -108.388, 0.0790066, -107.835
0, 840.00000, 220.536, -30.1893, 220.879, -150.211, 221.041, 89.8071, 0.00235141, -105.565, 0.627563, 131.616, 0.626592, 11.5934, 0.547856, -108.388, 0.0790066, -107.835
0, 900.00000, 220.536, -30.1893, 220.879, -150.211, 221.041, 89.8071, 0.00235141, -105.565, 0.627563, 131.616, 0.626592, 11.5934, 0.547856, -108.388, 0.0790066, -107.835
0, 960.00000, 220.562, -30.1994, 220.932, -150.208, 220.914, 89.8046, 0.00224416, -45.7937, 0.549059, 131.606, 0.469827, 11.5965, 0.46986, -108.39, 0.0791185, -48.3582
0, 1020.00000, 220.562, -30.1994, 220.932, -150.208, 220.914, 89.8045, 0.00224412, -45.7925, 0.549058, 131.606, 0.469827, 11.5965, 0.469862, -108.39, 0.0791169, -48.3569
0, 1080.00000, 220.562, -30.1994, 220.932, -150.208, 220.914, 89.8045, 0.00224412, -45.7925, 0.549058, 131.606, 0.469827, 11.5965, 0.469862, -108.39, 0.0791168, -48.3569
0, 1140.00000, 220.562, -30.1994, 220.932, -150.208, 220.914, 89.8045, 0.00224412, -45.7925, 0.549058, 131.606, 0.469827, 11.5965, 0.469862, -108.39, 0.0791168, -48.3569
0, 1200.00000, 220.562, -30.1994, 220.932, -150.208, 220.914, 89.8045, 0.00224412, -45.7925, 0.549058, 131.606, 0.469827, 11.5965, 0.469862, -108.39, 0.0791168, -48.3569
0, 1260.00000, 220.514, -30.1518, 220.674, -150.252, 221.354, 89.7949, 0.00220133, -48.6017, 0.627623, 131.653, 0.548766, 11.5526, 0.547098, -108.4, 0.0792975, -48.8581
0, 1320.00000, 220.514, -30.1518, 220.674, -150.252, 221.355, 89.7949, 0.00220162, -48.6141, 0.62763, 131.653, 0.548773, 11.5526, 0.547082, -108.4, 0.0793086, -48.8716
0, 1380.00000, 220.514, -30.1518, 220.674, -150.252, 221.355, 89.7949, 0.00220162, -48.6141, 0.62763, 131.653, 0.548773, 11.5526, 0.547082, -108.4, 0.0793087, -48.8717
0, 1440.00000, 220.514, -30.1518, 220.674, -150.252, 221.355, 89.7949, 0.00220162, -48.6141, 0.62763, 131.653, 0.548773, 11.5526, 0.547082, -108.4, 0.0793087, -48.8717
0, 1500.00000, 220.514, -30.1518, 220.674, -150.252, 221.355, 89.7949, 0.00220162, -48.6141, 0.62763, 131.653, 0.548773, 11.5526, 0.547082, -108.4, 0.0793087, -48.8717
0, 1560.00000, 220.601, -30.1208, 220.482, -150.248, 221.51, 89.7822, 0.00734746, -133.594, 0.548953, 131.686, 0.706195, 11.5565, 0.390497, -108.414, 0.272261, -138.353
0, 1620.00000, 220.601, -30.1208, 220.482, -150.248, 221.51, 89.7822, 0.00734774, -133.595, 0.548951, 131.686, 0.706203, 11.5565, 0.390492, -108.414, 0.272272, -138.353
0, 1680.00000, 220.601, -30.1208, 220.482, -150.248, 221.51, 89.7822, 0.00734774, -133.595, 0.548951, 131.686, 0.706203, 11.5565, 0.390492, -108.414, 0.272272, -138.353
0, 1740.00000, 220.601, -30.1208, 220.482, -150.248, 221.51, 89.7822, 0.00734774, -133.595, 0.548951, 131.686, 0.706203, 11.5565, 0.390492, -108.414, 0.272272, -138.353
0, 1800.00000, 220.601, -30.1208, 220.482, -150.248, 221.51, 89.7822, 0.00734774, -133.595, 0.548951, 131.686, 0.706203, 11.5565, 0.390492, -108.414, 0.272272, -138.353
0, 1860.00000, 220.329, -30.158, 220.568, -150.239, 221.148, 89.7962, 0.00450036, -101.92, 0.70667, 131.648, 0.705922, 11.5651, 0.547577, -108.399, 0.157831, -108.138
0, 1920.00000, 220.329, -30.158, 220.568, -150.239, 221.148, 89.7962, 0.00450016, -101.917, 0.706674, 131.648, 0.705914, 11.5651, 0.547586, -108.399, 0.157822, -108.135
0, 1980.00000, 220.329, -30.158, 220.568, -150.239, 221.148, 89.7962, 0.00450016, -101.917, 0.706674, 131.648, 0.705914, 11.5651, 0.547586, -108.399, 0.157822, -108.135
0, 2040.00000, 220.329, -30.158, 220.568, -150.239, 221.148, 89.7962, 0.00450016, -101.917, 0.706674, 131.648, 0.705914, 11.5651, 0.547586, -108.399, 0.157822, -108.135
0, 2100.00000, 220.329, -30.158, 220.568, -150.239, 221.148, 89.7962, 0.00450016, -101.917, 0.706674, 131.648, 0.705914, 11.5651, 0.547586, -108.399, 0.157822, -108.135
0, 2160.00000, 220.608, -30.1737, 220.831, -150.217, 221.086, 89.7996, 0.00172989, 75.1093, 0.627362, 131.631, 0.626724, 11.5886, 0.704248, -108.395, 0.0776096, 71.1564
0, 2220.00000, 220.608, -30.1737, 220.831, -150.217, 221.086, 89.7996, 0.00173023, 75.1112, 0.627355, 131.631, 0.626719, 11.5886, 0.704256, -108.395, 0.0776228, 71.1585
0, 2280.00000, 220.608, -30.1737, 220.831, -150.217, 221.086, 89.7996, 0.00173024, 75.1112, 0.627354, 131.631, 0.626719, 11.5886, 0.704256, -108.395, 0.0776229, 71.1586
0, 2340.00000, 220.608, -30.1737, 220.831, -150.217, 221.086, 89.7996, 0.00173024, 75.1112, 0.627354, 131.631, 0.626719, 11.5886, 0.704256, -108.395, 0.0776229, 71.1586
0, 2400.00000, 220.608, -30.1737, 220.831, -150.217, 221.086, 89.7996, 0.00173024, 75.1112, 0.627354, 131.631, 0.626719, 11.5886, 0.704256, -108.395, 0.0776229, 71.1586
0, 2460.00000, 220.419, -30.2303, 221.142, -150.193, 220.739, 89.8243, 0.00189861, -156.284, 0.549404, 131.575, 0.62586, 11.6122, 0.548596, -108.371, 0.0773103, -167.797
0, 2520.00000, 220.419, -30.2303, 221.142, -150.193, 220.739, 89.8243, 0.00189809, -156.289, 0.549405, 131.575, 0.625848, 11.6123, 0.54861, -108.371, 0.0772914, -167.805
0, 2580.00000, 220.419, -30.2303, 221.142, -150.193, 220.739, 89.8243, 0.00189809, -156.289, 0.549405, 131.575, 0.625848, 11.6123, 0.54861, -108.371, 0.0772913, -167.805
0, 2640.00000, 220.419, -30.2303, 221.142, -150.193, 220.739, 89.8243, 0.00189809, -156.289, 0.549405, 131.575, 0.625848, 11.6123, 0.54861, -108.371, 0.0772913, -167.805
0, 2700.00000, 220.419, -30.2303, 221.142, -150.193, 220.739, 89.8243, 0.00189809, -156.289, 0.549405, 131.575, 0.625848, 11.6123, 0.54861, -108.371, 0.0772913, -167.805
0, 2760.00000, 220.289, -30.2375, 221.292, -150.201, 220.799, 89.8509, 0.00369366, 70.8139, 0.471193, 131.567, 0.469064, 11.6049, 0.626826, -108.344, 0.15643, 71.1935
0, 2820.00000, 220.289, -30.2375, 221.292, -150.201, 220.799, 89.8509, 0.00369366, 70.81, 0.471198, 131.567, 0.469058, 11.6049, 0.626826, -108.344, 0.156429, 71.1899
0, 2880.00000, 220.289, -30.2375, 221.292, -150.201, 220.799, 89.8509, 0.00369366, 70.81, 0.471198, 131.567, 0.469058, 11.6049, 0.626826, -108.344, 0.156429, 71.1899
0, 2940.00000, 220.289, -30.2375, 221.292, -150.201, 220.799, 89.8509, 0.00369366, 70.81, 0.471198, 131.567, 0.469058, 11.6049, 0.626826, -108.344, 0.156429, 71.1899
0, 3000.00000, 220.289, -30.2375, 221.292, -150.201, 220.799, 89.8509, 0.00369366, 70.81, 0.471198, 131.567, 0.469058, 11.6049, 0.626826, -108.344, 0.156429, 71.1899
0, 3060.00000, 220.807, -30.2041, 220.771, -150.166, 220.681, 89.7696, 0.00333644, 170.06, 0.548448, 131.601, 0.705243, 11.6395, 0.627155, -108.426, 0.135253, 161.642
0, 3120.00000, 220.807, -30.204, 220.771, -150.166, 220.681, 89.7696, 0.0033372, 170.062, 0.548435, 131.601, 0.705265, 11.6395, 0.627152, -108.426, 0.135283, 161.645
0, 3180.00000, 220.807, -30.204, 220.771, -150.166, 220.681, 89.7696, 0.00333721, 170.062, 0.548435, 131.601, 0.705265, 11.6395, 0.627152, -108.426, 0.135283, 161.645
0, 3240.00000, 220.807, -30.204, 220.771, -150.166, 220.681, 89.7696, 0.00333721, 170.062, 0.548435, 131.601, 0.705265, 11.6395, 0.627152, -108.426, 0.135283, 161.645
0, 3300.00000, 220.807, -30.204, 220.771, -150.166, 220.681, 89.7696, 0.00333721, 170.062, 0.548435, 131.601, 0.705265, 11.6395, 0.627152, -108.426, 0.135283, 161.645
0, 3360.00000, 220.765, -30.151, 220.415, -150.199, 220.954, 89.7557, 0.00915476, -35.7705, 0.862038, 131.654, 0.470908, 11.6036, 0.548078, -108.437, 0.359335, -37.5227
0, 3420.00000, 220.765, -30.151, 220.415, -150.199, 220.954, 89.7557, 0.00915469, -35.7738, 0.862039, 131.654, 0.470921, 11.6036, 0.548064, -108.437, 0.359333, -37.526
0, 3480.00000, 220.765, -30.151, 220.415, -150.199, 220.954, 89.7557, 0.00915469, -35.7739, 0.862039, 131.654, 0.470922, 11.6036, 0.548064, -108.437, 0.359333, -37.526
0, 3540.00000, 220.765, -30.151, 220.415, -150.199, 220.954, 89.7557, 0.00915469, -35.7739, 0.862039, 131.654, 0.470922, 11.6036, 0.548064, -108.437, 0.359333, -37.526
1, 0.00000, 220.765, -30.151, 220.415, -150.199, 220.954, 89.7557, 0.00915469, -35.7739, 0.862039, 131.654, 0.470922, 11.6036, 0.548064, -108.437, 0.359333, -37.526
1, 60.00000, 221.506, -30.1338, 221.504, -150.164, 221.786, 89.8191, 0.00723536, -132.217, 0.468612, 131.673, 0.624856, 11.6401, 0.312004, -108.377, 0.270621, -138.304
1, 120.00000, 221.506, -30.1338, 221.505, -150.164, 221.786, 89.8191, 0.00723492, -132.216, 0.468607, 131.673, 0.624837, 11.6402, 0.312005, -108.377, 0.270604, -138.303
1, 180.00000, 221.506, -30.1338, 221.505, -150.164, 221.786, 89.8191, 0.00723492, -132.216, 0.468607, 131.673, 0.624837, 11.6402, 0.312005, -108.377, 0.270604, -138.303
1, 240.00000, 221.506, -30.1338, 221.505, -150.164, 221.786, 89.8191, 0.00723492, -132.216, 0.468607, 131.673, 0.624837, 11.6402, 0.312005, -108.377, 0.270604, -138.303
1, 300.00000, 221.506, -30.1338, 221.505, -150.164, 221.786, 89.8191, 0.00723492, -132.216, 0.468607, 131.673, 0.624837, 11.6402, 0.312005, -108.377, 0.270604, -138.303
1, 360.00000, 221.385, -30.1099, 221.398, -150.205, 222.089, 89.8265, 0.000218208, -89.9655, 0.46886, 131.695, 0.468837, 11.6004, 0.467388, -108.368, 0.000801939, -97.4657
1, 420.00000, 221.385, -30.1099, 221.398, -150.205, 222.09, 89.8265, 0.000218595, -89.9625, 0.468867, 131.695, 0.468839, 11.6004, 0.467378, -108.368, 0.000817062, -97.3186
1, 480.00000, 221.385, -30.1099, 221.398, -150.205, 222.09, 89.8265, 0.000218597, -89.9623, 0.468867, 131.695, 0.468839, 11.6004, 0.467378, -108.368, 0.00081715, -97.3156
1, 540.00000, 221.385, -30.1099, 221.398, -150.205, 222.09, 89.8265, 0.000218597, -89.9623, 0.468867, 131.695, 0.468839, 11.6004, 0.467378, -108.368, 0.00081715, -97.3156
1, 600.00000, 221.385, -30.1099, 221.398, -150.205, 222.09, 89.8265, 0.000218597, -89.9623, 0.468867, 131.695, 0.468839, 11.6004, 0.467378, -108.368, 0.00081715, -97.3156
1, 660.00000, 221.425, -30.1312, 221.433, -150.175, 221.857, 89.8221, 0.00324618, 38.9902, 0.546918, 131.673, 0.46876, 11.6302, 0.623826, -108.372, 0.134716, 41.3548
1, 720.00000, 221.425, -30.1312, 221.433, -150.175, 221.857, 89.8221, 0.00324633, 38.9926, 0.546916, 131.673, 0.468758, 11.6302, 0.623832, -108.372, 0.134722, 41.3569
1, 780.00000, 221.425, -30.1312, 221.433, -150.175, 221.857, 89.8221, 0.00324633, 38.9927, 0.546916, 131.673, 0.468758, 11.6302, 0.623832, -108.372, 0.134722, 41.3569
1, 840.00000, 221.425, -30.1312, 221.433, -150.175, 221.857, 89.8221, 0.00324633, 38.9927, 0.546916, 131.673, 0.468758, 11.6302, 0.623832, -108.372, 0.134722, 41.3569
1, 900.00000, 221.425, -30.1312, 221.433, -150.175, 221.857, 89.8221, 0.00324633, 38.9927, 0.546916, 131.673, 0.468758, 11.6302, 0.623832, -108.372, 0.134722, 41.3569
1, 960.00000, 220.951, -30.1291, 221.416, -150.224, 221.96, 89.8541, 0.00210227, -155.585, 0.469775, 131.676, 0.546944, 11.5808, 0.467653, -108.341, 0.0781111, -167.592
1, 1020.00000, 220.951, -30.1291, 221.416, -150.224, 221.96, 89.8541, 0.00210212, -155.576, 0.469784, 131.676, 0.54694, 11.5808, 0.46765, -108.341, 0.078103, -167.584
1, 1080.00000, 220.951, -30.1291, 221.416, -150.224, 221.96, 89.8541, 0.00210212, -155.576, 0.469784, 131.676, 0.54694, 11.5808, 0.46765, -108.341, 0.0781029, -167.584
1, 1140.00000, 220.951, -30.1291, 221.416, -150.224, 221.96, 89.8541, 0.00210212, -155.576, 0.469784, 131.676, 0.54694, 11.5808, 0.46765, -108.341, 0.0781029, -167.584
1, 1200.00000, 220.951, -30.1291, 221.416, -150.224, 221.96, 89.8541, 0.00210212, -155.576, 0.469784, 131.676, 0.54694, 11.5808, 0.46765, -108.341, 0.0781029, -167.584
1, 1260.00000, 221.431, -30.1585, 221.624, -150.165, 221.697, 89.8327, 0.00372302, 136.189, 0.468771, 131.646, 0.624483, 11.641, 0.624273, -108.363, 0.15557, 131.684
1, 1320.00000, 221.431, -30.1585, 221.624, -150.165, 221.697, 89.8327, 0.00372336, 136.186, 0.468762, 131.646, 0.624484, 11.6411, 0.624282, -108.363, 0.155584, 131.681
1, 1380.00000, 221.431, -30.1585, 221.624, -150.165, 221.697, 89.8327, 0.00372336, 136.186, 0.468761, 131.646, 0.624484, 11.6411, 0.624282, -108.363, 0.155584, 131.681
1, 1440.00000, 221.431, -30.1585, 221.624, -150.165, 221.697, 89.8327, 0.00372336, 136.186, 0.468761, 131.646, 0.624484, 11.6411, 0.624282, -108.363, 0.155584, 131.681
1, 1500.00000, 221.431, -30.1585, 221.624, -150.165, 221.697, 89.8327, 0.00372336, 136.186, 0.468761, 131.646, 0.624484, 11.6411, 0.624282, -108.363, 0.155584, 131.681
1, 1560.00000, 221.271, -30.1686, 221.755, -150.166, 221.686, 89.8496, 0.000342556, -60.7518, 0.547287, 131.637, 0.546105, 11.6393, 0.546266, -108.345, 0.000974092, -46.0449
1, 1620.00000, 221.271, -30.1687, 221.755, -150.166, 221.686, 89.8496, 0.000342728, -60.72, 0.547292, 131.637, 0.546099, 11.6393, 0.546266, -108.345, 0.000982772, -45.7375
1, 1680.00000, 221.271, -30.1687, 221.755, -150.166, 221.686, 89.8496, 0.000342729, -60.7197, 0.547292, 131.637, 0.546099, 11.6393, 0.546266, -108.345, 0.000982816, -45.7345
1, 1740.00000, 221.271, -30.1687, 221.755, -150.166, 221.686, 89.8496, 0.000342729, -60.7197, 0.547292, 131.637, 0.546099, 11.6393, 0.546266, -108.345, 0.000982816, -45.7345
1, 1800.00000, 221.271, -30.1687, 221.755, -150.166, 221.686, 89.8496, 0.000342729, -60.7197, 0.547292, 131.637, 0.546099, 11.6393, 0.546266, -108.345, 0.000982816, -45.7345
1, 1860.00000, 221.068, -30.1442, 221.665, -150.209, 221.999, 89.8633, 0.00234369, -47.1252, 0.469539, 131.661, 0.390227, 11.5951, 0.389645, -108.331, 0.0791696, -48.5603
1, 1920.00000, 221.068, -30.1442, 221.665, -150.209, 221.999, 89.8633, 0.0023439, -47.129, 0.469545, 131.661, 0.390227, 11.5952, 0.389638, -108.331, 0.079178, -48.5647
1, 1980.00000, 221.068, -30.1442, 221.665, -150.209, 221.999, 89.8633, 0.0023439, -47.129, 0.469545, 131.661, 0.390227, 11.5952, 0.389638, -108.331, 0.0791781, -48.5647
1, 2040.00000, 221.068, -30.1442, 221.665, -150.209, 221.999, 89.8633, 0.0023439, -47.129, 0.469545, 131.661, 0.390227, 11.5952, 0.389638, -108.331, 0.0791781, -48.5647
1, 2100.00000, 221.068, -30.1442, 221.665, -150.209, 221.999, 89.8633, 0.0023439, -47.129, 0.469545, 131.661, 0.390227, 11.5952, 0.389638, -108.331, 0.0791781, -48.5647
1, 2160.00000, 221.115, -30.1592, 221.739, -150.196, 221.837, 89.8652, 0.00240812, -107.484, 0.469444, 131.646, 0.46812, 11.6083, 0.389917, -108.33, 0.0785995, -107.748
1, 2220.00000, 221.115, -30.1592, 221.739, -150.196, 221.837, 89.8651, 0.00240793, -107.487, 0.469439, 131.646, 0.468121, 11.6083, 0.389922, -108.33, 0.0785919, -107.752
1, 2280.00000, 221.115, -30.1592, 221.739, -150.196, 221.837, 89.8651, 0.00240793, -107.487, 0.469439, 131.646, 0.468121, 11.6083, 0.389922, -108.33, 0.0785919, -107.752
1, 2340.00000, 221.115, -30.1592, 221.739, -150.196, 221.837, 89.8651, 0.00240793, -107.487, 0.469439, 131.646, 0.468121, 11.6083, 0.389922, -108.33, 0.0785919, -107.752
1, 2400.00000, 221.115, -30.1592, 221.739, -150.196, 221.837, 89.8651, 0.00240793, -107.487, 0.469439, 131.646, 0.468121, 11.6083, 0.389922, -108.33, 0.0785919, -107.752
1, 2460.00000, 221.337, -30.1722, 221.825, -150.16, 221.672, 89.8543, 0.00330111, 39.146, 0.547183, 131.632, 0.467956, 11.6452, 0.624299, -108.34, 0.135194, 41.2577
1, 2520.00000, 221.338, -30.1723, 221.825, -150.16, 221.671, 89.8542, 0.00330278, 39.1781, 0.54713, 131.632, 0.46793, 11.6449, 0.624353, -108.34, 0.135264, 41.2865
1, 2580.00000, 221.338, -30.1723, 221.825, -150.16, 221.671, 89.8542, 0.00330279, 39.1783, 0.54713, 131.632, 0.46793, 11.6449, 0.624353, -108.34, 0.135264, 41.2868
1, 2640.00000, 221.338, -30.1723, 221.825, -150.16, 221.671, 89.8542, 0.00330279, 39.1783, 0.54713, 131.632, 0.46793, 11.6449, 0.624353, -108.34, 0.135264, 41.2868
1, 2700.00000, 221.338, -30.1723, 221.825, -150.16, 221.671, 89.8542, 0.00330279, 39.1783, 0.54713, 131.632, 0.46793, 11.6449, 0.624353, -108.34, 0.135264, 41.2868
1, 2760.00000, 221.181, -30.1669, 221.692, -150.169, 221.608, 89.8562, 0.0020189, 6.66635, 0.469277, 131.638, 0.390132, 11.6361, 0.468397, -108.338, 0.0785395, 11.1623
1, 2820.00000, 221.18, -30.1668, 221.691, -150.169, 221.609, 89.8562, 0.00201805, 6.64353, 0.469304, 131.638, 0.390179, 11.6363, 0.468394, -108.338, 0.0785032, 11.1423
1, 2880.00000, 221.18, -30.1668, 221.691, -150.169, 221.609, 89.8562, 0.00201805, 6.64331, 0.469304, 131.638, 0.390179, 11.6363, 0.468393, -108.338, 0.078503, 11.1421
1, 2940.00000, 221.18, -30.1668, 221.691, -150.169, 221.609, 89.8562, 0.00201804, 6.64331, 0.469304, 131.638, 0.390179, 11.6363, 0.468393, -108.338, 0.078503, 11.1421
1, 3000.00000, 221.18, -30.1668, 221.691, -150.169, 221.609, 89.8562, 0.00201804, 6.64331, 0.469304, 131.638, 0.390179, 11.6363, 0.468393, -108.338, 0.078503, 11.1421
1, 3060.00000, 221.117, -30.1663, 221.761, -150.182, 221.747, 89.8622, 0.0021913, -52.2779, 0.547644, 131.639, 0.468096, 11.6226, 0.468142, -108.332, 0.079204, -48.3688
1, 3120.00000, 221.116, -30.1663, 221.761, -150.182, 221.747, 89.8623, 0.00219322, -52.2846, 0.547681, 131.639, 0.46807, 11.6228, 0.468097, -108.332, 0.0792787, -48.3813
1, 3180.00000, 221.116, -30.1663, 221.761, -150.182, 221.747, 89.8623, 0.00219323, -52.2845, 0.547681, 131.639, 0.46807, 11.6228, 0.468097, -108.332, 0.0792793, -48.3812
1, 3240.00000, 221.116, -30.1663, 221.761, -150.182, 221.747, 89.8623, 0.00219323, -52.2845, 0.547681, 131.639, 0.46807, 11.6228, 0.468097, -108.332, 0.0792793, -48.3812
1, 3300.00000, 221.116, -30.1663, 221.761, -150.182, 221.747, 89.8623, 0.00219323, -52.2845, 0.547681, 131.639, 0.46807, 11.6228, 0.468097, -108.332, 0.0792793, -48.3812
1, 3360.00000, 221.54, -30.1363, 221.391, -150.159, 221.692, 89.8073, 0.0023074, -103.421, 0.54664, 131.669, 0.546987, 11.6459, 0.468213, -108.388, 0.0784068, -108.291
1, 3420.00000, 221.54, -30.1363, 221.391, -150.159, 221.692, 89.8073, 0.0023074, -103.434, 0.546629, 131.669, 0.547, 11.6459, 0.468212, -108.388, 0.0784081, -108.306
1, 3480.00000, 221.54, -30.1363, 221.391, -150.159, 221.692, 89.8073, 0.00230741, -103.435, 0.546629, 131.669, 0.547, 11.6459, 0.468212, -108.388, 0.0784082, -108.306
