hour, t(sec), P1 (kW), Q1 (kvar), P2 (kW), Q2 (kvar), P3 (kW), Q3 (kvar), P4 (kW), Q4 (kvar)
0, 60.00000, -0.263722, -0.0866799, -0.271321, -0.089178, -0.24168, -0.0794356, -8.94893E-009, 4.1384E-010
0, 120.00000, -0.263725, -0.0866807, -0.271322, -0.0891785, -0.241681, -0.0794359, -8.94939E-009, 4.14071E-010
0, 180.00000, -0.263725, -0.0866807, -0.271322, -0.0891785, -0.241681, -0.0794359, -8.94939E-009, 4.14074E-010
0, 240.00000, -0.263725, -0.0866807, -0.271322, -0.0891785, -0.241681, -0.0794359, -8.94939E-009, 4.14074E-010
0, 300.00000, -0.263725, -0.0866807, -0.271322, -0.0891785, -0.241681, -0.0794359, -8.94939E-009, 4.14074E-010
0, 360.00000, -0.252698, -0.0830567, -0.248905, -0.0818099, -0.230285, -0.07569, 2.12933E-009, -5.73415E-009
0, 420.00000, -0.252703, -0.0830581, -0.248904, -0.0818094, -0.230283, -0.0756894, 2.12936E-009, -5.73662E-009
0, 480.00000, -0.252703, -0.0830581, -0.248904, -0.0818094, -0.230283, -0.0756894, 2.12936E-009, -5.73664E-009
0, 540.00000, -0.252703, -0.0830581, -0.248904, -0.0818094, -0.230283, -0.0756894, 2.12936E-009, -5.73664E-009
0, 600.00000, -0.252703, -0.0830581, -0.248904, -0.0818094, -0.230283, -0.0756894, 2.12936E-009, -5.73664E-009
0, 660.00000, -0.248908, -0.0818105, -0.282344, -0.0928009, -0.234079, -0.076937, -2.0999E-009, -6.1901E-009
0, 720.00000, -0.248904, -0.0818092, -0.282344, -0.0928008, -0.234082, -0.0769382, -2.09968E-009, -6.18974E-009
0, 780.00000, -0.248904, -0.0818092, -0.282344, -0.0928008, -0.234082, -0.0769382, -2.09968E-009, -6.18975E-009
0, 840.00000, -0.248904, -0.0818092, -0.282344, -0.0928008, -0.234082, -0.0769382, -2.09968E-009, -6.18975E-009
0, 900.00000, -0.248904, -0.0818092, -0.282344, -0.0928008, -0.234082, -0.0769382, -2.09968E-009, -6.18975E-009
0, 960.00000, -0.271323, -0.0891783, -0.263725, -0.0866809, -0.234082, -0.0769379, 8.19663E-009, -5.35688E-009
0, 1020.00000, -0.271323, -0.0891782, -0.263725, -0.0866808, -0.234082, -0.0769382, 8.19638E-009, -5.3566E-009
0, 1080.00000, -0.271323, -0.0891782, -0.263725, -0.0866808, -0.234082, -0.0769382, 8.19637E-009, -5.3566E-009
0, 1140.00000, -0.271323, -0.0891782, -0.263725, -0.0866808, -0.234082, -0.0769382, 8.19637E-009, -5.3566E-009
0, 1200.00000, -0.271323, -0.0891782, -0.263725, -0.0866808, -0.234082, -0.0769382, 8.19637E-009, -5.3566E-009
0, 1260.00000, -0.28614, -0.0940488, -0.2527, -0.0830572, -0.245111, -0.0805625, -9.29436E-009, -2.00485E-008
0, 1320.00000, -0.286143, -0.0940495, -0.252703, -0.0830582, -0.245105, -0.0805605, -9.29308E-009, -2.00534E-008
0, 1380.00000, -0.286143, -0.0940495, -0.252703, -0.0830582, -0.245104, -0.0805605, -9.29308E-009, -2.00535E-008
0, 1440.00000, -0.286143, -0.0940495, -0.252703, -0.0830582, -0.245104, -0.0805605, -9.29308E-009, -2.00535E-008
0, 1500.00000, -0.286143, -0.0940495, -0.252703, -0.0830582, -0.245104, -0.0805605, -9.29308E-009, -2.00535E-008
0, 1560.00000, -0.286144, -0.0940499, -0.26752, -0.0879284, -0.267526, -0.0879301, -1.06918E-009, -4.52463E-009
0, 1620.00000, -0.286144, -0.0940495, -0.267523, -0.0879295, -0.267523, -0.0879294, -1.06875E-009, -4.52406E-009
0, 1680.00000, -0.286144, -0.0940495, -0.267523, -0.0879295, -0.267523, -0.0879294, -1.06874E-009, -4.52406E-009
0, 1740.00000, -0.286144, -0.0940495, -0.267523, -0.0879295, -0.267523, -0.0879294, -1.06874E-009, -4.52406E-009
0, 1800.00000, -0.286144, -0.0940495, -0.267523, -0.0879295, -0.267523, -0.0879294, -1.06874E-009, -4.52406E-009
0, 1860.00000, -0.263723, -0.0866802, -0.215465, -0.0708188, -0.26752, -0.0879282, 4.41418E-009, -9.21978E-009
0, 1920.00000, -0.263725, -0.0866808, -0.215462, -0.070818, -0.267524, -0.0879292, 4.41481E-009, -9.222E-009
0, 1980.00000, -0.263725, -0.0866808, -0.215462, -0.070818, -0.267524, -0.0879292, 4.41482E-009, -9.22202E-009
0, 2040.00000, -0.263725, -0.0866808, -0.215462, -0.070818, -0.267524, -0.0879292, 4.41482E-009, -9.22202E-009
0, 2100.00000, -0.263725, -0.0866808, -0.215462, -0.070818, -0.267524, -0.0879292, 4.41482E-009, -9.22202E-009
0, 2160.00000, -0.234086, -0.0769392, -0.286145, -0.0940502, -0.267521, -0.0879287, 5.25544E-009, -7.43795E-009
0, 2220.00000, -0.234083, -0.0769381, -0.286144, -0.0940495, -0.267523, -0.0879296, 5.25568E-009, -7.43824E-009
0, 2280.00000, -0.234083, -0.0769381, -0.286144, -0.0940495, -0.267523, -0.0879296, 5.25568E-009, -7.43825E-009
0, 2340.00000, -0.234083, -0.0769381, -0.286144, -0.0940495, -0.267523, -0.0879296, 5.25568E-009, -7.43825E-009
0, 2400.00000, -0.234083, -0.0769381, -0.286144, -0.0940495, -0.267523, -0.0879296, 5.25568E-009, -7.43825E-009
0, 2460.00000, -0.300964, -0.0989202, -0.263729, -0.0866823, -0.267518, -0.0879275, 3.86235E-009, -9.57475E-009
0, 2520.00000, -0.300965, -0.0989207, -0.263724, -0.0866807, -0.267523, -0.0879292, 3.86224E-009, -9.57641E-009
0, 2580.00000, -0.300965, -0.0989207, -0.263724, -0.0866807, -0.267523, -0.0879292, 3.86223E-009, -9.57641E-009
0, 2640.00000, -0.300965, -0.0989207, -0.263724, -0.0866807, -0.267523, -0.0879292, 3.86223E-009, -9.57641E-009
0, 2700.00000, -0.300965, -0.0989207, -0.263724, -0.0866807, -0.267523, -0.0879292, 3.86223E-009, -9.57641E-009
0, 2760.00000, -0.297163, -0.0976705, -0.256129, -0.0841839, -0.263724, -0.0866805, 1.12807E-008, -1.31035E-008
0, 2820.00000, -0.297166, -0.0976716, -0.256126, -0.084183, -0.263724, -0.0866802, 1.12818E-008, -1.3106E-008
0, 2880.00000, -0.297166, -0.0976716, -0.256126, -0.084183, -0.263724, -0.0866802, 1.12818E-008, -1.31061E-008
0, 2940.00000, -0.297166, -0.0976716, -0.256126, -0.084183, -0.263724, -0.0866802, 1.12818E-008, -1.31061E-008
0, 3000.00000, -0.297166, -0.0976716, -0.256126, -0.084183, -0.263724, -0.0866802, 1.12818E-008, -1.31061E-008
0, 3060.00000, -0.308569, -0.101421, -0.263717, -0.0866779, -0.259926, -0.085432, 3.46889E-009, -4.18373E-008
0, 3120.00000, -0.308563, -0.101418, -0.263725, -0.0866805, -0.259925, -0.0854319, 3.47241E-009, -4.18252E-008
0, 3180.00000, -0.308563, -0.101418, -0.263725, -0.0866805, -0.259925, -0.0854319, 3.47245E-009, -4.18252E-008
0, 3240.00000, -0.308563, -0.101418, -0.263725, -0.0866805, -0.259925, -0.0854319, 3.47245E-009, -4.18252E-008
0, 3300.00000, -0.308563, -0.101418, -0.263725, -0.0866805, -0.259925, -0.0854319, 3.47245E-009, -4.18252E-008
0, 3360.00000, -0.282344, -0.0928011, -0.289936, -0.0952961, -0.289949, -0.0953002, 3.14967E-009, 6.48933E-010
0, 3420.00000, -0.282345, -0.0928009, -0.289942, -0.0952984, -0.289943, -0.0952984, 3.14694E-009, 6.47409E-010
0, 3480.00000, -0.282345, -0.0928009, -0.289942, -0.0952984, -0.289943, -0.0952984, 3.14692E-009, 6.47404E-010
0, 3540.00000, -0.282345, -0.0928009, -0.289942, -0.0952984, -0.289943, -0.0952984, 3.14692E-009, 6.47404E-010
1, 0.00000, -0.282345, -0.0928009, -0.289942, -0.0952984, -0.289943, -0.0952984, 3.14692E-009, 6.47404E-010
1, 60.00000, -0.196845, -0.0646988, -0.230291, -0.0756917, -0.200641, -0.0659467, -3.3176E-009, -3.96955E-009
1, 120.00000, -0.196843, -0.0646979, -0.230283, -0.0756895, -0.200642, -0.0659469, -3.31662E-009, -3.96828E-009
1, 180.00000, -0.196843, -0.0646979, -0.230283, -0.0756894, -0.200642, -0.0659469, -3.31662E-009, -3.96828E-009
1, 240.00000, -0.196843, -0.0646979, -0.230283, -0.0756894, -0.200642, -0.0659469, -3.31662E-009, -3.96828E-009
1, 300.00000, -0.196843, -0.0646979, -0.230283, -0.0756894, -0.200642, -0.0659469, -3.31662E-009, -3.96828E-009
1, 360.00000, -0.23408, -0.0769373, -0.237881, -0.0781869, -0.256506, -0.0843087, 5.17855E-009, -2.55168E-009
1, 420.00000, -0.234083, -0.0769383, -0.237882, -0.0781871, -0.256502, -0.0843072, 5.17725E-009, -2.54962E-009
1, 480.00000, -0.234083, -0.0769384, -0.237882, -0.0781871, -0.256502, -0.0843072, 5.17724E-009, -2.54961E-009
1, 540.00000, -0.234083, -0.0769384, -0.237882, -0.0781871, -0.256502, -0.0843072, 5.17724E-009, -2.54961E-009
1, 600.00000, -0.234083, -0.0769384, -0.237882, -0.0781871, -0.256502, -0.0843072, 5.17724E-009, -2.54961E-009
1, 660.00000, -0.234084, -0.0769387, -0.219263, -0.072067, -0.248902, -0.0818087, -3.73913E-009, 6.52438E-010
1, 720.00000, -0.234083, -0.0769383, -0.219262, -0.0720669, -0.248904, -0.0818094, -3.73903E-009, 6.5239E-010
1, 780.00000, -0.234083, -0.0769383, -0.219262, -0.0720669, -0.248904, -0.0818094, -3.73903E-009, 6.5239E-010
1, 840.00000, -0.234083, -0.0769383, -0.219262, -0.0720669, -0.248904, -0.0818094, -3.73903E-009, 6.5239E-010
1, 900.00000, -0.234083, -0.0769383, -0.219262, -0.0720669, -0.248904, -0.0818094, -3.73903E-009, 6.5239E-010
1, 960.00000, -0.237877, -0.0781855, -0.234085, -0.0769389, -0.211664, -0.0695697, 3.64886E-009, -1.04075E-008
1, 1020.00000, -0.237882, -0.078187, -0.234083, -0.0769382, -0.211663, -0.0695694, 3.64809E-009, -1.04108E-008
1, 1080.00000, -0.237882, -0.078187, -0.234083, -0.0769382, -0.211663, -0.0695694, 3.64808E-009, -1.04108E-008
1, 1140.00000, -0.237882, -0.078187, -0.234083, -0.0769382, -0.211663, -0.0695694, 3.64808E-009, -1.04108E-008
1, 1200.00000, -0.237882, -0.078187, -0.234083, -0.0769382, -0.211663, -0.0695694, 3.64808E-009, -1.04108E-008
1, 1260.00000, -0.200646, -0.0659483, -0.271323, -0.0891783, -0.23028, -0.0756885, 1.83709E-008, -1.41608E-008
1, 1320.00000, -0.200642, -0.0659468, -0.271323, -0.0891782, -0.230283, -0.0756896, 1.83722E-008, -1.41609E-008
1, 1380.00000, -0.200642, -0.0659468, -0.271323, -0.0891782, -0.230283, -0.0756896, 1.83722E-008, -1.41609E-008
1, 1440.00000, -0.200642, -0.0659468, -0.271323, -0.0891782, -0.230283, -0.0756896, 1.83722E-008, -1.41609E-008
1, 1500.00000, -0.200642, -0.0659468, -0.271323, -0.0891782, -0.230283, -0.0756896, 1.83722E-008, -1.41609E-008
1, 1560.00000, -0.21546, -0.0708174, -0.234085, -0.076939, -0.234082, -0.0769382, 1.631E-009, -1.4823E-009
1, 1620.00000, -0.215463, -0.0708181, -0.234083, -0.0769382, -0.234083, -0.0769382, 1.63082E-009, -1.48157E-009
1, 1680.00000, -0.215463, -0.0708181, -0.234083, -0.0769382, -0.234083, -0.0769382, 1.63082E-009, -1.48157E-009
1, 1740.00000, -0.215463, -0.0708181, -0.234083, -0.0769382, -0.234083, -0.0769382, 1.63082E-009, -1.48157E-009
1, 1800.00000, -0.215463, -0.0708181, -0.234083, -0.0769382, -0.234083, -0.0769382, 1.63082E-009, -1.48157E-009
1, 1860.00000, -0.152379, -0.0500837, -0.237882, -0.0781869, -0.215465, -0.0708193, 1.59181E-008, -1.46691E-008
1, 1920.00000, -0.152381, -0.0500845, -0.237882, -0.078187, -0.215463, -0.0708185, 1.59181E-008, -1.46685E-008
1, 1980.00000, -0.152381, -0.0500845, -0.237882, -0.078187, -0.215463, -0.0708185, 1.59181E-008, -1.46685E-008
1, 2040.00000, -0.152381, -0.0500845, -0.237882, -0.078187, -0.215463, -0.0708185, 1.59181E-008, -1.46685E-008
1, 2100.00000, -0.152381, -0.0500845, -0.237882, -0.078187, -0.215463, -0.0708185, 1.59181E-008, -1.46685E-008
1, 2160.00000, -0.219264, -0.0720679, -0.204441, -0.0671956, -0.248901, -0.0818087, -6.88789E-009, 1.23201E-009
1, 2220.00000, -0.219262, -0.0720672, -0.204441, -0.0671957, -0.248904, -0.0818095, -6.88754E-009, 1.23205E-009
1, 2280.00000, -0.219262, -0.0720672, -0.204441, -0.0671957, -0.248904, -0.0818095, -6.88753E-009, 1.23205E-009
1, 2340.00000, -0.219262, -0.0720672, -0.204441, -0.0671957, -0.248904, -0.0818095, -6.88753E-009, 1.23205E-009
1, 2400.00000, -0.219262, -0.0720672, -0.204441, -0.0671957, -0.248904, -0.0818095, -6.88753E-009, 1.23205E-009
1, 2460.00000, -0.215484, -0.0708256, -0.234095, -0.0769416, -0.215444, -0.0708121, 9.37701E-010, -1.70991E-009
1, 2520.00000, -0.215463, -0.0708181, -0.234083, -0.0769382, -0.215462, -0.0708181, 9.40553E-010, -1.70475E-009
1, 2580.00000, -0.215463, -0.0708181, -0.234083, -0.0769382, -0.215463, -0.0708181, 9.40577E-010, -1.70474E-009
1, 2640.00000, -0.215463, -0.0708181, -0.234083, -0.0769382, -0.215463, -0.0708181, 9.40577E-010, -1.70474E-009
1, 2700.00000, -0.215463, -0.0708181, -0.234083, -0.0769382, -0.215463, -0.0708181, 9.40577E-010, -1.70474E-009
1, 2760.00000, -0.215451, -0.070814, -0.223038, -0.0733087, -0.200643, -0.0659475, -2.97145E-009, -4.87693E-009
1, 2820.00000, -0.215463, -0.0708182, -0.223061, -0.0733159, -0.200642, -0.065947, -2.97342E-009, -4.8869E-009
1, 2880.00000, -0.215463, -0.0708183, -0.223061, -0.0733159, -0.200642, -0.065947, -2.97345E-009, -4.88696E-009
1, 2940.00000, -0.215463, -0.0708183, -0.223061, -0.0733159, -0.200642, -0.0659469, -2.97345E-009, -4.88696E-009
1, 3000.00000, -0.215463, -0.0708183, -0.223061, -0.0733159, -0.200642, -0.0659469, -2.97345E-009, -4.88696E-009
1, 3060.00000, -0.234067, -0.076933, -0.211674, -0.0695737, -0.237901, -0.0781935, 7.37447E-009, -1.09256E-008
1, 3120.00000, -0.234083, -0.0769381, -0.211663, -0.0695694, -0.237882, -0.078187, 7.38184E-009, -1.09206E-008
1, 3180.00000, -0.234083, -0.0769382, -0.211663, -0.0695694, -0.237882, -0.078187, 7.38191E-009, -1.09206E-008
1, 3240.00000, -0.234083, -0.0769382, -0.211663, -0.0695694, -0.237882, -0.078187, 7.38191E-009, -1.09206E-008
1, 3300.00000, -0.234083, -0.0769382, -0.211663, -0.0695694, -0.237882, -0.078187, 7.38191E-009, -1.09206E-008
1, 3360.00000, -0.171005, -0.0562056, -0.196838, -0.0646963, -0.215463, -0.0708185, -1.10218E-008, -2.66645E-009
1, 3420.00000, -0.171001, -0.0562046, -0.196843, -0.064698, -0.215462, -0.0708184, -1.10218E-008, -2.66519E-009
1, 3480.00000, -0.171001, -0.0562046, -0.196843, -0.064698, -0.215462, -0.0708184, -1.10218E-008, -2.66518E-009
1, 3540.00000, -0.171001, -0.0562046, -0.196843, -0.064698, -0.215462, -0.0708184, -1.10218E-008, -2.66518E-009
2, 0.00000, -0.171001, -0.0562046, -0.196843, -0.064698, -0.215462, -0.0708184, -1.10218E-008, -2.66518E-009
2, 60.00000, -0.185821, -0.0610757, -0.200645, -0.0659478, -0.234084, -0.0769388, -3.80121E-009, -6.44498E-009
2, 120.00000, -0.185821, -0.0610758, -0.200642, -0.0659469, -0.234083, -0.0769384, -3.80139E-009, -6.44503E-009
2, 180.00000, -0.185821, -0.0610758, -0.200642, -0.0659469, -0.234083, -0.0769384, -3.80139E-009, -6.44503E-009
2, 240.00000, -0.185821, -0.0610758, -0.200642, -0.0659469, -0.234083, -0.0769384, -3.80139E-009, -6.44503E-009
2, 300.00000, -0.185821, -0.0610758, -0.200642, -0.0659469, -0.234083, -0.0769384, -3.80139E-009, -6.44503E-009
2, 360.00000, -0.215462, -0.0708181, -0.204443, -0.0671963, -0.215462, -0.0708178, -2.71439E-009, 3.05473E-009
2, 420.00000, -0.215463, -0.0708183, -0.204441, -0.0671958, -0.215463, -0.0708181, -2.71474E-009, 3.055E-009
2, 480.00000, -0.215463, -0.0708183, -0.204441, -0.0671958, -0.215463, -0.0708181, -2.71474E-009, 3.055E-009
2, 540.00000, -0.215463, -0.0708183, -0.204441, -0.0671958, -0.215463, -0.0708181, -2.71474E-009, 3.055E-009
2, 600.00000, -0.215463, -0.0708183, -0.204441, -0.0671958, -0.215463, -0.0708181, -2.71474E-009, 3.055E-009
2, 660.00000, -0.200652, -0.0659513, -0.185837, -0.0610797, -0.185811, -0.0610722, -1.25305E-009, -8.30604E-011
2, 720.00000, -0.200642, -0.0659471, -0.185821, -0.0610759, -0.185821, -0.0610757, -1.25062E-009, -8.1351E-011
2, 780.00000, -0.200642, -0.0659471, -0.185821, -0.0610759, -0.185821, -0.0610758, -1.2506E-009, -8.13355E-011
2, 840.00000, -0.200642, -0.0659471, -0.185821, -0.0610759, -0.185821, -0.0610758, -1.2506E-009, -8.13354E-011
2, 900.00000, -0.200642, -0.0659471, -0.185821, -0.0610759, -0.185821, -0.0610758, -1.2506E-009, -8.13354E-011
2, 960.00000, -0.237882, -0.0781872, -0.196839, -0.0646972, -0.200644, -0.0659477, 7.14822E-009, -1.6701E-008
2, 1020.00000, -0.237882, -0.0781871, -0.196843, -0.0646982, -0.200642, -0.0659469, 7.14884E-009, -1.66992E-008
2, 1080.00000, -0.237882, -0.0781871, -0.196843, -0.0646982, -0.200642, -0.0659469, 7.14885E-009, -1.66992E-008
2, 1140.00000, -0.237882, -0.0781871, -0.196843, -0.0646982, -0.200642, -0.0659469, 7.14885E-009, -1.66992E-008
2, 1200.00000, -0.237882, -0.0781871, -0.196843, -0.0646982, -0.200642, -0.0659469, 7.14885E-009, -1.66992E-008
2, 1260.00000, -0.234099, -0.0769436, -0.204443, -0.0671958, -0.17822, -0.0585773, -1.15794E-008, -2.65998E-008
2, 1320.00000, -0.234083, -0.0769383, -0.204441, -0.0671959, -0.178223, -0.0585779, -1.15738E-008, -2.65864E-008
2, 1380.00000, -0.234083, -0.0769383, -0.204441, -0.0671959, -0.178223, -0.0585779, -1.15738E-008, -2.65863E-008
2, 1440.00000, -0.234083, -0.0769383, -0.204441, -0.0671959, -0.178223, -0.0585779, -1.15738E-008, -2.65863E-008
2, 1500.00000, -0.234083, -0.0769383, -0.204441, -0.0671959, -0.178223, -0.0585779, -1.15738E-008, -2.65863E-008
2, 1560.00000, -0.230282, -0.0756893, -0.174803, -0.0574544, -0.152381, -0.0500842, -3.30611E-008, -1.39925E-008
2, 1620.00000, -0.230284, -0.0756897, -0.1748, -0.0574537, -0.152381, -0.0500844, -3.30617E-008, -1.39922E-008
2, 1680.00000, -0.230284, -0.0756897, -0.1748, -0.0574537, -0.152381, -0.0500844, -3.30617E-008, -1.39922E-008
2, 1740.00000, -0.230284, -0.0756897, -0.1748, -0.0574537, -0.152381, -0.0500844, -3.30617E-008, -1.39922E-008
2, 1800.00000, -0.230284, -0.0756897, -0.1748, -0.0574537, -0.152381, -0.0500844, -3.30617E-008, -1.39922E-008
2, 1860.00000, -0.200637, -0.0659451, -0.200636, -0.0659448, -0.219254, -0.0720643, 1.03613E-009, -2.6862E-009
2, 1920.00000, -0.200642, -0.065947, -0.200642, -0.0659469, -0.219262, -0.072067, 1.03637E-009, -2.68683E-009
2, 1980.00000, -0.200642, -0.065947, -0.200642, -0.065947, -0.219262, -0.0720671, 1.03637E-009, -2.68683E-009
2, 2040.00000, -0.200642, -0.065947, -0.200642, -0.065947, -0.219262, -0.0720671, 1.03637E-009, -2.68683E-009
2, 2100.00000, -0.200642, -0.065947, -0.200642, -0.065947, -0.219262, -0.0720671, 1.03637E-009, -2.68683E-009
2, 2160.00000, -0.182018, -0.0598257, -0.185822, -0.0610768, -0.16341, -0.0537091, -1.20073E-009, -5.68993E-009
2, 2220.00000, -0.182022, -0.0598269, -0.185821, -0.0610758, -0.163402, -0.0537068, -1.20244E-009, -5.6939E-009
2, 2280.00000, -0.182022, -0.0598269, -0.185821, -0.0610758, -0.163402, -0.0537068, -1.20245E-009, -5.69392E-009
2, 2340.00000, -0.182022, -0.0598269, -0.185821, -0.0610758, -0.163402, -0.0537068, -1.20245E-009, -5.69392E-009
2, 2400.00000, -0.182022, -0.0598269, -0.185821, -0.0610758, -0.163402, -0.0537068, -1.20245E-009, -5.69392E-009
2, 2460.00000, -0.17098, -0.056198, -0.219274, -0.0720716, -0.200655, -0.0659511, 2.83475E-009, -8.75597E-010
2, 2520.00000, -0.171001, -0.0562046, -0.219262, -0.0720671, -0.200642, -0.0659472, 2.83412E-009, -8.69755E-010
2, 2580.00000, -0.171001, -0.0562046, -0.219262, -0.0720671, -0.200642, -0.0659472, 2.8341E-009, -8.69709E-010
2, 2640.00000, -0.171001, -0.0562046, -0.219262, -0.072067, -0.200642, -0.0659472, 2.8341E-009, -8.69709E-010
2, 2700.00000, -0.171001, -0.0562046, -0.219262, -0.072067, -0.200642, -0.0659472, 2.8341E-009, -8.69709E-010
2, 2760.00000, -0.200643, -0.0659474, -0.182021, -0.0598263, -0.196843, -0.0646982, -3.4231E-009, -3.70492E-009
2, 2820.00000, -0.200642, -0.065947, -0.182022, -0.0598268, -0.196843, -0.0646981, -3.42276E-009, -3.70417E-009
2, 2880.00000, -0.200642, -0.065947, -0.182022, -0.0598268, -0.196843, -0.0646981, -3.42276E-009, -3.70417E-009
2, 2940.00000, -0.200642, -0.065947, -0.182022, -0.0598268, -0.196843, -0.0646981, -3.42276E-009, -3.70417E-009
2, 3000.00000, -0.200642, -0.065947, -0.182022, -0.0598268, -0.196843, -0.0646981, -3.42276E-009, -3.70417E-009
2, 3060.00000, -0.185824, -0.061077, -0.185822, -0.0610757, -0.182018, -0.0598257, -8.12224E-010, -5.58951E-010
2, 3120.00000, -0.185821, -0.0610758, -0.185821, -0.0610758, -0.182022, -0.059827, -8.1235E-010, -5.57424E-010
2, 3180.00000, -0.185821, -0.0610758, -0.185821, -0.0610758, -0.182022, -0.059827, -8.12348E-010, -5.57414E-010
2, 3240.00000, -0.185821, -0.0610758, -0.185821, -0.0610758, -0.182022, -0.059827, -8.12348E-010, -5.57414E-010
2, 3300.00000, -0.185821, -0.0610758, -0.185821, -0.0610758, -0.182022, -0.059827, -8.12348E-010, -5.57414E-010
2, 3360.00000, -0.148578, -0.0488343, -0.208239, -0.0684445, -0.167206, -0.0549572, 1.34106E-008, -2.41856E-008
2, 3420.00000, -0.148581, -0.0488357, -0.208241, -0.0684448, -0.167201, -0.0549559, 1.34084E-008, -2.41876E-008
2, 3480.00000, -0.148581, -0.0488357, -0.208241, -0.0684448, -0.167201, -0.0549558, 1.34084E-008, -2.41876E-008
