hour, t(sec), P1 (kW), Q1 (kvar), P2 (kW), Q2 (kvar), P3 (kW), Q3 (kvar), P4 (kW), Q4 (kvar)
0, 60.00000, -0.152003, -0.0499573, -0.152, -0.0499639, -0.132997, -0.0437136, 4.79378E-007, 1.92444E-007
0, 120.00000, -0.152003, -0.0499575, -0.152001, -0.049964, -0.132997, -0.0437136, 4.79395E-007, 1.92448E-007
0, 180.00000, -0.152003, -0.0499575, -0.152001, -0.049964, -0.132997, -0.0437136, 4.79395E-007, 1.92448E-007
0, 240.00000, -0.152003, -0.0499575, -0.152001, -0.049964, -0.132997, -0.0437136, 4.79395E-007, 1.92448E-007
0, 300.00000, -0.152003, -0.0499575, -0.152001, -0.049964, -0.132997, -0.0437136, 4.79395E-007, 1.92448E-007
0, 360.00000, -0.151997, -0.0499565, -0.190005, -0.0624485, -0.170998, -0.0562101, 1.01242E-006, 3.18839E-007
0, 420.00000, -0.151997, -0.0499563, -0.190006, -0.0624487, -0.170998, -0.0562102, 1.01249E-006, 3.1885E-007
0, 480.00000, -0.151997, -0.0499563, -0.190006, -0.0624487, -0.170998, -0.0562102, 1.01249E-006, 3.1885E-007
0, 540.00000, -0.151997, -0.0499563, -0.190006, -0.0624487, -0.170998, -0.0562102, 1.01249E-006, 3.1885E-007
0, 600.00000, -0.151997, -0.0499563, -0.190006, -0.0624487, -0.170998, -0.0562102, 1.01249E-006, 3.1885E-007
0, 660.00000, -0.132997, -0.0437229, -0.113995, -0.0374646, -0.190012, -0.0624477, 4.33906E-006, 1.7198E-007
0, 720.00000, -0.132997, -0.043723, -0.113995, -0.0374646, -0.190012, -0.0624475, 4.33901E-006, 1.7197E-007
0, 780.00000, -0.132997, -0.043723, -0.113995, -0.0374646, -0.190012, -0.0624475, 4.33901E-006, 1.7197E-007
0, 840.00000, -0.132997, -0.043723, -0.113995, -0.0374646, -0.190012, -0.0624475, 4.33901E-006, 1.7197E-007
0, 900.00000, -0.132997, -0.043723, -0.113995, -0.0374646, -0.190012, -0.0624475, 4.33901E-006, 1.7197E-007
0, 960.00000, -0.171001, -0.0561964, -0.209009, -0.0687014, -0.151992, -0.0499629, 2.45318E-006, 7.53098E-007
0, 1020.00000, -0.171001, -0.0561963, -0.209009, -0.0687013, -0.151993, -0.0499631, 2.45312E-006, 7.53083E-007
0, 1080.00000, -0.171001, -0.0561963, -0.209009, -0.0687013, -0.151993, -0.0499631, 2.45312E-006, 7.53083E-007
0, 1140.00000, -0.171001, -0.0561963, -0.209009, -0.0687013, -0.151993, -0.0499631, 2.45312E-006, 7.53083E-007
0, 1200.00000, -0.171001, -0.0561963, -0.209009, -0.0687013, -0.151993, -0.0499631, 2.45312E-006, 7.53083E-007
0, 1260.00000, -0.152002, -0.0499626, -0.132997, -0.0437149, -0.152001, -0.0499574, 3.70662E-007, -1.25002E-008
0, 1320.00000, -0.152002, -0.0499625, -0.132997, -0.0437151, -0.152001, -0.0499574, 3.70634E-007, -1.25005E-008
0, 1380.00000, -0.152002, -0.0499625, -0.132997, -0.0437151, -0.152001, -0.0499574, 3.70634E-007, -1.25005E-008
0, 1440.00000, -0.152002, -0.0499625, -0.132997, -0.0437151, -0.152001, -0.0499574, 3.70634E-007, -1.25005E-008
0, 1500.00000, -0.152002, -0.0499625, -0.132997, -0.0437151, -0.152001, -0.0499574, 3.70634E-007, -1.25005E-008
0, 1560.00000, -0.152, -0.0499646, -0.132997, -0.0437135, -0.171005, -0.0562019, 1.0514E-006, -1.04086E-007
0, 1620.00000, -0.152001, -0.0499649, -0.132996, -0.0437132, -0.171004, -0.0562017, 1.05143E-006, -1.04091E-007
0, 1680.00000, -0.152001, -0.0499649, -0.132996, -0.0437132, -0.171004, -0.0562017, 1.05143E-006, -1.04091E-007
0, 1740.00000, -0.152001, -0.0499649, -0.132996, -0.0437132, -0.171004, -0.0562017, 1.05143E-006, -1.04091E-007
0, 1800.00000, -0.152001, -0.0499649, -0.132996, -0.0437132, -0.171004, -0.0562017, 1.05143E-006, -1.04091E-007
0, 1860.00000, -0.190011, -0.0624403, -0.171002, -0.056218, -0.113992, -0.0374671, 5.31476E-006, 4.76021E-007
0, 1920.00000, -0.190011, -0.0624403, -0.171002, -0.056218, -0.113992, -0.0374671, 5.31477E-006, 4.76022E-007
0, 1980.00000, -0.190011, -0.0624403, -0.171002, -0.056218, -0.113992, -0.0374671, 5.31477E-006, 4.76022E-007
0, 2040.00000, -0.190011, -0.0624403, -0.171002, -0.056218, -0.113992, -0.0374671, 5.31477E-006, 4.76022E-007
0, 2100.00000, -0.190011, -0.0624403, -0.171002, -0.056218, -0.113992, -0.0374671, 5.31477E-006, 4.76022E-007
0, 2160.00000, -0.133001, -0.0437065, -0.19001, -0.0624554, -0.113994, -0.0374741, 4.42123E-006, 1.02562E-006
0, 2220.00000, -0.133, -0.0437062, -0.190011, -0.0624557, -0.113994, -0.0374741, 4.42142E-006, 1.02564E-006
0, 2280.00000, -0.133, -0.0437062, -0.190011, -0.0624557, -0.113994, -0.0374741, 4.42142E-006, 1.02564E-006
0, 2340.00000, -0.133, -0.0437062, -0.190011, -0.0624557, -0.113994, -0.0374741, 4.42142E-006, 1.02564E-006
0, 2400.00000, -0.133, -0.0437062, -0.190011, -0.0624557, -0.113994, -0.0374741, 4.42142E-006, 1.02564E-006
0, 2460.00000, -0.152, -0.0499579, -0.152002, -0.0499622, -0.151998, -0.0499599, 1.72151E-009, -2.01745E-009
0, 2520.00000, -0.152001, -0.0499582, -0.152001, -0.0499618, -0.151998, -0.04996, 1.71458E-009, -2.03931E-009
0, 2580.00000, -0.152001, -0.0499582, -0.152001, -0.0499618, -0.151998, -0.04996, 1.71453E-009, -2.03936E-009
0, 2640.00000, -0.152001, -0.0499582, -0.152001, -0.0499618, -0.151998, -0.04996, 1.71453E-009, -2.03936E-009
0, 2700.00000, -0.152001, -0.0499582, -0.152001, -0.0499618, -0.151998, -0.04996, 1.71453E-009, -2.03936E-009
0, 2760.00000, -0.113997, -0.037466, -0.171008, -0.0562036, -0.132998, -0.0437208, 2.26908E-006, 3.51265E-007
0, 2820.00000, -0.113997, -0.037466, -0.171008, -0.0562036, -0.132998, -0.0437207, 2.26907E-006, 3.51268E-007
0, 2880.00000, -0.113997, -0.037466, -0.171008, -0.0562036, -0.132998, -0.0437207, 2.26907E-006, 3.51268E-007
0, 2940.00000, -0.113997, -0.037466, -0.171008, -0.0562036, -0.132998, -0.0437207, 2.26907E-006, 3.51268E-007
0, 3000.00000, -0.113997, -0.037466, -0.171008, -0.0562036, -0.132998, -0.0437207, 2.26907E-006, 3.51268E-007
0, 3060.00000, -0.171006, -0.0562023, -0.151999, -0.0499659, -0.132995, -0.0437118, 1.29784E-006, 1.3664E-007
0, 3120.00000, -0.171006, -0.0562023, -0.151999, -0.0499659, -0.132996, -0.0437119, 1.29781E-006, 1.36638E-007
0, 3180.00000, -0.171006, -0.0562023, -0.151999, -0.0499659, -0.132996, -0.0437119, 1.2978E-006, 1.36638E-007
0, 3240.00000, -0.171006, -0.0562023, -0.151999, -0.0499659, -0.132996, -0.0437119, 1.2978E-006, 1.36638E-007
0, 3300.00000, -0.171006, -0.0562023, -0.151999, -0.0499659, -0.132996, -0.0437119, 1.2978E-006, 1.36638E-007
0, 3360.00000, -0.152005, -0.0499579, -0.132999, -0.0437197, -0.113997, -0.0374676, 1.19417E-006, 1.46505E-007
0, 3420.00000, -0.152005, -0.0499578, -0.132999, -0.0437198, -0.113997, -0.0374675, 1.19417E-006, 1.46504E-007
0, 3480.00000, -0.152005, -0.0499578, -0.132999, -0.0437198, -0.113997, -0.0374675, 1.19417E-006, 1.46504E-007
0, 3540.00000, -0.152005, -0.0499578, -0.132999, -0.0437198, -0.113997, -0.0374675, 1.19417E-006, 1.46504E-007
1, 0.00000, -0.152005, -0.0499578, -0.132999, -0.0437198, -0.113997, -0.0374675, 1.19417E-006, 1.46504E-007
1, 60.00000, -0.114, -0.0374683, -0.133003, -0.0437159, -0.113999, -0.0374713, 3.03761E-007, 1.04191E-007
1, 120.00000, -0.114, -0.0374681, -0.133002, -0.0437157, -0.113999, -0.0374712, 3.03755E-007, 1.04187E-007
1, 180.00000, -0.114, -0.0374681, -0.133002, -0.0437157, -0.113999, -0.0374712, 3.03755E-007, 1.04187E-007
1, 240.00000, -0.114, -0.0374681, -0.133002, -0.0437157, -0.113999, -0.0374712, 3.03755E-007, 1.04187E-007
1, 300.00000, -0.114, -0.0374681, -0.133002, -0.0437157, -0.113999, -0.0374712, 3.03755E-007, 1.04187E-007
1, 360.00000, -0.133, -0.0437185, -0.113997, -0.0374681, -0.152004, -0.0499584, 8.46993E-007, 7.67095E-008
1, 420.00000, -0.133, -0.0437184, -0.113998, -0.0374683, -0.152004, -0.0499583, 8.46943E-007, 7.67107E-008
1, 480.00000, -0.133, -0.0437184, -0.113998, -0.0374683, -0.152004, -0.0499583, 8.46942E-007, 7.67106E-008
1, 540.00000, -0.133, -0.0437184, -0.113998, -0.0374683, -0.152004, -0.0499583, 8.46942E-007, 7.67106E-008
1, 600.00000, -0.133, -0.0437184, -0.113998, -0.0374683, -0.152004, -0.0499583, 8.46942E-007, 7.67106E-008
1, 660.00000, -0.113999, -0.0374639, -0.152008, -0.0499642, -0.0949958, -0.0312274, 2.54256E-006, 5.05538E-007
1, 720.00000, -0.114, -0.0374641, -0.152007, -0.049964, -0.0949957, -0.0312274, 2.54246E-006, 5.05529E-007
1, 780.00000, -0.114, -0.0374641, -0.152007, -0.049964, -0.0949957, -0.0312274, 2.54246E-006, 5.05528E-007
1, 840.00000, -0.114, -0.0374641, -0.152007, -0.049964, -0.0949957, -0.0312274, 2.54246E-006, 5.05528E-007
1, 900.00000, -0.114, -0.0374641, -0.152007, -0.049964, -0.0949957, -0.0312274, 2.54246E-006, 5.05528E-007
1, 960.00000, -0.152007, -0.0499594, -0.113997, -0.0374745, -0.113997, -0.0374659, 1.71955E-006, -1.56322E-007
1, 1020.00000, -0.152007, -0.0499593, -0.113998, -0.0374747, -0.113997, -0.0374658, 1.71954E-006, -1.56321E-007
1, 1080.00000, -0.152007, -0.0499593, -0.113998, -0.0374747, -0.113997, -0.0374658, 1.71954E-006, -1.56321E-007
1, 1140.00000, -0.152007, -0.0499593, -0.113998, -0.0374747, -0.113997, -0.0374658, 1.71954E-006, -1.56321E-007
1, 1200.00000, -0.152007, -0.0499593, -0.113998, -0.0374747, -0.113997, -0.0374658, 1.71954E-006, -1.56321E-007
1, 1260.00000, -0.133, -0.0437147, -0.133001, -0.0437151, -0.132999, -0.0437152, 5.73895E-011, -2.14127E-010
1, 1320.00000, -0.133, -0.0437147, -0.133, -0.043715, -0.133, -0.0437153, 5.61008E-011, -2.12955E-010
1, 1380.00000, -0.133, -0.0437147, -0.133, -0.043715, -0.133, -0.0437153, 5.60976E-011, -2.12949E-010
1, 1440.00000, -0.133, -0.0437147, -0.133, -0.043715, -0.133, -0.0437153, 5.60976E-011, -2.12949E-010
1, 1500.00000, -0.133, -0.0437147, -0.133, -0.043715, -0.133, -0.0437153, 5.60976E-011, -2.12949E-010
1, 1560.00000, -0.114, -0.0374695, -0.114001, -0.0374703, -0.113999, -0.0374702, -1.77185E-011, -3.8067E-010
1, 1620.00000, -0.114, -0.0374696, -0.114, -0.0374702, -0.114, -0.0374703, -1.95476E-011, -3.81163E-010
1, 1680.00000, -0.114, -0.0374696, -0.114, -0.0374702, -0.114, -0.0374703, -1.95543E-011, -3.81166E-010
1, 1740.00000, -0.114, -0.0374696, -0.114, -0.0374702, -0.114, -0.0374703, -1.95544E-011, -3.81166E-010
1, 1800.00000, -0.114, -0.0374696, -0.114, -0.0374702, -0.114, -0.0374703, -1.95544E-011, -3.81166E-010
1, 1860.00000, -0.133002, -0.0437168, -0.113998, -0.0374707, -0.133001, -0.0437123, 3.90577E-007, -1.05972E-007
1, 1920.00000, -0.133002, -0.043717, -0.113998, -0.0374706, -0.133001, -0.0437123, 3.90597E-007, -1.05974E-007
1, 1980.00000, -0.133002, -0.043717, -0.113998, -0.0374706, -0.133001, -0.0437123, 3.90597E-007, -1.05974E-007
1, 2040.00000, -0.133002, -0.043717, -0.113998, -0.0374706, -0.133001, -0.0437123, 3.90597E-007, -1.05974E-007
1, 2100.00000, -0.133002, -0.043717, -0.113998, -0.0374706, -0.133001, -0.0437123, 3.90597E-007, -1.05974E-007
1, 2160.00000, -0.133003, -0.0437153, -0.113998, -0.0374716, -0.113999, -0.0374681, 3.57002E-007, 2.87019E-008
1, 2220.00000, -0.133002, -0.0437152, -0.113999, -0.0374718, -0.113999, -0.0374681, 3.56979E-007, 2.86978E-008
1, 2280.00000, -0.133002, -0.0437152, -0.113999, -0.0374718, -0.113999, -0.0374681, 3.56979E-007, 2.86978E-008
1, 2340.00000, -0.133002, -0.0437152, -0.113999, -0.0374718, -0.113999, -0.0374681, 3.56979E-007, 2.86978E-008
1, 2400.00000, -0.133002, -0.0437152, -0.113999, -0.0374718, -0.113999, -0.0374681, 3.56979E-007, 2.86978E-008
1, 2460.00000, -0.151998, -0.0499591, -0.133007, -0.0437196, -0.132998, -0.0437122, 3.65106E-007, 8.96515E-008
1, 2520.00000, -0.152003, -0.0499607, -0.132998, -0.0437169, -0.132999, -0.0437125, 3.6545E-007, 8.97253E-008
1, 2580.00000, -0.152003, -0.0499607, -0.132998, -0.0437169, -0.132999, -0.0437125, 3.6545E-007, 8.97254E-008
1, 2640.00000, -0.152003, -0.0499607, -0.132998, -0.0437169, -0.132999, -0.0437125, 3.6545E-007, 8.97254E-008
1, 2700.00000, -0.152003, -0.0499607, -0.132998, -0.0437169, -0.132999, -0.0437125, 3.6545E-007, 8.97254E-008
1, 2760.00000, -0.133007, -0.0437209, -0.113991, -0.037466, -0.151998, -0.0499557, 9.08338E-007, 1.83519E-008
1, 2820.00000, -0.133, -0.0437187, -0.113997, -0.0374684, -0.152004, -0.0499579, 9.08256E-007, 1.84619E-008
1, 2880.00000, -0.133, -0.0437187, -0.113997, -0.0374684, -0.152004, -0.0499579, 9.08255E-007, 1.8462E-008
1, 2940.00000, -0.133, -0.0437187, -0.113997, -0.0374684, -0.152004, -0.0499579, 9.08255E-007, 1.8462E-008
1, 3000.00000, -0.133, -0.0437187, -0.113997, -0.0374684, -0.152004, -0.0499579, 9.08255E-007, 1.8462E-008
1, 3060.00000, -0.0949916, -0.0312231, -0.133012, -0.0437155, -0.133, -0.0437186, 1.02313E-006, 2.95455E-007
1, 3120.00000, -0.0949974, -0.0312242, -0.133003, -0.0437124, -0.133001, -0.0437186, 1.02239E-006, 2.95195E-007
1, 3180.00000, -0.0949974, -0.0312242, -0.133003, -0.0437124, -0.133001, -0.0437186, 1.02239E-006, 2.95194E-007
1, 3240.00000, -0.0949974, -0.0312242, -0.133003, -0.0437124, -0.133001, -0.0437186, 1.02239E-006, 2.95194E-007
1, 3300.00000, -0.0949974, -0.0312242, -0.133003, -0.0437124, -0.133001, -0.0437186, 1.02239E-006, 2.95194E-007
1, 3360.00000, -0.132999, -0.0437144, -0.133001, -0.0437148, -0.133, -0.0437157, -8.37281E-010, -8.55788E-010
1, 3420.00000, -0.132999, -0.0437145, -0.133001, -0.0437148, -0.133, -0.0437157, -8.37294E-010, -8.56103E-010
1, 3480.00000, -0.132999, -0.0437145, -0.133001, -0.0437148, -0.133, -0.0437157, -8.37279E-010, -8.561E-010
1, 3540.00000, -0.132999, -0.0437145, -0.133001, -0.0437148, -0.133, -0.0437157, -8.37279E-010, -8.561E-010
2, 0.00000, -0.132999, -0.0437145, -0.133001, -0.0437148, -0.133, -0.0437157, -8.37279E-010, -8.561E-010
2, 60.00000, -0.114002, -0.0374694, -0.0949997, -0.0312269, -0.094999, -0.0312237, 3.75965E-007, -9.5436E-008
2, 120.00000, -0.114002, -0.0374694, -0.0949995, -0.0312268, -0.0949987, -0.0312236, 3.75976E-007, -9.54369E-008
2, 180.00000, -0.114002, -0.0374694, -0.0949995, -0.0312268, -0.0949987, -0.0312236, 3.75976E-007, -9.54369E-008
2, 240.00000, -0.114002, -0.0374694, -0.0949995, -0.0312268, -0.0949987, -0.0312236, 3.75976E-007, -9.54369E-008
2, 300.00000, -0.114002, -0.0374694, -0.0949995, -0.0312268, -0.0949987, -0.0312236, 3.75976E-007, -9.54369E-008
2, 360.00000, -0.0949994, -0.0312256, -0.114, -0.0374682, -0.114001, -0.0374711, 2.85072E-007, -6.73705E-008
2, 420.00000, -0.0949986, -0.0312253, -0.114, -0.0374683, -0.114001, -0.0374713, 2.8512E-007, -6.73747E-008
2, 480.00000, -0.0949986, -0.0312253, -0.114, -0.0374683, -0.114001, -0.0374713, 2.8512E-007, -6.73747E-008
2, 540.00000, -0.0949986, -0.0312253, -0.114, -0.0374683, -0.114001, -0.0374713, 2.8512E-007, -6.73747E-008
2, 600.00000, -0.0949986, -0.0312253, -0.114, -0.0374683, -0.114001, -0.0374713, 2.8512E-007, -6.73747E-008
2, 660.00000, -0.151991, -0.0499533, -0.132997, -0.043719, -0.114015, -0.0374737, 1.13364E-006, 4.69235E-009
2, 720.00000, -0.152005, -0.0499574, -0.133, -0.0437196, -0.113997, -0.037468, 1.13562E-006, 4.75621E-009
2, 780.00000, -0.152005, -0.0499574, -0.133, -0.0437196, -0.113997, -0.037468, 1.13562E-006, 4.75638E-009
2, 840.00000, -0.152005, -0.0499574, -0.133, -0.0437196, -0.113997, -0.037468, 1.13562E-006, 4.75638E-009
2, 900.00000, -0.152005, -0.0499574, -0.133, -0.0437196, -0.113997, -0.037468, 1.13562E-006, 4.75638E-009
2, 960.00000, -0.133002, -0.0437174, -0.113997, -0.0374699, -0.133001, -0.0437125, 3.84991E-007, -3.16648E-009
2, 1020.00000, -0.133001, -0.0437173, -0.113998, -0.03747, -0.133001, -0.0437126, 3.84978E-007, -3.16655E-009
2, 1080.00000, -0.133001, -0.0437173, -0.113998, -0.03747, -0.133001, -0.0437126, 3.84978E-007, -3.16656E-009
2, 1140.00000, -0.133001, -0.0437173, -0.113998, -0.03747, -0.133001, -0.0437126, 3.84978E-007, -3.16656E-009
2, 1200.00000, -0.133001, -0.0437173, -0.113998, -0.03747, -0.133001, -0.0437126, 3.84978E-007, -3.16656E-009
2, 1260.00000, -0.0949966, -0.0312231, -0.133012, -0.0437162, -0.113997, -0.0374726, 9.98245E-007, 2.37291E-007
2, 1320.00000, -0.0949978, -0.0312229, -0.133004, -0.0437138, -0.113999, -0.0374734, 9.97698E-007, 2.37169E-007
2, 1380.00000, -0.0949978, -0.0312229, -0.133004, -0.0437138, -0.113999, -0.0374735, 9.97697E-007, 2.37168E-007
2, 1440.00000, -0.0949978, -0.0312229, -0.133004, -0.0437138, -0.113999, -0.0374735, 9.97697E-007, 2.37168E-007
2, 1500.00000, -0.0949978, -0.0312229, -0.133004, -0.0437138, -0.113999, -0.0374735, 9.97697E-007, 2.37168E-007
2, 1560.00000, -0.152004, -0.0499579, -0.133, -0.0437196, -0.113997, -0.0374676, 1.13117E-006, 1.58746E-007
2, 1620.00000, -0.152005, -0.049958, -0.132999, -0.0437195, -0.113997, -0.0374676, 1.13122E-006, 1.58752E-007
2, 1680.00000, -0.152005, -0.049958, -0.132999, -0.0437195, -0.113997, -0.0374676, 1.13122E-006, 1.58752E-007
2, 1740.00000, -0.152005, -0.049958, -0.132999, -0.0437195, -0.113997, -0.0374676, 1.13122E-006, 1.58752E-007
2, 1800.00000, -0.152005, -0.049958, -0.132999, -0.0437195, -0.113997, -0.0374676, 1.13122E-006, 1.58752E-007
2, 1860.00000, -0.11402, -0.037478, -0.113993, -0.0374657, -0.132994, -0.0437122, 2.55246E-007, -6.65302E-009
2, 1920.00000, -0.113999, -0.0374713, -0.113999, -0.0374687, -0.133002, -0.0437149, 2.55717E-007, -6.44229E-009
2, 1980.00000, -0.113999, -0.0374713, -0.113999, -0.0374687, -0.133002, -0.0437149, 2.55717E-007, -6.44192E-009
2, 2040.00000, -0.113999, -0.0374713, -0.113999, -0.0374687, -0.133002, -0.0437149, 2.55717E-007, -6.44192E-009
2, 2100.00000, -0.113999, -0.0374713, -0.113999, -0.0374687, -0.133002, -0.0437149, 2.55717E-007, -6.44192E-009
2, 2160.00000, -0.094987, -0.0312239, -0.114001, -0.0374661, -0.152011, -0.0499653, 2.11661E-006, 3.3758E-007
2, 2220.00000, -0.0949965, -0.0312271, -0.114, -0.0374651, -0.152006, -0.049963, 2.11536E-006, 3.37343E-007
2, 2280.00000, -0.0949966, -0.0312271, -0.114, -0.0374651, -0.152006, -0.049963, 2.11536E-006, 3.37343E-007
2, 2340.00000, -0.0949966, -0.0312271, -0.114, -0.0374651, -0.152006, -0.049963, 2.11536E-006, 3.37343E-007
2, 2400.00000, -0.0949966, -0.0312271, -0.114, -0.0374651, -0.152006, -0.049963, 2.11536E-006, 3.37343E-007
2, 2460.00000, -0.133003, -0.0437171, -0.0949985, -0.0312268, -0.114, -0.0374662, 1.11511E-006, 2.26249E-008
2, 2520.00000, -0.133004, -0.0437173, -0.0949972, -0.0312265, -0.114, -0.0374661, 1.11524E-006, 2.26334E-008
2, 2580.00000, -0.133004, -0.0437173, -0.0949972, -0.0312265, -0.114, -0.0374661, 1.11524E-006, 2.26334E-008
2, 2640.00000, -0.133004, -0.0437173, -0.0949972, -0.0312265, -0.114, -0.0374661, 1.11524E-006, 2.26334E-008
2, 2700.00000, -0.133004, -0.0437173, -0.0949972, -0.0312265, -0.114, -0.0374661, 1.11524E-006, 2.26334E-008
2, 2760.00000, -0.113999, -0.0374681, -0.133002, -0.0437156, -0.113999, -0.0374714, 3.02569E-007, 8.68349E-008
2, 2820.00000, -0.114, -0.0374682, -0.133002, -0.0437156, -0.113999, -0.0374713, 3.0257E-007, 8.68367E-008
2, 2880.00000, -0.114, -0.0374682, -0.133002, -0.0437156, -0.113999, -0.0374713, 3.0257E-007, 8.68367E-008
2, 2940.00000, -0.114, -0.0374682, -0.133002, -0.0437156, -0.113999, -0.0374713, 3.0257E-007, 8.68367E-008
2, 3000.00000, -0.114, -0.0374682, -0.133002, -0.0437156, -0.113999, -0.0374713, 3.0257E-007, 8.68367E-008
2, 3060.00000, -0.114, -0.0374733, -0.0949976, -0.0312237, -0.133003, -0.0437128, 9.38324E-007, -4.4037E-008
2, 3120.00000, -0.114, -0.0374732, -0.0949976, -0.0312238, -0.133003, -0.0437129, 9.38351E-007, -4.40321E-008
2, 3180.00000, -0.114, -0.0374732, -0.0949976, -0.0312238, -0.133003, -0.0437129, 9.38351E-007, -4.40321E-008
2, 3240.00000, -0.114, -0.0374732, -0.0949976, -0.0312238, -0.133003, -0.0437129, 9.38351E-007, -4.40321E-008
2, 3300.00000, -0.114, -0.0374732, -0.0949976, -0.0312238, -0.133003, -0.0437129, 9.38351E-007, -4.40321E-008
2, 3360.00000, -0.114, -0.0374699, -0.114, -0.0374701, -0.114, -0.03747, 2.05524E-010, 6.56217E-011
2, 3420.00000, -0.114, -0.0374699, -0.114, -0.0374702, -0.114, -0.0374698, 2.0621E-010, 6.68599E-011
2, 3480.00000, -0.114, -0.0374699, -0.114, -0.0374702, -0.114, -0.0374698, 2.06216E-010, 6.68643E-011
2, 3540.00000, -0.114, -0.0374699, -0.114, -0.0374702, -0.114, -0.0374698, 2.06216E-010, 6.68644E-011
3, 0.00000, -0.114, -0.0374699, -0.114, -0.0374702, -0.114, -0.0374698, 2.06216E-010, 6.68644E-011
3, 60.00000, -0.0949993, -0.0312266, -0.0949992, -0.0312235, -0.114002, -0.0374699, 3.51913E-007, -9.94034E-009
3, 120.00000, -0.0949992, -0.0312266, -0.0949991, -0.0312235, -0.114002, -0.0374699, 3.51919E-007, -9.94004E-009
