hour, t(sec), V0, VAngle0, V1, VAngle1, V2, VAngle2, I0, IAngle0, I1, IAngle1, I2, IAngle2, 
0, 60.00000, 0.0481024, 98.1349, 224.626, -30.2768, 0.017897, -100.609, 0.974951, 78.1012, 77.5089, 129.422, 1.0101, -175.044
0, 120.00000, 0.0481051, 98.1342, 224.626, -30.2768, 0.0178973, -100.609, 0.975038, 78.0987, 77.5091, 129.422, 1.01011, -175.045
0, 180.00000, 0.0481051, 98.1342, 224.626, -30.2768, 0.0178973, -100.609, 0.975038, 78.0987, 77.5091, 129.422, 1.01012, -175.045
0, 240.00000, 0.0481051, 98.1342, 224.626, -30.2768, 0.0178973, -100.609, 0.975038, 78.0987, 77.5091, 129.422, 1.01012, -175.045
0, 300.00000, 0.0481051, 98.1342, 224.626, -30.2768, 0.0178973, -100.609, 0.975038, 78.0987, 77.5091, 129.422, 1.01012, -175.045
0, 360.00000, 0.0369558, 101.781, 224.605, -30.2849, 0.0122181, -116.909, 0.643638, 95.7993, 79.6608, 129.476, 0.689582, 168.656
0, 420.00000, 0.0369607, 101.795, 224.605, -30.2849, 0.0122242, -116.927, 0.643949, 95.8177, 79.6609, 129.476, 0.689929, 168.638
0, 480.00000, 0.0369607, 101.795, 224.605, -30.2849, 0.0122243, -116.927, 0.64395, 95.818, 79.6609, 129.476, 0.68993, 168.638
0, 540.00000, 0.0369607, 101.795, 224.605, -30.2849, 0.0122243, -116.927, 0.64395, 95.818, 79.6609, 129.476, 0.68993, 168.638
0, 600.00000, 0.0369607, 101.795, 224.605, -30.2849, 0.0122243, -116.927, 0.64395, 95.818, 79.6609, 129.476, 0.68993, 168.638
0, 660.00000, 0.040693, 114.043, 224.618, -30.2799, 0.0162527, -131.367, 0.892229, 109.578, 78.3447, 129.444, 0.917292, 154.198
0, 720.00000, 0.0406829, 114.035, 224.618, -30.2799, 0.0162447, -131.369, 0.891819, 109.579, 78.3447, 129.444, 0.916841, 154.196
0, 780.00000, 0.0406829, 114.035, 224.618, -30.2799, 0.0162446, -131.369, 0.891815, 109.578, 78.3447, 129.444, 0.916837, 154.196
0, 840.00000, 0.0406829, 114.035, 224.618, -30.2799, 0.0162446, -131.369, 0.891815, 109.578, 78.3447, 129.444, 0.916837, 154.196
0, 900.00000, 0.0406829, 114.035, 224.618, -30.2799, 0.0162446, -131.369, 0.891815, 109.578, 78.3447, 129.444, 0.916837, 154.196
0, 960.00000, 0.0359376, 66.3534, 224.609, -30.2834, 0.0100188, -32.3206, 0.541409, 7.82539, 79.2576, 129.465, 0.565464, -106.756
0, 1020.00000, 0.0359528, 66.3286, 224.609, -30.2834, 0.0100119, -32.2203, 0.542141, 7.79511, 79.2579, 129.465, 0.565072, -106.656
0, 1080.00000, 0.0359528, 66.3285, 224.609, -30.2834, 0.0100119, -32.2198, 0.54214, 7.79489, 79.2579, 129.465, 0.565072, -106.655
0, 1140.00000, 0.0359528, 66.3285, 224.609, -30.2834, 0.0100119, -32.2198, 0.54214, 7.79489, 79.2579, 129.465, 0.565072, -106.655
0, 1200.00000, 0.0359528, 66.3285, 224.609, -30.2834, 0.0100119, -32.2198, 0.54214, 7.79489, 79.2579, 129.465, 0.565072, -106.655
0, 1260.00000, 0.0548377, 82.0258, 224.608, -30.2835, 0.0211492, -72.1007, 1.13045, 48.6973, 79.3068, 129.466, 1.19366, -146.536
0, 1320.00000, 0.0548533, 82.0338, 224.608, -30.2835, 0.0211579, -72.1119, 1.13101, 48.7111, 79.3067, 129.466, 1.19415, -146.547
0, 1380.00000, 0.0548534, 82.0339, 224.608, -30.2835, 0.021158, -72.1121, 1.13101, 48.7113, 79.3067, 129.466, 1.19415, -146.547
0, 1440.00000, 0.0548534, 82.0339, 224.608, -30.2835, 0.021158, -72.1121, 1.13101, 48.7113, 79.3067, 129.466, 1.19415, -146.547
0, 1500.00000, 0.0548534, 82.0339, 224.608, -30.2835, 0.021158, -72.1121, 1.13101, 48.7113, 79.3067, 129.466, 1.19415, -146.547
0, 1560.00000, 0.0511427, 101.852, 224.628, -30.276, 0.0208412, -105.081, 1.12137, 83.2666, 77.3028, 129.417, 1.17627, -179.516
0, 1620.00000, 0.0511492, 101.846, 224.628, -30.276, 0.0208442, -105.068, 1.12154, 83.2546, 77.3029, 129.417, 1.17644, -179.503
0, 1680.00000, 0.0511493, 101.846, 224.628, -30.276, 0.0208443, -105.068, 1.12154, 83.2545, 77.3029, 129.417, 1.17644, -179.503
0, 1740.00000, 0.0511493, 101.846, 224.628, -30.276, 0.0208443, -105.068, 1.12154, 83.2545, 77.3029, 129.417, 1.17644, -179.503
0, 1800.00000, 0.0511493, 101.846, 224.628, -30.276, 0.0208443, -105.068, 1.12154, 83.2545, 77.3029, 129.417, 1.17644, -179.503
0, 1860.00000, 0.0327333, 112.628, 224.601, -30.2862, 0.0115359, -139.731, 0.623317, 119.966, 80.0189, 129.486, 0.651078, 145.834
0, 1920.00000, 0.0327259, 112.642, 224.601, -30.2862, 0.0115353, -139.764, 0.623302, 120.001, 80.0191, 129.486, 0.651046, 145.801
0, 1980.00000, 0.0327259, 112.642, 224.601, -30.2862, 0.0115353, -139.764, 0.623301, 120.001, 80.0191, 129.486, 0.651044, 145.801
0, 2040.00000, 0.0327259, 112.642, 224.601, -30.2862, 0.0115353, -139.764, 0.623301, 120.001, 80.0191, 129.486, 0.651044, 145.801
0, 2100.00000, 0.0327259, 112.642, 224.601, -30.2862, 0.0115353, -139.764, 0.623301, 120.001, 80.0191, 129.486, 0.651044, 145.801
0, 2160.00000, 0.0388409, 62.16, 224.622, -30.2785, 0.0123967, -27.8919, 0.67211, 3.48659, 77.9659, 129.433, 0.699667, -102.327
0, 2220.00000, 0.0388367, 62.1479, 224.622, -30.2785, 0.0123961, -27.8643, 0.672102, 3.45861, 77.9657, 129.433, 0.699634, -102.3
0, 2280.00000, 0.0388367, 62.1478, 224.622, -30.2785, 0.0123961, -27.8641, 0.672103, 3.45839, 77.9657, 129.433, 0.699635, -102.3
0, 2340.00000, 0.0388367, 62.1478, 224.622, -30.2785, 0.0123961, -27.8641, 0.672103, 3.45839, 77.9657, 129.433, 0.699635, -102.3
0, 2400.00000, 0.0388367, 62.1478, 224.622, -30.2785, 0.0123961, -27.8641, 0.672103, 3.45839, 77.9657, 129.433, 0.699635, -102.3
0, 2460.00000, 0.0137784, 143.832, 224.609, -30.2835, 0.012746, 145.242, 0.712614, -167.439, 79.2838, 129.467, 0.719368, 70.8065
0, 2520.00000, 0.0137703, 143.885, 224.609, -30.2835, 0.0127536, 145.219, 0.71302, -167.411, 79.2839, 129.467, 0.719802, 70.7832
0, 2580.00000, 0.0137702, 143.885, 224.609, -30.2835, 0.0127537, 145.218, 0.713022, -167.41, 79.2839, 129.467, 0.719804, 70.7829
0, 2640.00000, 0.0137702, 143.885, 224.609, -30.2835, 0.0127537, 145.218, 0.713022, -167.41, 79.2839, 129.467, 0.719804, 70.7828
0, 2700.00000, 0.0137702, 143.885, 224.609, -30.2835, 0.0127537, 145.218, 0.713022, -167.41, 79.2839, 129.467, 0.719804, 70.7828
0, 2760.00000, 0.0280365, 138.901, 224.62, -30.2792, 0.016097, -176.772, 0.876547, 154.569, 78.1481, 129.439, 0.908499, 108.792
0, 2820.00000, 0.0280418, 138.916, 224.62, -30.2792, 0.0161033, -176.777, 0.87687, 154.571, 78.1481, 129.439, 0.908856, 108.788
0, 2880.00000, 0.0280418, 138.916, 224.62, -30.2792, 0.0161033, -176.777, 0.876872, 154.571, 78.1481, 129.439, 0.908859, 108.788
0, 2940.00000, 0.0280418, 138.916, 224.62, -30.2792, 0.0161033, -176.777, 0.876872, 154.571, 78.1481, 129.439, 0.908859, 108.788
0, 3000.00000, 0.0280418, 138.916, 224.62, -30.2792, 0.0161033, -176.777, 0.876872, 154.571, 78.1481, 129.439, 0.908859, 108.788
0, 3060.00000, 0.0116777, 106.005, 224.607, -30.2841, 0.00813273, 129.511, 0.462069, -153.041, 79.464, 129.472, 0.459001, 55.0754
0, 3120.00000, 0.0116836, 105.907, 224.607, -30.2841, 0.00812084, 129.456, 0.461428, -152.996, 79.464, 129.472, 0.45833, 55.0202
0, 3180.00000, 0.0116837, 105.907, 224.607, -30.2841, 0.00812072, 129.456, 0.461421, -152.996, 79.464, 129.472, 0.458323, 55.0201
0, 3240.00000, 0.0116837, 105.907, 224.607, -30.2841, 0.00812072, 129.456, 0.461421, -152.996, 79.464, 129.472, 0.458323, 55.0201
0, 3300.00000, 0.0116837, 105.907, 224.607, -30.2841, 0.00812072, 129.456, 0.461421, -152.996, 79.464, 129.472, 0.458323, 55.0201
0, 3360.00000, 0.0390283, 60.42, 224.609, -30.2833, 0.013165, -24.9336, 0.694905, 0.714603, 79.2526, 129.465, 0.743034, -99.3691
0, 3420.00000, 0.0390461, 60.4278, 224.609, -30.2833, 0.0131739, -24.9702, 0.695386, 0.751125, 79.2526, 129.465, 0.743533, -99.4057
0, 3480.00000, 0.0390462, 60.4279, 224.609, -30.2833, 0.0131739, -24.9706, 0.695388, 0.751539, 79.2526, 129.465, 0.743536, -99.4061
0, 3540.00000, 0.0390462, 60.4279, 224.609, -30.2833, 0.0131739, -24.9706, 0.695388, 0.751543, 79.2526, 129.465, 0.743536, -99.4061
1, 0.00000, 0.0390462, 60.4279, 224.609, -30.2833, 0.0131739, -24.9706, 0.695388, 0.751543, 79.2526, 129.465, 0.743536, -99.4061
1, 60.00000, 0.0122199, 58.189, 224.763, -30.2292, 0.00602362, 72.6321, 0.338752, -97.5178, 64.4382, 129.51, 0.339969, -1.80444
1, 120.00000, 0.0122207, 58.1753, 224.763, -30.2292, 0.00602493, 72.6362, 0.338809, -97.5032, 64.4366, 129.51, 0.340042, -1.80036
1, 180.00000, 0.0122207, 58.1751, 224.763, -30.2292, 0.00602495, 72.6361, 0.33881, -97.503, 64.4366, 129.51, 0.340043, -1.80049
1, 240.00000, 0.0122207, 58.1751, 224.763, -30.2292, 0.00602495, 72.6361, 0.33881, -97.503, 64.4366, 129.51, 0.340043, -1.8005
1, 300.00000, 0.0122207, 58.1751, 224.763, -30.2292, 0.00602495, 72.6361, 0.33881, -97.503, 64.4366, 129.51, 0.340043, -1.8005
1, 360.00000, 0.0424364, 83.7622, 224.759, -30.231, 0.0156976, -74.2841, 0.844039, 51.431, 64.9172, 129.524, 0.885966, -148.719
1, 420.00000, 0.0424492, 83.7917, 224.759, -30.231, 0.015705, -74.321, 0.844514, 51.4835, 64.9171, 129.524, 0.886384, -148.756
1, 480.00000, 0.0424491, 83.7921, 224.759, -30.231, 0.015705, -74.3216, 0.844513, 51.4843, 64.9171, 129.524, 0.886385, -148.757
1, 540.00000, 0.0424491, 83.7922, 224.759, -30.231, 0.015705, -74.3216, 0.844513, 51.4843, 64.9171, 129.524, 0.886385, -148.757
1, 600.00000, 0.0424491, 83.7922, 224.759, -30.231, 0.015705, -74.3216, 0.844513, 51.4843, 64.9171, 129.524, 0.886385, -148.757
1, 660.00000, 0.0317813, 122.005, 224.757, -30.2316, 0.0141134, -143.806, 0.782362, 122.004, 65.0813, 129.529, 0.796551, 141.759
1, 720.00000, 0.0317708, 122, 224.757, -30.2316, 0.0141075, -143.817, 0.781998, 122.013, 65.0814, 129.529, 0.796214, 141.748
1, 780.00000, 0.0317707, 122, 224.757, -30.2316, 0.0141074, -143.817, 0.781993, 122.013, 65.0814, 129.529, 0.79621, 141.748
1, 840.00000, 0.0317707, 122, 224.757, -30.2316, 0.0141074, -143.817, 0.781993, 122.013, 65.0814, 129.529, 0.79621, 141.748
1, 900.00000, 0.0317707, 122, 224.757, -30.2316, 0.0141074, -143.817, 0.781993, 122.013, 65.0814, 129.529, 0.79621, 141.748
1, 960.00000, 0.0427063, 103.574, 224.735, -30.2402, 0.0171713, -108.862, 0.927352, 86.5722, 67.3543, 129.596, 0.969142, 176.703
1, 1020.00000, 0.0427074, 103.605, 224.735, -30.2402, 0.0171784, -108.894, 0.927637, 86.6213, 67.3544, 129.596, 0.96954, 176.671
1, 1080.00000, 0.0427072, 103.606, 224.735, -30.2402, 0.0171784, -108.895, 0.927636, 86.622, 67.3544, 129.596, 0.96954, 176.67
1, 1140.00000, 0.0427072, 103.606, 224.735, -30.2402, 0.0171784, -108.895, 0.927635, 86.622, 67.3544, 129.596, 0.96954, 176.67
1, 1200.00000, 0.0427072, 103.606, 224.735, -30.2402, 0.0171784, -108.895, 0.927635, 86.622, 67.3544, 129.596, 0.96954, 176.67
1, 1260.00000, 0.026244, 97.3589, 224.752, -30.2334, 0.00631719, -117.221, 0.340649, 95.5423, 65.5619, 129.543, 0.356539, 168.344
1, 1320.00000, 0.0262329, 97.3065, 224.752, -30.2334, 0.00630543, -117.183, 0.339857, 95.4543, 65.5618, 129.543, 0.355875, 168.383
1, 1380.00000, 0.026233, 97.3058, 224.752, -30.2334, 0.00630534, -117.182, 0.339851, 95.4525, 65.5618, 129.543, 0.35587, 168.384
1, 1440.00000, 0.026233, 97.3058, 224.752, -30.2334, 0.00630534, -117.182, 0.339851, 95.4525, 65.5618, 129.543, 0.35587, 168.384
1, 1500.00000, 0.026233, 97.3058, 224.752, -30.2334, 0.00630534, -117.182, 0.339852, 95.4525, 65.5618, 129.543, 0.35587, 168.384
1, 1560.00000, 0.0217332, 169.197, 224.756, -30.2321, 0.0180081, 162.209, 0.999601, 175.792, 65.1972, 129.534, 1.01636, 87.7734
1, 1620.00000, 0.0217456, 169.225, 224.756, -30.2321, 0.0180156, 162.211, 1.00018, 175.792, 65.1972, 129.534, 1.01679, 87.7751
1, 1680.00000, 0.0217457, 169.226, 224.756, -30.2321, 0.0180157, 162.21, 1.00019, 175.793, 65.1972, 129.534, 1.01679, 87.775
1, 1740.00000, 0.0217457, 169.226, 224.756, -30.2321, 0.0180157, 162.21, 1.00019, 175.793, 65.1972, 129.534, 1.01679, 87.775
1, 1800.00000, 0.0217457, 169.226, 224.756, -30.2321, 0.0180157, 162.21, 1.00019, 175.793, 65.1972, 129.534, 1.01679, 87.775
1, 1860.00000, 0.0398988, 134.554, 224.753, -30.2333, 0.021147, -150.132, 1.15694, 128.137, 65.535, 129.543, 1.19352, 135.432
1, 1920.00000, 0.0399135, 134.559, 224.753, -30.2333, 0.0211542, -150.124, 1.15747, 128.13, 65.535, 129.543, 1.19393, 135.441
1, 1980.00000, 0.0399137, 134.559, 224.753, -30.2333, 0.0211543, -150.124, 1.15748, 128.13, 65.535, 129.543, 1.19393, 135.441
1, 2040.00000, 0.0399137, 134.559, 224.753, -30.2333, 0.0211543, -150.124, 1.15748, 128.13, 65.535, 129.543, 1.19393, 135.441
1, 2100.00000, 0.0399137, 134.559, 224.753, -30.2333, 0.0211543, -150.124, 1.15748, 128.13, 65.535, 129.543, 1.19393, 135.441
1, 2160.00000, 0.0309974, 107.717, 224.751, -30.2339, 0.0109701, -126.622, 0.592957, 104.308, 65.6925, 129.548, 0.619145, 158.944
1, 2220.00000, 0.030987, 107.694, 224.751, -30.2339, 0.0109631, -126.615, 0.592407, 104.289, 65.6926, 129.548, 0.618749, 158.95
1, 2280.00000, 0.0309869, 107.693, 224.751, -30.2339, 0.010963, -126.615, 0.592403, 104.288, 65.6926, 129.548, 0.618745, 158.95
1, 2340.00000, 0.0309869, 107.693, 224.751, -30.2339, 0.010963, -126.615, 0.592403, 104.288, 65.6926, 129.548, 0.618745, 158.951
1, 2400.00000, 0.0309869, 107.693, 224.751, -30.2339, 0.010963, -126.615, 0.592403, 104.288, 65.6926, 129.548, 0.618745, 158.951
1, 2460.00000, 0.0194236, 136.966, 224.764, -30.2289, 0.0111398, 174.947, 0.616523, 163.403, 64.3614, 129.509, 0.628719, 100.512
1, 2520.00000, 0.0193232, 137.03, 224.764, -30.2289, 0.011134, 174.744, 0.615401, 163.726, 64.3602, 129.508, 0.628393, 100.308
1, 2580.00000, 0.0193221, 137.029, 224.764, -30.2289, 0.0111337, 174.741, 0.615367, 163.729, 64.3602, 129.508, 0.628372, 100.306
1, 2640.00000, 0.019322, 137.029, 224.764, -30.2289, 0.0111337, 174.741, 0.615367, 163.729, 64.3602, 129.508, 0.628372, 100.306
1, 2700.00000, 0.019322, 137.029, 224.764, -30.2289, 0.0111337, 174.741, 0.615367, 163.729, 64.3602, 129.508, 0.628372, 100.306
1, 2760.00000, 0.0192323, 118.456, 224.754, -30.2327, 0.00756049, -177.633, 0.416723, 156.31, 65.355, 129.541, 0.426705, 107.932
1, 2820.00000, 0.01924, 118.448, 224.754, -30.2327, 0.00755971, -177.607, 0.41673, 156.27, 65.3552, 129.541, 0.42666, 107.958
1, 2880.00000, 0.0192401, 118.448, 224.754, -30.2327, 0.00755973, -177.607, 0.416732, 156.27, 65.3552, 129.541, 0.426661, 107.958
1, 2940.00000, 0.0192401, 118.448, 224.754, -30.2327, 0.00755973, -177.607, 0.416732, 156.27, 65.3552, 129.541, 0.426661, 107.958
1, 3000.00000, 0.0192401, 118.448, 224.754, -30.2327, 0.00755973, -177.607, 0.416732, 156.27, 65.3552, 129.541, 0.426661, 107.958
1, 3060.00000, 0.0262435, 160.752, 224.753, -30.2332, 0.0186386, 172.057, 1.03379, 166.128, 65.5077, 129.544, 1.05195, 97.6221
1, 3120.00000, 0.0262548, 160.76, 224.753, -30.2332, 0.018643, 172.068, 1.03418, 166.119, 65.5076, 129.544, 1.0522, 97.6322
1, 3180.00000, 0.0262549, 160.76, 224.753, -30.2332, 0.0186431, 172.068, 1.03419, 166.119, 65.5076, 129.544, 1.0522, 97.6322
1, 3240.00000, 0.0262549, 160.76, 224.753, -30.2332, 0.0186431, 172.068, 1.03419, 166.119, 65.5076, 129.544, 1.0522, 97.6322
1, 3300.00000, 0.0262549, 160.76, 224.753, -30.2332, 0.0186431, 172.068, 1.03419, 166.119, 65.5076, 129.544, 1.0522, 97.6322
1, 3360.00000, 0.0203252, 73.9211, 224.752, -30.2336, 0.00210552, -13.4426, 0.101454, -15.5179, 65.607, 129.546, 0.118841, -87.879
1, 3420.00000, 0.0203505, 73.8621, 224.752, -30.2336, 0.00212105, -13.4418, 0.102579, -15.3438, 65.6071, 129.546, 0.119717, -87.8781
1, 3480.00000, 0.0203509, 73.862, 224.752, -30.2336, 0.00212122, -13.4447, 0.102588, -15.3374, 65.6071, 129.546, 0.119727, -87.8811
1, 3540.00000, 0.0203509, 73.862, 224.752, -30.2336, 0.00212122, -13.4447, 0.102588, -15.3373, 65.6071, 129.546, 0.119727, -87.8811
2, 0.00000, 0.0203509, 73.862, 224.752, -30.2336, 0.00212122, -13.4447, 0.102588, -15.3373, 65.6071, 129.546, 0.119727, -87.8811
2, 60.00000, 0.037325, 133.331, 224.812, -30.2121, 0.0193074, -148.464, 1.07284, 126.165, 59.7507, 129.537, 1.08969, 137.101
2, 120.00000, 0.0373276, 133.347, 224.812, -30.2121, 0.0193097, -148.475, 1.07309, 126.18, 59.7504, 129.537, 1.08983, 137.089
2, 180.00000, 0.0373275, 133.347, 224.812, -30.2121, 0.0193097, -148.476, 1.07309, 126.18, 59.7504, 129.537, 1.08983, 137.089
2, 240.00000, 0.0373275, 133.347, 224.812, -30.2121, 0.0193097, -148.476, 1.07309, 126.18, 59.7504, 129.537, 1.08983, 137.089
2, 300.00000, 0.0373275, 133.347, 224.812, -30.2121, 0.0193097, -148.476, 1.07309, 126.18, 59.7504, 129.537, 1.08983, 137.089
2, 360.00000, 0.012392, 89.4273, 224.815, -30.2112, 0.0030064, 132.683, 0.176229, -153.274, 59.4903, 129.529, 0.169673, 58.2464
2, 420.00000, 0.0123806, 89.4445, 224.815, -30.2112, 0.00301087, 132.719, 0.176646, -153.249, 59.4903, 129.528, 0.169925, 58.2832
2, 480.00000, 0.0123805, 89.4444, 224.815, -30.2112, 0.00301093, 132.719, 0.17665, -153.248, 59.4903, 129.528, 0.169929, 58.2828
2, 540.00000, 0.0123805, 89.4444, 224.815, -30.2112, 0.00301093, 132.719, 0.17665, -153.248, 59.4903, 129.528, 0.169929, 58.2827
2, 600.00000, 0.0123805, 89.4444, 224.815, -30.2112, 0.00301093, 132.719, 0.17665, -153.248, 59.4903, 129.528, 0.169929, 58.2827
2, 660.00000, 0.0263713, 114.364, 224.828, -30.2061, 0.00931892, -140.163, 0.514735, 117.685, 58.1476, 129.483, 0.525953, 145.402
2, 720.00000, 0.0262704, 114.404, 224.828, -30.2061, 0.00929684, -140.344, 0.512276, 117.983, 58.1464, 129.482, 0.524707, 145.221
2, 780.00000, 0.0262693, 114.403, 224.828, -30.2061, 0.00929636, -140.345, 0.512232, 117.984, 58.1464, 129.482, 0.524679, 145.22
2, 840.00000, 0.0262693, 114.403, 224.828, -30.2061, 0.00929635, -140.345, 0.512231, 117.984, 58.1464, 129.482, 0.524679, 145.22
2, 900.00000, 0.0262693, 114.403, 224.828, -30.2061, 0.00929635, -140.345, 0.512231, 117.984, 58.1464, 129.482, 0.524679, 145.22
2, 960.00000, 0.0142641, 84.6925, 224.809, -30.2135, 0.00155862, 121.486, 0.106296, -144.498, 60.1262, 129.549, 0.0879618, 47.0489
2, 1020.00000, 0.0142863, 84.6951, 224.809, -30.2135, 0.00154865, 121.517, 0.105547, -144.624, 60.1262, 129.549, 0.087399, 47.0792
2, 1080.00000, 0.0142865, 84.6957, 224.809, -30.2135, 0.00154855, 121.52, 0.105541, -144.629, 60.1262, 129.549, 0.0873936, 47.0821
2, 1140.00000, 0.0142865, 84.6958, 224.809, -30.2135, 0.00154855, 121.52, 0.105541, -144.629, 60.1262, 129.549, 0.0873936, 47.0822
2, 1200.00000, 0.0142865, 84.6958, 224.809, -30.2135, 0.00154855, 121.52, 0.105541, -144.629, 60.1262, 129.549, 0.0873936, 47.0822
2, 1260.00000, 0.019055, 46.8599, 224.819, -30.2096, 0.00721053, 25.201, 0.402636, -49.7722, 59.084, 129.515, 0.406962, -49.2352
2, 1320.00000, 0.0190534, 46.7175, 224.819, -30.2096, 0.00723467, 25.282, 0.404121, -49.8873, 59.0829, 129.514, 0.408325, -49.1542
2, 1380.00000, 0.0190539, 46.7161, 224.819, -30.2096, 0.00723496, 25.2817, 0.404144, -49.8864, 59.0829, 129.514, 0.408341, -49.1545
2, 1440.00000, 0.0190539, 46.7161, 224.819, -30.2096, 0.00723496, 25.2817, 0.404144, -49.8864, 59.0829, 129.514, 0.408341, -49.1545
2, 1500.00000, 0.0190539, 46.7161, 224.819, -30.2096, 0.00723496, 25.2817, 0.404144, -49.8864, 59.0829, 129.514, 0.408341, -49.1545
2, 1560.00000, 0.0169753, 131.496, 224.818, -30.2101, 0.00893525, 174.824, 0.498252, 163.482, 59.2229, 129.518, 0.504294, 100.389
2, 1620.00000, 0.0169749, 131.548, 224.818, -30.2101, 0.00894058, 174.811, 0.498743, 163.508, 59.2228, 129.518, 0.504596, 100.376
2, 1680.00000, 0.0169748, 131.548, 224.818, -30.2101, 0.00894063, 174.811, 0.498746, 163.509, 59.2228, 129.518, 0.504598, 100.376
2, 1740.00000, 0.0169748, 131.548, 224.818, -30.2101, 0.00894063, 174.811, 0.498746, 163.509, 59.2228, 129.518, 0.504598, 100.375
2, 1800.00000, 0.0169748, 131.548, 224.818, -30.2101, 0.00894063, 174.811, 0.498746, 163.509, 59.2228, 129.518, 0.504598, 100.375
2, 1860.00000, 0.00831759, 97.3881, 224.82, -30.2093, 0.00574905, 120.631, 0.330515, -143.278, 58.9998, 129.512, 0.324468, 46.195
2, 1920.00000, 0.00834973, 97.1486, 224.82, -30.2093, 0.00574618, 120.581, 0.328956, -143.173, 59.0015, 129.512, 0.324306, 46.1447
2, 1980.00000, 0.00835017, 97.1479, 224.82, -30.2093, 0.005746, 120.581, 0.32894, -143.173, 59.0015, 129.512, 0.324296, 46.1445
2, 2040.00000, 0.00835018, 97.1479, 224.82, -30.2093, 0.005746, 120.581, 0.32894, -143.173, 59.0015, 129.512, 0.324295, 46.1445
