hour, t(sec), P1 (kW), Q1 (kvar), P2 (kW), Q2 (kvar)
0, 60.00000, -0.293664, 5.1781E-007, -4.51669E-006, 1.62975E-006
0, 120.00000, -0.293663, -1.62785E-006, -4.51841E-006, 1.62987E-006
0, 180.00000, -0.293663, -1.62986E-006, -4.51841E-006, 1.62987E-006
0, 240.00000, -0.293663, -1.62987E-006, -4.51841E-006, 1.62987E-006
0, 300.00000, -0.293663, -1.62987E-006, -4.51841E-006, 1.62987E-006
0, 360.00000, -0.293652, -1.13309E-005, -1.26378E-005, -5.59946E-007
0, 420.00000, -0.293655, 5.39649E-007, -1.26443E-005, -5.40752E-007
0, 480.00000, -0.293655, 5.40794E-007, -1.26444E-005, -5.40757E-007
0, 540.00000, -0.293655, 5.40757E-007, -1.26444E-005, -5.40757E-007
0, 600.00000, -0.293655, 5.40757E-007, -1.26444E-005, -5.40757E-007
0, 660.00000, -0.293667, -7.81739E-007, 2.05624E-006, 8.44684E-006
0, 720.00000, -0.293669, -8.42647E-006, 2.04964E-006, 8.43424E-006
0, 780.00000, -0.293669, -8.43425E-006, 2.04965E-006, 8.43423E-006
0, 840.00000, -0.293669, -8.43423E-006, 2.04965E-006, 8.43423E-006
0, 900.00000, -0.293669, -8.43423E-006, 2.04965E-006, 8.43423E-006
0, 960.00000, -0.293663, -1.27588E-006, -4.63223E-006, 1.44903E-006
0, 1020.00000, -0.293663, -1.44873E-006, -4.63236E-006, 1.44873E-006
0, 1080.00000, -0.293663, -1.44873E-006, -4.63236E-006, 1.44873E-006
0, 1140.00000, -0.293663, -1.44873E-006, -4.63236E-006, 1.44873E-006
0, 1200.00000, -0.293663, -1.44873E-006, -4.63236E-006, 1.44873E-006
0, 1260.00000, -0.29368, -1.82671E-005, 1.24729E-005, 1.85017E-005
0, 1320.00000, -0.29368, -1.85013E-005, 1.24732E-005, 1.85012E-005
0, 1380.00000, -0.29368, -1.85012E-005, 1.24732E-005, 1.85012E-005
0, 1440.00000, -0.29368, -1.85012E-005, 1.24732E-005, 1.85012E-005
0, 1500.00000, -0.29368, -1.85012E-005, 1.24732E-005, 1.85012E-005
0, 1560.00000, -0.29368, 8.25101E-006, 8.14853E-006, 2.46271E-006
0, 1620.00000, -0.293676, -2.45036E-006, 8.15962E-006, 2.44675E-006
0, 1680.00000, -0.293676, -2.44679E-006, 8.15965E-006, 2.44677E-006
0, 1740.00000, -0.293676, -2.44677E-006, 8.15965E-006, 2.44677E-006
0, 1800.00000, -0.293676, -2.44677E-006, 8.15965E-006, 2.44677E-006
0, 1860.00000, -0.29367, -2.99619E-006, 4.68722E-006, -8.79202E-007
0, 1920.00000, -0.293672, 8.72638E-007, 4.68316E-006, -8.74331E-007
0, 1980.00000, -0.293672, 8.74338E-007, 4.68314E-006, -8.74332E-007
0, 2040.00000, -0.293672, 8.74332E-007, 4.68314E-006, -8.74332E-007
0, 2100.00000, -0.293672, 8.74332E-007, 4.68314E-006, -8.74332E-007
0, 2160.00000, -0.293665, -1.83316E-005, 6.83552E-006, 7.17565E-006
0, 2220.00000, -0.293674, -7.18071E-006, 6.80975E-006, 7.19308E-006
0, 2280.00000, -0.293674, -7.193E-006, 6.8097E-006, 7.19304E-006
0, 2340.00000, -0.293674, -7.19304E-006, 6.8097E-006, 7.19304E-006
0, 2400.00000, -0.293674, -7.19304E-006, 6.8097E-006, 7.19304E-006
0, 2460.00000, -0.293669, 4.33157E-006, 1.47525E-006, -4.31205E-006
0, 2520.00000, -0.293669, 4.3133E-006, 1.47421E-006, -4.31228E-006
0, 2580.00000, -0.293669, 4.31229E-006, 1.47421E-006, -4.31229E-006
0, 2640.00000, -0.293669, 4.31229E-006, 1.47421E-006, -4.31229E-006
0, 2700.00000, -0.293669, 4.31229E-006, 1.47421E-006, -4.31229E-006
0, 2760.00000, -0.293669, 6.95244E-006, 1.37285E-006, -4.29184E-006
0, 2820.00000, -0.293669, 4.29965E-006, 1.3721E-006, -4.29419E-006
0, 2880.00000, -0.293669, 4.29416E-006, 1.37211E-006, -4.29419E-006
0, 2940.00000, -0.293669, 4.29419E-006, 1.37211E-006, -4.29419E-006
0, 3000.00000, -0.293669, 4.29419E-006, 1.37211E-006, -4.29419E-006
0, 3060.00000, -0.29367, 9.25647E-006, 2.69113E-006, -9.05935E-006
0, 3120.00000, -0.29367, 9.05982E-006, 2.69123E-006, -9.05957E-006
0, 3180.00000, -0.29367, 9.05957E-006, 2.69124E-006, -9.05957E-006
0, 3240.00000, -0.29367, 9.05957E-006, 2.69124E-006, -9.05957E-006
0, 3300.00000, -0.29367, 9.05957E-006, 2.69124E-006, -9.05957E-006
0, 3360.00000, -0.293649, 3.19394E-006, -1.73894E-005, 6.2295E-007
0, 3420.00000, -0.29365, -6.04727E-007, -1.73911E-005, 6.14499E-007
0, 3480.00000, -0.29365, -6.14448E-007, -1.73911E-005, 6.14478E-007
0, 3540.00000, -0.29365, -6.14478E-007, -1.73911E-005, 6.14478E-007
1, 0.00000, -0.29365, -6.14478E-007, -1.73911E-005, 6.14478E-007
1, 60.00000, -0.404611, -1.19045E-005, 3.52962E-006, 1.17805E-005
1, 120.00000, -0.404611, -1.178E-005, 3.52861E-006, 1.17815E-005
1, 180.00000, -0.404611, -1.17813E-005, 3.52858E-006, 1.17815E-005
1, 240.00000, -0.404611, -1.17815E-005, 3.52858E-006, 1.17815E-005
1, 300.00000, -0.404611, -1.17815E-005, 3.52858E-006, 1.17815E-005
1, 360.00000, -0.404613, -2.31659E-005, 6.42623E-006, 2.27917E-005
1, 420.00000, -0.404613, -2.27924E-005, 6.42599E-006, 2.27923E-005
1, 480.00000, -0.404614, -2.27922E-005, 6.42597E-006, 2.27923E-005
1, 540.00000, -0.404614, -2.27923E-005, 6.42597E-006, 2.27923E-005
1, 600.00000, -0.404614, -2.27923E-005, 6.42597E-006, 2.27923E-005
1, 660.00000, -0.404611, 1.22612E-005, 4.28826E-006, -1.203E-005
1, 720.00000, -0.404611, 1.2035E-005, 4.28785E-006, -1.20308E-005
1, 780.00000, -0.404611, 1.20307E-005, 4.28787E-006, -1.20308E-005
1, 840.00000, -0.404611, 1.20308E-005, 4.28787E-006, -1.20308E-005
1, 900.00000, -0.404611, 1.20308E-005, 4.28787E-006, -1.20308E-005
1, 960.00000, -0.404603, 3.84367E-006, -3.81909E-006, -3.92708E-006
1, 1020.00000, -0.404603, 3.92338E-006, -3.81858E-006, -3.9266E-006
1, 1080.00000, -0.404603, 3.92661E-006, -3.81859E-006, -3.9266E-006
1, 1140.00000, -0.404603, 3.9266E-006, -3.81859E-006, -3.9266E-006
1, 1200.00000, -0.404603, 3.9266E-006, -3.81859E-006, -3.9266E-006
1, 1260.00000, -0.404606, -7.23321E-006, -1.06702E-006, 7.15518E-006
1, 1320.00000, -0.404606, -7.15413E-006, -1.06746E-006, 7.15523E-006
1, 1380.00000, -0.404606, -7.15518E-006, -1.06746E-006, 7.15523E-006
1, 1440.00000, -0.404606, -7.15523E-006, -1.06746E-006, 7.15523E-006
1, 1500.00000, -0.404606, -7.15523E-006, -1.06746E-006, 7.15523E-006
1, 1560.00000, -0.404614, 1.12963E-006, 7.13831E-006, -9.47519E-007
1, 1620.00000, -0.404614, 9.49257E-007, 7.13829E-006, -9.4787E-007
1, 1680.00000, -0.404614, 9.47833E-007, 7.1383E-006, -9.47871E-007
1, 1740.00000, -0.404614, 9.4787E-007, 7.1383E-006, -9.4787E-007
1, 1800.00000, -0.404614, 9.4787E-007, 7.1383E-006, -9.4787E-007
1, 1860.00000, -0.40461, 1.52033E-005, -2.04511E-006, -1.01773E-005
1, 1920.00000, -0.404605, 1.01937E-005, -2.03272E-006, -1.01839E-005
1, 1980.00000, -0.404605, 1.01841E-005, -2.03271E-006, -1.0184E-005
1, 2040.00000, -0.404605, 1.0184E-005, -2.0327E-006, -1.0184E-005
1, 2100.00000, -0.404605, 1.0184E-005, -2.0327E-006, -1.0184E-005
1, 2160.00000, -0.404602, -1.5691E-006, 6.0355E-007, 7.09468E-007
1, 2220.00000, -0.404608, -6.90506E-007, 5.888E-007, 7.06039E-007
1, 2280.00000, -0.404608, -7.06014E-007, 5.88811E-007, 7.06008E-007
1, 2340.00000, -0.404608, -7.06013E-007, 5.88812E-007, 7.06008E-007
1, 2400.00000, -0.404608, -7.06008E-007, 5.88812E-007, 7.06008E-007
1, 2460.00000, -0.404595, -1.71574E-006, -1.20523E-005, 4.18204E-006
1, 2520.00000, -0.404595, -4.17011E-006, -1.20506E-005, 4.18166E-006
1, 2580.00000, -0.404595, -4.18163E-006, -1.20506E-005, 4.18164E-006
1, 2640.00000, -0.404595, -4.18165E-006, -1.20506E-005, 4.18164E-006
1, 2700.00000, -0.404595, -4.18164E-006, -1.20506E-005, 4.18164E-006
1, 2760.00000, -0.4046, -8.64895E-006, -7.54221E-006, 8.86872E-006
1, 2820.00000, -0.4046, -8.86528E-006, -7.54223E-006, 8.86816E-006
1, 2880.00000, -0.4046, -8.86818E-006, -7.54222E-006, 8.86815E-006
1, 2940.00000, -0.4046, -8.86815E-006, -7.54222E-006, 8.86815E-006
1, 3000.00000, -0.4046, -8.86815E-006, -7.54222E-006, 8.86815E-006
1, 3060.00000, -0.404602, 9.26142E-006, -8.48592E-006, -8.52287E-006
1, 3120.00000, -0.404599, 8.51225E-006, -8.47624E-006, -8.52174E-006
1, 3180.00000, -0.404599, 8.52196E-006, -8.47627E-006, -8.52174E-006
1, 3240.00000, -0.404599, 8.52174E-006, -8.47627E-006, -8.52174E-006
1, 3300.00000, -0.404599, 8.52174E-006, -8.47627E-006, -8.52174E-006
1, 3360.00000, -0.404608, -9.08535E-007, 5.79536E-007, 7.57772E-007
1, 3420.00000, -0.404608, -7.6164E-007, 5.79682E-007, 7.58178E-007
1, 3480.00000, -0.404608, -7.58169E-007, 5.79675E-007, 7.58184E-007
1, 3540.00000, -0.404608, -7.58182E-007, 5.79675E-007, 7.58184E-007
2, 0.00000, -0.404608, -7.58184E-007, 5.79675E-007, 7.58184E-007
2, 60.00000, -0.45279, 7.95941E-006, 1.0198E-005, -8.09212E-006
2, 120.00000, -0.45279, 8.09215E-006, 1.01979E-005, -8.09201E-006
2, 180.00000, -0.45279, 8.09201E-006, 1.01979E-005, -8.09201E-006
2, 240.00000, -0.45279, 8.09201E-006, 1.01979E-005, -8.09201E-006
2, 300.00000, -0.45279, 8.09201E-006, 1.01979E-005, -8.09201E-006
2, 360.00000, -0.452784, -1.29399E-005, 4.2169E-006, 1.32177E-005
2, 420.00000, -0.452784, -1.32175E-005, 4.21731E-006, 1.32174E-005
2, 480.00000, -0.452784, -1.32174E-005, 4.21731E-006, 1.32174E-005
2, 540.00000, -0.452784, -1.32174E-005, 4.21731E-006, 1.32174E-005
2, 600.00000, -0.452784, -1.32174E-005, 4.21731E-006, 1.32174E-005
2, 660.00000, -0.452788, -5.4872E-006, 9.56578E-006, 1.84281E-005
2, 720.00000, -0.452789, -1.8398E-005, 9.56055E-006, 1.8405E-005
2, 780.00000, -0.452789, -1.8405E-005, 9.56056E-006, 1.8405E-005
2, 840.00000, -0.452789, -1.8405E-005, 9.56056E-006, 1.8405E-005
2, 900.00000, -0.452789, -1.8405E-005, 9.56056E-006, 1.8405E-005
2, 960.00000, -0.452784, -1.3261E-005, 4.29834E-006, 1.33561E-005
2, 1020.00000, -0.452784, -1.33561E-005, 4.29856E-006, 1.33558E-005
2, 1080.00000, -0.452784, -1.33558E-005, 4.29856E-006, 1.33558E-005
2, 1140.00000, -0.452784, -1.33558E-005, 4.29856E-006, 1.33558E-005
2, 1200.00000, -0.452784, -1.33558E-005, 4.29856E-006, 1.33558E-005
2, 1260.00000, -0.452803, -1.55864E-006, 2.04858E-005, 2.25998E-006
2, 1320.00000, -0.4528, -2.00439E-006, 2.04941E-005, 2.26072E-006
2, 1380.00000, -0.4528, -2.26035E-006, 2.04942E-005, 2.26075E-006
2, 1440.00000, -0.4528, -2.26075E-006, 2.04942E-005, 2.26075E-006
2, 1500.00000, -0.4528, -2.26075E-006, 2.04942E-005, 2.26075E-006
2, 1560.00000, -0.452784, -1.34887E-005, 4.49906E-006, 1.33868E-005
2, 1620.00000, -0.452784, -1.33868E-005, 4.4989E-006, 1.33871E-005
2, 1680.00000, -0.452784, -1.33871E-005, 4.4989E-006, 1.33871E-005
2, 1740.00000, -0.452784, -1.33871E-005, 4.4989E-006, 1.33871E-005
2, 1800.00000, -0.452784, -1.33871E-005, 4.4989E-006, 1.33871E-005
2, 1860.00000, -0.45277, -5.71649E-006, -4.04462E-006, -4.32992E-006
2, 1920.00000, -0.452775, 4.30944E-006, -4.05654E-006, -4.31008E-006
2, 1980.00000, -0.452775, 4.31009E-006, -4.05656E-006, -4.31009E-006
2, 2040.00000, -0.452775, 4.31009E-006, -4.05656E-006, -4.31009E-006
2, 2100.00000, -0.452775, 4.31009E-006, -4.05656E-006, -4.31009E-006
2, 2160.00000, -0.452773, -4.63074E-006, -8.17615E-006, 9.9838E-006
2, 2220.00000, -0.452771, -9.97132E-006, -8.17271E-006, 9.97356E-006
2, 2280.00000, -0.452771, -9.97356E-006, -8.1727E-006, 9.97356E-006
2, 2340.00000, -0.452771, -9.97356E-006, -8.1727E-006, 9.97356E-006
2, 2400.00000, -0.452771, -9.97356E-006, -8.1727E-006, 9.97356E-006
2, 2460.00000, -0.452782, -2.27657E-006, 1.09535E-006, 9.62905E-007
2, 2520.00000, -0.45278, -9.71398E-007, 1.09885E-006, 9.66885E-007
2, 2580.00000, -0.45278, -9.66906E-007, 1.09886E-006, 9.66901E-007
2, 2640.00000, -0.45278, -9.66901E-007, 1.09886E-006, 9.66901E-007
2, 2700.00000, -0.45278, -9.66901E-007, 1.09886E-006, 9.66901E-007
2, 2760.00000, -0.452782, -1.61088E-005, 2.40226E-006, 2.03691E-005
2, 2820.00000, -0.452782, -2.03594E-005, 2.40374E-006, 2.03616E-005
2, 2880.00000, -0.452782, -2.03616E-005, 2.40376E-006, 2.03616E-005
2, 2940.00000, -0.452782, -2.03616E-005, 2.40376E-006, 2.03616E-005
2, 3000.00000, -0.452782, -2.03616E-005, 2.40376E-006, 2.03616E-005
2, 3060.00000, -0.452783, -1.29717E-005, 4.12613E-006, 1.3237E-005
2, 3120.00000, -0.452783, -1.32359E-005, 4.12595E-006, 1.32369E-005
2, 3180.00000, -0.452783, -1.32369E-005, 4.12594E-006, 1.32369E-005
2, 3240.00000, -0.452783, -1.32369E-005, 4.12594E-006, 1.32369E-005
2, 3300.00000, -0.452783, -1.32369E-005, 4.12594E-006, 1.32369E-005
2, 3360.00000, -0.452775, 4.00593E-006, -4.12627E-006, -4.26762E-006
2, 3420.00000, -0.452775, 4.26626E-006, -4.12593E-006, -4.26739E-006
2, 3480.00000, -0.452775, 4.26738E-006, -4.12593E-006, -4.26739E-006
2, 3540.00000, -0.452775, 4.26739E-006, -4.12593E-006, -4.26739E-006
3, 0.00000, -0.452775, 4.26739E-006, -4.12593E-006, -4.26739E-006
3, 60.00000, -0.309355, 8.03019E-006, -1.88506E-006, -8.00456E-006
3, 120.00000, -0.309355, 8.0044E-006, -1.88512E-006, -8.00452E-006
3, 180.00000, -0.309355, 8.00452E-006, -1.88512E-006, -8.00452E-006
3, 240.00000, -0.309355, 8.00452E-006, -1.88512E-006, -8.00452E-006
3, 300.00000, -0.309355, 8.00452E-006, -1.88512E-006, -8.00452E-006
3, 360.00000, -0.309371, -1.29321E-006, 1.36716E-005, 1.33927E-006
3, 420.00000, -0.309371, -1.33855E-006, 1.36716E-005, 1.33909E-006
3, 480.00000, -0.309371, -1.33909E-006, 1.36716E-005, 1.33909E-006
3, 540.00000, -0.309371, -1.33909E-006, 1.36716E-005, 1.33909E-006
3, 600.00000, -0.309371, -1.33909E-006, 1.36716E-005, 1.33909E-006
3, 660.00000, -0.309348, 1.53278E-006, -8.14688E-006, -1.8963E-006
3, 720.00000, -0.309349, 1.89273E-006, -8.14918E-006, -1.89587E-006
3, 780.00000, -0.309349, 1.89587E-006, -8.14919E-006, -1.89587E-006
3, 840.00000, -0.309349, 1.89587E-006, -8.14919E-006, -1.89587E-006
3, 900.00000, -0.309349, 1.89587E-006, -8.14919E-006, -1.89587E-006
3, 960.00000, -0.309358, -4.05625E-007, 3.4816E-007, 4.54654E-007
3, 1020.00000, -0.309358, -3.39442E-007, 3.47861E-007, 4.54455E-007
3, 1080.00000, -0.309358, -4.54286E-007, 3.47868E-007, 4.54462E-007
3, 1140.00000, -0.309358, -4.54462E-007, 3.47868E-007, 4.54462E-007
3, 1200.00000, -0.309358, -4.54462E-007, 3.47868E-007, 4.54462E-007
3, 1260.00000, -0.309356, -5.50124E-006, -1.05197E-006, 5.2413E-006
3, 1320.00000, -0.309356, -5.2423E-006, -1.05169E-006, 5.24187E-006
3, 1380.00000, -0.309356, -5.24187E-006, -1.05169E-006, 5.24187E-006
3, 1440.00000, -0.309356, -5.24187E-006, -1.05169E-006, 5.24187E-006
3, 1500.00000, -0.309356, -5.24187E-006, -1.05169E-006, 5.24187E-006
3, 1560.00000, -0.309353, -1.53546E-006, -4.58828E-006, 1.69788E-006
3, 1620.00000, -0.309353, -1.6972E-006, -4.58849E-006, 1.69758E-006
3, 1680.00000, -0.309353, -1.69758E-006, -4.58849E-006, 1.69758E-006
3, 1740.00000, -0.309353, -1.69758E-006, -4.58849E-006, 1.69758E-006
3, 1800.00000, -0.309353, -1.69758E-006, -4.58849E-006, 1.69758E-006
3, 1860.00000, -0.309365, -7.54609E-006, 7.41697E-006, 7.53647E-006
3, 1920.00000, -0.309365, -7.53653E-006, 7.41704E-006, 7.53645E-006
3, 1980.00000, -0.309365, -7.53645E-006, 7.41704E-006, 7.53645E-006
3, 2040.00000, -0.309365, -7.53645E-006, 7.41704E-006, 7.53645E-006
3, 2100.00000, -0.309365, -7.53645E-006, 7.41704E-006, 7.53645E-006
3, 2160.00000, -0.309355, 8.08041E-006, -1.91962E-006, -8.06997E-006
3, 2220.00000, -0.309355, 8.07039E-006, -1.91983E-006, -8.06988E-006
3, 2280.00000, -0.309355, 8.06989E-006, -1.91983E-006, -8.06988E-006
3, 2340.00000, -0.309355, 8.06988E-006, -1.91983E-006, -8.06988E-006
3, 2400.00000, -0.309355, 8.06988E-006, -1.91983E-006, -8.06988E-006
3, 2460.00000, -0.309359, 4.39409E-006, 1.70901E-006, -4.42446E-006
3, 2520.00000, -0.309359, 4.42404E-006, 1.70909E-006, -4.42465E-006
3, 2580.00000, -0.309359, 4.42465E-006, 1.70909E-006, -4.42465E-006
3, 2640.00000, -0.309359, 4.42465E-006, 1.70909E-006, -4.42465E-006
3, 2700.00000, -0.309359, 4.42465E-006, 1.70909E-006, -4.42465E-006
3, 2760.00000, -0.309352, -6.64419E-006, -5.94502E-006, 6.63034E-006
3, 2820.00000, -0.309351, -6.63056E-006, -5.94479E-006, 6.63051E-006
3, 2880.00000, -0.309351, -6.63051E-006, -5.94479E-006, 6.63051E-006
3, 2940.00000, -0.309351, -6.63051E-006, -5.94479E-006, 6.63051E-006
3, 3000.00000, -0.309351, -6.63051E-006, -5.94479E-006, 6.63051E-006
3, 3060.00000, -0.309363, 9.45547E-007, 5.29293E-006, -9.03429E-007
3, 3120.00000, -0.309363, 9.04127E-007, 5.29272E-006, -9.03384E-007
3, 3180.00000, -0.309363, 9.0339E-007, 5.29272E-006, -9.03385E-007
3, 3240.00000, -0.309363, 9.03385E-007, 5.29272E-006, -9.03385E-007
3, 3300.00000, -0.309363, 9.03385E-007, 5.29272E-006, -9.03385E-007
3, 3360.00000, -0.309356, -5.24753E-006, -1.1218E-006, 5.22921E-006
3, 3420.00000, -0.309356, -5.2297E-006, -1.12177E-006, 5.22922E-006
3, 3480.00000, -0.309356, -5.22922E-006, -1.12177E-006, 5.22922E-006
3, 3540.00000, -0.309356, -5.22922E-006, -1.12177E-006, 5.22922E-006
4, 0.00000, -0.309356, -4.85634E-006, -1.12181E-006, 5.22926E-006
4, 60.00000, -0.03813, -6.74115E-007, 1.42921E-006, 7.15643E-007
4, 120.00000, -0.03813, -7.15415E-007, 1.42921E-006, 7.15589E-007
4, 180.00000, -0.03813, -7.15589E-007, 1.42922E-006, 7.15588E-007
4, 240.00000, -0.03813, -7.15588E-007, 1.42922E-006, 7.15588E-007
4, 300.00000, -0.03813, -7.15588E-007, 1.42922E-006, 7.15588E-007
4, 360.00000, -0.0381287, 5.78475E-007, 1.10585E-007, -6.09515E-007
4, 420.00000, -0.0381287, 6.0918E-007, 1.10598E-007, -6.09484E-007
4, 480.00000, -0.0381287, 6.09479E-007, 1.10598E-007, -6.09483E-007
4, 540.00000, -0.0381287, 6.09483E-007, 1.10598E-007, -6.09483E-007
4, 600.00000, -0.0381287, 6.09483E-007, 1.10598E-007, -6.09483E-007
4, 660.00000, -0.0381294, -8.80532E-007, 8.04037E-007, 8.81156E-007
4, 720.00000, -0.0381294, -8.81046E-007, 8.0403E-007, 8.81173E-007
4, 780.00000, -0.0381294, -8.8117E-007, 8.0403E-007, 8.81173E-007
4, 840.00000, -0.0381294, -8.81173E-007, 8.0403E-007, 8.81173E-007
4, 900.00000, -0.0381294, -8.81173E-007, 8.0403E-007, 8.81173E-007
4, 960.00000, -0.0381284, -1.13519E-006, -2.12044E-007, 6.00768E-007
4, 1020.00000, -0.0381283, -6.02124E-007, -2.11511E-007, 6.01974E-007
4, 1080.00000, -0.0381283, -6.01973E-007, -2.11511E-007, 6.01975E-007
4, 1140.00000, -0.0381283, -6.20517E-007, -2.11517E-007, 6.01985E-007
4, 1200.00000, -0.0381283, -6.01988E-007, -2.11515E-007, 6.01985E-007
4, 1260.00000, -0.0381278, 8.23951E-008, -6.54647E-007, 1.49043E-007
4, 1320.00000, -0.0381279, -1.47865E-007, -6.54892E-007, 1.4847E-007
4, 1380.00000, -0.0381279, -1.48468E-007, -6.54891E-007, 1.48468E-007
4, 1440.00000, -0.0381279, -1.48468E-007, -6.54891E-007, 1.48468E-007
4, 1500.00000, -0.0381279, -1.48468E-007, -6.54891E-007, 1.48468E-007
4, 1560.00000, -0.0381291, 1.42046E-007, 5.61625E-007, -1.60429E-007
4, 1620.00000, -0.0381291, 1.60389E-007, 5.6162E-007, -1.60385E-007
4, 1680.00000, -0.0381291, 1.60387E-007, 5.6162E-007, -1.60385E-007
4, 1740.00000, -0.0381291, 1.60385E-007, 5.6162E-007, -1.60385E-007
4, 1800.00000, -0.0381291, 1.60385E-007, 5.6162E-007, -1.60385E-007
4, 1860.00000, -0.0381279, -1.50354E-007, -6.61109E-007, 1.6517E-007
4, 1920.00000, -0.0381279, -1.65036E-007, -6.61113E-007, 1.6515E-007
4, 1980.00000, -0.0381279, -1.59758E-007, -6.60837E-007, 1.6527E-007
4, 2040.00000, -0.0381279, -1.70638E-007, -6.61117E-007, 1.65152E-007
4, 2100.00000, -0.0381279, -1.60641E-007, -6.60883E-007, 1.65251E-007
4, 2160.00000, -0.0381279, -2.06152E-007, -5.10249E-007, -4.47688E-007
4, 2220.00000, -0.0381281, 4.53411E-007, -5.09905E-007, -4.46365E-007
4, 2280.00000, -0.038128, 4.48402E-007, -5.09783E-007, -4.46288E-007
4, 2340.00000, -0.038128, 4.47921E-007, -5.09697E-007, -4.46237E-007
4, 2400.00000, -0.0381281, 4.64535E-007, -5.08752E-007, -4.45696E-007
4, 2460.00000, -0.0381289, -4.50992E-007, 3.9764E-007, 4.34989E-007
4, 2520.00000, -0.038129, -4.09422E-007, 3.98745E-007, 4.35486E-007
4, 2580.00000, -0.038129, -4.3556E-007, 3.98721E-007, 4.35507E-007
4, 2640.00000, -0.038129, -4.35499E-007, 3.98721E-007, 4.35507E-007
4, 2700.00000, -0.038129, -4.35504E-007, 3.98721E-007, 4.35507E-007
4, 2760.00000, -0.0381274, 2.99535E-007, -1.09986E-006, -2.83668E-007
4, 2820.00000, -0.0381275, 3.00254E-007, -1.0991E-006, -2.83318E-007
4, 2880.00000, -0.0381275, 2.87441E-007, -1.09891E-006, -2.83216E-007
4, 2940.00000, -0.0381275, 2.93739E-007, -1.09843E-006, -2.82965E-007
4, 3000.00000, -0.0381275, 2.93523E-007, -1.09795E-006, -2.82715E-007
4, 3060.00000, 0.0333334, 1.44368E-006, -2.04417E-008, -1.42031E-006
4, 3120.00000, 0.0333334, 1.40709E-006, -2.17687E-008, -1.42054E-006
4, 3180.00000, 0.0333333, 1.42336E-006, -2.14903E-008, -1.42048E-006
4, 3240.00000, 0.0333334, 1.41092E-006, -2.24003E-008, -1.42065E-006
