hour, t(sec), kWh,State,kWOut,kWIn,kvarOut,DCkW,kWTotalLosses,kWInvLosses,kWIdlingLosses,kWChDchLosses,kWh Chng,InvEff,InverterON,Vref,Vavg (DRC),VV Oper,VW Oper,DRC Oper,VV_DRC Oper,kWDesired,kW VW Limit,Limit kWOut Function,kVA Exceeded,kVA Exceeded,,kVA
0, 60.00000, 2.05667, 1, 0.317021, 0, -1.87782E-005, 0.317021, 0.0517731, 0, 0.0333333, 0.0184397, -4.61, 1, 1, 9999, 9999, 9999, 9999, 9999, 9999, 9999, 9999, 0.317018, 9999, 1.66667, 0
0, 120.00000, 2.05052, 1, 0.317018, 0, -1.53361E-008, 0.317018, 0.0517729, 0, 0.0333333, 0.0184396, -0.00614657, 1, 1, 9999, 9999, 9999, 9999, 9999, 9999, 9999, 9999, 0.317018, 9999, 1.66667, 0
0, 180.00000, 2.04437, 1, 0.317018, 0, 2.2649E-010, 0.317018, 0.0517729, 0, 0.0333333, 0.0184396, -0.00614652, 1, 1, 9999, 9999, 9999, 9999, 9999, 9999, 9999, 9999, 0.317018, 9999, 1.66667, 0
0, 240.00000, 2.03823, 1, 0.317018, 0, 4.94315E-013, 0.317018, 0.0517729, 0, 0.0333333, 0.0184396, -0.00614652, 1, 1, 9999, 9999, 9999, 9999, 9999, 9999, 9999, 9999, 0.317018, 9999, 1.66667, 0
0, 300.00000, 2.03208, 1, 0.317018, 0, -7.48455E-015, 0.317018, 0.0517729, 0, 0.0333333, 0.0184396, -0.00614652, 1, 1, 9999, 9999, 9999, 9999, 9999, 9999, 9999, 9999, 0.317018, 9999, 1.66667, 0
0, 360.00000, 2.02593, 1, 0.317024, 0, -1.6652E-005, 0.317024, 0.0517732, 0, 0.0333333, 0.0184399, -0.00614652, 1, 1, 9999, 9999, 9999, 9999, 9999, 9999, 9999, 9999, 0.317018, 9999, 1.66667, 0
0, 420.00000, 2.01979, 1, 0.317018, 0, 4.36886E-008, 0.317018, 0.0517729, 0, 0.0333333, 0.0184396, -0.00614662, 1, 1, 9999, 9999, 9999, 9999, 9999, 9999, 9999, 9999, 0.317018, 9999, 1.66667, 0
0, 480.00000, 2.01364, 1, 0.317018, 0, 8.24951E-010, 0.317018, 0.0517729, 0, 0.0333333, 0.0184396, -0.00614652, 1, 1, 9999, 9999, 9999, 9999, 9999, 9999, 9999, 9999, 0.317018, 9999, 1.66667, 0
0, 540.00000, 2.00749, 1, 0.317018, 0, -1.76878E-013, 0.317018, 0.0517729, 0, 0.0333333, 0.0184396, -0.00614652, 1, 1, 9999, 9999, 9999, 9999, 9999, 9999, 9999, 9999, 0.317018, 9999, 1.66667, 0
0, 600.00000, 2.00135, 1, 0.317018, 0, -2.92291E-014, 0.317018, 0.0517729, 0, 0.0333333, 0.0184396, -0.00614652, 1, 1, 9999, 9999, 9999, 9999, 9999, 9999, 9999, 9999, 0.317018, 9999, 1.66667, 0
0, 660.00000, 1.9952, 1, 0.317015, 0, 1.59661E-005, 0.317015, 0.0517727, 0, 0.0333333, 0.0184394, -0.00614652, 1, 1, 9999, 9999, 9999, 9999, 9999, 9999, 9999, 9999, 0.317018, 9999, 1.66667, 0
0, 720.00000, 1.98905, 1, 0.317018, 0, -2.84055E-008, 0.317018, 0.0517729, 0, 0.0333333, 0.0184395, -0.00614647, 1, 1, 9999, 9999, 9999, 9999, 9999, 9999, 9999, 9999, 0.317018, 9999, 1.66667, 0
0, 780.00000, 1.98291, 1, 0.317018, 0, -6.95966E-010, 0.317018, 0.0517729, 0, 0.0333333, 0.0184396, -0.00614652, 1, 1, 9999, 9999, 9999, 9999, 9999, 9999, 9999, 9999, 0.317018, 9999, 1.66667, 0
0, 840.00000, 1.97676, 1, 0.317018, 0, 1.09012E-014, 0.317018, 0.0517729, 0, 0.0333333, 0.0184396, -0.00614652, 1, 1, 9999, 9999, 9999, 9999, 9999, 9999, 9999, 9999, 0.317018, 9999, 1.66667, 0
0, 900.00000, 1.97062, 1, 0.317018, 0, 2.44026E-014, 0.317018, 0.0517729, 0, 0.0333333, 0.0184396, -0.00614652, 1, 1, 9999, 9999, 9999, 9999, 9999, 9999, 9999, 9999, 0.317018, 9999, 1.66667, 0
0, 960.00000, 1.96447, 1, 0.317017, 0, 3.21086E-006, 0.317017, 0.0517728, 0, 0.0333333, 0.0184395, -0.00614652, 1, 1, 9999, 9999, 9999, 9999, 9999, 9999, 9999, 9999, 0.317018, 9999, 1.66667, 0
0, 1020.00000, 1.95832, 1, 0.317018, 0, -5.13209E-009, 0.317018, 0.0517729, 0, 0.0333333, 0.0184395, -0.0061465, 1, 1, 9999, 9999, 9999, 9999, 9999, 9999, 9999, 9999, 0.317018, 9999, 1.66667, 0
0, 1080.00000, 1.95218, 1, 0.317018, 0, -1.17162E-010, 0.317018, 0.0517729, 0, 0.0333333, 0.0184396, -0.00614652, 1, 1, 9999, 9999, 9999, 9999, 9999, 9999, 9999, 9999, 0.317018, 9999, 1.66667, 0
0, 1140.00000, 1.94603, 1, 0.317018, 0, 4.07015E-015, 0.317018, 0.0517729, 0, 0.0333333, 0.0184396, -0.00614652, 1, 1, 9999, 9999, 9999, 9999, 9999, 9999, 9999, 9999, 0.317018, 9999, 1.66667, 0
0, 1200.00000, 1.93988, 1, 0.317018, 0, 4.11428E-015, 0.317018, 0.0517729, 0, 0.0333333, 0.0184396, -0.00614652, 1, 1, 9999, 9999, 9999, 9999, 9999, 9999, 9999, 9999, 0.317018, 9999, 1.66667, 0
0, 1260.00000, 1.93374, 1, 0.317019, 0, -4.83925E-006, 0.317019, 0.0517729, 0, 0.0333333, 0.0184396, -0.00614652, 1, 1, 9999, 9999, 9999, 9999, 9999, 9999, 9999, 9999, 0.317018, 9999, 1.66667, 0
0, 1320.00000, 1.92759, 1, 0.317018, 0, -1.76693E-009, 0.317018, 0.0517729, 0, 0.0333333, 0.0184396, -0.00614654, 1, 1, 9999, 9999, 9999, 9999, 9999, 9999, 9999, 9999, 0.317018, 9999, 1.66667, 0
0, 1380.00000, 1.92144, 1, 0.317018, 0, 1.59914E-010, 0.317018, 0.0517729, 0, 0.0333333, 0.0184396, -0.00614652, 1, 1, 9999, 9999, 9999, 9999, 9999, 9999, 9999, 9999, 0.317018, 9999, 1.66667, 0
0, 1440.00000, 1.9153, 1, 0.317018, 0, 3.40327E-013, 0.317018, 0.0517729, 0, 0.0333333, 0.0184396, -0.00614652, 1, 1, 9999, 9999, 9999, 9999, 9999, 9999, 9999, 9999, 0.317018, 9999, 1.66667, 0
0, 1500.00000, 1.90915, 1, 0.317018, 0, -4.82452E-015, 0.317018, 0.0517729, 0, 0.0333333, 0.0184396, -0.00614652, 1, 1, 9999, 9999, 9999, 9999, 9999, 9999, 9999, 9999, 0.317018, 9999, 1.66667, 0
0, 1560.00000, 1.903, 1, 0.316993, 0, 7.76001E-006, 0.316993, 0.0517716, 0, 0.0333333, 0.0184382, -0.00614652, 1, 1, 9999, 9999, 9999, 9999, 9999, 9999, 9999, 9999, 0.317018, 9999, 1.66667, 0
0, 1620.00000, 1.89686, 1, 0.317018, 0, -1.64852E-007, 0.317018, 0.0517729, 0, 0.0333333, 0.0184395, -0.00614607, 1, 1, 9999, 9999, 9999, 9999, 9999, 9999, 9999, 9999, 0.317018, 9999, 1.66667, 0
0, 1680.00000, 1.89071, 1, 0.317018, 0, -8.76767E-010, 0.317018, 0.0517729, 0, 0.0333333, 0.0184396, -0.00614652, 1, 1, 9999, 9999, 9999, 9999, 9999, 9999, 9999, 9999, 0.317018, 9999, 1.66667, 0
0, 1740.00000, 1.88456, 1, 0.317018, 0, 4.16352E-012, 0.317018, 0.0517729, 0, 0.0333333, 0.0184396, -0.00614652, 1, 1, 9999, 9999, 9999, 9999, 9999, 9999, 9999, 9999, 0.317018, 9999, 1.66667, 0
0, 1800.00000, 1.87842, 1, 0.317018, 0, 3.57859E-014, 0.317018, 0.0517729, 0, 0.0333333, 0.0184396, -0.00614652, 1, 1, 9999, 9999, 9999, 9999, 9999, 9999, 9999, 9999, 0.317018, 9999, 1.66667, 0
0, 1860.00000, 1.87227, 1, 0.317007, 0, -3.25036E-006, 0.317007, 0.0517723, 0, 0.0333333, 0.018439, -0.00614652, 1, 1, 9999, 9999, 9999, 9999, 9999, 9999, 9999, 9999, 0.317018, 9999, 1.66667, 0
0, 1920.00000, 1.86613, 1, 0.317018, 0, -7.34655E-008, 0.317018, 0.0517729, 0, 0.0333333, 0.0184396, -0.00614633, 1, 1, 9999, 9999, 9999, 9999, 9999, 9999, 9999, 9999, 0.317018, 9999, 1.66667, 0
0, 1980.00000, 1.85998, 1, 0.317018, 0, 1.27205E-010, 0.317018, 0.0517729, 0, 0.0333333, 0.0184396, -0.00614652, 1, 1, 9999, 9999, 9999, 9999, 9999, 9999, 9999, 9999, 0.317018, 9999, 1.66667, 0
0, 2040.00000, 1.85383, 1, 0.317018, 0, 2.8973E-012, 0.317018, 0.0517729, 0, 0.0333333, 0.0184396, -0.00614652, 1, 1, 9999, 9999, 9999, 9999, 9999, 9999, 9999, 9999, 0.317018, 9999, 1.66667, 0
0, 2100.00000, 1.84769, 1, 0.317018, 0, 4.56689E-016, 0.317018, 0.0517729, 0, 0.0333333, 0.0184396, -0.00614652, 1, 1, 9999, 9999, 9999, 9999, 9999, 9999, 9999, 9999, 0.317018, 9999, 1.66667, 0
0, 2160.00000, 1.84154, 1, 0.31703, 0, -2.05498E-006, 0.31703, 0.0517735, 0, 0.0333333, 0.0184402, -0.00614652, 1, 1, 9999, 9999, 9999, 9999, 9999, 9999, 9999, 9999, 0.317018, 9999, 1.66667, 0
0, 2220.00000, 1.83539, 1, 0.317018, 0, 6.173E-008, 0.317018, 0.0517729, 0, 0.0333333, 0.0184396, -0.00614672, 1, 1, 9999, 9999, 9999, 9999, 9999, 9999, 9999, 9999, 0.317018, 9999, 1.66667, 0
0, 2280.00000, 1.82925, 1, 0.317018, 0, 1.29936E-010, 0.317018, 0.0517729, 0, 0.0333333, 0.0184396, -0.00614652, 1, 1, 9999, 9999, 9999, 9999, 9999, 9999, 9999, 9999, 0.317018, 9999, 1.66667, 0
0, 2340.00000, 1.8231, 1, 0.317018, 0, -1.96692E-012, 0.317018, 0.0517729, 0, 0.0333333, 0.0184396, -0.00614652, 1, 1, 9999, 9999, 9999, 9999, 9999, 9999, 9999, 9999, 0.317018, 9999, 1.66667, 0
0, 2400.00000, 1.81695, 1, 0.317018, 0, -7.36193E-015, 0.317018, 0.0517729, 0, 0.0333333, 0.0184396, -0.00614652, 1, 1, 9999, 9999, 9999, 9999, 9999, 9999, 9999, 9999, 0.317018, 9999, 1.66667, 0
0, 2460.00000, 1.81081, 1, 0.317016, 0, 1.89193E-006, 0.317016, 0.0517728, 0, 0.0333333, 0.0184395, -0.00614652, 1, 1, 9999, 9999, 9999, 9999, 9999, 9999, 9999, 9999, 0.317018, 9999, 1.66667, 0
0, 2520.00000, 1.80466, 1, 0.317018, 0, -1.11866E-008, 0.317018, 0.0517729, 0, 0.0333333, 0.0184395, -0.00614648, 1, 1, 9999, 9999, 9999, 9999, 9999, 9999, 9999, 9999, 0.317018, 9999, 1.66667, 0
0, 2580.00000, 1.79851, 1, 0.317018, 0, -8.74331E-011, 0.317018, 0.0517729, 0, 0.0333333, 0.0184396, -0.00614652, 1, 1, 9999, 9999, 9999, 9999, 9999, 9999, 9999, 9999, 0.317018, 9999, 1.66667, 0
0, 2640.00000, 1.79237, 1, 0.317018, 0, 2.39667E-013, 0.317018, 0.0517729, 0, 0.0333333, 0.0184396, -0.00614652, 1, 1, 9999, 9999, 9999, 9999, 9999, 9999, 9999, 9999, 0.317018, 9999, 1.66667, 0
0, 2700.00000, 1.78622, 1, 0.317018, 0, 3.59572E-015, 0.317018, 0.0517729, 0, 0.0333333, 0.0184396, -0.00614652, 1, 1, 9999, 9999, 9999, 9999, 9999, 9999, 9999, 9999, 0.317018, 9999, 1.66667, 0
0, 2760.00000, 1.78007, 1, 0.317034, 0, 1.31362E-005, 0.317034, 0.0517737, 0, 0.0333333, 0.0184404, -0.00614652, 1, 1, 9999, 9999, 9999, 9999, 9999, 9999, 9999, 9999, 0.317018, 9999, 1.66667, 0
0, 2820.00000, 1.77393, 1, 0.317018, 0, 1.40334E-007, 0.317018, 0.0517729, 0, 0.0333333, 0.0184395, -0.00614679, 1, 1, 9999, 9999, 9999, 9999, 9999, 9999, 9999, 9999, 0.317018, 9999, 1.66667, 0
0, 2880.00000, 1.76778, 1, 0.317018, 0, -2.65207E-010, 0.317018, 0.0517729, 0, 0.0333333, 0.0184396, -0.00614652, 1, 1, 9999, 9999, 9999, 9999, 9999, 9999, 9999, 9999, 0.317018, 9999, 1.66667, 0
0, 2940.00000, 1.76163, 1, 0.317018, 0, -5.33862E-012, 0.317018, 0.0517729, 0, 0.0333333, 0.0184396, -0.00614652, 1, 1, 9999, 9999, 9999, 9999, 9999, 9999, 9999, 9999, 0.317018, 9999, 1.66667, 0
0, 3000.00000, 1.75549, 1, 0.317018, 0, 1.71709E-015, 0.317018, 0.0517729, 0, 0.0333333, 0.0184396, -0.00614652, 1, 1, 9999, 9999, 9999, 9999, 9999, 9999, 9999, 9999, 0.317018, 9999, 1.66667, 0
0, 3060.00000, 1.74934, 1, 0.317021, 0, -4.82735E-007, 0.317021, 0.051773, 0, 0.0333333, 0.0184397, -0.00614652, 1, 1, 9999, 9999, 9999, 9999, 9999, 9999, 9999, 9999, 0.317018, 9999, 1.66667, 0
0, 3120.00000, 1.74319, 1, 0.317018, 0, 2.04049E-008, 0.317018, 0.0517729, 0, 0.0333333, 0.0184396, -0.00614656, 1, 1, 9999, 9999, 9999, 9999, 9999, 9999, 9999, 9999, 0.317018, 9999, 1.66667, 0
0, 3180.00000, 1.73705, 1, 0.317018, 0, 4.84574E-011, 0.317018, 0.0517729, 0, 0.0333333, 0.0184396, -0.00614652, 1, 1, 9999, 9999, 9999, 9999, 9999, 9999, 9999, 9999, 0.317018, 9999, 1.66667, 0
0, 3240.00000, 1.7309, 1, 0.317018, 0, -6.42453E-013, 0.317018, 0.0517729, 0, 0.0333333, 0.0184396, -0.00614652, 1, 1, 9999, 9999, 9999, 9999, 9999, 9999, 9999, 9999, 0.317018, 9999, 1.66667, 0
0, 3300.00000, 1.72475, 1, 0.317018, 0, -2.99487E-015, 0.317018, 0.0517729, 0, 0.0333333, 0.0184396, -0.00614652, 1, 1, 9999, 9999, 9999, 9999, 9999, 9999, 9999, 9999, 0.317018, 9999, 1.66667, 0
0, 3360.00000, 1.71861, 1, 0.317035, 0, -2.49603E-005, 0.317035, 0.0517738, 0, 0.0333333, 0.0184404, -0.00614652, 1, 1, 9999, 9999, 9999, 9999, 9999, 9999, 9999, 9999, 0.317018, 9999, 1.66667, 0
0, 3420.00000, 1.71246, 1, 0.317018, 0, 9.95077E-008, 0.317018, 0.0517729, 0, 0.0333333, 0.0184396, -0.00614681, 1, 1, 9999, 9999, 9999, 9999, 9999, 9999, 9999, 9999, 0.317018, 9999, 1.66667, 0
0, 3480.00000, 1.70631, 1, 0.317018, 0, 1.22874E-009, 0.317018, 0.0517729, 0, 0.0333333, 0.0184396, -0.00614652, 1, 1, 9999, 9999, 9999, 9999, 9999, 9999, 9999, 9999, 0.317018, 9999, 1.66667, 0
0, 3540.00000, 1.70017, 1, 0.317018, 0, -1.69128E-012, 0.317018, 0.0517729, 0, 0.0333333, 0.0184396, -0.00614652, 1, 1, 9999, 9999, 9999, 9999, 9999, 9999, 9999, 9999, 0.317018, 9999, 1.66667, 0
1, 0.00000, 1.69402, 1, 0.317018, 0, -4.66331E-014, 0.317018, 0.0517729, 0, 0.0333333, 0.0184396, -0.00614652, 1, 1, 9999, 9999, 9999, 9999, 9999, 9999, 9999, 9999, 0.317018, 9999, 1.66667, 0
1, 60.00000, 1.68788, 1, 0.303226, 0, -2.85854E-005, 0.303226, 0.051047, 0, 0.0333333, 0.0177137, -0.00614652, 1, 1, 9999, 9999, 9999, 9999, 9999, 9999, 9999, 9999, 0.303242, 9999, 1.66667, 0
1, 120.00000, 1.68197, 1, 0.303242, 0, -3.67768E-007, 0.303242, 0.0510478, 0, 0.0333333, 0.0177145, -0.00590456, 1, 1, 9999, 9999, 9999, 9999, 9999, 9999, 9999, 9999, 0.303242, 9999, 1.66667, 0
1, 180.00000, 1.67607, 1, 0.303242, 0, 4.76882E-009, 0.303242, 0.0510478, 0, 0.0333333, 0.0177145, -0.00590483, 1, 1, 9999, 9999, 9999, 9999, 9999, 9999, 9999, 9999, 0.303242, 9999, 1.66667, 0
1, 240.00000, 1.67016, 1, 0.303242, 0, 1.56603E-010, 0.303242, 0.0510478, 0, 0.0333333, 0.0177145, -0.00590482, 1, 1, 9999, 9999, 9999, 9999, 9999, 9999, 9999, 9999, 0.303242, 9999, 1.66667, 0
1, 300.00000, 1.66426, 1, 0.303242, 0, -9.36508E-013, 0.303242, 0.0510478, 0, 0.0333333, 0.0177145, -0.00590482, 1, 1, 9999, 9999, 9999, 9999, 9999, 9999, 9999, 9999, 0.303242, 9999, 1.66667, 0
1, 360.00000, 1.65835, 1, 0.303233, 0, -1.10137E-005, 0.303233, 0.0510473, 0, 0.0333333, 0.017714, -0.00590482, 1, 1, 9999, 9999, 9999, 9999, 9999, 9999, 9999, 9999, 0.303242, 9999, 1.66667, 0
1, 420.00000, 1.65245, 1, 0.303242, 0, -2.406E-007, 0.303242, 0.0510478, 0, 0.0333333, 0.0177145, -0.00590467, 1, 1, 9999, 9999, 9999, 9999, 9999, 9999, 9999, 9999, 0.303242, 9999, 1.66667, 0
1, 480.00000, 1.64654, 1, 0.303242, 0, 2.51959E-009, 0.303242, 0.0510478, 0, 0.0333333, 0.0177145, -0.00590483, 1, 1, 9999, 9999, 9999, 9999, 9999, 9999, 9999, 9999, 0.303242, 9999, 1.66667, 0
1, 540.00000, 1.64064, 1, 0.303242, 0, 1.06569E-010, 0.303242, 0.0510478, 0, 0.0333333, 0.0177145, -0.00590482, 1, 1, 9999, 9999, 9999, 9999, 9999, 9999, 9999, 9999, 0.303242, 9999, 1.66667, 0
1, 600.00000, 1.63473, 1, 0.303242, 0, -3.32936E-013, 0.303242, 0.0510478, 0, 0.0333333, 0.0177145, -0.00590482, 1, 1, 9999, 9999, 9999, 9999, 9999, 9999, 9999, 9999, 0.303242, 9999, 1.66667, 0
1, 660.00000, 1.62883, 1, 0.303253, 0, 1.09129E-006, 0.303253, 0.0510484, 0, 0.0333333, 0.0177151, -0.00590482, 1, 1, 9999, 9999, 9999, 9999, 9999, 9999, 9999, 9999, 0.303242, 9999, 1.66667, 0
1, 720.00000, 1.62292, 1, 0.303242, 0, 2.53637E-007, 0.303242, 0.0510478, 0, 0.0333333, 0.0177145, -0.00590502, 1, 1, 9999, 9999, 9999, 9999, 9999, 9999, 9999, 9999, 0.303242, 9999, 1.66667, 0
1, 780.00000, 1.61702, 1, 0.303242, 0, 1.18141E-009, 0.303242, 0.0510478, 0, 0.0333333, 0.0177145, -0.00590482, 1, 1, 9999, 9999, 9999, 9999, 9999, 9999, 9999, 9999, 0.303242, 9999, 1.66667, 0
1, 840.00000, 1.61111, 1, 0.303242, 0, -8.97182E-011, 0.303242, 0.0510478, 0, 0.0333333, 0.0177145, -0.00590482, 1, 1, 9999, 9999, 9999, 9999, 9999, 9999, 9999, 9999, 0.303242, 9999, 1.66667, 0
1, 900.00000, 1.60521, 1, 0.303242, 0, -9.63987E-013, 0.303242, 0.0510478, 0, 0.0333333, 0.0177145, -0.00590482, 1, 1, 9999, 9999, 9999, 9999, 9999, 9999, 9999, 9999, 0.303242, 9999, 1.66667, 0
1, 960.00000, 1.5993, 1, 0.303236, 0, 2.83042E-006, 0.303236, 0.0510475, 0, 0.0333333, 0.0177142, -0.00590482, 1, 1, 9999, 9999, 9999, 9999, 9999, 9999, 9999, 9999, 0.303242, 9999, 1.66667, 0
1, 1020.00000, 1.5934, 1, 0.303242, 0, -1.11058E-007, 0.303242, 0.0510478, 0, 0.0333333, 0.0177145, -0.00590473, 1, 1, 9999, 9999, 9999, 9999, 9999, 9999, 9999, 9999, 0.303242, 9999, 1.66667, 0
1, 1080.00000, 1.58749, 1, 0.303242, 0, -1.6965E-009, 0.303242, 0.0510478, 0, 0.0333333, 0.0177145, -0.00590482, 1, 1, 9999, 9999, 9999, 9999, 9999, 9999, 9999, 9999, 0.303242, 9999, 1.66667, 0
1, 1140.00000, 1.58159, 1, 0.303242, 0, 3.02512E-011, 0.303242, 0.0510478, 0, 0.0333333, 0.0177145, -0.00590482, 1, 1, 9999, 9999, 9999, 9999, 9999, 9999, 9999, 9999, 0.303242, 9999, 1.66667, 0
1, 1200.00000, 1.57568, 1, 0.303242, 0, 7.72958E-013, 0.303242, 0.0510478, 0, 0.0333333, 0.0177145, -0.00590482, 1, 1, 9999, 9999, 9999, 9999, 9999, 9999, 9999, 9999, 0.303242, 9999, 1.66667, 0
1, 1260.00000, 1.56978, 1, 0.30324, 0, -4.71342E-006, 0.30324, 0.0510477, 0, 0.0333333, 0.0177144, -0.00590482, 1, 1, 9999, 9999, 9999, 9999, 9999, 9999, 9999, 9999, 0.303242, 9999, 1.66667, 0
1, 1320.00000, 1.56387, 1, 0.303242, 0, -5.37543E-008, 0.303242, 0.0510478, 0, 0.0333333, 0.0177145, -0.0059048, 1, 1, 9999, 9999, 9999, 9999, 9999, 9999, 9999, 9999, 0.303242, 9999, 1.66667, 0
1, 1380.00000, 1.55797, 1, 0.303242, 0, 1.45136E-009, 0.303242, 0.0510478, 0, 0.0333333, 0.0177145, -0.00590483, 1, 1, 9999, 9999, 9999, 9999, 9999, 9999, 9999, 9999, 0.303242, 9999, 1.66667, 0
1, 1440.00000, 1.55206, 1, 0.303242, 0, 2.78179E-011, 0.303242, 0.0510478, 0, 0.0333333, 0.0177145, -0.00590482, 1, 1, 9999, 9999, 9999, 9999, 9999, 9999, 9999, 9999, 0.303242, 9999, 1.66667, 0
1, 1500.00000, 1.54616, 1, 0.303242, 0, -3.76206E-013, 0.303242, 0.0510478, 0, 0.0333333, 0.0177145, -0.00590482, 1, 1, 9999, 9999, 9999, 9999, 9999, 9999, 9999, 9999, 0.303242, 9999, 1.66667, 0
1, 1560.00000, 1.54026, 1, 0.303246, 0, 9.01879E-007, 0.303246, 0.051048, 0, 0.0333333, 0.0177147, -0.00590482, 1, 1, 9999, 9999, 9999, 9999, 9999, 9999, 9999, 9999, 0.303242, 9999, 1.66667, 0
1, 1620.00000, 1.53435, 1, 0.303242, 0, 9.875E-008, 0.303242, 0.0510478, 0, 0.0333333, 0.0177145, -0.0059049, 1, 1, 9999, 9999, 9999, 9999, 9999, 9999, 9999, 9999, 0.303242, 9999, 1.66667, 0
1, 1680.00000, 1.52845, 1, 0.303242, 0, 1.27263E-010, 0.303242, 0.0510478, 0, 0.0333333, 0.0177145, -0.00590482, 1, 1, 9999, 9999, 9999, 9999, 9999, 9999, 9999, 9999, 0.303242, 9999, 1.66667, 0
1, 1740.00000, 1.52254, 1, 0.303242, 0, -3.43461E-011, 0.303242, 0.0510478, 0, 0.0333333, 0.0177145, -0.00590482, 1, 1, 9999, 9999, 9999, 9999, 9999, 9999, 9999, 9999, 0.303242, 9999, 1.66667, 0
1, 1800.00000, 1.51664, 1, 0.303242, 0, -2.29571E-013, 0.303242, 0.0510478, 0, 0.0333333, 0.0177145, -0.00590482, 1, 1, 9999, 9999, 9999, 9999, 9999, 9999, 9999, 9999, 0.303242, 9999, 1.66667, 0
1, 1860.00000, 1.51073, 1, 0.303244, 0, -2.49748E-005, 0.303244, 0.0510479, 0, 0.0333333, 0.0177146, -0.00590482, 1, 1, 9999, 9999, 9999, 9999, 9999, 9999, 9999, 9999, 0.303242, 9999, 1.66667, 0
1, 1920.00000, 1.50483, 1, 0.303242, 0, 7.98437E-008, 0.303242, 0.0510478, 0, 0.0333333, 0.0177145, -0.00590487, 1, 1, 9999, 9999, 9999, 9999, 9999, 9999, 9999, 9999, 0.303242, 9999, 1.66667, 0
1, 1980.00000, 1.49892, 1, 0.303242, 0, 8.29359E-009, 0.303242, 0.0510478, 0, 0.0333333, 0.0177145, -0.00590483, 1, 1, 9999, 9999, 9999, 9999, 9999, 9999, 9999, 9999, 0.303242, 9999, 1.66667, 0
1, 2040.00000, 1.49302, 1, 0.303242, 0, 1.31641E-011, 0.303242, 0.0510478, 0, 0.0333333, 0.0177145, -0.00590482, 1, 1, 9999, 9999, 9999, 9999, 9999, 9999, 9999, 9999, 0.303242, 9999, 1.66667, 0
1, 2100.00000, 1.48711, 1, 0.303242, 0, -2.95608E-012, 0.303242, 0.0510478, 0, 0.0333333, 0.0177145, -0.00590482, 1, 1, 9999, 9999, 9999, 9999, 9999, 9999, 9999, 9999, 0.303242, 9999, 1.66667, 0
1, 2160.00000, 1.48121, 1, 0.303255, 0, -1.65622E-005, 0.303255, 0.0510485, 0, 0.0333333, 0.0177152, -0.00590482, 1, 1, 9999, 9999, 9999, 9999, 9999, 9999, 9999, 9999, 0.303242, 9999, 1.66667, 0
1, 2220.00000, 1.4753, 1, 0.303242, 0, 3.22123E-007, 0.303242, 0.0510478, 0, 0.0333333, 0.0177145, -0.00590505, 1, 1, 9999, 9999, 9999, 9999, 9999, 9999, 9999, 9999, 0.303242, 9999, 1.66667, 0
1, 2280.00000, 1.4694, 1, 0.303242, 0, 7.13756E-009, 0.303242, 0.0510478, 0, 0.0333333, 0.0177145, -0.00590483, 1, 1, 9999, 9999, 9999, 9999, 9999, 9999, 9999, 9999, 0.303242, 9999, 1.66667, 0
1, 2340.00000, 1.46349, 1, 0.303242, 0, -7.94957E-011, 0.303242, 0.0510478, 0, 0.0333333, 0.0177145, -0.00590482, 1, 1, 9999, 9999, 9999, 9999, 9999, 9999, 9999, 9999, 0.303242, 9999, 1.66667, 0
1, 2400.00000, 1.45759, 1, 0.303242, 0, -3.06411E-012, 0.303242, 0.0510478, 0, 0.0333333, 0.0177145, -0.00590482, 1, 1, 9999, 9999, 9999, 9999, 9999, 9999, 9999, 9999, 0.303242, 9999, 1.66667, 0
1, 2460.00000, 1.45168, 1, 0.303248, 0, -1.08003E-005, 0.303248, 0.0510481, 0, 0.0333333, 0.0177148, -0.00590482, 1, 1, 9999, 9999, 9999, 9999, 9999, 9999, 9999, 9999, 0.303242, 9999, 1.66667, 0
