hour, t(sec), P1 (kW), Q1 (kvar), P2 (kW), Q2 (kvar)
0, 60.00000, -0.388388, 2.96914E-006, -1.08145E-007, -4.1601E-008
0, 120.00000, -0.388386, 3.92763E-008, -1.08085E-007, -4.15803E-008
0, 180.00000, -0.388386, 4.15774E-008, -1.08085E-007, -4.15801E-008
0, 240.00000, -0.388386, 4.15802E-008, -1.08085E-007, -4.15801E-008
0, 300.00000, -0.388386, 4.15801E-008, -1.08085E-007, -4.15801E-008
0, 360.00000, -0.388394, 1.30003E-006, -1.48679E-008, 1.81276E-007
0, 420.00000, -0.388386, -2.07262E-007, -1.43555E-008, 1.80786E-007
0, 480.00000, -0.388386, -1.80798E-007, -1.43545E-008, 1.80787E-007
0, 540.00000, -0.388386, -1.80787E-007, -1.43545E-008, 1.80787E-007
0, 600.00000, -0.388386, -1.80787E-007, -1.43545E-008, 1.80787E-007
0, 660.00000, -0.388383, -7.38277E-006, 2.5292E-007, -1.58995E-007
0, 720.00000, -0.388386, 1.66976E-007, 2.52917E-007, -1.58508E-007
0, 780.00000, -0.388386, 1.58517E-007, 2.52916E-007, -1.58508E-007
0, 840.00000, -0.388386, 1.58508E-007, 2.52916E-007, -1.58508E-007
0, 900.00000, -0.388386, 1.58508E-007, 2.52916E-007, -1.58508E-007
0, 960.00000, -0.388386, -2.13602E-007, -6.41427E-009, -2.80805E-008
0, 1020.00000, -0.388386, 2.85779E-008, -6.41428E-009, -2.8069E-008
0, 1080.00000, -0.388386, 2.80687E-008, -6.41429E-009, -2.8069E-008
0, 1140.00000, -0.388386, 2.8069E-008, -6.41429E-009, -2.8069E-008
0, 1200.00000, -0.388386, 2.8069E-008, -6.41429E-009, -2.8069E-008
0, 1260.00000, -0.388385, 1.52268E-007, -8.44794E-009, -1.77079E-008
0, 1320.00000, -0.388386, 1.79587E-008, -8.46587E-009, -1.76985E-008
0, 1380.00000, -0.388386, 1.76969E-008, -8.46589E-009, -1.76985E-008
0, 1440.00000, -0.388386, 1.76985E-008, -8.46589E-009, -1.76985E-008
0, 1500.00000, -0.388386, 1.76985E-008, -8.46589E-009, -1.76985E-008
0, 1560.00000, -0.388378, 2.26835E-006, 1.24845E-007, -8.75662E-008
0, 1620.00000, -0.388386, 1.1367E-007, 1.24236E-007, -8.72791E-008
0, 1680.00000, -0.388386, 8.72743E-008, 1.24235E-007, -8.72801E-008
0, 1740.00000, -0.388386, 8.728E-008, 1.24235E-007, -8.72801E-008
0, 1800.00000, -0.388386, 8.72801E-008, 1.24235E-007, -8.72801E-008
0, 1860.00000, -0.388388, -2.43397E-006, 7.09202E-008, -1.59379E-008
0, 1920.00000, -0.388386, 8.76074E-009, 7.11109E-008, -1.60447E-008
0, 1980.00000, -0.388386, 1.60281E-008, 7.11114E-008, -1.60445E-008
0, 2040.00000, -0.388386, 1.60444E-008, 7.11114E-008, -1.60445E-008
0, 2100.00000, -0.388386, 1.60445E-008, 7.11114E-008, -1.60445E-008
0, 2160.00000, -0.3884, -7.485E-006, -1.35541E-007, -1.13359E-007
0, 2220.00000, -0.388386, 7.28767E-008, -1.3441E-007, -1.13444E-007
0, 2280.00000, -0.388386, 1.13425E-007, -1.34409E-007, -1.13442E-007
0, 2340.00000, -0.388386, 1.13442E-007, -1.34409E-007, -1.13442E-007
0, 2400.00000, -0.388386, 1.13442E-007, -1.34409E-007, -1.13442E-007
0, 2460.00000, -0.388386, -6.89682E-007, -2.63041E-007, -7.66214E-008
0, 2520.00000, -0.388386, 7.57701E-008, -2.63012E-007, -7.65981E-008
0, 2580.00000, -0.388386, 7.65996E-008, -2.63012E-007, -7.65981E-008
0, 2640.00000, -0.388386, 7.65981E-008, -2.63012E-007, -7.65981E-008
0, 2700.00000, -0.388386, 7.65981E-008, -2.63012E-007, -7.65981E-008
0, 2760.00000, -0.388385, -6.30145E-007, 2.85554E-008, -1.02818E-007
0, 2820.00000, -0.388386, 1.0677E-007, 2.85541E-008, -1.02742E-007
0, 2880.00000, -0.388386, 1.02783E-007, 2.85537E-008, -1.02742E-007
0, 2940.00000, -0.388386, 1.02742E-007, 2.85537E-008, -1.02742E-007
0, 3000.00000, -0.388386, 1.02742E-007, 2.85537E-008, -1.02742E-007
0, 3060.00000, -0.388386, -4.5666E-008, -6.03767E-008, 2.71753E-008
0, 3120.00000, -0.388386, -2.64684E-008, -6.03829E-008, 2.71806E-008
0, 3180.00000, -0.388386, -2.71763E-008, -6.03829E-008, 2.71806E-008
0, 3240.00000, -0.388386, -2.71806E-008, -6.03829E-008, 2.71806E-008
0, 3300.00000, -0.388386, -2.71806E-008, -6.03829E-008, 2.71806E-008
0, 3360.00000, -0.38838, -1.24162E-006, -1.75172E-007, -2.07063E-007
0, 3420.00000, -0.388386, 2.00993E-007, -1.75277E-007, -2.06809E-007
0, 3480.00000, -0.388386, 2.0684E-007, -1.75278E-007, -2.06809E-007
0, 3540.00000, -0.388386, 2.06809E-007, -1.75278E-007, -2.06809E-007
1, 0.00000, -0.388386, 2.06809E-007, -1.75278E-007, -2.06809E-007
1, 60.00000, -0.256702, 5.24513E-007, 4.21977E-008, -1.03743E-008
1, 120.00000, -0.256701, 3.95205E-009, 4.22197E-008, -1.03855E-008
1, 180.00000, -0.256701, 1.03212E-008, 4.222E-008, -1.03851E-008
1, 240.00000, -0.256701, 1.03875E-008, 4.222E-008, -1.03851E-008
1, 300.00000, -0.256701, 1.03851E-008, 4.222E-008, -1.03851E-008
1, 360.00000, -0.256701, 2.0806E-007, -6.3591E-008, -2.34559E-008
1, 420.00000, -0.256701, 1.93103E-008, -6.35828E-008, -2.34644E-008
1, 480.00000, -0.256701, 2.34099E-008, -6.35826E-008, -2.34642E-008
1, 540.00000, -0.256701, 2.34655E-008, -6.35826E-008, -2.34642E-008
1, 600.00000, -0.256701, 2.34642E-008, -6.35826E-008, -2.34642E-008
1, 660.00000, -0.2567, -1.74486E-007, -1.3958E-008, -1.58193E-007
1, 720.00000, -0.256701, 1.59994E-007, -1.39565E-008, -1.5818E-007
1, 780.00000, -0.256701, 1.58261E-007, -1.39568E-008, -1.5818E-007
1, 840.00000, -0.256701, 1.5818E-007, -1.39568E-008, -1.5818E-007
1, 900.00000, -0.256701, 1.5818E-007, -1.39568E-008, -1.5818E-007
1, 960.00000, -0.256701, 2.51703E-007, -6.22763E-008, -2.4596E-008
1, 1020.00000, -0.256701, 2.4856E-008, -6.22809E-008, -2.46061E-008
1, 1080.00000, -0.256701, 2.45661E-008, -6.22807E-008, -2.46061E-008
1, 1140.00000, -0.256701, 2.46058E-008, -6.22807E-008, -2.46061E-008
1, 1200.00000, -0.256701, 2.46061E-008, -6.22807E-008, -2.46061E-008
1, 1260.00000, -0.256701, 8.92558E-009, -1.43314E-007, -7.79582E-008
1, 1320.00000, -0.2567, 7.63231E-008, -1.43307E-007, -7.79565E-008
1, 1380.00000, -0.2567, 7.79501E-008, -1.43307E-007, -7.79564E-008
1, 1440.00000, -0.2567, 7.79569E-008, -1.43307E-007, -7.79564E-008
1, 1500.00000, -0.2567, 7.79564E-008, -1.43307E-007, -7.79564E-008
1, 1560.00000, -0.256701, 4.54871E-008, 8.72741E-008, -1.44574E-007
1, 1620.00000, -0.256701, 1.45473E-007, 8.72723E-008, -1.44569E-007
1, 1680.00000, -0.256701, 1.44597E-007, 8.72722E-008, -1.44569E-007
1, 1740.00000, -0.256701, 1.44569E-007, 8.72722E-008, -1.44569E-007
1, 1800.00000, -0.256701, 1.44569E-007, 8.72722E-008, -1.44569E-007
1, 1860.00000, -0.256698, 1.61316E-006, -6.28271E-008, -2.70941E-008
1, 1920.00000, -0.2567, 2.42659E-008, -6.30576E-008, -2.71124E-008
1, 1980.00000, -0.256701, 2.71898E-008, -6.30579E-008, -2.71121E-008
1, 2040.00000, -0.256701, 2.71145E-008, -6.30579E-008, -2.71121E-008
1, 2100.00000, -0.256701, 2.71121E-008, -6.30579E-008, -2.71121E-008
1, 2160.00000, -0.2567, -4.52123E-006, -8.5415E-008, -7.04488E-008
1, 2220.00000, -0.2567, 6.5541E-008, -8.52413E-008, -7.02517E-008
1, 2280.00000, -0.2567, 7.03832E-008, -8.52416E-008, -7.02513E-008
1, 2340.00000, -0.2567, 7.02528E-008, -8.52416E-008, -7.02513E-008
1, 2400.00000, -0.2567, 7.02512E-008, -8.52416E-008, -7.02513E-008
1, 2460.00000, -0.256702, 1.3835E-006, 6.48514E-008, -1.04209E-007
1, 2520.00000, -0.256701, 1.02822E-007, 6.48343E-008, -1.04237E-007
1, 2580.00000, -0.256701, 1.04347E-007, 6.4834E-008, -1.04237E-007
1, 2640.00000, -0.256701, 1.04239E-007, 6.4834E-008, -1.04237E-007
1, 2700.00000, -0.256701, 1.04237E-007, 6.4834E-008, -1.04237E-007
1, 2760.00000, -0.2567, -2.53159E-007, -3.85795E-008, 1.77102E-007
1, 2820.00000, -0.256701, -1.76864E-007, -3.85829E-008, 1.77111E-007
1, 2880.00000, -0.256701, -1.7707E-007, -3.8583E-008, 1.77111E-007
1, 2940.00000, -0.256701, -1.7711E-007, -3.8583E-008, 1.77111E-007
1, 3000.00000, -0.256701, -1.77111E-007, -3.8583E-008, 1.77111E-007
1, 3060.00000, -0.256701, 2.54877E-006, -1.18965E-007, -2.45623E-008
1, 3120.00000, -0.2567, 2.02273E-008, -1.19084E-007, -2.46828E-008
1, 3180.00000, -0.2567, 2.45333E-008, -1.19084E-007, -2.46827E-008
1, 3240.00000, -0.2567, 2.4684E-008, -1.19084E-007, -2.46827E-008
1, 3300.00000, -0.2567, 2.46827E-008, -1.19084E-007, -2.46827E-008
1, 3360.00000, -0.256701, 1.47835E-007, 6.02052E-008, -9.28137E-009
1, 3420.00000, -0.256701, 9.58684E-009, 6.02054E-008, -9.28808E-009
1, 3480.00000, -0.256701, 9.24563E-009, 6.02055E-008, -9.28812E-009
1, 3540.00000, -0.256701, 9.2878E-009, 6.02055E-008, -9.28812E-009
2, 0.00000, -0.256701, 9.28813E-009, 6.02055E-008, -9.28812E-009
2, 60.00000, -0.201797, -1.4229E-007, 8.13345E-008, 7.63821E-008
2, 120.00000, -0.201797, -7.65457E-008, 8.13361E-008, 7.63813E-008
2, 180.00000, -0.201797, -7.63815E-008, 8.13361E-008, 7.63813E-008
2, 240.00000, -0.201797, -7.63813E-008, 8.13361E-008, 7.63813E-008
2, 300.00000, -0.201797, -7.63813E-008, 8.13361E-008, 7.63813E-008
2, 360.00000, -0.201796, -3.37753E-008, -6.10914E-008, 6.41244E-008
2, 420.00000, -0.201796, -6.404E-008, -6.10972E-008, 6.41258E-008
2, 480.00000, -0.201796, -6.41262E-008, -6.10972E-008, 6.41258E-008
2, 540.00000, -0.201796, -6.41258E-008, -6.10972E-008, 6.41258E-008
2, 600.00000, -0.201796, -6.41258E-008, -6.10972E-008, 6.41258E-008
2, 660.00000, -0.201793, -4.12479E-006, -1.18105E-007, 7.40767E-009
2, 720.00000, -0.201796, -6.61812E-009, -1.18215E-007, 7.67803E-009
2, 780.00000, -0.201796, -7.67646E-009, -1.18216E-007, 7.67806E-009
2, 840.00000, -0.201796, -7.67806E-009, -1.18216E-007, 7.67806E-009
2, 900.00000, -0.201796, -7.67806E-009, -1.18216E-007, 7.67806E-009
2, 960.00000, -0.201796, 8.1253E-009, 5.3955E-008, 3.71551E-008
2, 1020.00000, -0.201796, -3.69862E-008, 5.39513E-008, 3.71572E-008
2, 1080.00000, -0.201796, -3.71567E-008, 5.39513E-008, 3.71572E-008
2, 1140.00000, -0.201796, -3.71572E-008, 5.39513E-008, 3.71572E-008
2, 1200.00000, -0.201796, -3.71572E-008, 5.39513E-008, 3.71572E-008
2, 1260.00000, -0.201797, 1.78296E-006, -1.78492E-008, -5.05829E-008
2, 1320.00000, -0.201796, 1.65999E-007, -1.79174E-008, -5.06362E-008
2, 1380.00000, -0.201796, 5.0828E-008, -1.79175E-008, -5.06365E-008
2, 1440.00000, -0.201796, 5.06366E-008, -1.79175E-008, -5.06365E-008
2, 1500.00000, -0.201796, 5.06365E-008, -1.79175E-008, -5.06365E-008
2, 1560.00000, -0.201797, -9.56601E-008, 6.76364E-008, 4.13652E-008
2, 1620.00000, -0.201796, -4.15929E-008, 6.76396E-008, 4.13632E-008
2, 1680.00000, -0.201796, -4.13642E-008, 6.76396E-008, 4.13632E-008
2, 1740.00000, -0.201796, -4.13632E-008, 6.76396E-008, 4.13632E-008
2, 1800.00000, -0.201796, -4.13632E-008, 6.76396E-008, 4.13632E-008
2, 1860.00000, -0.2018, 1.03099E-006, -1.06016E-007, 5.193E-008
2, 1920.00000, -0.201796, -5.41249E-008, -1.05762E-007, 5.17981E-008
2, 1980.00000, -0.201796, -5.17972E-008, -1.05762E-007, 5.17982E-008
2, 2040.00000, -0.201796, -5.17982E-008, -1.05762E-007, 5.17982E-008
2, 2100.00000, -0.201796, -5.17982E-008, -1.05762E-007, 5.17982E-008
2, 2160.00000, -0.201795, -1.09415E-006, -1.59005E-008, -4.49965E-008
2, 2220.00000, -0.201796, 4.506E-008, -1.60084E-008, -4.49249E-008
2, 2280.00000, -0.201796, 4.49237E-008, -1.60085E-008, -4.49249E-008
2, 2340.00000, -0.201796, 4.49249E-008, -1.60085E-008, -4.49249E-008
2, 2400.00000, -0.201796, 4.49249E-008, -1.60085E-008, -4.49249E-008
2, 2460.00000, -0.201797, 6.9647E-007, -4.08422E-008, -1.29736E-008
2, 2520.00000, -0.201796, 1.26554E-008, -4.08562E-008, -1.30229E-008
2, 2580.00000, -0.201796, 1.30093E-008, -4.08561E-008, -1.3023E-008
2, 2640.00000, -0.201796, 1.30229E-008, -4.08561E-008, -1.3023E-008
2, 2700.00000, -0.201796, 1.3023E-008, -4.08561E-008, -1.3023E-008
2, 2760.00000, -0.201795, -5.35516E-007, 3.27729E-008, -4.18291E-008
2, 2820.00000, -0.201796, 4.42268E-008, 3.2705E-008, -4.17595E-008
2, 2880.00000, -0.201796, 4.17765E-008, 3.27048E-008, -4.17595E-008
2, 2940.00000, -0.201796, 4.17596E-008, 3.27048E-008, -4.17595E-008
2, 3000.00000, -0.201796, 4.17595E-008, 3.27048E-008, -4.17595E-008
2, 3060.00000, -0.201796, -1.24836E-007, -3.91979E-008, 1.05066E-007
2, 3120.00000, -0.201796, -1.05016E-007, -3.91969E-008, 1.05069E-007
2, 3180.00000, -0.201796, -1.05068E-007, -3.91969E-008, 1.05069E-007
2, 3240.00000, -0.201796, -1.05069E-007, -3.91969E-008, 1.05069E-007
2, 3300.00000, -0.201796, -1.05069E-007, -3.91969E-008, 1.05069E-007
2, 3360.00000, -0.201796, 4.0765E-008, 1.28841E-008, 2.86454E-008
2, 3420.00000, -0.201796, -2.8619E-008, 1.28817E-008, 2.86415E-008
2, 3480.00000, -0.201796, -2.8643E-008, 1.28817E-008, 2.86415E-008
2, 3540.00000, -0.201796, -2.86415E-008, 1.28817E-008, 2.86415E-008
3, 0.00000, -0.201796, -2.86415E-008, 1.28817E-008, 2.86415E-008
3, 60.00000, -0.316163, 6.76975E-008, -7.17648E-008, -2.73383E-008
3, 120.00000, -0.316163, 2.76067E-008, -7.17623E-008, -2.73385E-008
3, 180.00000, -0.316163, 2.73378E-008, -7.17623E-008, -2.73385E-008
3, 240.00000, -0.316163, 2.73385E-008, -7.17623E-008, -2.73385E-008
3, 300.00000, -0.316163, 2.73385E-008, -7.17623E-008, -2.73385E-008
3, 360.00000, -0.316163, 6.78818E-008, 5.71663E-009, -1.44711E-007
3, 420.00000, -0.316163, 1.44234E-007, 5.71296E-009, -1.44708E-007
3, 480.00000, -0.316163, 1.44711E-007, 5.71293E-009, -1.44708E-007
3, 540.00000, -0.316163, 1.44708E-007, 5.71293E-009, -1.44708E-007
3, 600.00000, -0.316163, 1.44708E-007, 5.71293E-009, -1.44708E-007
3, 660.00000, -0.316164, -4.11249E-007, -7.59926E-009, -1.93518E-008
3, 720.00000, -0.316163, 1.9481E-008, -7.54905E-009, -1.93577E-008
3, 780.00000, -0.316163, 1.93199E-008, -7.54871E-009, -1.93578E-008
3, 840.00000, -0.316163, 1.93576E-008, -7.54871E-009, -1.93577E-008
3, 900.00000, -0.316163, 1.93578E-008, -7.54871E-009, -1.93577E-008
3, 960.00000, -0.316163, -9.43019E-008, 5.82086E-008, -6.48171E-009
3, 1020.00000, -0.316163, 1.24119E-007, 5.82138E-008, -6.47403E-009
3, 1080.00000, -0.316163, 6.67833E-009, 5.82138E-008, -6.47425E-009
3, 1140.00000, -0.316163, 6.47432E-009, 5.82138E-008, -6.47425E-009
3, 1200.00000, -0.316163, 6.47425E-009, 5.82138E-008, -6.47425E-009
3, 1260.00000, -0.316163, 2.43662E-007, 5.31156E-008, -1.30307E-008
3, 1320.00000, -0.316163, 1.27026E-008, 5.31146E-008, -1.30466E-008
3, 1380.00000, -0.316163, 1.30421E-008, 5.31147E-008, -1.30466E-008
3, 1440.00000, -0.316163, 1.30466E-008, 5.31147E-008, -1.30466E-008
3, 1500.00000, -0.316163, 1.30466E-008, 5.31147E-008, -1.30466E-008
3, 1560.00000, -0.316163, -3.04454E-007, 1.11001E-007, 1.16518E-007
3, 1620.00000, -0.316163, -1.16338E-007, 1.11003E-007, 1.16526E-007
3, 1680.00000, -0.316163, -1.16524E-007, 1.11003E-007, 1.16526E-007
3, 1740.00000, -0.316163, -1.16526E-007, 1.11003E-007, 1.16526E-007
3, 1800.00000, -0.316163, -1.16526E-007, 1.11003E-007, 1.16526E-007
3, 1860.00000, -0.316163, 1.80098E-007, 3.25849E-008, -8.39184E-008
3, 1920.00000, -0.316163, 8.42039E-008, 3.25836E-008, -8.39186E-008
3, 1980.00000, -0.316163, 8.39209E-008, 3.25836E-008, -8.39186E-008
3, 2040.00000, -0.316163, 8.39186E-008, 3.25836E-008, -8.39186E-008
3, 2100.00000, -0.316163, 8.39186E-008, 3.25836E-008, -8.39186E-008
3, 2160.00000, -0.316163, -6.83616E-008, 1.25704E-007, -5.52886E-009
3, 2220.00000, -0.316163, 5.32692E-009, 1.2571E-007, -5.52883E-009
3, 2280.00000, -0.316163, 5.52922E-009, 1.2571E-007, -5.52882E-009
3, 2340.00000, -0.316163, 5.52883E-009, 1.2571E-007, -5.52882E-009
3, 2400.00000, -0.316163, 5.52882E-009, 1.2571E-007, -5.52882E-009
3, 2460.00000, -0.316163, 4.51897E-008, -1.07817E-008, -3.03663E-008
3, 2520.00000, -0.316163, 3.06652E-008, -1.07864E-008, -3.03624E-008
3, 2580.00000, -0.316163, 3.03628E-008, -1.07864E-008, -3.03624E-008
3, 2640.00000, -0.316163, 3.03624E-008, -1.07864E-008, -3.03624E-008
3, 2700.00000, -0.316163, 3.03624E-008, -1.07864E-008, -3.03624E-008
3, 2760.00000, -0.316163, -2.40824E-008, 5.89687E-009, 3.41802E-008
3, 2820.00000, -0.316163, -3.46277E-008, 5.89307E-009, 3.41733E-008
3, 2880.00000, -0.316163, -3.41788E-008, 5.8931E-009, 3.41732E-008
3, 2940.00000, -0.316163, -3.41733E-008, 5.8931E-009, 3.41732E-008
3, 3000.00000, -0.316163, -3.41732E-008, 5.8931E-009, 3.41732E-008
3, 3060.00000, -0.316163, -5.01925E-008, 6.13762E-008, -2.62262E-008
3, 3120.00000, -0.316163, 2.59168E-008, 6.13824E-008, -2.62255E-008
3, 3180.00000, -0.316163, 2.62267E-008, 6.13824E-008, -2.62255E-008
3, 3240.00000, -0.316163, 2.62255E-008, 6.13824E-008, -2.62255E-008
3, 3300.00000, -0.316163, 2.62255E-008, 6.13824E-008, -2.62255E-008
3, 3360.00000, -0.316163, -9.30194E-008, -1.07507E-007, 8.4476E-008
3, 3420.00000, -0.316163, -8.45601E-008, -1.07508E-007, 8.44758E-008
3, 3480.00000, -0.316163, -8.44792E-008, -1.07508E-007, 8.44757E-008
3, 3540.00000, -0.316163, -8.44758E-008, -1.07508E-007, 8.44757E-008
4, 0.00000, -0.316163, 3.15089E-007, -1.0751E-007, 8.4479E-008
4, 60.00000, -0.0647413, 4.58885E-008, -1.45873E-008, -2.09444E-009
4, 120.00000, -0.0647413, 2.48102E-009, -1.45881E-008, -2.09233E-009
4, 180.00000, -0.0647413, 2.10174E-009, -1.45881E-008, -2.0923E-009
4, 240.00000, -0.0647413, 2.09245E-009, -1.45881E-008, -2.0923E-009
4, 300.00000, -0.0647413, 2.0923E-009, -1.45881E-008, -2.0923E-009
4, 360.00000, -0.0647413, 4.18794E-008, -5.06863E-009, -1.38336E-008
4, 420.00000, -0.0647413, 1.41062E-008, -5.06891E-009, -1.38348E-008
4, 480.00000, -0.0647413, 1.38337E-008, -5.06893E-009, -1.38348E-008
4, 540.00000, -0.0647413, 1.38347E-008, -5.06893E-009, -1.38348E-008
4, 600.00000, -0.0647413, 1.38348E-008, -5.06893E-009, -1.38348E-008
4, 660.00000, -0.0647414, -3.02142E-008, 2.12782E-008, 1.41733E-008
4, 720.00000, -0.0647413, -1.43867E-008, 2.12788E-008, 1.41726E-008
4, 780.00000, -0.0647413, -1.41752E-008, 2.12788E-008, 1.41726E-008
4, 840.00000, -0.0647413, -1.41726E-008, 2.12788E-008, 1.41726E-008
4, 900.00000, -0.0647413, -1.41726E-008, 2.12788E-008, 1.41726E-008
4, 960.00000, -0.0647424, 1.01008E-006, 2.87673E-008, -3.34255E-008
4, 1020.00000, -0.0647414, 3.31278E-008, 2.87807E-008, -3.34821E-008
4, 1080.00000, -0.0647414, 3.34828E-008, 2.87807E-008, -3.34821E-008
4, 1140.00000, -0.0647413, -3.35916E-009, 2.87813E-008, -3.34826E-008
4, 1200.00000, -0.0647414, 3.34813E-008, 2.87812E-008, -3.34827E-008
4, 1260.00000, -0.0647409, -4.32847E-007, 6.27151E-009, 1.27899E-008
4, 1320.00000, -0.0647413, -1.2204E-008, 6.26786E-009, 1.28136E-008
4, 1380.00000, -0.0647413, -1.27957E-008, 6.26782E-009, 1.28137E-008
4, 1440.00000, -0.0647413, -1.28134E-008, 6.26782E-009, 1.28137E-008
4, 1500.00000, -0.0647413, -1.28137E-008, 6.26782E-009, 1.28137E-008
4, 1560.00000, -0.0647413, 3.82452E-008, -5.87293E-009, -2.88546E-008
4, 1620.00000, -0.0647413, 2.86148E-008, -5.87211E-009, -2.88562E-008
4, 1680.00000, -0.0647413, 2.88522E-008, -5.8721E-009, -2.88562E-008
4, 1740.00000, -0.0647413, 2.88562E-008, -5.8721E-009, -2.88562E-008
4, 1800.00000, -0.0647413, 2.88562E-008, -5.8721E-009, -2.88562E-008
4, 1860.00000, -0.0647414, -2.16696E-008, 1.70244E-008, 2.29905E-009
4, 1920.00000, -0.0647413, -2.37117E-009, 1.70244E-008, 2.29976E-009
4, 1980.00000, -0.0647414, 1.02474E-008, 1.70134E-008, 2.29037E-009
4, 2040.00000, -0.0647413, -1.47761E-008, 1.70246E-008, 2.29981E-009
4, 2100.00000, -0.0647414, 8.19007E-009, 1.70152E-008, 2.29192E-009
4, 2160.00000, -0.0647419, 6.14156E-007, 1.51508E-010, -3.5417E-008
4, 2220.00000, -0.0647414, 5.9093E-008, 1.67746E-010, -3.54647E-008
4, 2280.00000, -0.0647413, 4.05979E-008, 1.63207E-010, -3.54685E-008
4, 2340.00000, -0.0647413, 4.03784E-008, 1.60038E-010, -3.54708E-008
4, 2400.00000, -0.0647414, 9.01859E-008, 1.25045E-010, -3.54954E-008
4, 2460.00000, -0.0647413, 3.25541E-008, -2.20263E-008, 8.39553E-009
4, 2520.00000, -0.0647414, 6.07437E-008, -2.20705E-008, 8.34806E-009
4, 2580.00000, -0.0647413, -8.47116E-009, -2.2069E-008, 8.34754E-009
4, 2640.00000, -0.0647413, -8.3261E-009, -2.2069E-008, 8.34753E-009
4, 2700.00000, -0.0647413, -8.34046E-009, -2.2069E-008, 8.34752E-009
4, 2760.00000, -0.0647413, 1.02343E-008, -9.33222E-009, -2.61558E-008
4, 2820.00000, -0.0647414, 6.46544E-008, -9.35656E-009, -2.61739E-008
4, 2880.00000, -0.0647413, 3.56505E-008, -9.36222E-009, -2.61788E-008
4, 2940.00000, -0.0647413, 5.03258E-008, -9.37709E-009, -2.61915E-008
4, 3000.00000, -0.0647413, 5.04208E-008, -9.39175E-009, -2.62041E-008
4, 3060.00000, -0.0647413, -4.45066E-009, -3.08332E-008, 1.87926E-008
4, 3120.00000, -0.0647414, 2.21916E-008, -3.08866E-008, 1.87243E-008
4, 3180.00000, -0.0647413, -2.75147E-008, -3.08733E-008, 1.87388E-008
