hour, t(sec), P1 (kW), Q1 (kvar), P2 (kW), Q2 (kvar), P3 (kW), Q3 (kvar), P4 (kW), Q4 (kvar)
1, 0.00000, -0.287567, -0.116799, -0.287562, -0.116922, -0.287603, -0.116898, 3.67958E-009, -3.27539E-009
2, 0.00000, -0.23162, -0.0991453, -0.23162, -0.0991431, -0.231615, -0.0991401, 2.89248E-009, -1.62832E-009
3, 0.00000, -0.204512, -0.0907108, -0.204499, -0.0907234, -0.204504, -0.0907348, 1.89912E-009, -1.38237E-009
4, 0.00000, -0.177386, -0.0878343, -0.177378, -0.087846, -0.177382, -0.0878528, 1.38134E-009, -1.01455E-009
5, 0.00000, -0.181773, -0.0915331, -0.181776, -0.091534, -0.181773, -0.0915278, 1.63983E-009, -9.31475E-010
6, 0.00000, -0.189572, -0.105629, -0.189582, -0.105628, -0.189575, -0.105612, 2.19402E-009, -1.13184E-009
7, 0.00000, -0.223878, -0.133831, -0.223875, -0.133841, -0.223875, -0.133839, 3.92048E-009, -2.50762E-009
8, 0.00000, -0.431412, -0.149309, -0.431342, -0.149314, -0.431345, -0.149329, 1.56556E-008, -9.652E-009
9, 0.00000, 0.0289487, -0.152926, 0.0289601, -0.152925, 0.0289572, -0.152932, 2.04207E-010, -6.87717E-010
10, 0.00000, 0.228603, -0.157351, 0.228616, -0.157346, 0.228617, -0.157356, -1.06305E-009, -1.75113E-009
11, 0.00000, 1.05433, -0.158307, 1.05436, -0.158352, 1.05438, -0.158362, -9.15046E-008, -1.17962E-008
12, 0.00000, 1.09741, -0.157204, 1.09743, -0.157255, 1.09746, -0.157213, -1.01543E-007, -1.34413E-008
13, 0.00000, 0.781135, -0.157902, 0.781147, -0.15793, 0.781166, -0.157904, -3.86872E-008, -9.33862E-009
14, 0.00000, 0.0461425, -0.16102, 0.0461292, -0.161026, 0.0461345, -0.161013, 4.0499E-010, -7.22893E-010
15, 0.00000, -0.340332, -0.167723, -0.340332, -0.167731, -0.340326, -0.167726, 8.81346E-009, -5.99134E-009
16, 0.00000, -0.59405, -0.184286, -0.594047, -0.184309, -0.594032, -0.184293, 4.10289E-008, -2.12479E-008
17, 0.00000, -0.685279, -0.214267, -0.685273, -0.214298, -0.685252, -0.214276, 6.67513E-008, -3.44763E-008
18, 0.00000, -0.759327, -0.238598, -0.759331, -0.238639, -0.759306, -0.238615, 9.41247E-008, -4.89244E-008
19, 0.00000, -0.788511, -0.24819, -0.788507, -0.248234, -0.788476, -0.248203, 1.072E-007, -5.61549E-008
20, 0.00000, -0.80538, -0.253735, -0.805372, -0.253779, -0.805341, -0.253747, 1.15279E-007, -6.07376E-008
21, 0.00000, -0.75406, -0.247256, -0.754137, -0.247314, -0.754096, -0.247254, 9.48566E-008, -4.83585E-008
22, 0.00000, -0.721682, -0.22623, -0.721668, -0.226263, -0.721644, -0.226237, 7.97493E-008, -4.12826E-008
23, 0.00000, -0.617612, -0.192002, -0.617612, -0.192025, -0.617581, -0.192002, 4.71568E-008, -2.40374E-008
24, 0.00000, -0.493316, -0.151161, -0.493273, -0.151169, -0.493265, -0.151173, 2.25334E-008, -1.22491E-008
25, 0.00000, -0.452627, -0.116981, -0.452602, -0.116988, -0.452595, -0.116988, 1.46459E-008, -7.4067E-009
26, 0.00000, -0.385084, -0.099121, -0.385027, -0.0991145, -0.385011, -0.0991336, 9.29821E-009, -4.99181E-009
27, 0.00000, -0.347899, -0.0907617, -0.34787, -0.0907615, -0.347861, -0.0907694, 6.5933E-009, -3.4639E-009
28, 0.00000, -0.289101, -0.0878721, -0.289074, -0.0878712, -0.289069, -0.0878808, 4.19148E-009, -2.40594E-009
29, 0.00000, -0.240126, -0.091556, -0.240116, -0.0915115, -0.240096, -0.0915366, 3.32319E-009, -1.72129E-009
30, 0.00000, -0.29958, -0.105573, -0.299577, -0.105586, -0.299576, -0.105583, 5.03607E-009, -2.88846E-009
31, 0.00000, -0.410524, -0.133841, -0.41054, -0.133854, -0.410529, -0.133838, 1.28152E-008, -6.5751E-009
32, 0.00000, -0.436962, -0.149318, -0.436961, -0.149331, -0.436953, -0.149322, 1.56259E-008, -8.64428E-009
33, 0.00000, -0.106189, -0.152926, -0.106163, -0.152921, -0.106167, -0.152936, 9.95812E-010, -1.34711E-009
34, 0.00000, 0.113161, -0.157355, 0.113162, -0.157357, 0.113163, -0.157355, 6.36781E-011, -9.40155E-010
35, 0.00000, 0.382289, -0.158475, 0.3823, -0.158465, 0.382306, -0.158474, -5.70665E-009, -3.43927E-009
36, 0.00000, 0.436485, -0.157219, 0.436495, -0.157215, 0.436504, -0.157217, -8.14723E-009, -4.09902E-009
37, 0.00000, 0.227606, -0.157903, 0.227603, -0.157913, 0.227605, -0.157904, -1.1652E-009, -1.70339E-009
38, 0.00000, -0.125142, -0.161003, -0.125165, -0.16102, -0.125168, -0.161007, 1.01136E-009, -1.10807E-009
39, 0.00000, -0.453215, -0.16772, -0.45322, -0.167735, -0.453211, -0.167724, 1.81378E-008, -1.04227E-008
40, 0.00000, -0.285711, -0.184195, -0.285711, -0.184254, -0.285716, -0.184232, 9.11126E-009, -5.99244E-009
41, 0.00000, -0.677101, -0.214273, -0.677098, -0.214305, -0.677073, -0.214276, 6.49656E-008, -3.34682E-008
42, 0.00000, -0.759307, -0.23861, -0.759337, -0.238659, -0.759307, -0.238618, 9.3616E-008, -4.79467E-008
43, 0.00000, -0.788385, -0.248184, -0.78843, -0.248242, -0.788402, -0.248198, 1.05804E-007, -5.46319E-008
44, 0.00000, -0.805304, -0.25373, -0.805327, -0.253783, -0.805298, -0.253743, 1.14388E-007, -5.97433E-008
45, 0.00000, -0.78574, -0.247259, -0.785689, -0.247289, -0.785658, -0.247266, 1.0712E-007, -5.67605E-008
46, 0.00000, -0.721722, -0.226232, -0.721681, -0.226258, -0.721661, -0.226241, 8.02507E-008, -4.20894E-008
47, 0.00000, -0.617573, -0.191999, -0.617525, -0.192015, -0.617509, -0.19201, 4.75347E-008, -2.52707E-008
48, 0.00000, -0.493316, -0.151161, -0.493272, -0.151169, -0.493265, -0.151173, 2.25308E-008, -1.22508E-008
49, 0.00000, -0.389257, -0.116981, -0.389259, -0.116992, -0.389253, -0.116985, 1.00606E-008, -5.2104E-009
50, 0.00000, -0.334961, -0.0991365, -0.334956, -0.0991422, -0.334951, -0.0991369, 6.23455E-009, -3.23221E-009
51, 0.00000, -0.411243, -0.0907573, -0.411182, -0.0907622, -0.411188, -0.0907783, 9.82621E-009, -5.23499E-009
52, 0.00000, -0.402495, -0.0878667, -0.402469, -0.0878698, -0.402454, -0.0878712, 9.12584E-009, -4.30493E-009
53, 0.00000, -0.413432, -0.0915176, -0.413435, -0.0915282, -0.41343, -0.0915182, 9.53663E-009, -4.32223E-009
54, 0.00000, -0.456186, -0.10559, -0.456211, -0.105606, -0.456206, -0.105586, 1.31903E-008, -5.87066E-009
55, 0.00000, -0.267166, -0.133549, -0.267166, -0.133731, -0.267223, -0.133687, 3.03716E-009, -3.28671E-009
56, 0.00000, -0.307649, -0.149315, -0.307646, -0.149326, -0.307643, -0.149321, 8.06378E-009, -4.88086E-009
57, 0.00000, -0.330311, -0.152915, -0.330249, -0.152916, -0.330258, -0.152935, 8.00951E-009, -6.01639E-009
58, 0.00000, -0.2607, -0.157349, -0.260671, -0.157347, -0.260668, -0.157356, 4.60583E-009, -3.81343E-009
59, 0.00000, -0.16128, -0.158459, -0.161246, -0.158452, -0.161245, -0.158468, 1.83686E-009, -2.1261E-009
60, 0.00000, -0.15759, -0.157224, -0.15758, -0.157223, -0.157576, -0.157224, 1.75912E-009, -1.78133E-009
61, 0.00000, -0.211125, -0.157905, -0.211124, -0.15791, -0.211122, -0.157907, 2.88833E-009, -2.47617E-009
62, 0.00000, -0.322699, -0.161012, -0.322699, -0.16102, -0.322695, -0.161016, 7.47169E-009, -5.14218E-009
63, 0.00000, -0.343073, -0.167723, -0.343071, -0.167731, -0.343066, -0.167725, 9.0004E-009, -6.09241E-009
64, 0.00000, -0.594052, -0.184286, -0.594047, -0.184309, -0.594032, -0.184293, 4.10602E-008, -2.12702E-008
65, 0.00000, -0.685249, -0.214252, -0.685253, -0.214286, -0.685236, -0.214269, 6.64117E-008, -3.43751E-008
66, 0.00000, -0.727807, -0.238623, -0.727862, -0.238673, -0.727826, -0.238621, 8.46241E-008, -4.3159E-008
67, 0.00000, -0.78847, -0.248179, -0.788483, -0.248227, -0.788453, -0.248197, 1.06726E-007, -5.57542E-008
68, 0.00000, -0.805367, -0.253731, -0.805365, -0.253777, -0.805334, -0.253745, 1.15115E-007, -6.05934E-008
69, 0.00000, -0.78567, -0.247258, -0.785646, -0.247296, -0.785617, -0.247264, 1.06339E-007, -5.59006E-008
70, 0.00000, -0.721685, -0.226231, -0.721669, -0.226264, -0.721646, -0.226238, 7.97927E-008, -4.13295E-008
71, 0.00000, -0.617529, -0.192002, -0.617513, -0.192024, -0.617495, -0.192005, 4.70657E-008, -2.43905E-008
72, 0.00000, -0.493274, -0.151167, -0.493263, -0.151179, -0.493251, -0.151168, 2.22033E-008, -1.15484E-008
73, 0.00000, -0.414951, -0.125405, -0.414905, -0.125411, -0.414909, -0.12542, 1.27103E-008, -7.2177E-009
74, 0.00000, -0.355601, -0.105882, -0.35556, -0.105881, -0.35555, -0.105893, 7.93224E-009, -4.46912E-009
75, 0.00000, -0.32337, -0.0953066, -0.323348, -0.0953084, -0.323342, -0.0953133, 5.70957E-009, -3.12764E-009
76, 0.00000, -0.308551, -0.0904475, -0.308541, -0.090451, -0.308536, -0.0904512, 4.82269E-009, -2.56883E-009
77, 0.00000, -0.308406, -0.0904079, -0.308403, -0.0904133, -0.308399, -0.0904094, 4.74261E-009, -2.46024E-009
78, 0.00000, -0.322897, -0.0951715, -0.322897, -0.0951781, -0.322893, -0.0951736, 5.48311E-009, -2.83514E-009
79, 0.00000, -0.356384, -0.106178, -0.356384, -0.106185, -0.356379, -0.10618, 7.56697E-009, -3.92373E-009
80, 0.00000, -0.370144, -0.127001, -0.370143, -0.12701, -0.370137, -0.127004, 9.14019E-009, -5.10986E-009
81, 0.00000, -0.166734, -0.159994, -0.16673, -0.159995, -0.166728, -0.159993, 1.95154E-009, -1.88276E-009
82, 0.00000, -0.000108007, -0.190655, -0.000106313, -0.190656, -0.000105017, -0.190655, 7.341E-010, -1.28699E-009
83, 0.00000, 0.309793, -0.206864, 0.309796, -0.206868, 0.3098, -0.206863, -2.11635E-009, -4.17308E-009
84, 0.00000, 0.289006, -0.213027, 0.289008, -0.213037, 0.289012, -0.213032, -1.58333E-009, -3.99757E-009
85, 0.00000, 0.124816, -0.215914, 0.124817, -0.215919, 0.124819, -0.215916, 4.61988E-010, -2.19781E-009
86, 0.00000, -0.247912, -0.220065, -0.247911, -0.220071, -0.247906, -0.220067, 6.1736E-009, -5.56767E-009
87, 0.00000, -0.979586, -0.224165, -0.979713, -0.224245, -0.979643, -0.224169, 1.54364E-007, -6.80555E-008
88, 0.00000, -1.08059, -0.228584, -1.08047, -0.228646, -1.08047, -0.228604, 2.2043E-007, -8.61586E-008
89, 0.00000, -0.845503, -0.240075, -0.845496, -0.240117, -0.845442, -0.24008, 1.23536E-007, -6.15761E-008
90, 0.00000, -0.581519, -0.246456, -0.581511, -0.24647, -0.581492, -0.246461, 5.48745E-008, -3.13973E-008
91, 0.00000, -0.254232, -0.245185, -0.254231, -0.245189, -0.254227, -0.24518, 1.49095E-008, -9.00862E-009
92, 0.00000, -0.7764, -0.244212, -0.776413, -0.24426, -0.776384, -0.24423, 1.01291E-007, -5.27061E-008
93, 0.00000, -0.748284, -0.234959, -0.748365, -0.235013, -0.748319, -0.234955, 8.86084E-008, -4.3854E-008
94, 0.00000, -0.693163, -0.216848, -0.693129, -0.216873, -0.693108, -0.216857, 6.99957E-008, -3.65484E-008
95, 0.00000, -0.613933, -0.190805, -0.613891, -0.190822, -0.613875, -0.190815, 4.65269E-008, -2.46376E-008
96, 0.00000, -0.517097, -0.158979, -0.517057, -0.158988, -0.517046, -0.15899, 2.62818E-008, -1.41424E-008
97, 0.00000, -0.423433, -0.128214, -0.423437, -0.128227, -0.42343, -0.128219, 1.32405E-008, -6.85677E-009
98, 0.00000, -0.361546, -0.107837, -0.361483, -0.107838, -0.361488, -0.107859, 8.31456E-009, -5.04872E-009
99, 0.00000, -0.325609, -0.0960399, -0.325584, -0.0960412, -0.325578, -0.0960473, 5.85917E-009, -3.22939E-009
100, 0.00000, -0.307702, -0.0901661, -0.307689, -0.0901692, -0.307684, -0.0901704, 4.79726E-009, -2.57089E-009
101, 0.00000, -0.302278, -0.0883641, -0.302263, -0.0883651, -0.302254, -0.0883664, 4.61083E-009, -2.44238E-009
102, 0.00000, -0.310999, -0.0913105, -0.311018, -0.091323, -0.311024, -0.0913108, 4.58343E-009, -2.2929E-009
103, 0.00000, -0.340113, -0.10083, -0.340113, -0.100837, -0.340108, -0.100832, 6.4907E-009, -3.3586E-009
104, 0.00000, -0.340916, -0.117339, -0.340914, -0.117346, -0.34091, -0.117341, 7.02712E-009, -3.95174E-009
105, 0.00000, -0.132314, -0.148315, -0.132311, -0.148316, -0.132309, -0.148314, 1.20939E-009, -1.25974E-009
106, 0.00000, 0.0267222, -0.181266, 0.0267237, -0.181267, 0.0267248, -0.181266, 5.2078E-010, -1.0895E-009
107, 0.00000, 0.48246, -0.202079, 0.482464, -0.202086, 0.482474, -0.202073, -1.42676E-008, -6.45323E-009
108, 0.00000, 1.38206, -0.210204, 1.38209, -0.210284, 1.38215, -0.210214, -2.14619E-007, -2.72197E-008
109, 0.00000, 1.32467, -0.21542, 1.3247, -0.215497, 1.32475, -0.215434, -1.9142E-007, -2.74347E-008
110, 0.00000, 0.00400364, -0.218929, 0.0040038, -0.218934, 0.00400441, -0.218932, 1.08946E-009, -1.9227E-009
111, 0.00000, -0.346863, -0.21768, -0.346866, -0.217764, -0.346875, -0.217726, 1.21554E-008, -9.19247E-009
112, 0.00000, -0.383644, -0.2159, -0.383641, -0.215928, -0.383633, -0.215914, 2.03507E-008, -1.25401E-008
113, 0.00000, -0.341017, -0.224856, -0.341013, -0.224887, -0.34101, -0.224878, 1.78481E-008, -1.13433E-008
114, 0.00000, -0.460782, -0.236875, -0.460777, -0.236903, -0.460765, -0.236888, 3.27026E-008, -1.97242E-008
115, 0.00000, -0.771755, -0.242713, -0.771826, -0.242771, -0.771788, -0.24272, 9.82637E-008, -4.96209E-008
116, 0.00000, -0.793984, -0.250016, -0.794017, -0.250071, -0.793987, -0.25003, 1.08765E-007, -5.64384E-008
117, 0.00000, -0.77686, -0.244344, -0.776816, -0.244374, -0.776786, -0.244351, 1.02929E-007, -5.43237E-008
118, 0.00000, -0.708988, -0.222046, -0.708947, -0.222071, -0.708927, -0.222056, 7.56223E-008, -3.96415E-008
119, 0.00000, -0.602494, -0.187043, -0.602446, -0.187058, -0.602432, -0.187054, 4.37349E-008, -2.32974E-008
120, 0.00000, -0.478817, -0.146397, -0.478776, -0.146404, -0.478769, -0.146409, 2.04044E-008, -1.11106E-008
121, 0.00000, -0.389257, -0.116981, -0.389259, -0.116992, -0.389253, -0.116985, 1.00614E-008, -5.2108E-009
122, 0.00000, -0.334961, -0.0991365, -0.334956, -0.0991422, -0.334951, -0.0991369, 6.23455E-009, -3.23221E-009
123, 0.00000, -0.309506, -0.0907705, -0.309503, -0.0907757, -0.309499, -0.0907713, 4.80764E-009, -2.48817E-009
124, 0.00000, -0.300731, -0.0878862, -0.300726, -0.0878902, -0.300721, -0.0878858, 4.41302E-009, -2.27828E-009
125, 0.00000, -0.311755, -0.0915101, -0.311758, -0.0915172, -0.311756, -0.0915135, 4.84572E-009, -2.51233E-009
126, 0.00000, -0.354576, -0.105583, -0.354576, -0.105591, -0.354571, -0.105586, 7.42872E-009, -3.85096E-009
127, 0.00000, -0.44053, -0.133833, -0.440534, -0.133846, -0.440527, -0.133838, 1.50753E-008, -7.82352E-009
128, 0.00000, -0.437807, -0.149319, -0.437804, -0.149331, -0.437796, -0.149323, 1.57337E-008, -8.69408E-009
129, 0.00000, -0.143495, -0.152935, -0.143489, -0.152933, -0.143486, -0.152932, 1.45792E-009, -1.48733E-009
130, 0.00000, 0.104211, -0.157358, 0.104213, -0.157357, 0.104214, -0.157356, 9.14346E-011, -9.17205E-010
131, 0.00000, 1.56021, -0.158424, 1.56025, -0.158503, 1.56028, -0.158436, -2.65662E-007, -1.66405E-008
132, 0.00000, 1.94245, -0.157187, 1.94255, -0.157324, 1.94263, -0.157189, -4.76333E-007, -1.52128E-008
133, 0.00000, 2.16952, -0.157853, 2.16962, -0.158024, 2.16973, -0.157865, -6.33923E-007, -1.30864E-008
134, 0.00000, 0.290377, -0.161014, 0.290379, -0.161023, 0.290384, -0.161018, -1.95404E-009, -2.44497E-009
135, 0.00000, -0.191419, -0.167725, -0.191417, -0.167732, -0.19141, -0.167723, 2.65803E-009, -2.39268E-009
136, 0.00000, -0.594062, -0.184256, -0.594054, -0.184294, -0.594032, -0.184273, 4.09913E-008, -2.13752E-008
137, 0.00000, -0.685278, -0.214267, -0.685299, -0.214307, -0.685275, -0.214284, 6.6241E-008, -3.39406E-008
138, 0.00000, -0.759361, -0.238613, -0.759355, -0.238652, -0.759328, -0.238624, 9.43923E-008, -4.9065E-008
139, 0.00000, -0.756917, -0.248204, -0.757013, -0.248266, -0.756968, -0.248201, 9.58071E-008, -4.84692E-008
140, 0.00000, -0.805347, -0.253725, -0.805354, -0.253774, -0.805323, -0.253742, 1.14861E-007, -6.03689E-008
141, 0.00000, -0.785671, -0.247258, -0.785647, -0.247296, -0.785618, -0.247265, 1.06348E-007, -5.59053E-008
142, 0.00000, -0.721685, -0.226231, -0.721669, -0.226264, -0.721646, -0.226238, 7.97987E-008, -4.13344E-008
143, 0.00000, -0.617529, -0.192002, -0.617513, -0.192024, -0.617495, -0.192005, 4.70746E-008, -2.4397E-008
144, 0.00000, -0.493275, -0.151167, -0.493263, -0.151179, -0.493251, -0.151168, 2.22096E-008, -1.15532E-008
145, 0.00000, -0.38927, -0.116986, -0.389264, -0.116993, -0.389257, -0.116987, 1.018E-008, -5.29822E-009
146, 0.00000, -0.303309, -0.0991294, -0.303285, -0.0991357, -0.303291, -0.0991409, 4.96111E-009, -2.96754E-009
147, 0.00000, -0.309504, -0.0907699, -0.309502, -0.0907754, -0.309498, -0.0907711, 4.79837E-009, -2.48253E-009
148, 0.00000, -0.269109, -0.0878663, -0.269053, -0.0878677, -0.269065, -0.087891, 3.54356E-009, -2.49427E-009
149, 0.00000, -0.635084, -0.0915145, -0.635107, -0.0915366, -0.635085, -0.0915119, 2.90859E-008, -1.04428E-008
150, 0.00000, -0.682835, -0.105583, -0.682866, -0.105613, -0.682853, -0.105583, 3.77548E-008, -1.41489E-008
151, 0.00000, -0.768863, -0.133831, -0.768874, -0.133865, -0.768848, -0.133835, 6.0674E-008, -2.4268E-008
152, 0.00000, -0.65603, -0.149314, -0.655975, -0.149332, -0.65596, -0.149325, 4.04347E-008, -1.97654E-008
153, 0.00000, -0.128397, -0.152919, -0.128367, -0.152919, -0.128379, -0.152936, 6.50866E-010, -1.39108E-009
154, 0.00000, 0.0106489, -0.157334, 0.0106773, -0.15733, 0.0106727, -0.157351, -7.64099E-012, -8.06699E-010
155, 0.00000, 0.379457, -0.158369, 0.379508, -0.158368, 0.379495, -0.158428, -6.19083E-009, -2.57647E-009
156, 0.00000, 0.475326, -0.1572, 0.475339, -0.15721, 0.475343, -0.157215, -9.71051E-009, -4.41372E-009
157, 0.00000, 0.297988, -0.157951, 0.297962, -0.157962, 0.297973, -0.157924, -1.71276E-009, -2.72851E-009
158, 0.00000, -0.0554942, -0.161025, -0.0555123, -0.161028, -0.0555028, -0.161014, 8.10233E-010, -8.05039E-010
159, 0.00000, -0.358982, -0.167384, -0.358991, -0.167598, -0.359032, -0.167526, 7.97887E-009, -6.84212E-009
160, 0.00000, -0.46572, -0.184261, -0.465715, -0.184291, -0.465707, -0.184277, 2.37393E-008, -1.36038E-008
161, 0.00000, -0.54695, -0.214251, -0.546943, -0.21428, -0.546928, -0.214265, 4.02174E-008, -2.26862E-008
162, 0.00000, -0.589369, -0.238607, -0.589361, -0.238635, -0.589343, -0.238618, 5.38876E-008, -3.05039E-008
163, 0.00000, -0.303516, -0.248255, -0.303513, -0.248241, -0.3035, -0.248239, 1.91778E-008, -1.16715E-008
164, 0.00000, -0.353713, -0.253741, -0.353709, -0.253759, -0.3537, -0.253749, 2.39197E-008, -1.48988E-008
165, 0.00000, -0.753845, -0.247238, -0.753927, -0.247297, -0.753887, -0.247243, 9.4665E-008, -4.83587E-008
166, 0.00000, -0.721682, -0.22623, -0.721668, -0.226263, -0.721644, -0.226237, 7.97493E-008, -4.12821E-008
167, 0.00000, -0.617527, -0.192001, -0.617512, -0.192023, -0.617494, -0.192005, 4.7033E-008, -2.43667E-008
168, 0.00000, -0.493272, -0.151166, -0.493262, -0.151179, -0.493251, -0.151168, 2.21801E-008, -1.15308E-008
169, 0.00000, -1.5843, -0.116934, -1.5843, -0.117075, -1.58426, -0.116958, 4.39232E-007, -8.68836E-008
170, 0.00000, -1.44667, -0.0990949, -1.44672, -0.0992092, -1.44656, -0.0991105, 3.38931E-007, -8.63289E-008
171, 0.00000, -1.31459, -0.0907375, -1.31452, -0.0908258, -1.31446, -0.0907543, 2.45113E-007, -6.68026E-008
172, 0.00000, -1.25088, -0.0878536, -1.25079, -0.0879304, -1.25073, -0.0878687, 2.09203E-007, -5.76609E-008
173, 0.00000, -1.45009, -0.091473, -1.4501, -0.0915881, -1.45002, -0.0914931, 3.30756E-007, -8.4496E-008
174, 0.00000, -1.27132, -0.105555, -1.27126, -0.105639, -1.27121, -0.105572, 2.32323E-007, -6.80428E-008
175, 0.00000, -0.0672292, -0.133946, -0.0672325, -0.133878, -0.067194, -0.133893, 1.89914E-009, -9.56198E-010
176, 0.00000, -0.838021, -0.149312, -0.838009, -0.149349, -0.837967, -0.149316, 7.97561E-008, -3.26177E-008
177, 0.00000, -0.0544813, -0.152913, -0.0544308, -0.152908, -0.0544486, -0.152942, 2.67986E-010, -1.09479E-009
178, 0.00000, 1.09704, -0.157326, 1.097, -0.15741, 1.09691, -0.157306, -5.90978E-008, -1.79469E-008
179, 0.00000, 1.8584, -0.158424, 1.85839, -0.158543, 1.85862, -0.158445, -3.48097E-007, -3.27432E-008
180, 0.00000, 1.34673, -0.157235, 1.34665, -0.157264, 1.34686, -0.157227, -1.31651E-007, -2.79683E-008
181, 0.00000, 1.22431, -0.157897, 1.22431, -0.157942, 1.22439, -0.157898, -9.06621E-008, -2.24746E-008
182, 0.00000, 0.869063, -0.161033, 0.869064, -0.161028, 0.869155, -0.161025, -2.53775E-008, -1.51159E-008
183, 0.00000, 0.181706, -0.16777, 0.181736, -0.167704, 0.181786, -0.16776, 1.15783E-009, -2.04905E-009
184, 0.00000, -0.145666, -0.183984, -0.145635, -0.184215, -0.145766, -0.184164, 1.37045E-009, -1.82693E-009
185, 0.00000, -0.328588, -0.214096, -0.328567, -0.214235, -0.328622, -0.21421, 1.30702E-008, -9.91164E-009
186, 0.00000, -0.742532, -0.238602, -0.742639, -0.238667, -0.742604, -0.238605, 8.73781E-008, -4.35416E-008
