hour, t(sec), P1 (kW), Q1 (kvar), P2 (kW), Q2 (kvar), P3 (kW), Q3 (kvar), P4 (kW), Q4 (kvar)
1, 0.00000, -0.472759, -0.155386, -0.472765, -0.155389, -0.472762, -0.155388, -1.62601E-009, -2.31782E-010
2, 0.00000, -0.400636, -0.131683, -0.400635, -0.131682, -0.400635, -0.131682, -1.13557E-009, -1.35087E-010
3, 0.00000, -0.366878, -0.12059, -0.366872, -0.120587, -0.366863, -0.120584, -9.40347E-010, -1.0217E-010
4, 0.00000, -0.355176, -0.116743, -0.355174, -0.116742, -0.35517, -0.11674, -8.75315E-010, -8.99834E-011
5, 0.00000, -0.369833, -0.121557, -0.369835, -0.121558, -0.369838, -0.121559, -9.53199E-010, -1.0126E-010
6, 0.00000, -0.426623, -0.140224, -0.426635, -0.140228, -0.426646, -0.140232, -1.29097E-009, -1.56005E-010
7, 0.00000, -0.540882, -0.177779, -0.540885, -0.17778, -0.540885, -0.17778, -2.16115E-009, -3.38727E-010
8, 0.00000, -0.536148, -0.198364, -0.536134, -0.198359, -0.536132, -0.198358, -2.25474E-009, -4.22755E-010
9, 0.00000, 0.0736776, -0.203136, 0.0736764, -0.203132, 0.0736765, -0.203133, -2.85773E-010, -2.76977E-011
10, 0.00000, 0.335239, -0.20902, 0.335232, -0.209015, 0.335231, -0.209015, -9.12014E-010, -6.06036E-011
11, 0.00000, 1.41781, -0.210462, 1.41778, -0.210442, 1.41779, -0.210466, -9.87526E-009, 4.58914E-010
12, 0.00000, 1.47436, -0.208843, 1.47435, -0.208842, 1.47435, -0.208842, -1.05461E-008, 5.52644E-010
13, 0.00000, 1.05958, -0.209732, 1.0596, -0.209739, 1.05959, -0.209737, -5.962E-009, 9.17139E-011
14, 0.00000, 0.0957622, -0.213874, 0.0957642, -0.213878, 0.0957642, -0.213878, -3.36247E-010, -3.28113E-011
15, 0.00000, -0.411265, -0.222785, -0.41127, -0.222788, -0.411271, -0.222789, -1.49123E-009, -2.66462E-010
16, 0.00000, -0.744768, -0.244792, -0.74478, -0.244796, -0.744781, -0.244799, -4.55211E-009, -1.14553E-009
17, 0.00000, -0.865942, -0.28462, -0.865952, -0.284624, -0.865953, -0.284626, -6.47417E-009, -1.95318E-009
18, 0.00000, -0.96437, -0.316975, -0.964237, -0.316934, -0.964274, -0.316923, -8.29545E-009, -2.73037E-009
19, 0.00000, -0.997579, -0.327879, -1.00308, -0.329704, -1.00302, -0.329675, -7.47752E-009, -3.17167E-010
20, 0.00000, -1.01577, -0.333865, -1.02548, -0.33706, -1.02547, -0.337056, -6.5593E-009, 1.28896E-009
21, 0.00000, -0.99605, -0.327389, -0.999313, -0.328455, -0.999389, -0.328489, -8.04051E-009, -1.2908E-009
22, 0.00000, -0.914286, -0.30051, -0.914322, -0.300523, -0.914306, -0.300519, -7.33632E-009, -2.3151E-009
23, 0.00000, -0.775977, -0.255051, -0.776003, -0.25506, -0.775988, -0.255057, -5.00394E-009, -1.31835E-009
24, 0.00000, -0.610949, -0.200809, -0.610919, -0.200799, -0.610919, -0.2008, -2.90623E-009, -5.92248E-010
25, 0.00000, -0.472792, -0.155399, -0.472777, -0.155393, -0.472777, -0.155395, -1.65699E-009, -2.63459E-010
26, 0.00000, -0.400713, -0.131704, -0.40068, -0.13169, -0.400672, -0.131694, -1.15804E-009, -1.58173E-010
27, 0.00000, -0.366865, -0.12058, -0.366849, -0.120574, -0.366846, -0.120576, -9.55062E-010, -1.16192E-010
28, 0.00000, -0.355179, -0.116739, -0.355168, -0.116735, -0.355165, -0.116737, -8.86183E-010, -1.0025E-010
29, 0.00000, -0.369847, -0.121563, -0.369849, -0.121564, -0.36985, -0.121564, -9.58973E-010, -1.06307E-010
30, 0.00000, -0.426703, -0.14025, -0.426704, -0.140251, -0.426704, -0.140251, -1.30758E-009, -1.7171E-010
31, 0.00000, -0.540876, -0.177777, -0.540887, -0.177781, -0.540885, -0.177781, -2.20242E-009, -3.78788E-010
32, 0.00000, -0.536987, -0.198339, -0.536994, -0.198342, -0.536996, -0.198343, -2.25938E-009, -4.20168E-010
33, 0.00000, -0.144997, -0.203137, -0.144994, -0.203133, -0.144994, -0.203134, -3.96915E-010, -4.98661E-011
34, 0.00000, 0.183849, -0.209015, 0.183849, -0.209014, 0.183847, -0.209013, -4.6569E-010, -3.94565E-011
35, 0.00000, 0.656866, -0.210495, 0.656854, -0.210492, 0.656851, -0.210491, -2.64272E-009, -9.14978E-011
36, 0.00000, 0.728019, -0.208855, 0.728008, -0.208851, 0.727998, -0.208848, -3.14208E-009, -8.11593E-011
37, 0.00000, 0.447473, -0.209742, 0.44748, -0.209743, 0.447482, -0.209745, -1.40726E-009, -7.96635E-011
38, 0.00000, -0.0458526, -0.213862, -0.0458395, -0.213863, -0.0458345, -0.213876, -3.03765E-010, -3.82372E-011
39, 0.00000, -0.546172, -0.222785, -0.546172, -0.222786, -0.546172, -0.222791, -2.44298E-009, -4.9758E-010
40, 0.00000, -0.744739, -0.244781, -0.74475, -0.244786, -0.744757, -0.244788, -4.40234E-009, -9.75343E-010
41, 0.00000, -0.86597, -0.284631, -0.866072, -0.284663, -0.866054, -0.284663, -6.4494E-009, -1.90633E-009
42, 0.00000, -0.964368, -0.316973, -0.964305, -0.316952, -0.964331, -0.316958, -8.28312E-009, -2.70352E-009
43, 0.00000, -0.997561, -0.327879, -1.00301, -0.329677, -1.00294, -0.329644, -7.49511E-009, -3.44099E-010
44, 0.00000, -1.01576, -0.333864, -1.02545, -0.337052, -1.02542, -0.337037, -6.56667E-009, 1.28069E-009
45, 0.00000, -0.994463, -0.326866, -0.999298, -0.328451, -0.999348, -0.328473, -7.59881E-009, -5.81894E-010
46, 0.00000, -0.914281, -0.300508, -0.914347, -0.300531, -0.914319, -0.300524, -7.33006E-009, -2.30227E-009
47, 0.00000, -0.775989, -0.255055, -0.775965, -0.255049, -0.775958, -0.255045, -5.01338E-009, -1.33664E-009
48, 0.00000, -0.610949, -0.200809, -0.610919, -0.200799, -0.610919, -0.2008, -2.90624E-009, -5.92269E-010
49, 0.00000, -0.472757, -0.155387, -0.472766, -0.155391, -0.472768, -0.155391, -1.64262E-009, -2.4733E-010
50, 0.00000, -0.400652, -0.131688, -0.400644, -0.131685, -0.400642, -0.131685, -1.14841E-009, -1.47208E-010
51, 0.00000, -0.366843, -0.120576, -0.366831, -0.120572, -0.366833, -0.120572, -9.60303E-010, -1.20562E-010
52, 0.00000, -0.355203, -0.11675, -0.355192, -0.116747, -0.355188, -0.116745, -8.96345E-010, -1.09123E-010
53, 0.00000, -0.369844, -0.121562, -0.369847, -0.121563, -0.369847, -0.121563, -9.7595E-010, -1.2157E-010
54, 0.00000, -0.426677, -0.140241, -0.42669, -0.140245, -0.426691, -0.140247, -1.32732E-009, -1.8948E-010
55, 0.00000, -0.540839, -0.17776, -0.540856, -0.177768, -0.540858, -0.177769, -2.16841E-009, -3.44618E-010
56, 0.00000, -0.603446, -0.198343, -0.60345, -0.198344, -0.603451, -0.198345, -2.76836E-009, -5.03473E-010
57, 0.00000, -0.421289, -0.203148, -0.421277, -0.203142, -0.421277, -0.203142, -1.47632E-009, -2.50852E-010
58, 0.00000, -0.30627, -0.209025, -0.30626, -0.209019, -0.30626, -0.209018, -9.11368E-010, -1.4248E-010
59, 0.00000, -0.175967, -0.210504, -0.175958, -0.210495, -0.175958, -0.210496, -4.86768E-010, -6.72626E-011
60, 0.00000, -0.171092, -0.208853, -0.171089, -0.20885, -0.171088, -0.208849, -4.6994E-010, -6.34031E-011
61, 0.00000, -0.241352, -0.209743, -0.241355, -0.209745, -0.241355, -0.209746, -6.68214E-010, -9.65722E-011
62, 0.00000, -0.387791, -0.213868, -0.387798, -0.213872, -0.387801, -0.213874, -1.32326E-009, -2.24394E-010
63, 0.00000, -0.414859, -0.222785, -0.414861, -0.222787, -0.414862, -0.222788, -1.513E-009, -2.71895E-010
64, 0.00000, -0.744773, -0.244794, -0.744781, -0.244797, -0.744782, -0.244799, -4.55295E-009, -1.14702E-009
65, 0.00000, -0.865855, -0.284584, -0.865899, -0.284595, -0.865909, -0.284612, -6.46654E-009, -1.93959E-009
66, 0.00000, -0.964315, -0.316957, -0.96445, -0.316996, -0.9645, -0.317022, -8.2209E-009, -2.59436E-009
67, 0.00000, -0.997568, -0.327882, -1.00302, -0.329683, -1.00294, -0.329648, -7.49326E-009, -3.40939E-010
68, 0.00000, -1.01577, -0.333866, -1.02547, -0.337057, -1.02544, -0.337046, -6.56261E-009, 1.28537E-009
69, 0.00000, -0.994457, -0.326863, -0.999281, -0.328446, -0.999327, -0.328464, -7.60198E-009, -5.87035E-010
70, 0.00000, -0.914283, -0.300509, -0.914329, -0.300525, -0.914312, -0.300521, -7.33388E-009, -2.31012E-009
71, 0.00000, -0.775978, -0.255051, -0.775962, -0.255046, -0.775954, -0.255044, -5.01193E-009, -1.33403E-009
72, 0.00000, -0.610939, -0.200806, -0.610918, -0.200798, -0.610915, -0.200799, -2.90497E-009, -5.90089E-010
73, 0.00000, -0.506826, -0.166586, -0.506822, -0.166585, -0.506824, -0.166585, -1.91541E-009, -3.13964E-010
74, 0.00000, -0.427987, -0.140673, -0.427967, -0.140667, -0.427964, -0.140665, -1.32581E-009, -1.84024E-010
75, 0.00000, -0.38521, -0.126612, -0.3852, -0.126609, -0.385199, -0.126609, -1.05539E-009, -1.30116E-010
76, 0.00000, -0.365547, -0.12015, -0.365543, -0.120148, -0.365543, -0.120148, -9.42659E-010, -1.09365E-010
77, 0.00000, -0.365369, -0.120091, -0.365369, -0.120091, -0.365368, -0.120091, -9.41294E-010, -1.08594E-010
78, 0.00000, -0.384617, -0.126417, -0.384621, -0.126419, -0.384621, -0.126419, -1.05059E-009, -1.27377E-010
79, 0.00000, -0.429094, -0.141036, -0.429098, -0.141038, -0.429099, -0.141038, -1.33061E-009, -1.81222E-010
80, 0.00000, -0.448219, -0.168696, -0.448224, -0.168697, -0.448225, -0.168698, -1.52611E-009, -2.3579E-010
81, 0.00000, -0.183266, -0.212521, -0.183261, -0.212517, -0.18326, -0.212517, -5.10123E-010, -7.09192E-011
82, 0.00000, 0.0335983, -0.253247, 0.0336001, -0.253244, 0.0336001, -0.253245, -4.14193E-010, -5.32974E-011
83, 0.00000, 0.439065, -0.274786, 0.439065, -0.274778, 0.439064, -0.274781, -1.59375E-009, -1.37523E-010
84, 0.00000, 0.411488, -0.282933, 0.411486, -0.282948, 0.411488, -0.282947, -1.49476E-009, -1.37879E-010
85, 0.00000, 0.196069, -0.28679, 0.196067, -0.286796, 0.196067, -0.286795, -7.55836E-010, -9.27323E-011
86, 0.00000, -0.292832, -0.29231, -0.292836, -0.292312, -0.292836, -0.292312, -1.1867E-009, -2.36E-010
87, 0.00000, -0.775891, -0.297769, -0.775985, -0.297802, -0.776017, -0.297821, -5.45903E-009, -1.6683E-009
88, 0.00000, -0.915761, -0.300995, -0.923871, -0.303663, -0.923854, -0.303654, -5.4628E-009, 8.89367E-010
89, 0.00000, -0.966669, -0.317729, -0.970251, -0.318905, -0.970266, -0.318913, -7.45623E-009, -1.01184E-009
90, 0.00000, -0.995971, -0.327361, -0.995909, -0.327341, -0.995954, -0.327354, -8.81395E-009, -2.90042E-009
91, 0.00000, -0.990867, -0.325682, -0.990884, -0.325688, -0.990847, -0.325676, -8.42825E-009, -2.50909E-009
92, 0.00000, -0.984435, -0.323567, -0.986994, -0.324411, -0.986978, -0.324403, -8.02279E-009, -1.56844E-009
93, 0.00000, -0.949524, -0.312094, -0.949637, -0.312128, -0.949654, -0.312141, -7.96271E-009, -2.51474E-009
94, 0.00000, -0.876384, -0.288052, -0.876409, -0.288062, -0.876381, -0.288053, -6.6587E-009, -2.03571E-009
95, 0.00000, -0.771166, -0.25347, -0.771134, -0.25346, -0.771133, -0.253459, -4.94285E-009, -1.31073E-009
96, 0.00000, -0.642541, -0.211192, -0.642512, -0.211182, -0.642511, -0.211184, -3.25572E-009, -7.0143E-010
97, 0.00000, -0.518149, -0.170307, -0.518163, -0.170312, -0.518165, -0.170313, -2.00862E-009, -3.3357E-010
98, 0.00000, -0.435871, -0.143264, -0.435854, -0.143259, -0.435856, -0.143259, -1.37887E-009, -1.94388E-010
99, 0.00000, -0.388179, -0.127588, -0.388168, -0.127585, -0.388167, -0.127584, -1.0731E-009, -1.33562E-010
100, 0.00000, -0.364415, -0.119777, -0.36441, -0.119776, -0.364409, -0.119776, -9.36511E-010, -1.08442E-010
101, 0.00000, -0.357175, -0.117398, -0.357168, -0.117395, -0.357165, -0.117394, -8.97387E-010, -1.02105E-010
102, 0.00000, -0.368906, -0.121254, -0.368917, -0.121257, -0.368922, -0.121259, -9.59699E-010, -1.10085E-010
103, 0.00000, -0.407484, -0.133933, -0.407488, -0.133935, -0.407489, -0.133935, -1.18978E-009, -1.53289E-010
104, 0.00000, -0.409397, -0.155862, -0.4094, -0.155863, -0.4094, -0.155863, -1.25753E-009, -1.77727E-010
105, 0.00000, -0.137528, -0.197008, -0.137523, -0.197004, -0.137523, -0.197005, -3.67272E-010, -4.55893E-011
106, 0.00000, 0.0692666, -0.240775, 0.069268, -0.240773, 0.0692678, -0.240774, -3.92716E-010, -4.58971E-011
107, 0.00000, 1.18358, -0.268394, 1.18359, -0.268398, 1.18358, -0.268396, -7.87823E-009, -1.72249E-010
108, 0.00000, 2.36703, -0.279251, 2.36705, -0.279253, 2.36704, -0.279249, -2.49275E-008, 1.86947E-009
109, 0.00000, 2.27621, -0.286169, 2.27622, -0.286174, 2.27622, -0.286173, -2.35057E-008, 1.53944E-009
110, 0.00000, 0.0462412, -0.290805, 0.0462454, -0.290803, 0.0462492, -0.290807, -5.61371E-010, -8.30339E-011
111, 0.00000, -0.553586, -0.289308, -0.553582, -0.289306, -0.553581, -0.289306, -2.82187E-009, -6.6062E-010
112, 0.00000, -0.87258, -0.286796, -0.872605, -0.286805, -0.872615, -0.286813, -6.36834E-009, -1.72488E-009
113, 0.00000, -0.908876, -0.29872, -0.908904, -0.29873, -0.908914, -0.298739, -6.96036E-009, -1.93691E-009
114, 0.00000, -0.957334, -0.314655, -0.957356, -0.314663, -0.957364, -0.314669, -7.95567E-009, -2.44785E-009
115, 0.00000, -0.979457, -0.321931, -0.980914, -0.322412, -0.980913, -0.322408, -8.20633E-009, -2.06205E-009
116, 0.00000, -1.0036, -0.329863, -1.01043, -0.332116, -1.01036, -0.332086, -7.21006E-009, 2.11418E-010
117, 0.00000, -0.984827, -0.323698, -0.987528, -0.324582, -0.987571, -0.324602, -7.98947E-009, -1.4965E-009
118, 0.00000, -0.897371, -0.29495, -0.897433, -0.294972, -0.897399, -0.294963, -7.02591E-009, -2.18083E-009
119, 0.00000, -0.755963, -0.248473, -0.755933, -0.248464, -0.75593, -0.248462, -4.71969E-009, -1.22214E-009
120, 0.00000, -0.591691, -0.194479, -0.591664, -0.19447, -0.591664, -0.194471, -2.70458E-009, -5.31621E-010
121, 0.00000, -0.472757, -0.155388, -0.472767, -0.155391, -0.472768, -0.155391, -1.64264E-009, -2.47363E-010
122, 0.00000, -0.400652, -0.131688, -0.400644, -0.131685, -0.400642, -0.131685, -1.14841E-009, -1.47208E-010
123, 0.00000, -0.366836, -0.120573, -0.366833, -0.120572, -0.366832, -0.120572, -9.49712E-010, -1.10463E-010
124, 0.00000, -0.355193, -0.116746, -0.355185, -0.116743, -0.355181, -0.116743, -8.86911E-010, -1.00534E-010
125, 0.00000, -0.369799, -0.121547, -0.369809, -0.121551, -0.369814, -0.121552, -9.64747E-010, -1.11029E-010
126, 0.00000, -0.426689, -0.140246, -0.426696, -0.140248, -0.426697, -0.140249, -1.31416E-009, -1.77422E-010
127, 0.00000, -0.540844, -0.177767, -0.540863, -0.177772, -0.540868, -0.177775, -2.20778E-009, -3.83547E-010
128, 0.00000, -0.538097, -0.198342, -0.538101, -0.198344, -0.538102, -0.198344, -2.26858E-009, -4.22992E-010
129, 0.00000, -0.15244, -0.203152, -0.152425, -0.203141, -0.152423, -0.203142, -4.13965E-010, -5.49567E-011
130, 0.00000, 0.172109, -0.209024, 0.172113, -0.209015, 0.172113, -0.209019, -4.41678E-010, -3.84244E-011
131, 0.00000, 2.08124, -0.210515, 2.08108, -0.210498, 2.08117, -0.210505, -1.88621E-008, 1.8172E-009
132, 0.00000, 2.58228, -0.208831, 2.58239, -0.20884, 2.58234, -0.208834, -2.65363E-008, 3.69584E-009
133, 0.00000, 2.87999, -0.209741, 2.88007, -0.209747, 2.88004, -0.209741, -3.14872E-008, 4.95316E-009
134, 0.00000, 0.415989, -0.213893, 0.416002, -0.213872, 0.41602, -0.213894, -1.25968E-009, -7.18813E-011
135, 0.00000, -0.215983, -0.222603, -0.215988, -0.222717, -0.216035, -0.22268, -6.21403E-010, -7.96027E-011
136, 0.00000, -0.744794, -0.244515, -0.744788, -0.244661, -0.744805, -0.244633, -4.54724E-009, -1.13699E-009
137, 0.00000, -0.865909, -0.28461, -0.866016, -0.284644, -0.866007, -0.284646, -6.45297E-009, -1.9107E-009
138, 0.00000, -0.964367, -0.316972, -0.964336, -0.316963, -0.964343, -0.316963, -8.27623E-009, -2.6893E-009
139, 0.00000, -0.999175, -0.328415, -1.00314, -0.329713, -1.0032, -0.329741, -7.91268E-009, -9.8789E-010
140, 0.00000, -1.01577, -0.333865, -1.02546, -0.337054, -1.02542, -0.337037, -6.56668E-009, 1.28113E-009
141, 0.00000, -0.994457, -0.326863, -0.999282, -0.328446, -0.999329, -0.328465, -7.60161E-009, -5.86464E-010
142, 0.00000, -0.914282, -0.300509, -0.91433, -0.300526, -0.914313, -0.300521, -7.33352E-009, -2.30939E-009
143, 0.00000, -0.77598, -0.255052, -0.775963, -0.255047, -0.775954, -0.255044, -5.01213E-009, -1.33439E-009
144, 0.00000, -0.61094, -0.200806, -0.610919, -0.200798, -0.610915, -0.2008, -2.90517E-009, -5.90428E-010
145, 0.00000, -0.472789, -0.155398, -0.472777, -0.155393, -0.472775, -0.155395, -1.64586E-009, -2.52393E-010
146, 0.00000, -0.40063, -0.131681, -0.400632, -0.131681, -0.400633, -0.131682, -1.14351E-009, -1.42104E-010
147, 0.00000, -0.366832, -0.120572, -0.366831, -0.120571, -0.36683, -0.120571, -9.49512E-010, -1.10179E-010
148, 0.00000, -0.355168, -0.116738, -0.355155, -0.116734, -0.355158, -0.116735, -8.84074E-010, -9.82881E-011
149, 0.00000, -0.369843, -0.121561, -0.369849, -0.121563, -0.369848, -0.121563, -9.98296E-010, -1.42401E-010
150, 0.00000, -0.426671, -0.140239, -0.426687, -0.140244, -0.426688, -0.140246, -1.35885E-009, -2.20183E-010
151, 0.00000, -0.540878, -0.177777, -0.540887, -0.17778, -0.540886, -0.177781, -2.28829E-009, -4.6912E-010
152, 0.00000, -0.472295, -0.198354, -0.472285, -0.198351, -0.472286, -0.19835, -1.83872E-009, -3.69217E-010
153, 0.00000, 0.0531373, -0.203135, 0.0531413, -0.20313, 0.0531393, -0.203135, -2.74595E-010, -3.00519E-011
154, 0.00000, 0.171866, -0.209015, 0.171869, -0.209009, 0.171867, -0.209015, -4.4495E-010, -4.11544E-011
155, 0.00000, 0.642265, -0.210474, 0.642256, -0.210457, 0.642256, -0.210486, -2.53796E-009, -8.60109E-011
156, 0.00000, 0.71552, -0.208836, 0.715518, -0.208833, 0.715518, -0.208839, -3.03356E-009, -7.07724E-011
157, 0.00000, 0.439209, -0.209748, 0.43921, -0.209758, 0.439212, -0.209745, -1.35886E-009, -7.35092E-011
158, 0.00000, -0.0506013, -0.213876, -0.0506055, -0.21388, -0.0506036, -0.213877, -3.04194E-010, -3.56923E-011
159, 0.00000, -0.547123, -0.222744, -0.547155, -0.222759, -0.547168, -0.222765, -2.42047E-009, -4.63947E-010
160, 0.00000, -0.744741, -0.244781, -0.744758, -0.244787, -0.744765, -0.244791, -4.48733E-009, -1.06977E-009
161, 0.00000, -0.865892, -0.284602, -0.865918, -0.28461, -0.865927, -0.284617, -6.3705E-009, -1.81958E-009
162, 0.00000, -0.964344, -0.316964, -0.964302, -0.316952, -0.964325, -0.316953, -8.20072E-009, -2.64712E-009
163, 0.00000, -1.00311, -0.329717, -1.00311, -0.329715, -1.00311, -0.329712, -8.72061E-009, -2.67771E-009
164, 0.00000, -1.02546, -0.337051, -1.02547, -0.337055, -1.02548, -0.337057, -9.23375E-009, -2.9558E-009
165, 0.00000, -0.996012, -0.327372, -0.999205, -0.328425, -0.999203, -0.328419, -8.0639E-009, -1.33304E-009
166, 0.00000, -0.914286, -0.30051, -0.914321, -0.300523, -0.914306, -0.300519, -7.33636E-009, -2.31518E-009
167, 0.00000, -0.775973, -0.25505, -0.77596, -0.255046, -0.775953, -0.255043, -5.0112E-009, -1.3327E-009
168, 0.00000, -0.610934, -0.200804, -0.610916, -0.200798, -0.610914, -0.200799, -2.90423E-009, -5.8885E-010
169, 0.00000, -0.472768, -0.155391, -0.472784, -0.155397, -0.472775, -0.155394, -1.86929E-009, -4.98195E-010
170, 0.00000, -0.400647, -0.131686, -0.400639, -0.131684, -0.400639, -0.131684, -1.29323E-009, -2.99156E-010
171, 0.00000, -0.366838, -0.120573, -0.366831, -0.120571, -0.366831, -0.120572, -1.05646E-009, -2.18386E-010
172, 0.00000, -0.355179, -0.116741, -0.355167, -0.116737, -0.355166, -0.116737, -9.80226E-010, -1.93636E-010
173, 0.00000, -0.369839, -0.12156, -0.369847, -0.121563, -0.369847, -0.121563, -1.08968E-009, -2.39101E-010
174, 0.00000, -0.426707, -0.140252, -0.426705, -0.140251, -0.426705, -0.140251, -1.45023E-009, -3.19613E-010
175, 0.00000, -0.540904, -0.177788, -0.540898, -0.177786, -0.540898, -0.177785, -2.12815E-009, -3.08004E-010
176, 0.00000, -0.53825, -0.198358, -0.538262, -0.198363, -0.538253, -0.19836, -2.36867E-009, -5.29571E-010
177, 0.00000, -0.0181909, -0.203139, -0.0181782, -0.203128, -0.0181816, -0.203138, -2.59816E-010, -2.93162E-011
178, 0.00000, 0.370261, -0.209013, 0.370258, -0.209012, 0.370256, -0.209011, -9.70304E-010, -1.1587E-011
179, 0.00000, 1.36852, -0.210485, 1.36851, -0.21049, 1.36852, -0.210489, -8.65582E-009, 6.9099E-010
180, 0.00000, 0.710718, -0.208838, 0.71071, -0.20884, 0.710722, -0.208842, -2.77325E-009, 6.1562E-011
181, 0.00000, 0.436628, -0.209746, 0.436627, -0.209746, 0.43663, -0.209747, -1.23592E-009, -1.03359E-012
182, 0.00000, -0.0511443, -0.21388, -0.0511439, -0.213878, -0.0511424, -0.213882, -2.78917E-010, -1.59996E-011
183, 0.00000, -0.415103, -0.222793, -0.415104, -0.222787, -0.415104, -0.222795, -1.43634E-009, -1.98618E-010
184, 0.00000, -0.744804, -0.244701, -0.744799, -0.244762, -0.744787, -0.244742, -4.33854E-009, -9.06651E-010
185, 0.00000, -0.865966, -0.284563, -0.865965, -0.284598, -0.865957, -0.284592, -6.22573E-009, -1.64661E-009
186, 0.00000, -0.964354, -0.316969, -0.964249, -0.316934, -0.964308, -0.316949, -8.28438E-009, -2.71746E-009
