hour, t(sec), P1 (kW), Q1 (kvar), P2 (kW), Q2 (kvar), P3 (kW), Q3 (kvar), P4 (kW), Q4 (kvar)
1, 0.00000, -0.0683091, -0.0224515, -0.0683095, -0.0224521, -0.0683081, -0.0224515, 3.49476E-010, -9.96934E-011
2, 0.00000, -0.0578866, -0.0190263, -0.0578864, -0.0190264, -0.0578863, -0.0190263, 2.15315E-010, -6.0637E-011
3, 0.00000, -0.0530066, -0.0174228, -0.0530062, -0.0174227, -0.053005, -0.0174222, 1.64158E-010, -4.5511E-011
4, 0.00000, -0.0513159, -0.0168667, -0.0513158, -0.0168668, -0.0513156, -0.0168666, 1.4953E-010, -4.17748E-011
5, 0.00000, -0.0534366, -0.0175636, -0.0534366, -0.0175637, -0.053437, -0.0175638, 1.68216E-010, -4.75382E-011
6, 0.00000, -0.0616458, -0.020262, -0.0616466, -0.0202624, -0.0616478, -0.0202626, 2.49291E-010, -7.34187E-011
7, 0.00000, -0.0781505, -0.0256867, -0.0781508, -0.025687, -0.0781507, -0.0256868, 5.30638E-010, -1.5331E-010
8, 0.00000, -0.0871801, -0.0286552, -0.0871816, -0.0286559, -0.0871829, -0.0286561, 7.18062E-010, -2.1625E-010
9, 0.00000, -0.0892994, -0.0293512, -0.0892966, -0.0293506, -0.0892966, -0.0293503, 3.57767E-010, -2.27626E-010
10, 0.00000, -0.0918856, -0.0302012, -0.0918824, -0.0302006, -0.0918822, -0.0302001, 2.32957E-010, -2.44438E-010
11, 0.00000, -0.0925377, -0.0304156, -0.0925306, -0.0304137, -0.0925313, -0.0304135, -2.32236E-010, -2.37648E-010
12, 0.00000, -0.0918156, -0.0301783, -0.0918125, -0.0301776, -0.0918115, -0.030177, -2.53902E-010, -2.26066E-010
13, 0.00000, -0.0921979, -0.0303038, -0.0922009, -0.0303051, -0.0922006, -0.0303049, -1.14776E-010, -2.29828E-010
14, 0.00000, -0.0940171, -0.0309018, -0.094019, -0.0309027, -0.0940185, -0.0309024, 3.8409E-010, -2.60146E-010
15, 0.00000, -0.0979341, -0.0321879, -0.0979344, -0.032189, -0.0979328, -0.0321882, 8.47946E-010, -3.05907E-010
16, 0.00000, -0.107607, -0.035368, -0.107608, -0.0353692, -0.107609, -0.035369, 1.53234E-009, -4.23259E-010
17, 0.00000, -0.125114, -0.0411224, -0.125115, -0.0411237, -0.125116, -0.0411235, 2.61828E-009, -6.91738E-010
18, 0.00000, -0.139331, -0.0457956, -0.139333, -0.045797, -0.139334, -0.0457968, 3.81167E-009, -9.83828E-010
19, 0.00000, -0.144931, -0.047636, -0.144931, -0.0476372, -0.144931, -0.0476365, 4.38869E-009, -1.12156E-009
20, 0.00000, -0.148149, -0.0486962, -0.148148, -0.0486964, -0.148152, -0.0486964, 4.72188E-009, -1.20841E-009
21, 0.00000, -0.144382, -0.0474558, -0.144381, -0.0474564, -0.14438, -0.0474553, 4.24354E-009, -1.1037E-009
22, 0.00000, -0.132108, -0.0434216, -0.132106, -0.0434219, -0.132105, -0.0434206, 3.08612E-009, -8.24378E-010
23, 0.00000, -0.112119, -0.0368514, -0.112117, -0.0368514, -0.112115, -0.0368505, 1.75751E-009, -4.84312E-010
24, 0.00000, -0.0882711, -0.0290132, -0.0882701, -0.0290132, -0.0882693, -0.0290127, 8.17944E-010, -2.26816E-010
25, 0.00000, -0.0683135, -0.0224535, -0.0683116, -0.0224531, -0.068311, -0.0224527, 4.04835E-010, -1.04057E-010
26, 0.00000, -0.0578892, -0.0190273, -0.0578867, -0.0190266, -0.0578871, -0.0190265, 2.26616E-010, -6.27726E-011
27, 0.00000, -0.0530035, -0.0174214, -0.0530027, -0.0174212, -0.0530025, -0.0174211, 1.75752E-010, -4.69242E-011
28, 0.00000, -0.0513161, -0.0168668, -0.0513155, -0.0168667, -0.0513154, -0.0168666, 1.54312E-010, -4.22547E-011
29, 0.00000, -0.0534371, -0.0175638, -0.0534377, -0.0175642, -0.0534377, -0.0175641, 1.78672E-010, -4.73835E-011
30, 0.00000, -0.0616491, -0.0202629, -0.061651, -0.0202636, -0.0616511, -0.0202637, 2.77563E-010, -7.33373E-011
31, 0.00000, -0.0781494, -0.0256863, -0.0781509, -0.0256871, -0.0781506, -0.0256869, 6.07847E-010, -1.553E-010
32, 0.00000, -0.0871866, -0.0286567, -0.0871883, -0.0286575, -0.0871887, -0.0286575, 8.00615E-010, -2.19019E-010
33, 0.00000, -0.0892972, -0.0293504, -0.0892954, -0.0293502, -0.0892955, -0.0293499, 5.16126E-010, -2.31198E-010
34, 0.00000, -0.0918889, -0.0302023, -0.0918839, -0.0302011, -0.0918837, -0.0302006, 3.72588E-010, -2.51429E-010
35, 0.00000, -0.0925396, -0.0304163, -0.0925334, -0.0304146, -0.0925333, -0.0304141, 1.25921E-010, -2.51536E-010
36, 0.00000, -0.0918066, -0.0301752, -0.0918053, -0.0301752, -0.0918052, -0.0301748, 7.22745E-011, -2.39187E-010
37, 0.00000, -0.0921948, -0.0303027, -0.0921989, -0.0303044, -0.0921988, -0.0303043, 2.14975E-010, -2.41763E-010
38, 0.00000, -0.0940174, -0.0309019, -0.094019, -0.0309027, -0.0940186, -0.0309024, 5.51508E-010, -2.66981E-010
39, 0.00000, -0.0979233, -0.0321844, -0.097927, -0.0321865, -0.0979281, -0.0321867, 1.04282E-009, -3.11634E-010
40, 0.00000, -0.107607, -0.0353683, -0.107608, -0.0353694, -0.107609, -0.0353692, 1.63132E-009, -4.27899E-010
41, 0.00000, -0.125113, -0.0411224, -0.125115, -0.0411236, -0.125116, -0.0411236, 2.68311E-009, -6.94615E-010
42, 0.00000, -0.139329, -0.0457947, -0.139332, -0.0457965, -0.139333, -0.0457964, 3.99522E-009, -9.92222E-010
43, 0.00000, -0.144934, -0.0476367, -0.144929, -0.0476367, -0.14493, -0.0476358, 4.64341E-009, -1.1227E-009
44, 0.00000, -0.14813, -0.048687, -0.148167, -0.0487008, -0.148167, -0.0486999, 4.77837E-009, -1.10252E-009
45, 0.00000, -0.14438, -0.0474552, -0.144381, -0.0474564, -0.144381, -0.0474553, 4.59412E-009, -1.09596E-009
46, 0.00000, -0.132109, -0.0434218, -0.132108, -0.0434223, -0.132106, -0.043421, 3.38967E-009, -8.37081E-010
47, 0.00000, -0.112121, -0.0368519, -0.112118, -0.0368518, -0.112116, -0.0368507, 1.98183E-009, -4.95344E-010
48, 0.00000, -0.088272, -0.0290135, -0.088269, -0.0290129, -0.088269, -0.0290125, 9.35312E-010, -2.34419E-010
49, 0.00000, -0.0683112, -0.0224527, -0.0683095, -0.0224524, -0.0683097, -0.0224522, 3.90708E-010, -1.03835E-010
50, 0.00000, -0.0578914, -0.019028, -0.0578889, -0.0190273, -0.0578886, -0.019027, 2.36237E-010, -6.26099E-011
51, 0.00000, -0.0530044, -0.0174216, -0.0530031, -0.0174214, -0.053003, -0.0174212, 1.76327E-010, -4.71983E-011
52, 0.00000, -0.0513164, -0.0168668, -0.0513156, -0.0168667, -0.0513156, -0.0168666, 1.53074E-010, -4.22825E-011
53, 0.00000, -0.0534375, -0.017564, -0.0534379, -0.0175642, -0.0534379, -0.0175642, 1.73086E-010, -4.72869E-011
54, 0.00000, -0.0616446, -0.0202614, -0.0616486, -0.0202628, -0.0616488, -0.020263, 3.05156E-010, -7.30972E-011
55, 0.00000, -0.0781454, -0.0256839, -0.0781473, -0.0256853, -0.0781466, -0.0256849, 5.80006E-010, -1.53569E-010
56, 0.00000, -0.0871765, -0.0286532, -0.087183, -0.0286556, -0.0871838, -0.0286559, 8.70567E-010, -2.16843E-010
57, 0.00000, -0.0893082, -0.0293542, -0.0893016, -0.0293525, -0.0893011, -0.0293518, 7.57205E-010, -2.40632E-010
58, 0.00000, -0.0918878, -0.030202, -0.0918836, -0.0302011, -0.0918833, -0.0302005, 6.70387E-010, -2.5619E-010
59, 0.00000, -0.0925378, -0.0304157, -0.0925331, -0.0304146, -0.0925329, -0.030414, 5.38012E-010, -2.57465E-010
60, 0.00000, -0.0917952, -0.0301713, -0.0917996, -0.0301731, -0.0917997, -0.0301731, 6.47207E-010, -2.50263E-010
61, 0.00000, -0.0921974, -0.0303036, -0.0921998, -0.0303047, -0.0921998, -0.0303046, 7.33867E-010, -2.57658E-010
62, 0.00000, -0.094012, -0.0309, -0.0940154, -0.0309014, -0.0940156, -0.0309014, 8.62771E-010, -2.73851E-010
63, 0.00000, -0.0979256, -0.0321862, -0.0979304, -0.0321881, -0.0979308, -0.0321883, 1.08913E-009, -3.1564E-010
64, 0.00000, -0.107607, -0.0353682, -0.10761, -0.0353699, -0.10761, -0.0353697, 1.88338E-009, -4.35531E-010
65, 0.00000, -0.125112, -0.0411223, -0.125116, -0.041124, -0.125117, -0.0411241, 3.13417E-009, -7.15231E-010
66, 0.00000, -0.139067, -0.0457089, -0.139322, -0.0457939, -0.139328, -0.0457942, 3.26746E-009, -5.51002E-010
67, 0.00000, -0.143923, -0.0473046, -0.144927, -0.047636, -0.144928, -0.0476357, 8.2504E-010, 7.50667E-010
68, 0.00000, -0.14615, -0.0480357, -0.14817, -0.0487016, -0.148159, -0.0486982, -1.28355E-009, 2.75519E-009
69, 0.00000, -0.143513, -0.0471705, -0.144383, -0.0474569, -0.144387, -0.0474573, 1.21496E-009, 4.97533E-010
70, 0.00000, -0.132098, -0.0434182, -0.132125, -0.0434276, -0.132121, -0.0434271, 3.81179E-009, -7.93382E-010
71, 0.00000, -0.112122, -0.0368524, -0.112117, -0.0368515, -0.112116, -0.0368504, 2.18264E-009, -5.0771E-010
72, 0.00000, -0.0882731, -0.0290139, -0.0882692, -0.029013, -0.0882694, -0.0290126, 9.36095E-010, -2.35449E-010
73, 0.00000, -0.073242, -0.0240735, -0.0732361, -0.0240719, -0.0732352, -0.0240712, 5.18498E-010, -1.3238E-010
74, 0.00000, -0.0618419, -0.0203263, -0.0618374, -0.020325, -0.0618367, -0.0203247, 2.86095E-010, -7.7858E-011
75, 0.00000, -0.0556572, -0.0182936, -0.055656, -0.0182934, -0.0556558, -0.0182932, 2.0631E-010, -5.48143E-011
76, 0.00000, -0.0528175, -0.0173603, -0.0528165, -0.01736, -0.0528164, -0.0173599, 1.67093E-010, -4.63403E-011
77, 0.00000, -0.0527906, -0.0173514, -0.0527906, -0.0173515, -0.0527906, -0.0173514, 1.65814E-010, -4.57182E-011
78, 0.00000, -0.0555715, -0.0182654, -0.0555721, -0.0182657, -0.0555721, -0.0182656, 1.94782E-010, -5.32917E-011
79, 0.00000, -0.0619958, -0.0203769, -0.0619976, -0.0203776, -0.0619977, -0.0203776, 2.78166E-010, -7.4403E-011
80, 0.00000, -0.074153, -0.0243728, -0.0741554, -0.0243738, -0.0741559, -0.0243739, 4.5331E-010, -1.30016E-010
81, 0.00000, -0.0934273, -0.030708, -0.0934225, -0.0307068, -0.0934228, -0.0307065, 5.59998E-010, -2.66249E-010
82, 0.00000, -0.111316, -0.0365877, -0.111318, -0.0365888, -0.111319, -0.0365889, 8.83962E-010, -4.5363E-010
83, 0.00000, -0.120801, -0.0397052, -0.120794, -0.0397037, -0.120794, -0.0397026, 6.91185E-010, -5.78341E-010
84, 0.00000, -0.124392, -0.0408855, -0.124394, -0.0408866, -0.124394, -0.0408863, 8.03833E-010, -6.25857E-010
85, 0.00000, -0.126061, -0.0414342, -0.126068, -0.0414365, -0.126068, -0.0414368, 1.13946E-009, -6.60328E-010
86, 0.00000, -0.128493, -0.0422334, -0.128497, -0.0422352, -0.128496, -0.0422348, 2.06364E-009, -7.35003E-010
87, 0.00000, -0.130898, -0.0430238, -0.1309, -0.0430252, -0.130901, -0.043025, 3.17415E-009, -8.13472E-010
88, 0.00000, -0.133481, -0.0438727, -0.133484, -0.0438744, -0.133485, -0.0438742, 3.6292E-009, -8.70904E-010
89, 0.00000, -0.140183, -0.0460758, -0.140185, -0.0460771, -0.140185, -0.0460765, 4.18667E-009, -1.01862E-009
90, 0.00000, -0.143904, -0.0472968, -0.143905, -0.0472986, -0.143904, -0.0472977, 4.41157E-009, -1.10052E-009
91, 0.00000, -0.143172, -0.0470569, -0.143168, -0.047057, -0.143165, -0.0470551, 4.31294E-009, -1.0849E-009
92, 0.00000, -0.142592, -0.0468693, -0.142595, -0.0468707, -0.142598, -0.0468709, 4.33173E-009, -1.07225E-009
93, 0.00000, -0.137202, -0.0450955, -0.1372, -0.0450961, -0.137199, -0.045095, 3.95863E-009, -9.54357E-010
94, 0.00000, -0.126632, -0.0416213, -0.126628, -0.0416212, -0.126627, -0.04162, 3.09324E-009, -7.39552E-010
95, 0.00000, -0.111421, -0.036622, -0.111418, -0.0366217, -0.111417, -0.036621, 2.12647E-009, -4.95828E-010
96, 0.00000, -0.092837, -0.0305139, -0.0928337, -0.0305133, -0.0928337, -0.0305129, 1.14422E-009, -2.76958E-010
97, 0.00000, -0.0748714, -0.024609, -0.0748693, -0.0246085, -0.0748695, -0.0246083, 5.30961E-010, -1.38721E-010
98, 0.00000, -0.0629823, -0.0207013, -0.0629786, -0.0207003, -0.0629781, -0.0206999, 3.01903E-010, -8.16071E-011
99, 0.00000, -0.0560862, -0.0184346, -0.0560848, -0.0184343, -0.0560846, -0.0184341, 2.11775E-010, -5.62345E-011
100, 0.00000, -0.0526539, -0.0173065, -0.0526527, -0.0173062, -0.0526526, -0.0173061, 1.65697E-010, -4.59763E-011
101, 0.00000, -0.0516003, -0.01696, -0.0516008, -0.0169603, -0.0516007, -0.0169603, 1.59503E-010, -4.25546E-011
102, 0.00000, -0.0533091, -0.0175219, -0.053309, -0.017522, -0.0533092, -0.0175219, 1.70509E-010, -4.72063E-011
103, 0.00000, -0.0588739, -0.0193508, -0.0588753, -0.0193514, -0.0588754, -0.0193514, 2.34341E-010, -6.3399E-011
104, 0.00000, -0.0685134, -0.0225192, -0.0685147, -0.0225198, -0.0685149, -0.0225198, 3.46532E-010, -1.01783E-010
105, 0.00000, -0.0866071, -0.0284664, -0.0866028, -0.0284653, -0.0866031, -0.028465, 4.08743E-010, -2.09457E-010
106, 0.00000, -0.105835, -0.0347876, -0.105831, -0.0347864, -0.105835, -0.034787, 5.71484E-010, -3.86265E-010
107, 0.00000, -0.118003, -0.0387855, -0.117991, -0.0387827, -0.117992, -0.0387817, -1.18708E-010, -5.03478E-010
108, 0.00000, -0.122763, -0.0403505, -0.122756, -0.0403489, -0.122757, -0.0403485, -7.69795E-010, -5.16545E-010
109, 0.00000, -0.125784, -0.0413433, -0.125788, -0.0413446, -0.12579, -0.0413452, -7.78957E-010, -5.45657E-010
110, 0.00000, -0.127826, -0.0420141, -0.127833, -0.0420169, -0.127833, -0.0420169, 1.03171E-009, -6.68722E-010
111, 0.00000, -0.127175, -0.0418002, -0.127176, -0.0418011, -0.127176, -0.0418007, 1.9614E-009, -7.02166E-010
112, 0.00000, -0.126076, -0.0414388, -0.126079, -0.0414406, -0.126081, -0.0414406, 2.49703E-009, -6.99167E-010
113, 0.00000, -0.131336, -0.0431678, -0.131337, -0.0431689, -0.131337, -0.0431683, 2.90202E-009, -8.01243E-010
114, 0.00000, -0.138326, -0.0454652, -0.138327, -0.0454665, -0.138328, -0.045466, 3.49213E-009, -9.49783E-010
115, 0.00000, -0.141734, -0.0465855, -0.141735, -0.0465866, -0.141735, -0.0465859, 3.82986E-009, -1.03054E-009
116, 0.00000, -0.145999, -0.047987, -0.145999, -0.0479883, -0.146, -0.0479876, 4.2791E-009, -1.13743E-009
117, 0.00000, -0.142696, -0.0469016, -0.142692, -0.0469013, -0.14269, -0.0468995, 4.04468E-009, -1.06304E-009
118, 0.00000, -0.129667, -0.0426189, -0.129664, -0.0426189, -0.129662, -0.0426176, 2.90869E-009, -7.7674E-010
119, 0.00000, -0.109228, -0.0359011, -0.109225, -0.0359008, -0.109223, -0.0358997, 1.65642E-009, -4.47627E-010
120, 0.00000, -0.0854888, -0.0280987, -0.0854868, -0.0280984, -0.0854867, -0.028098, 8.34242E-010, -2.10656E-010
121, 0.00000, -0.0683109, -0.0224527, -0.0683095, -0.0224524, -0.0683096, -0.0224522, 3.89471E-010, -1.03603E-010
122, 0.00000, -0.0578913, -0.0190279, -0.0578889, -0.0190273, -0.0578886, -0.019027, 2.36207E-010, -6.25904E-011
123, 0.00000, -0.0530049, -0.0174218, -0.0530034, -0.0174215, -0.0530032, -0.0174213, 1.70673E-010, -4.71537E-011
124, 0.00000, -0.0513169, -0.016867, -0.0513166, -0.016867, -0.0513163, -0.0168668, 1.58049E-010, -4.21274E-011
125, 0.00000, -0.0534355, -0.0175634, -0.0534358, -0.0175636, -0.0534362, -0.0175637, 1.71096E-010, -4.74375E-011
126, 0.00000, -0.0616481, -0.0202626, -0.0616504, -0.0202635, -0.0616506, -0.0202636, 2.71474E-010, -7.27916E-011
127, 0.00000, -0.078149, -0.0256862, -0.0781508, -0.025687, -0.0781505, -0.0256868, 6.25921E-010, -1.55794E-010
128, 0.00000, -0.0871882, -0.0286573, -0.0871892, -0.0286579, -0.0871895, -0.0286578, 8.03722E-010, -2.19767E-010
129, 0.00000, -0.0892974, -0.0293505, -0.0892953, -0.0293502, -0.0892955, -0.0293499, 4.56439E-010, -2.28042E-010
130, 0.00000, -0.091888, -0.030202, -0.0918836, -0.0302009, -0.0918832, -0.0302004, 2.68564E-010, -2.44094E-010
131, 0.00000, -0.0925343, -0.0304144, -0.0925269, -0.0304123, -0.0925285, -0.0304126, -4.42098E-010, -2.26319E-010
132, 0.00000, -0.0918055, -0.0301748, -0.0918038, -0.0301745, -0.0918042, -0.0301745, -5.43115E-010, -2.07731E-010
133, 0.00000, -0.0922032, -0.0303055, -0.0922022, -0.0303055, -0.0922024, -0.0303054, -5.9775E-010, -2.05448E-010
134, 0.00000, -0.0940163, -0.0309015, -0.0940192, -0.0309028, -0.0940185, -0.0309024, 1.36864E-010, -2.49846E-010
135, 0.00000, -0.0979355, -0.0321897, -0.0979361, -0.0321903, -0.0979361, -0.03219, 6.00178E-010, -2.9891E-010
136, 0.00000, -0.107609, -0.0353683, -0.10761, -0.0353695, -0.107609, -0.0353689, 1.3813E-009, -4.15898E-010
137, 0.00000, -0.125116, -0.0411231, -0.125117, -0.0411242, -0.125117, -0.0411238, 2.3508E-009, -6.78829E-010
138, 0.00000, -0.139334, -0.0457961, -0.139335, -0.0457974, -0.139335, -0.0457969, 3.43827E-009, -9.65249E-010
139, 0.00000, -0.144932, -0.0476362, -0.144932, -0.0476373, -0.144932, -0.0476366, 3.97439E-009, -1.10032E-009
140, 0.00000, -0.148147, -0.0486968, -0.14815, -0.048698, -0.148153, -0.0486983, 4.28912E-009, -1.18127E-009
141, 0.00000, -0.144402, -0.0474593, -0.144397, -0.0474596, -0.144393, -0.0474575, 3.98347E-009, -1.09228E-009
142, 0.00000, -0.132107, -0.0434212, -0.132105, -0.0434215, -0.132104, -0.0434205, 2.87487E-009, -8.13197E-010
143, 0.00000, -0.112117, -0.0368509, -0.112115, -0.036851, -0.112115, -0.0368504, 1.61617E-009, -4.77233E-010
144, 0.00000, -0.0882697, -0.0290127, -0.088269, -0.0290128, -0.0882688, -0.0290125, 7.43445E-010, -2.23545E-010
145, 0.00000, -0.0683119, -0.0224529, -0.0683107, -0.0224528, -0.0683103, -0.0224525, 4.03347E-010, -1.0362E-010
146, 0.00000, -0.0578892, -0.0190273, -0.0578867, -0.0190266, -0.0578871, -0.0190265, 2.26573E-010, -6.27707E-011
147, 0.00000, -0.0530035, -0.0174214, -0.0530027, -0.0174212, -0.0530025, -0.0174211, 1.7572E-010, -4.69229E-011
148, 0.00000, -0.0513231, -0.0168691, -0.0513214, -0.0168687, -0.0513206, -0.0168683, 1.60297E-010, -4.2697E-011
149, 0.00000, -0.0534375, -0.017564, -0.0534379, -0.0175642, -0.0534379, -0.0175642, 1.78806E-010, -4.75149E-011
150, 0.00000, -0.0616492, -0.0202629, -0.061651, -0.0202636, -0.0616511, -0.0202637, 2.77024E-010, -7.33355E-011
151, 0.00000, -0.0781494, -0.0256863, -0.0781509, -0.0256871, -0.0781506, -0.0256869, 6.07178E-010, -1.5527E-010
152, 0.00000, -0.087186, -0.0286573, -0.0871847, -0.028657, -0.0871864, -0.0286572, 7.52203E-010, -2.21802E-010
153, 0.00000, -0.0893121, -0.0293554, -0.0893033, -0.029353, -0.0893025, -0.0293522, 4.32735E-010, -2.3606E-010
154, 0.00000, -0.091882, -0.0302, -0.0918807, -0.0302, -0.0918806, -0.0301996, 3.93378E-010, -2.49325E-010
155, 0.00000, -0.0925391, -0.030416, -0.0925333, -0.0304146, -0.092533, -0.030414, 1.22698E-010, -2.50436E-010
156, 0.00000, -0.0918061, -0.0301751, -0.0918051, -0.0301751, -0.0918049, -0.0301748, 7.47263E-011, -2.38816E-010
157, 0.00000, -0.0921974, -0.0303036, -0.0922001, -0.0303048, -0.0922001, -0.0303047, 1.91883E-010, -2.41285E-010
158, 0.00000, -0.0940177, -0.030902, -0.094019, -0.0309027, -0.0940187, -0.0309024, 5.40053E-010, -2.66594E-010
159, 0.00000, -0.0979254, -0.0321852, -0.0979285, -0.0321871, -0.0979293, -0.0321872, 1.04856E-009, -3.12145E-010
160, 0.00000, -0.107607, -0.0353682, -0.107608, -0.0353693, -0.107609, -0.0353692, 1.65015E-009, -4.28728E-010
161, 0.00000, -0.125112, -0.0411221, -0.125115, -0.0411235, -0.125116, -0.0411235, 2.7582E-009, -6.98084E-010
162, 0.00000, -0.13933, -0.0457952, -0.139332, -0.0457968, -0.139333, -0.0457966, 4.0036E-009, -9.9282E-010
163, 0.00000, -0.144913, -0.0476279, -0.144917, -0.0476308, -0.144918, -0.047631, 4.42175E-009, -1.12008E-009
164, 0.00000, -0.14817, -0.0487, -0.148166, -0.0487005, -0.148166, -0.0486996, 4.88967E-009, -1.18917E-009
165, 0.00000, -0.14438, -0.0474551, -0.144381, -0.0474563, -0.14438, -0.0474553, 4.51067E-009, -1.10843E-009
166, 0.00000, -0.132109, -0.0434215, -0.132107, -0.0434219, -0.132105, -0.0434206, 3.42813E-009, -8.40919E-010
167, 0.00000, -0.112121, -0.0368519, -0.112118, -0.0368518, -0.112116, -0.0368506, 2.01511E-009, -4.96898E-010
168, 0.00000, -0.0882722, -0.0290135, -0.0882691, -0.0290129, -0.0882691, -0.0290125, 9.3552E-010, -2.34598E-010
169, 0.00000, -0.0683112, -0.0224527, -0.0683095, -0.0224524, -0.0683097, -0.0224522, 3.89825E-010, -1.03803E-010
170, 0.00000, -0.0578913, -0.0190279, -0.0578889, -0.0190273, -0.0578886, -0.019027, 2.36197E-010, -6.25917E-011
171, 0.00000, -0.053005, -0.0174219, -0.0530034, -0.0174215, -0.0530033, -0.0174213, 1.69915E-010, -4.71471E-011
172, 0.00000, -0.0513156, -0.0168665, -0.0513156, -0.0168666, -0.0513153, -0.0168665, 1.5805E-010, -4.20211E-011
173, 0.00000, -0.0534318, -0.0175621, -0.053433, -0.0175626, -0.0534336, -0.0175628, 1.73926E-010, -4.72252E-011
174, 0.00000, -0.0616476, -0.0202625, -0.0616502, -0.0202634, -0.0616503, -0.0202635, 2.81589E-010, -7.3043E-011
175, 0.00000, -0.0781386, -0.0256824, -0.0781444, -0.0256843, -0.0781449, -0.025685, 6.02501E-010, -1.52978E-010
176, 0.00000, -0.087185, -0.0286561, -0.0871875, -0.0286572, -0.0871879, -0.0286573, 8.24513E-010, -2.19394E-010
177, 0.00000, -0.0892974, -0.0293505, -0.0892954, -0.0293502, -0.0892955, -0.0293499, 4.0415E-010, -2.27939E-010
178, 0.00000, -0.0918887, -0.0302023, -0.0918837, -0.030201, -0.0918835, -0.0302005, 2.1793E-010, -2.45714E-010
