hour, t(sec), P1 (kW), Q1 (kvar), P2 (kW), Q2 (kvar), P3 (kW), Q3 (kvar), P4 (kW), Q4 (kvar)
1, 0.00000, -0.393174, -0.161652, -0.393167, -0.161807, -0.393207, -0.16177, 1.77314E-009, -8.80408E-010
2, 0.00000, -0.38454, -0.137194, -0.384538, -0.137196, -0.384535, -0.137192, 1.84461E-009, -5.82058E-010
3, 0.00000, -0.35722, -0.125551, -0.357209, -0.125563, -0.357212, -0.125575, 1.42588E-009, -5.12977E-010
4, 0.00000, -0.361723, -0.121625, -0.36172, -0.121624, -0.361717, -0.121623, 1.45816E-009, -4.52694E-010
5, 0.00000, -0.370392, -0.126671, -0.370393, -0.126671, -0.370389, -0.126663, 1.58517E-009, -4.78747E-010
6, 0.00000, -0.368383, -0.146121, -0.368385, -0.14613, -0.368383, -0.146117, 1.71281E-009, -5.61884E-010
7, 0.00000, -0.421721, -0.185208, -0.421717, -0.185218, -0.421715, -0.185215, 2.93614E-009, -1.02874E-009
8, 0.00000, -0.448586, -0.206664, -0.448587, -0.206671, -0.448582, -0.206653, 3.65935E-009, -1.27275E-009
9, 0.00000, -0.167106, -0.211631, -0.16707, -0.211623, -0.167081, -0.211642, 4.07103E-010, -4.46654E-010
10, 0.00000, -0.0388679, -0.217753, -0.0388451, -0.217744, -0.0388464, -0.217759, 1.03678E-010, -2.94775E-010
11, 0.00000, 0.467325, -0.219231, 0.467364, -0.219212, 0.467359, -0.219271, -2.18559E-009, -1.23737E-009
12, 0.00000, 0.500276, -0.217548, 0.500296, -0.217539, 0.500305, -0.217553, -2.45485E-009, -1.45009E-009
13, 0.00000, 0.296553, -0.218542, 0.296539, -0.218555, 0.296546, -0.218529, -5.95007E-010, -6.88129E-010
14, 0.00000, -0.138983, -0.222823, -0.138998, -0.222829, -0.138992, -0.222819, 3.64837E-010, -3.49947E-010
15, 0.00000, -0.365222, -0.231629, -0.365223, -0.231946, -0.365308, -0.231824, 1.43056E-009, -1.10931E-009
16, 0.00000, -0.536143, -0.254982, -0.536136, -0.255022, -0.536136, -0.255007, 7.0019E-009, -2.43537E-009
17, 0.00000, -0.62077, -0.296511, -0.62076, -0.296532, -0.620754, -0.296523, 1.18582E-008, -3.88964E-009
18, 0.00000, -0.664629, -0.330219, -0.664617, -0.330235, -0.664609, -0.330226, 1.58193E-008, -5.11211E-009
19, 0.00000, -0.680197, -0.343492, -0.680185, -0.343503, -0.680176, -0.343494, 1.75339E-008, -5.62764E-009
20, 0.00000, -0.687915, -0.351181, -0.687904, -0.351187, -0.687892, -0.351174, 1.85297E-008, -5.9074E-009
21, 0.00000, -0.646097, -0.342198, -0.646088, -0.342199, -0.646079, -0.342191, 1.5519E-008, -5.09642E-009
22, 0.00000, -0.598587, -0.313104, -0.59858, -0.313104, -0.598572, -0.313096, 1.16789E-008, -3.90483E-009
23, 0.00000, -0.536623, -0.265731, -0.536617, -0.265727, -0.53661, -0.265721, 7.52825E-009, -2.536E-009
24, 0.00000, -0.491282, -0.209212, -0.491278, -0.209209, -0.491271, -0.209203, 4.79762E-009, -1.55526E-009
25, 0.00000, -0.525997, -0.1619, -0.525988, -0.161904, -0.525981, -0.161898, 4.66906E-009, -1.31918E-009
26, 0.00000, -0.417914, -0.137181, -0.417823, -0.137174, -0.417843, -0.137208, 2.42892E-009, -9.30567E-010
27, 0.00000, -0.415739, -0.125615, -0.415726, -0.125616, -0.415721, -0.125617, 2.1539E-009, -6.39832E-010
28, 0.00000, -0.384255, -0.121615, -0.384238, -0.121615, -0.384236, -0.121618, 1.72562E-009, -5.42764E-010
29, 0.00000, -0.419685, -0.126654, -0.419698, -0.12666, -0.419695, -0.12665, 2.14529E-009, -5.95873E-010
30, 0.00000, -0.461519, -0.146123, -0.461546, -0.146134, -0.461544, -0.146118, 2.97465E-009, -8.21843E-010
31, 0.00000, -0.564839, -0.185223, -0.564856, -0.185233, -0.564846, -0.185219, 6.08971E-009, -1.68917E-009
32, 0.00000, -0.561653, -0.206643, -0.561659, -0.206654, -0.561659, -0.206644, 6.33712E-009, -1.9694E-009
33, 0.00000, -0.307826, -0.211629, -0.307807, -0.211627, -0.30781, -0.211634, 1.34723E-009, -7.98301E-010
34, 0.00000, -0.196516, -0.217751, -0.196476, -0.217739, -0.196478, -0.21776, 5.17991E-010, -5.55699E-010
35, 0.00000, 0.00141801, -0.219277, 0.00146602, -0.219259, 0.00146144, -0.219295, -2.32659E-011, -3.25499E-010
36, 0.00000, 0.0473345, -0.217573, 0.0473449, -0.21757, 0.047345, -0.217577, -4.01946E-011, -2.72756E-010
37, 0.00000, -0.0962977, -0.218523, -0.0963334, -0.218538, -0.0963303, -0.218514, 1.61738E-010, -2.40263E-010
38, 0.00000, -0.312534, -0.222824, -0.312548, -0.22283, -0.312542, -0.222821, 1.35586E-009, -8.01037E-010
39, 0.00000, -0.516414, -0.231703, -0.516413, -0.231949, -0.516442, -0.231855, 4.69619E-009, -2.10219E-009
40, 0.00000, -0.612923, -0.255017, -0.612914, -0.255038, -0.612908, -0.255028, 9.84868E-009, -3.09491E-009
41, 0.00000, -0.654108, -0.296528, -0.654097, -0.29654, -0.654089, -0.296532, 1.352E-008, -4.26388E-009
42, 0.00000, -0.732933, -0.330215, -0.732919, -0.330235, -0.732908, -0.330223, 2.00737E-008, -6.10978E-009
43, 0.00000, -0.770649, -0.34349, -0.770634, -0.343506, -0.770622, -0.343493, 2.37637E-008, -7.07215E-009
44, 0.00000, -0.79078, -0.351164, -0.790764, -0.35118, -0.790751, -0.351165, 2.59552E-008, -7.65668E-009
45, 0.00000, -0.779504, -0.342191, -0.779489, -0.342203, -0.779476, -0.342189, 2.43824E-008, -7.17382E-009
46, 0.00000, -0.729097, -0.313105, -0.729084, -0.313111, -0.729074, -0.313099, 1.87847E-008, -5.58532E-009
47, 0.00000, -0.686529, -0.265726, -0.686518, -0.265733, -0.686509, -0.265721, 1.37385E-008, -4.01145E-009
48, 0.00000, -0.638663, -0.209203, -0.638626, -0.209205, -0.63862, -0.209206, 9.45679E-009, -2.70859E-009
49, 0.00000, -0.494945, -0.161894, -0.494914, -0.161895, -0.494915, -0.161901, 4.02434E-009, -1.24672E-009
50, 0.00000, -0.450888, -0.137189, -0.450847, -0.137184, -0.450839, -0.137195, 2.90207E-009, -8.94758E-010
51, 0.00000, -0.41562, -0.125613, -0.415594, -0.125611, -0.41559, -0.125617, 2.18442E-009, -6.71204E-010
52, 0.00000, -0.377082, -0.121614, -0.377063, -0.121613, -0.377061, -0.121618, 1.6509E-009, -5.31111E-010
53, 0.00000, -0.392661, -0.126652, -0.392667, -0.126657, -0.392665, -0.12665, 1.81573E-009, -5.37094E-010
54, 0.00000, -0.559987, -0.146128, -0.560074, -0.146151, -0.56007, -0.146113, 4.82324E-009, -1.06121E-009
55, 0.00000, -0.517308, -0.184773, -0.517304, -0.185039, -0.517342, -0.184962, 3.9697E-009, -1.74876E-009
56, 0.00000, -0.629819, -0.20664, -0.629907, -0.206671, -0.629909, -0.206633, 8.42059E-009, -2.17848E-009
57, 0.00000, -0.477367, -0.211637, -0.477277, -0.211619, -0.477273, -0.211646, 4.39195E-009, -1.7857E-009
58, 0.00000, -0.360746, -0.217755, -0.360689, -0.217743, -0.360689, -0.217764, 2.20057E-009, -1.14319E-009
59, 0.00000, -0.228321, -0.219288, -0.228266, -0.219273, -0.228267, -0.2193, 8.81076E-010, -6.73749E-010
60, 0.00000, -0.442972, -0.21757, -0.443053, -0.217597, -0.443048, -0.217559, 2.87592E-009, -1.156E-009
61, 0.00000, -0.501007, -0.21852, -0.501036, -0.218533, -0.501031, -0.218516, 4.25141E-009, -1.64962E-009
62, 0.00000, -0.52423, -0.222827, -0.524255, -0.22284, -0.524252, -0.222824, 5.18012E-009, -1.85234E-009
63, 0.00000, -0.645294, -0.2321, -0.64536, -0.232127, -0.645356, -0.232098, 9.02943E-009, -2.78787E-009
64, 0.00000, -0.798032, -0.255045, -0.798061, -0.255066, -0.798042, -0.255042, 1.96036E-008, -4.98318E-009
65, 0.00000, -0.869358, -0.296563, -0.869341, -0.296562, -0.869326, -0.296558, 2.84809E-008, -7.39072E-009
66, 0.00000, -0.924321, -0.330233, -0.9243, -0.33025, -0.924282, -0.330234, 3.68647E-008, -9.59514E-009
67, 0.00000, -0.92757, -0.343506, -0.927548, -0.343522, -0.927529, -0.343503, 3.853E-008, -1.01646E-008
68, 0.00000, -0.98696, -0.351163, -0.986934, -0.35119, -0.986912, -0.351167, 4.6497E-008, -1.19524E-008
69, 0.00000, -0.920278, -0.342208, -0.920255, -0.342221, -0.920237, -0.342202, 3.76097E-008, -9.94137E-009
70, 0.00000, -0.958141, -0.31313, -0.958161, -0.313161, -0.958133, -0.313123, 3.86028E-008, -9.39053E-009
71, 0.00000, -0.809716, -0.265729, -0.809636, -0.265727, -0.809627, -0.265731, 2.17257E-008, -5.8774E-009
72, 0.00000, -0.637112, -0.209203, -0.637054, -0.209202, -0.637053, -0.20921, 9.4643E-009, -2.77645E-009
73, 0.00000, -0.561659, -0.17356, -0.561576, -0.173546, -0.56156, -0.173567, 6.152E-009, -1.84962E-009
74, 0.00000, -0.446364, -0.146538, -0.446283, -0.146523, -0.446275, -0.146552, 3.06892E-009, -1.04544E-009
75, 0.00000, -0.434743, -0.131902, -0.434724, -0.131901, -0.434718, -0.131905, 2.51459E-009, -7.51987E-010
76, 0.00000, -0.381304, -0.125169, -0.381277, -0.125167, -0.381275, -0.125175, 1.74685E-009, -5.75678E-010
77, 0.00000, -0.382883, -0.125116, -0.382881, -0.12512, -0.38288, -0.125116, 1.70327E-009, -5.21268E-010
78, 0.00000, -0.400826, -0.131711, -0.400834, -0.131716, -0.400832, -0.131708, 1.95981E-009, -5.80614E-010
79, 0.00000, -0.449608, -0.146944, -0.449636, -0.146956, -0.449635, -0.146939, 2.7834E-009, -7.79465E-010
80, 0.00000, -0.469095, -0.175755, -0.469117, -0.175769, -0.46912, -0.175754, 3.44358E-009, -1.09501E-009
81, 0.00000, -0.235907, -0.221399, -0.235845, -0.221384, -0.235852, -0.221414, 9.36199E-010, -7.20515E-010
82, 0.00000, -0.345411, -0.263814, -0.345433, -0.263832, -0.345438, -0.263821, 1.89225E-009, -1.23377E-009
83, 0.00000, -0.17262, -0.286279, -0.172579, -0.286261, -0.172579, -0.286281, 6.2772E-010, -9.07735E-010
84, 0.00000, -0.216599, -0.29481, -0.216608, -0.294818, -0.216608, -0.294812, 8.4953E-010, -9.77312E-010
85, 0.00000, -0.341093, -0.298775, -0.341129, -0.298797, -0.34113, -0.29878, 2.00742E-009, -1.49568E-009
86, 0.00000, -0.583948, -0.304536, -0.583965, -0.304551, -0.583956, -0.304538, 8.39807E-009, -3.55934E-009
87, 0.00000, -0.768379, -0.310263, -0.768365, -0.31026, -0.768353, -0.310259, 2.04622E-008, -6.14235E-009
88, 0.00000, -0.789412, -0.316365, -0.789397, -0.316381, -0.789384, -0.316369, 2.32346E-008, -6.62613E-009
89, 0.00000, -0.767626, -0.332255, -0.767612, -0.332265, -0.7676, -0.332253, 2.27599E-008, -6.69216E-009
90, 0.00000, -0.720355, -0.340962, -0.72034, -0.341005, -0.720329, -0.340986, 1.98173E-008, -6.21351E-009
91, 0.00000, -0.700375, -0.339252, -0.700363, -0.339274, -0.700353, -0.339257, 1.84876E-008, -5.81876E-009
92, 0.00000, -0.744549, -0.338078, -0.744538, -0.338062, -0.744527, -0.33806, 2.15908E-008, -6.44393E-009
93, 0.00000, -0.779268, -0.325165, -0.779253, -0.325181, -0.779241, -0.325166, 2.30959E-008, -6.69067E-009
94, 0.00000, -0.781722, -0.30011, -0.781707, -0.300124, -0.781694, -0.300108, 2.15405E-008, -6.05256E-009
95, 0.00000, -0.805807, -0.264071, -0.805778, -0.26408, -0.805763, -0.26407, 2.10497E-008, -5.55025E-009
96, 0.00000, -0.702953, -0.220024, -0.702905, -0.220026, -0.702899, -0.220028, 1.27236E-008, -3.50249E-009
97, 0.00000, -0.54007, -0.177442, -0.540032, -0.177443, -0.540033, -0.177449, 5.39874E-009, -1.64481E-009
98, 0.00000, -0.454483, -0.149247, -0.454419, -0.149237, -0.45441, -0.149257, 3.1936E-009, -1.05251E-009
99, 0.00000, -0.437842, -0.132918, -0.437819, -0.132916, -0.437813, -0.132921, 2.58405E-009, -7.7649E-010
100, 0.00000, -0.380577, -0.12478, -0.380548, -0.124778, -0.380545, -0.124787, 1.7413E-009, -5.77351E-010
101, 0.00000, -0.405341, -0.122319, -0.405367, -0.122326, -0.40537, -0.122312, 1.8675E-009, -5.04332E-010
102, 0.00000, -0.384773, -0.126328, -0.384751, -0.126329, -0.384747, -0.126334, 1.78655E-009, -5.80428E-010
103, 0.00000, -0.424837, -0.139543, -0.424859, -0.139552, -0.424858, -0.139538, 2.33016E-009, -6.64701E-010
104, 0.00000, -0.428187, -0.162383, -0.428196, -0.162392, -0.428198, -0.162384, 2.59492E-009, -8.58495E-010
105, 0.00000, -0.188203, -0.205232, -0.188147, -0.20522, -0.188155, -0.205249, 5.63271E-010, -5.06278E-010
106, 0.00000, -0.131479, -0.250691, -0.131432, -0.250702, -0.131446, -0.250733, 4.04316E-010, -5.87065E-010
107, 0.00000, 0.357722, -0.279595, 0.35777, -0.279564, 0.357764, -0.279623, -1.23302E-009, -1.32448E-009
108, 0.00000, 0.901482, -0.290825, 0.901513, -0.29082, 0.90152, -0.290875, -1.11155E-008, -5.31521E-009
109, 0.00000, 0.863942, -0.298181, 0.863949, -0.298225, 0.863961, -0.298196, -9.71152E-009, -5.19755E-009
110, 0.00000, -0.126235, -0.302957, -0.126271, -0.302978, -0.126262, -0.302954, 7.51523E-010, -7.20706E-010
111, 0.00000, -0.394105, -0.301422, -0.394097, -0.301411, -0.394093, -0.301426, 4.10558E-009, -1.98601E-009
112, 0.00000, -0.530729, -0.298784, -0.530723, -0.298811, -0.530719, -0.298796, 8.2927E-009, -2.98277E-009
113, 0.00000, -0.549068, -0.311271, -0.549061, -0.311279, -0.549055, -0.311273, 9.50794E-009, -3.36014E-009
114, 0.00000, -0.574383, -0.327839, -0.574376, -0.327848, -0.574369, -0.327841, 1.12253E-008, -3.9242E-009
115, 0.00000, -0.590581, -0.335915, -0.590573, -0.335924, -0.590566, -0.335916, 1.23266E-008, -4.26553E-009
116, 0.00000, -0.610953, -0.346022, -0.610944, -0.346032, -0.610937, -0.346023, 1.38172E-008, -4.72721E-009
117, 0.00000, -0.624848, -0.338202, -0.624839, -0.338197, -0.624831, -0.338189, 1.41903E-008, -4.71119E-009
118, 0.00000, -0.596334, -0.307304, -0.596326, -0.307309, -0.596319, -0.3073, 1.12999E-008, -3.78108E-009
119, 0.00000, -0.558925, -0.258864, -0.558919, -0.258867, -0.558913, -0.25886, 8.03116E-009, -2.6393E-009
120, 0.00000, -0.616728, -0.202609, -0.61671, -0.202613, -0.616701, -0.202609, 8.36295E-009, -2.37342E-009
121, 0.00000, -0.492697, -0.161894, -0.49267, -0.161896, -0.49267, -0.1619, 3.96812E-009, -1.22444E-009
122, 0.00000, -0.450932, -0.137189, -0.450891, -0.137184, -0.450884, -0.137195, 2.9004E-009, -8.92372E-010
123, 0.00000, -0.387296, -0.12561, -0.387261, -0.125606, -0.387258, -0.125617, 1.84319E-009, -6.12656E-010
124, 0.00000, -0.403357, -0.121633, -0.403367, -0.121636, -0.403364, -0.121628, 1.89653E-009, -5.29405E-010
125, 0.00000, -0.385423, -0.126633, -0.385407, -0.126636, -0.385405, -0.126639, 1.77405E-009, -5.73887E-010
126, 0.00000, -0.444555, -0.146123, -0.444591, -0.146136, -0.44459, -0.146117, 2.66754E-009, -7.37953E-010
127, 0.00000, -0.596946, -0.185224, -0.596969, -0.185236, -0.596957, -0.185218, 7.04164E-009, -1.86783E-009
128, 0.00000, -0.562399, -0.206644, -0.562388, -0.206652, -0.562388, -0.206648, 6.42938E-009, -2.02937E-009
129, 0.00000, -0.203736, -0.211628, -0.203715, -0.211624, -0.20372, -0.211634, 6.52613E-010, -4.94844E-010
130, 0.00000, -0.000752063, -0.217758, -0.000723904, -0.217744, -0.000724441, -0.217763, 9.90843E-011, -2.89901E-010
131, 0.00000, 0.866592, -0.219115, 0.866624, -0.21911, 0.866627, -0.219193, -9.82629E-009, -3.38794E-009
132, 0.00000, 1.10314, -0.217541, 1.10317, -0.217557, 1.10318, -0.217566, -1.77832E-008, -5.5016E-009
133, 0.00000, 1.24555, -0.218514, 1.24557, -0.218535, 1.2456, -0.218531, -2.39818E-008, -6.91524E-009
134, 0.00000, 0.115592, -0.222828, 0.115576, -0.222837, 0.115585, -0.222818, 2.19849E-011, -3.19154E-010
135, 0.00000, -0.176577, -0.232147, -0.176549, -0.232089, -0.176529, -0.232153, 7.6773E-010, -6.21523E-010
136, 0.00000, -0.409114, -0.254919, -0.409109, -0.255, -0.409129, -0.254972, 3.63659E-009, -1.55214E-009
137, 0.00000, -0.477669, -0.296501, -0.477661, -0.296525, -0.477662, -0.296519, 6.53651E-009, -2.51093E-009
138, 0.00000, -0.520571, -0.330208, -0.520563, -0.330227, -0.52056, -0.330221, 9.12808E-009, -3.40731E-009
139, 0.00000, -0.540092, -0.343484, -0.540084, -0.343496, -0.54008, -0.343489, 1.04615E-008, -3.83456E-009
140, 0.00000, -0.554341, -0.351226, -0.554338, -0.351218, -0.554326, -0.351203, 1.15087E-008, -4.07269E-009
141, 0.00000, -0.547798, -0.342153, -0.547788, -0.342164, -0.547785, -0.342165, 1.07252E-008, -3.92588E-009
142, 0.00000, -0.505506, -0.313108, -0.505502, -0.313101, -0.505494, -0.313096, 8.08278E-009, -2.94595E-009
143, 0.00000, -0.437037, -0.265743, -0.437036, -0.265727, -0.437026, -0.265724, 4.83563E-009, -1.7875E-009
144, 0.00000, -0.392348, -0.209222, -0.392349, -0.209209, -0.39234, -0.209204, 2.88089E-009, -1.02984E-009
145, 0.00000, -0.525985, -0.161896, -0.525981, -0.161902, -0.525975, -0.161897, 4.64731E-009, -1.31175E-009
146, 0.00000, -0.417749, -0.137181, -0.417658, -0.137174, -0.417677, -0.137208, 2.42646E-009, -9.29941E-010
147, 0.00000, -0.415594, -0.125615, -0.415581, -0.125616, -0.415576, -0.125617, 2.15192E-009, -6.39375E-010
148, 0.00000, -0.403559, -0.121612, -0.403527, -0.121606, -0.403512, -0.121613, 2.03472E-009, -6.16785E-010
149, 0.00000, -0.419019, -0.126652, -0.419025, -0.126657, -0.419022, -0.12665, 2.15329E-009, -6.12906E-010
150, 0.00000, -0.459608, -0.146123, -0.459635, -0.146134, -0.459634, -0.146118, 2.94375E-009, -8.16478E-010
151, 0.00000, -0.563681, -0.185223, -0.563698, -0.185233, -0.563688, -0.185219, 6.05646E-009, -1.68183E-009
152, 0.00000, -0.528882, -0.206573, -0.528823, -0.20658, -0.528823, -0.206595, 5.48311E-009, -1.98658E-009
153, 0.00000, -0.263503, -0.211642, -0.26343, -0.211617, -0.263429, -0.211649, 9.64144E-010, -7.78434E-010
154, 0.00000, -0.238376, -0.217754, -0.238367, -0.217753, -0.238366, -0.217755, 6.88762E-010, -5.94399E-010
155, 0.00000, 0.016264, -0.219289, 0.0163049, -0.21927, 0.016302, -0.219301, -2.48887E-011, -3.16159E-010
156, 0.00000, 0.0483532, -0.217575, 0.0483597, -0.217573, 0.0483603, -0.217577, -3.34027E-011, -2.68518E-010
157, 0.00000, -0.0399966, -0.21852, -0.0400141, -0.218529, -0.0400122, -0.218516, 1.02983E-010, -2.32126E-010
158, 0.00000, -0.291914, -0.222823, -0.291925, -0.222829, -0.29192, -0.222821, 1.19079E-009, -7.37426E-010
159, 0.00000, -0.519053, -0.231739, -0.519052, -0.231964, -0.519078, -0.231878, 4.84519E-009, -2.11217E-009
160, 0.00000, -0.627444, -0.255015, -0.627434, -0.255038, -0.627428, -0.255027, 1.04429E-008, -3.2363E-009
161, 0.00000, -0.691805, -0.296524, -0.691793, -0.296539, -0.691784, -0.29653, 1.55273E-008, -4.73542E-009
162, 0.00000, -0.735094, -0.330225, -0.73508, -0.33024, -0.735069, -0.330229, 2.02495E-008, -6.13539E-009
163, 0.00000, -0.699118, -0.343363, -0.699102, -0.343411, -0.699095, -0.343399, 1.8539E-008, -5.98927E-009
164, 0.00000, -0.749554, -0.351154, -0.749539, -0.351173, -0.749528, -0.351159, 2.26986E-008, -6.93302E-009
165, 0.00000, -0.740625, -0.342189, -0.740611, -0.3422, -0.7406, -0.342187, 2.14656E-008, -6.51732E-009
166, 0.00000, -0.743258, -0.313092, -0.743245, -0.313106, -0.743234, -0.313091, 1.96836E-008, -5.80355E-009
167, 0.00000, -0.708092, -0.265725, -0.708081, -0.265733, -0.708071, -0.26572, 1.48837E-008, -4.26198E-009
168, 0.00000, -0.638484, -0.209203, -0.638444, -0.209204, -0.638438, -0.209207, 9.46167E-009, -2.72095E-009
169, 0.00000, -0.492734, -0.161894, -0.492703, -0.161895, -0.492704, -0.161901, 3.97802E-009, -1.23673E-009
170, 0.00000, -0.450886, -0.137189, -0.450846, -0.137184, -0.450838, -0.137195, 2.89967E-009, -8.92367E-010
171, 0.00000, -0.383475, -0.125609, -0.383439, -0.125605, -0.383436, -0.125617, 1.80026E-009, -6.04985E-010
172, 0.00000, -0.405737, -0.121637, -0.405756, -0.121642, -0.405755, -0.121631, 1.89666E-009, -5.16346E-010
173, 0.00000, -0.404854, -0.126646, -0.404864, -0.126655, -0.404869, -0.126648, 1.93218E-009, -5.73482E-010
174, 0.00000, -0.478513, -0.146125, -0.478556, -0.146139, -0.478555, -0.146117, 3.22794E-009, -8.44556E-010
175, 0.00000, -0.573238, -0.18522, -0.573314, -0.185246, -0.573317, -0.185212, 6.04337E-009, -1.56943E-009
176, 0.00000, -0.595749, -0.206643, -0.595769, -0.206658, -0.595769, -0.206642, 7.33739E-009, -2.16015E-009
177, 0.00000, -0.196779, -0.211629, -0.19676, -0.211625, -0.196765, -0.211634, 5.60028E-010, -4.76369E-010
178, 0.00000, -0.0244398, -0.217749, -0.0244039, -0.217735, -0.0244065, -0.217759, 7.15311E-011, -3.0862E-010
179, 0.00000, 0.441903, -0.219223, 0.441948, -0.219203, 0.441941, -0.219268, -1.93679E-009, -1.12374E-009
180, 0.00000, 0.0929886, -0.217597, 0.0929393, -0.217622, 0.0929473, -0.217575, 1.93116E-011, -2.37415E-010
181, 0.00000, -0.00522222, -0.218523, -0.00524221, -0.218533, -0.00523954, -0.218516, 8.36684E-011, -2.20521E-010
182, 0.00000, -0.199582, -0.222817, -0.199639, -0.222841, -0.199638, -0.22281, 5.88121E-010, -3.69669E-010
183, 0.00000, -0.380201, -0.231611, -0.380203, -0.231937, -0.380287, -0.231811, 1.59246E-009, -1.19658E-009
184, 0.00000, -0.566639, -0.254978, -0.566631, -0.255021, -0.56663, -0.255004, 7.99892E-009, -2.69421E-009
185, 0.00000, -0.634393, -0.296516, -0.634382, -0.296534, -0.634376, -0.296526, 1.25124E-008, -4.04225E-009
186, 0.00000, -0.684639, -0.330218, -0.684627, -0.330235, -0.684618, -0.330225, 1.69817E-008, -5.39218E-009
