hour, t(sec), V1.re, V1.im, V2.re, V2.im, V3.re, V3.im, V4.re, V4.im, I1.re, I1.im, I2.re, I2.im, I3.re, I3.im, I4.re, I4.im
1, 0.00000, 192.474, -112.446, -193.751, -110.48, 1.17094, 223.146, 4.99443E-006, -1.71174E-005, -0.748266, 0.845428, 1.10573, 0.224919, -0.357774, -1.06955, -0.00468741, 0.0163237
2, 0.00000, 192.777, -112.509, -193.943, -110.71, 1.06966, 223.413, 4.71013E-006, -1.43358E-005, -0.63356, 0.715198, 0.935736, 0.190793, -0.302401, -0.9054, -0.00448431, 0.0137449
3, 0.00000, 192.976, -112.528, -194.049, -110.871, 0.984785, 223.578, 4.33643E-006, -1.30789E-005, -0.579891, 0.65412, 0.856075, 0.174899, -0.276372, -0.828521, -0.00414807, 0.0125805
4, 0.00000, 193.01, -112.541, -194.076, -110.894, 0.977984, 223.611, 4.3513E-006, -1.26234E-005, -0.561348, 0.633168, 0.828673, 0.169328, -0.267505, -0.802024, -0.00417178, 0.0121512
5, 0.00000, 192.931, -112.531, -194.032, -110.832, 1.00967, 223.545, 4.47985E-006, -1.31734E-005, -0.584667, 0.659655, 0.863245, 0.176262, -0.278772, -0.835408, -0.00428523, 0.0126652
6, 0.00000, 192.716, -112.477, -193.887, -110.672, 1.07498, 223.35, 4.62191E-006, -1.53715E-005, -0.674967, 0.761962, 0.996903, 0.203242, -0.322188, -0.964562, -0.00436955, 0.01473
7, 0.00000, 192.136, -112.394, -193.554, -110.215, 1.2999, 222.857, 5.51413E-006, -1.97388E-005, -0.856733, 0.969086, 1.2669, 0.256913, -0.410564, -1.22498, -0.00511772, 0.0187203
8, 0.00000, 191.932, -112.327, -193.403, -110.07, 1.35092, 222.663, 5.81839E-006, -1.98963E-005, -0.827207, 1.00671, 1.28466, 0.21251, -0.457855, -1.21812, -0.00541205, 0.0188011
9, 0.00000, 193.573, -111.988, -193.849, -111.615, 0.277793, 223.757, 1.34208E-006, -4.77066E-007, 0.344569, 0.331336, 0.114499, -0.463996, -0.458927, 0.132827, -0.00148403, 0.000309765
10, 0.00000, 194.256, -111.822, -194.013, -112.271, -0.189319, 224.201, -6.41199E-007, 7.45599E-006, 0.849111, 0.0553353, -0.376829, -0.76286, -0.472041, 0.707702, 0.000400122, -0.00763255
11, 0.00000, 197.105, -111.212, -194.776, -114.972, -2.07801, 226.108, -8.53129E-006, 3.88658E-005, 2.90241, -1.09762, -2.40373, -1.96532, -0.498918, 3.06539, 0.00877068, -0.0413183
12, 0.00000, 197.277, -111.183, -194.829, -115.132, -2.18698, 226.228, -8.99351E-006, 4.04227E-005, 3.00722, -1.15952, -2.50992, -2.02523, -0.497615, 3.18743, 0.00930856, -0.0430897
13, 0.00000, 196.169, -111.42, -194.531, -114.081, -1.45111, 225.484, -5.914E-006, 2.87873E-005, 2.22494, -0.723003, -1.73972, -1.56551, -0.485151, 2.28983, 0.00584218, -0.0301038
14, 0.00000, 193.602, -111.927, -193.809, -111.667, 0.216412, 223.748, 1.00366E-006, -1.04048E-008, 0.397533, 0.328841, 0.0858466, -0.508609, -0.483224, 0.179943, -0.00116001, -0.000164094
15, 0.00000, 192.171, -112.157, -193.363, -110.347, 1.10294, 222.759, 4.64433E-006, -1.62851E-005, -0.563553, 0.915203, 1.07375, 0.0300864, -0.510459, -0.944428, -0.0043822, 0.0154242
16, 0.00000, 191.04, -112.253, -192.937, -109.344, 1.73632, 221.935, 7.40552E-006, -2.76883E-005, -1.1825, 1.34282, 1.7528, 0.351733, -0.571041, -1.69261, -0.00666544, 0.025743
17, 0.00000, 190.337, -112.174, -192.552, -108.779, 2.02536, 221.351, 8.78281E-006, -3.25107E-005, -1.37686, 1.56765, 2.04417, 0.407305, -0.668307, -1.97227, -0.00778907, 0.0298253
18, 0.00000, 189.825, -112.098, -192.256, -108.377, 2.22075, 220.916, 9.67391E-006, -3.65272E-005, -1.53511, 1.75095, 2.28158, 0.452414, -0.747693, -2.20001, -0.00845286, 0.0331818
19, 0.00000, 189.627, -112.067, -192.14, -108.222, 2.29518, 220.748, 1.00159E-005, -3.81278E-005, -1.5975, 1.82335, 2.37529, 0.47012, -0.779104, -2.28984, -0.00870025, 0.0345
20, 0.00000, 189.515, -112.048, -192.074, -108.136, 2.33608, 220.652, 1.01856E-005, -3.90634E-005, -1.63357, 1.8652, 2.42946, 0.480356, -0.797265, -2.34178, -0.00881302, 0.0352811
21, 0.00000, 189.731, -112.055, -192.177, -108.316, 2.2342, 220.822, 9.62469E-006, -3.8007E-005, -1.5913, 1.81524, 2.36524, 0.468842, -0.775231, -2.28054, -0.00832646, 0.0344663
22, 0.00000, 190.199, -112.117, -192.441, -108.688, 2.04941, 221.215, 8.74397E-006, -3.45334E-005, -1.45453, 1.65642, 2.15972, 0.430071, -0.706287, -2.08356, -0.0076519, 0.0316011
23, 0.00000, 190.915, -112.223, -192.855, -109.25, 1.77567, 221.822, 7.53216E-006, -2.89529E-005, -1.23242, 1.4, 1.82718, 0.366304, -0.595559, -1.76421, -0.00673649, 0.0268539
24, 0.00000, 191.686, -112.36, -193.321, -109.845, 1.49846, 222.49, 6.46448E-006, -2.23975E-005, -0.968435, 1.09741, 1.43366, 0.289346, -0.465728, -1.38542, -0.00595828, 0.0210642
25, 0.00000, 192.142, -112.507, -193.655, -110.167, 1.38636, 222.918, 6.3765E-006, -1.68967E-005, -0.74828, 0.847134, 1.10713, 0.224041, -0.359175, -1.07028, -0.0060543, 0.0160035
26, 0.00000, 192.694, -112.525, -193.919, -110.632, 1.12351, 223.357, 5.0546E-006, -1.4266E-005, -0.633567, 0.715563, 0.936033, 0.190608, -0.302698, -0.905556, -0.00482288, 0.0136507
27, 0.00000, 192.83, -112.555, -194.008, -110.734, 1.07934, 223.479, 4.93082E-006, -1.29742E-005, -0.579884, 0.654681, 0.856527, 0.174599, -0.276839, -0.82875, -0.00473499, 0.0124441
28, 0.00000, 192.954, -112.552, -194.06, -110.842, 1.01436, 223.573, 4.57945E-006, -1.2581E-005, -0.56135, 0.633383, 0.828849, 0.169218, -0.267681, -0.802115, -0.00439732, 0.0120956
29, 0.00000, 192.809, -112.554, -193.997, -110.716, 1.08943, 223.461, 4.97502E-006, -1.30866E-005, -0.584677, 0.660152, 0.863658, 0.176011, -0.279178, -0.835626, -0.00477701, 0.0125495
30, 0.00000, 192.483, -112.52, -193.821, -110.453, 1.2259, 223.191, 5.56393E-006, -1.52143E-005, -0.674994, 0.763054, 0.997811, 0.202696, -0.323078, -0.965044, -0.00530386, 0.0145085
31, 0.00000, 191.776, -112.46, -193.45, -109.876, 1.5326, 222.611, 6.99412E-006, -1.95103E-005, -0.856759, 0.971214, 1.26865, 0.255827, -0.412305, -1.2259, -0.00658042, 0.0183645
32, 0.00000, 191.645, -112.379, -193.32, -109.8, 1.53589, 222.467, 6.99358E-006, -1.9743E-005, -0.828924, 1.00945, 1.28781, 0.212588, -0.4593, -1.22084, -0.00657701, 0.0185401
33, 0.00000, 192.879, -112.123, -193.653, -110.964, 0.726721, 223.288, 3.34295E-006, -7.26569E-006, -0.0730556, 0.575056, 0.534255, -0.224328, -0.461195, -0.350366, -0.00334734, 0.00690298
34, 0.00000, 193.634, -111.945, -193.839, -111.684, 0.216779, 223.78, 1.32431E-006, 3.03847E-006, 0.561203, 0.22142, -0.0890096, -0.59657, -0.471965, 0.375294, -0.00155262, -0.00318242
35, 0.00000, 194.844, -111.693, -194.168, -112.826, -0.577309, 224.59, -1.96171E-006, 1.73971E-005, 1.4633, -0.292532, -0.985402, -1.12079, -0.477578, 1.41374, 0.00164234, -0.0178191
36, 0.00000, 195.075, -111.654, -194.239, -113.041, -0.722982, 224.75, -2.61199E-006, 1.94775E-005, 1.59654, -0.372419, -1.1213, -1.19628, -0.474952, 1.56923, 0.00231775, -0.0200108
37, 0.00000, 194.287, -111.81, -194.018, -112.3, -0.210173, 224.217, -4.2665E-007, 1.11244E-005, 1.06444, -0.0666326, -0.590165, -0.8883, -0.473964, 0.955138, 0.000111209, -0.0113302
38, 0.00000, 192.95, -112.053, -193.625, -111.054, 0.639788, 223.306, 3.11978E-006, -4.19723E-006, 0.127648, 0.486425, 0.357185, -0.353738, -0.484733, -0.1324, -0.00321921, 0.00391063
39, 0.00000, 191.572, -112.268, -193.19, -109.787, 1.4866, 222.352, 6.58241E-006, -2.05526E-005, -0.822327, 1.07003, 1.33691, 0.176565, -0.515026, -1.24531, -0.00614367, 0.0192757
40, 0.00000, 190.844, -112.287, -192.879, -109.16, 1.86184, 221.8, 8.22397E-006, -2.75808E-005, -1.18252, 1.34443, 1.75412, 0.350914, -0.572351, -1.6933, -0.00747216, 0.0255355
41, 0.00000, 190.251, -112.189, -192.527, -108.699, 2.08008, 221.292, 9.14473E-006, -3.24684E-005, -1.37687, 1.56847, 2.04484, 0.406886, -0.668976, -1.97262, -0.00814551, 0.0297312
42, 0.00000, 189.648, -112.128, -192.203, -108.211, 2.33325, 220.795, 1.04273E-005, -3.64475E-005, -1.53514, 1.75284, 2.28314, 0.451452, -0.749234, -2.20083, -0.00919306, 0.0329794
43, 0.00000, 189.391, -112.106, -192.069, -108.002, 2.44436, 220.586, 1.09276E-005, -3.80866E-005, -1.59755, 1.82598, 2.37745, 0.46879, -0.781237, -2.29097, -0.00959179, 0.034292
44, 0.00000, 189.248, -112.093, -191.993, -107.885, 2.50591, 220.467, 1.11203E-005, -3.90892E-005, -1.63366, 1.86831, 2.43204, 0.478811, -0.799776, -2.34315, -0.00972288, 0.035113
45, 0.00000, 189.384, -112.114, -192.072, -107.992, 2.45415, 220.584, 1.10056E-005, -3.7919E-005, -1.59138, 1.8191, 2.36841, 0.46689, -0.778363, -2.28221, -0.0096793, 0.0341358
46, 0.00000, 189.861, -112.175, -192.34, -108.372, 2.26398, 220.983, 1.017E-005, -3.43764E-005, -1.45459, 1.65985, 2.16254, 0.428339, -0.709067, -2.08503, -0.00905367, 0.031222
47, 0.00000, 190.531, -112.29, -192.741, -108.89, 2.02114, 221.559, 9.13944E-006, -2.87483E-005, -1.23248, 1.4033, 1.82989, 0.364637, -0.598234, -1.76562, -0.00831823, 0.0264391
48, 0.00000, 191.312, -112.427, -193.212, -109.495, 1.73872, 222.234, 8.01945E-006, -2.2163E-005, -0.968471, 1.09991, 1.43571, 0.288072, -0.467769, -1.38649, -0.0074908, 0.0206737
49, 0.00000, 192.22, -112.493, -193.678, -110.241, 1.33588, 222.972, 6.05635E-006, -1.69449E-005, -0.748271, 0.846727, 1.1068, 0.224245, -0.358844, -1.0701, -0.00573714, 0.0160773
50, 0.00000, 192.611, -112.54, -193.896, -110.554, 1.17698, 223.301, 5.39062E-006, -1.42146E-005, -0.633574, 0.715925, 0.936333, 0.190426, -0.302993, -0.905713, -0.00515664, 0.0135773
51, 0.00000, 192.831, -112.555, -194.008, -110.734, 1.07912, 223.479, 4.9312E-006, -1.29731E-005, -0.579885, 0.654681, 0.856527, 0.174601, -0.276838, -0.828751, -0.00473486, 0.0124422
52, 0.00000, 192.972, -112.548, -194.065, -110.858, 1.00276, 223.585, 4.50762E-006, -1.25936E-005, -0.56135, 0.633314, 0.828793, 0.169253, -0.267625, -0.802086, -0.00432596, 0.012112
53, 0.00000, 192.876, -112.542, -194.016, -110.78, 1.0457, 223.507, 4.70234E-006, -1.31342E-005, -0.584675, 0.659883, 0.863436, 0.176149, -0.278957, -0.835511, -0.00450658, 0.0126126
54, 0.00000, 192.237, -112.566, -193.749, -110.221, 1.38589, 223.022, 6.57201E-006, -1.50472E-005, -0.675, 0.764194, 0.998749, 0.202108, -0.324016, -0.965532, -0.00630408, 0.0142773
55, 0.00000, 191.896, -112.439, -193.485, -109.989, 1.45529, 222.693, 6.47578E-006, -1.95792E-005, -0.85677, 0.970526, 1.26809, 0.256194, -0.411731, -1.22561, -0.00606363, 0.0184686
56, 0.00000, 191.364, -112.43, -193.238, -109.537, 1.7154, 222.276, 7.87648E-006, -2.18897E-005, -0.956547, 1.08613, 1.41786, 0.284655, -0.461823, -1.36935, -0.00736673, 0.0204565
57, 0.00000, 192.012, -112.287, -193.405, -110.153, 1.28298, 222.702, 5.83416E-006, -1.60727E-005, -0.60209, 0.887098, 1.06864, 0.0774951, -0.466821, -0.963693, -0.00556169, 0.015173
58, 0.00000, 192.448, -112.175, -193.504, -110.575, 0.979963, 222.982, 4.3323E-006, -1.25632E-005, -0.375899, 0.768341, 0.852891, -0.0588637, -0.477137, -0.708851, -0.00418623, 0.0119375
59, 0.00000, 192.975, -112.067, -193.648, -111.073, 0.634082, 223.335, 2.64956E-006, -8.55988E-006, -0.125214, 0.624318, 0.602987, -0.203821, -0.477807, -0.420108, -0.00261493, 0.00817132
60, 0.00000, 192.461, -112.172, -193.507, -110.583, 0.975614, 222.988, 4.77789E-006, -7.94501E-006, -0.116766, 0.616794, 0.592182, -0.207362, -0.475408, -0.408979, -0.00478492, 0.00749139
61, 0.00000, 192.196, -112.217, -193.428, -110.338, 1.1419, 222.806, 5.57853E-006, -1.01592E-005, -0.250363, 0.698057, 0.729259, -0.132373, -0.478956, -0.565094, -0.00551866, 0.00956864
62, 0.00000, 191.872, -112.257, -193.316, -110.045, 1.33176, 222.577, 6.22975E-006, -1.50639E-005, -0.527086, 0.872078, 1.01813, 0.0200804, -0.491271, -0.891271, -0.00600257, 0.0141774
63, 0.00000, 191.459, -112.287, -193.156, -109.678, 1.5624, 222.271, 7.59418E-006, -1.59054E-005, -0.569878, 0.92267, 1.0832, 0.0317828, -0.513579, -0.953388, -0.00733746, 0.0148409
64, 0.00000, 190.369, -112.37, -192.739, -108.714, 2.16563, 221.474, 1.02308E-005, -2.73234E-005, -1.18258, 1.34834, 1.75733, 0.348929, -0.575534, -1.69498, -0.00945184, 0.0250307
65, 0.00000, 189.693, -112.284, -192.36, -108.177, 2.43461, 220.909, 1.15283E-005, -3.21893E-005, -1.37695, 1.57383, 2.04924, 0.404168, -0.673328, -1.97492, -0.010493, 0.029106
66, 0.00000, 189.148, -112.211, -192.052, -107.745, 2.64955, 220.45, 1.23331E-005, -3.63863E-005, -1.53523, 1.7582, 2.28754, 0.44873, -0.753586, -2.20312, -0.0110575, 0.0325818
67, 0.00000, 188.983, -112.174, -191.945, -107.619, 2.70395, 220.302, 1.22814E-005, -3.8178E-005, -1.59763, 1.83055, 2.38123, 0.466462, -0.784967, -2.29295, -0.0109069, 0.0341175
68, 0.00000, 188.737, -112.176, -191.837, -107.406, 2.83072, 220.111, 1.25956E-005, -3.9136E-005, -1.63378, 1.87416, 2.43687, 0.475836, -0.804557, -2.34569, -0.0111348, 0.0348278
69, 0.00000, 189.017, -112.175, -191.961, -107.648, 2.68706, 220.329, 1.22293E-005, -3.79925E-005, -1.59146, 1.82319, 2.3718, 0.464812, -0.7817, -2.28399, -0.0108659, 0.0339768
70, 0.00000, 189.264, -112.275, -192.16, -107.814, 2.64236, 220.573, 1.26129E-005, -3.41988E-005, -1.45473, 1.66595, 2.16757, 0.425268, -0.714009, -2.08768, -0.0114445, 0.0306549
71, 0.00000, 190.213, -112.345, -192.647, -108.593, 2.22347, 221.341, 1.05005E-005, -2.85683E-005, -1.23252, 1.40602, 1.83212, 0.363254, -0.600447, -1.76679, -0.00965635, 0.0260805
72, 0.00000, 191.316, -112.426, -193.213, -109.498, 1.73615, 222.237, 8.00497E-006, -2.21632E-005, -0.968472, 1.09988, 1.43569, 0.288086, -0.467747, -1.38648, -0.00747573, 0.0206742
73, 0.00000, 191.918, -112.491, -193.541, -109.984, 1.48563, 222.737, 6.86883E-006, -1.81642E-005, -0.802503, 0.909338, 1.18801, 0.239833, -0.385877, -1.14813, -0.00649638, 0.0171254
74, 0.00000, 192.516, -112.512, -193.829, -110.486, 1.20258, 223.213, 5.43175E-006, -1.52782E-005, -0.67698, 0.765135, 1.0006, 0.203376, -0.323888, -0.967801, -0.00516666, 0.0145677
75, 0.00000, 192.712, -112.547, -193.947, -110.637, 1.13223, 223.382, 5.17752E-006, -1.3648E-005, -0.609038, 0.687922, 0.899852, 0.183201, -0.291029, -0.870538, -0.00496172, 0.0130619
76, 0.00000, 192.921, -112.541, -194.035, -110.819, 1.02207, 223.542, 4.58033E-006, -1.29848E-005, -0.577833, 0.652022, 0.853217, 0.174162, -0.275576, -0.825676, -0.00438839, 0.012477
77, 0.00000, 192.918, -112.542, -194.035, -110.815, 1.02448, 223.539, 4.59219E-006, -1.29781E-005, -0.577559, 0.651727, 0.852826, 0.174072, -0.275458, -0.825293, -0.00440128, 0.0124718
78, 0.00000, 192.798, -112.532, -193.972, -110.718, 1.07672, 223.442, 4.82654E-006, -1.36895E-005, -0.608129, 0.686543, 0.898224, 0.183113, -0.290305, -0.869094, -0.00461578, 0.0131286
79, 0.00000, 192.504, -112.513, -193.823, -110.474, 1.2095, 223.203, 5.44912E-006, -1.53282E-005, -0.678805, 0.767246, 1.00335, 0.203901, -0.324806, -0.970443, -0.00518791, 0.0146242
80, 0.00000, 192.231, -112.422, -193.621, -110.281, 1.27681, 222.943, 5.73872E-006, -1.64051E-005, -0.688036, 0.846179, 1.07623, 0.172381, -0.388488, -1.01773, -0.00544644, 0.0155752
81, 0.00000, 192.93, -112.066, -193.626, -111.035, 0.654923, 223.3, 2.74479E-006, -8.81557E-006, -0.137138, 0.636701, 0.619662, -0.199692, -0.482561, -0.436605, -0.00270716, 0.0084114
82, 0.00000, 192.72, -111.894, -193.383, -110.925, 0.635448, 223.043, 3.25553E-006, -2.16395E-006, 0.319884, 0.478783, 0.2544, -0.516308, -0.574064, 0.0378401, -0.00347596, 0.00184929
83, 0.00000, 193.639, -111.604, -193.546, -111.835, -0.0422995, 223.604, 3.35684E-007, 1.01205E-005, 1.1164, 0.0741582, -0.494297, -1.00355, -0.621605, 0.929659, -0.000833502, -0.0103834
84, 0.00000, 193.431, -111.603, -193.45, -111.657, 0.0613301, 223.441, 8.44481E-007, 9.23301E-006, 1.07264, 0.12095, -0.431894, -0.989033, -0.640221, 0.868339, -0.00136598, -0.00948933
85, 0.00000, 192.755, -111.714, -193.242, -111.032, 0.483334, 222.974, 2.75199E-006, 2.57685E-006, 0.665466, 0.366748, -0.0154372, -0.759405, -0.649607, 0.39294, -0.00317399, -0.0028592
86, 0.00000, 191.318, -111.956, -192.804, -109.702, 1.38061, 221.988, 6.76348E-006, -1.30972E-005, -0.26553, 0.928037, 0.935685, -0.23431, -0.670214, -0.692715, -0.00670381, 0.0120855
87, 0.00000, 190.01, -112.162, -192.396, -108.501, 2.18376, 221.089, 1.01994E-005, -2.94219E-005, -1.19014, 1.49507, 1.88794, 0.281997, -0.698649, -1.77442, -0.00934699, 0.0267748
88, 0.00000, 189.665, -112.192, -192.267, -108.197, 2.37544, 220.841, 1.08793E-005, -3.46948E-005, -1.47002, 1.67921, 2.1869, 0.431962, -0.718031, -2.10786, -0.00972904, 0.0313843
89, 0.00000, 189.533, -112.137, -192.16, -108.109, 2.39791, 220.711, 1.08407E-005, -3.66555E-005, -1.54463, 1.76476, 2.29813, 0.453676, -0.754748, -2.21486, -0.00958734, 0.0330811
90, 0.00000, 189.551, -112.091, -192.128, -108.146, 2.35246, 220.702, 1.04244E-005, -3.77893E-005, -1.58612, 1.81134, 2.35917, 0.466264, -0.774354, -2.27394, -0.00911753, 0.0341255
91, 0.00000, 189.624, -112.088, -192.157, -108.21, 2.31298, 220.756, 1.01854E-005, -3.75996E-005, -1.57771, 1.80109, 2.34613, 0.464138, -0.769709, -2.26163, -0.00889494, 0.0339993
92, 0.00000, 189.525, -112.111, -192.133, -108.115, 2.38091, 220.691, 1.06591E-005, -3.7375E-005, -1.57159, 1.79525, 2.33798, 0.461741, -0.767679, -2.25337, -0.00937184, 0.0337481
93, 0.00000, 189.587, -112.163, -192.206, -108.143, 2.39106, 220.766, 1.08804E-005, -3.57809E-005, -1.51135, 1.72664, 2.24854, 0.443963, -0.738406, -2.16714, -0.00967329, 0.0323154
94, 0.00000, 189.879, -112.235, -192.401, -108.359, 2.30309, 221.027, 1.05932E-005, -3.27414E-005, -1.39367, 1.59095, 2.07249, 0.410102, -0.67987, -1.99803, -0.00955003, 0.0297256
95, 0.00000, 190.242, -112.348, -192.663, -108.617, 2.21112, 221.366, 1.04315E-005, -2.83799E-005, -1.22478, 1.39704, 1.8205, 0.361061, -0.596548, -1.75565, -0.00959908, 0.0259285
96, 0.00000, 191.023, -112.426, -193.081, -109.247, 1.88275, 222.009, 8.82115E-006, -2.33251E-005, -1.01894, 1.15876, 1.51177, 0.302267, -0.493413, -1.45934, -0.00823299, 0.0216313
97, 0.00000, 191.928, -112.47, -193.527, -110.001, 1.46446, 222.734, 6.66856E-006, -1.86489E-005, -0.820561, 0.929607, 1.21459, 0.245327, -0.394408, -1.17388, -0.00628622, 0.017599
98, 0.00000, 192.465, -112.509, -193.802, -110.443, 1.22535, 223.171, 5.53543E-006, -1.55726E-005, -0.689545, 0.779498, 1.01931, 0.207064, -0.330034, -0.985826, -0.00526206, 0.0148368
99, 0.00000, 192.693, -112.546, -193.937, -110.621, 1.14082, 223.366, 5.21821E-006, -1.37568E-005, -0.61375, 0.693298, 0.906856, 0.18459, -0.293325, -0.877292, -0.00499901, 0.0131611
100, 0.00000, 192.927, -112.541, -194.039, -110.824, 1.01952, 223.547, 4.57024E-006, -1.29421E-005, -0.576033, 0.649976, 0.850547, 0.173627, -0.274705, -0.823098, -0.00437931, 0.0124371
101, 0.00000, 192.893, -112.56, -194.04, -110.786, 1.051, 223.53, 4.79302E-006, -1.26233E-005, -0.564501, 0.637151, 0.833678, 0.170056, -0.269361, -0.806709, -0.00460879, 0.0121248
102, 0.00000, 192.899, -112.539, -194.024, -110.801, 1.03176, 223.524, 4.62212E-006, -1.31111E-005, -0.583263, 0.658207, 0.861282, 0.175768, -0.278214, -0.833458, -0.00442698, 0.012595
103, 0.00000, 192.65, -112.522, -193.896, -110.595, 1.14321, 223.321, 5.13391E-006, -1.45327E-005, -0.644454, 0.727986, 0.952226, 0.193816, -0.308008, -0.921171, -0.00489814, 0.0139014
104, 0.00000, 192.485, -112.44, -193.752, -110.491, 1.16327, 223.151, 5.20242E-006, -1.49627E-005, -0.626383, 0.77539, 0.984199, 0.154445, -0.358062, -0.929143, -0.00495704, 0.0142701
105, 0.00000, 193.229, -112.088, -193.78, -111.281, 0.522532, 223.543, 2.13232E-006, -7.16383E-006, -0.0653404, 0.553485, 0.511769, -0.220223, -0.44644, -0.332959, -0.00212119, 0.00686094
106, 0.00000, 193.393, -111.83, -193.63, -111.532, 0.246561, 223.535, 1.01584E-006, -1.29142E-006, 0.374114, 0.413248, 0.170605, -0.530532, -0.544553, 0.117526, -0.00118131, 0.00104959
107, 0.00000, 196.107, -111.13, -194.251, -114.155, -1.64116, 225.284, -6.97362E-006, 3.15487E-005, 2.5215, -0.736775, -1.90023, -1.8154, -0.621073, 2.55385, 0.00678161, -0.0332164
108, 0.00000, 199.05, -110.411, -194.967, -116.987, -3.66514, 227.218, -1.56387E-005, 6.35109E-005, 4.76255, -1.93236, -4.06017, -3.16048, -0.703723, 5.09976, 0.0169821, -0.0704352
109, 0.00000, 198.787, -110.437, -194.869, -116.751, -3.51372, 227.025, -1.50599E-005, 6.10478E-005, 4.59981, -1.82737, -3.88751, -3.07182, -0.713435, 4.90558, 0.0162012, -0.0674408
