hour, t(sec), P1 (kW), Q1 (kvar), P2 (kW), Q2 (kvar), P3 (kW), Q3 (kvar), P4 (kW), Q4 (kvar)
1, 0.00000, 0.0212229, -0.025677, 0.0212215, -0.0256857, 0.0212165, -0.0256881, 2.38582E-011, 8.7939E-012
2, 0.00000, -0.0333595, -0.0217807, -0.0333596, -0.0217806, -0.0333596, -0.0217805, 2.88877E-011, -1.46093E-011
3, 0.00000, -0.0356464, -0.0199236, -0.0356456, -0.0199257, -0.0356491, -0.0199282, 2.24009E-011, -1.56174E-011
4, 0.00000, -0.0504048, -0.019308, -0.0504048, -0.0193078, -0.050405, -0.0193078, 4.30176E-011, -2.01557E-011
5, 0.00000, -0.0462054, -0.020113, -0.0462056, -0.0201125, -0.0462043, -0.0201115, 4.13133E-011, -1.8184E-011
6, 0.00000, 0.00561367, -0.023204, 0.0056138, -0.023204, 0.00561687, -0.0232025, 1.66947E-011, -3.02683E-012
7, 0.00000, 0.0523916, -0.0294032, 0.0523919, -0.0294036, 0.052392, -0.0294038, 8.63462E-011, 8.37416E-013
8, 0.00000, 0.0263729, -0.0328098, 0.0263735, -0.0328108, 0.0263768, -0.0328097, 5.54064E-011, -3.58824E-012
9, 0.00000, -0.179618, -0.0335939, -0.179613, -0.0335943, -0.179612, -0.0335961, 2.75736E-010, -2.6084E-010
10, 0.00000, -0.259602, -0.034565, -0.259596, -0.0345657, -0.259595, -0.034567, 2.48575E-010, -5.1757E-010
11, 0.00000, -0.620304, -0.0347987, -0.620286, -0.0348045, -0.620287, -0.0348033, -4.76483E-009, -3.17721E-009
12, 0.00000, -0.633019, -0.0345248, -0.633006, -0.0345303, -0.633, -0.0345262, -5.27994E-009, -3.23023E-009
13, 0.00000, -0.504396, -0.034696, -0.5044, -0.0347015, -0.504396, -0.034694, -2.0295E-009, -1.91148E-009
14, 0.00000, -0.166787, -0.0353766, -0.166789, -0.0353773, -0.166789, -0.0353756, 2.13749E-010, -2.20429E-010
15, 0.00000, 0.015288, -0.0368042, 0.0152827, -0.0368211, 0.0152762, -0.0368232, 3.6361E-011, 7.81547E-012
16, 0.00000, 0.116706, -0.0404817, 0.116707, -0.0404842, 0.116708, -0.0404846, 4.76304E-010, -2.17176E-011
17, 0.00000, 0.138316, -0.0470728, 0.138317, -0.0470738, 0.138319, -0.047074, 8.02476E-010, -4.03049E-011
18, 0.00000, 0.180722, -0.0524235, 0.180724, -0.0524245, 0.180726, -0.0524241, 1.48097E-009, -1.04506E-010
19, 0.00000, 0.199108, -0.0545307, 0.199109, -0.0545317, 0.19911, -0.0545308, 1.86128E-009, -1.4188E-010
20, 0.00000, 0.21099, -0.0557514, 0.210994, -0.0557509, 0.211, -0.0557501, 2.10065E-009, -1.87455E-010
21, 0.00000, 0.229831, -0.0543251, 0.229831, -0.0543261, 0.229832, -0.0543242, 2.3525E-009, -2.32876E-010
22, 0.00000, 0.202857, -0.049707, 0.202857, -0.0497077, 0.202856, -0.0497061, 1.65409E-009, -1.60747E-010
23, 0.00000, 0.143543, -0.0421865, 0.143543, -0.0421865, 0.143542, -0.0421855, 7.17847E-010, -5.41427E-011
24, 0.00000, 0.0442256, -0.0332139, 0.0442253, -0.0332136, 0.0442246, -0.0332131, 9.36552E-011, 3.39328E-012
25, 0.00000, -0.111531, -0.025702, -0.11153, -0.0257023, -0.11153, -0.0257019, 2.71423E-010, -1.02582E-010
26, 0.00000, -0.0666227, -0.0217724, -0.0666167, -0.0217736, -0.0666173, -0.0217772, 8.4801E-011, -4.65643E-011
27, 0.00000, -0.0941562, -0.0199395, -0.0941544, -0.0199394, -0.0941537, -0.0199404, 1.46516E-010, -5.73299E-011
28, 0.00000, -0.0729078, -0.0193046, -0.0729061, -0.0193047, -0.0729058, -0.0193057, 8.54333E-011, -3.73072E-011
29, 0.00000, -0.0955018, -0.0201099, -0.0955037, -0.0201103, -0.0955039, -0.0201087, 1.45704E-010, -5.21286E-011
30, 0.00000, -0.0875222, -0.0232046, -0.0875266, -0.0232054, -0.0875277, -0.0232021, 1.42098E-010, -5.17749E-011
31, 0.00000, -0.0906934, -0.0294071, -0.0906954, -0.0294072, -0.0906955, -0.0294057, 2.16244E-010, -8.75695E-011
32, 0.00000, -0.0859231, -0.03281, -0.0859252, -0.0328111, -0.0859267, -0.0328092, 2.05808E-010, -9.26648E-011
33, 0.00000, -0.145135, -0.0335962, -0.145132, -0.0335968, -0.145132, -0.0335974, 2.94463E-010, -1.86643E-010
34, 0.00000, -0.295932, -0.0345616, -0.295922, -0.0345628, -0.295921, -0.0345651, 7.13878E-010, -6.9474E-010
35, 0.00000, -0.476637, -0.0348029, -0.476623, -0.0348065, -0.476621, -0.034807, 1.77471E-011, -1.78891E-009
36, 0.00000, -0.488137, -0.0345385, -0.488133, -0.034543, -0.48813, -0.0345393, -3.77838E-010, -1.80865E-009
37, 0.00000, -0.406899, -0.0346982, -0.406906, -0.0347024, -0.406904, -0.0346954, 4.9198E-010, -1.19884E-009
38, 0.00000, -0.226878, -0.0353764, -0.226879, -0.0353775, -0.226878, -0.0353755, 6.51374E-010, -4.14026E-010
39, 0.00000, -0.0277588, -0.0368063, -0.0277607, -0.0368181, -0.0277597, -0.0368229, 5.44671E-011, -3.55045E-011
40, 0.00000, 0.0399628, -0.0404852, 0.0399636, -0.040486, 0.0399651, -0.0404866, 1.33683E-010, 3.77801E-012
41, 0.00000, 0.104994, -0.0470742, 0.104995, -0.0470745, 0.104997, -0.0470747, 5.30159E-010, -6.79053E-012
42, 0.00000, 0.112456, -0.0524223, 0.112457, -0.0524229, 0.11246, -0.0524234, 7.16353E-010, -1.25352E-012
43, 0.00000, 0.10871, -0.0545305, 0.10871, -0.0545304, 0.108711, -0.0545305, 7.45801E-010, 9.50597E-012
44, 0.00000, 0.108222, -0.0557486, 0.108222, -0.0557487, 0.108222, -0.0557487, 7.75163E-010, 1.38565E-011
45, 0.00000, 0.0965032, -0.0543243, 0.0965039, -0.0543249, 0.0965042, -0.0543241, 6.35022E-010, 1.72923E-011
46, 0.00000, 0.0724202, -0.0497075, 0.0724199, -0.0497078, 0.0724186, -0.0497067, 3.78954E-010, 1.76314E-011
47, 0.00000, -0.00628436, -0.0421863, -0.00628537, -0.0421865, -0.00628734, -0.0421857, 9.86907E-011, -2.13511E-011
48, 0.00000, -0.103053, -0.0332085, -0.10305, -0.0332089, -0.10305, -0.0332104, 3.3138E-010, -1.42261E-010
49, 0.00000, -0.0804734, -0.0256992, -0.0804711, -0.0256997, -0.0804709, -0.0257009, 1.47696E-010, -6.70061E-011
50, 0.00000, -0.0996119, -0.021771, -0.0996063, -0.0217706, -0.0996045, -0.0217742, 1.88032E-010, -7.83114E-011
51, 0.00000, -0.0940138, -0.0199371, -0.0940107, -0.019937, -0.0940098, -0.019939, 1.47889E-010, -5.98124E-011
52, 0.00000, -0.0657319, -0.019304, -0.0657299, -0.019304, -0.0657296, -0.0193053, 7.0651E-011, -3.26353E-011
53, 0.00000, -0.0684737, -0.0201087, -0.0684749, -0.0201089, -0.0684751, -0.0201079, 7.69778E-011, -3.14593E-011
54, 0.00000, -0.186066, -0.0232133, -0.186076, -0.0232147, -0.186078, -0.0232075, 6.57364E-010, -1.75997E-010
55, 0.00000, -0.0431734, -0.0293571, -0.0431754, -0.0293713, -0.0431787, -0.0293766, 5.12277E-011, -3.95279E-011
56, 0.00000, -0.100976, -0.0328233, -0.100987, -0.0328252, -0.100991, -0.0328176, 2.88322E-010, -1.02248E-010
57, 0.00000, -0.0931332, -0.0335824, -0.093122, -0.0335818, -0.0931198, -0.0335885, 2.20869E-010, -1.28315E-010
58, 0.00000, -0.0674136, -0.0345602, -0.0674066, -0.0345599, -0.0674057, -0.0345643, 1.03762E-010, -7.64354E-011
59, 0.00000, -0.0390797, -0.0348028, -0.0390722, -0.0348022, -0.0390713, -0.0348074, 3.71944E-011, -4.21361E-011
60, 0.00000, -0.258215, -0.0345534, -0.258223, -0.0345557, -0.258224, -0.0345493, 1.07455E-009, -5.04162E-010
61, 0.00000, -0.259614, -0.0346967, -0.259618, -0.0346987, -0.259618, -0.0346948, 1.25685E-009, -5.4026E-010
62, 0.00000, -0.164531, -0.0353816, -0.164536, -0.0353829, -0.164537, -0.0353792, 5.90668E-010, -2.51142E-010
63, 0.00000, -0.261911, -0.0368584, -0.261919, -0.036861, -0.26192, -0.0368553, 1.69243E-009, -6.05468E-010
64, 0.00000, -0.14508, -0.0404927, -0.145083, -0.0404932, -0.145084, -0.0404907, 8.07127E-010, -2.95487E-010
65, 0.00000, -0.110118, -0.0470767, -0.110116, -0.0470759, -0.110113, -0.0470764, 6.44959E-010, -2.72725E-010
66, 0.00000, -0.0788013, -0.0524233, -0.0788008, -0.0524211, -0.0787987, -0.0524227, 4.91106E-010, -2.22126E-010
67, 0.00000, -0.0480948, -0.0545313, -0.0480955, -0.0545303, -0.0480954, -0.0545309, 3.35571E-010, -1.43529E-010
68, 0.00000, -0.0878066, -0.055747, -0.0878052, -0.0557472, -0.0878069, -0.0557471, 6.20194E-010, -2.83355E-010
69, 0.00000, -0.0441586, -0.054326, -0.0441592, -0.054327, -0.0441574, -0.0543262, 3.15534E-010, -1.31733E-010
70, 0.00000, -0.156262, -0.0496927, -0.156251, -0.0496877, -0.156253, -0.0496921, 1.29717E-009, -5.08549E-010
71, 0.00000, -0.129314, -0.0421784, -0.129309, -0.0421788, -0.129307, -0.0421813, 7.12442E-010, -2.92988E-010
72, 0.00000, -0.10148, -0.0332072, -0.101476, -0.0332077, -0.101475, -0.0332099, 3.23604E-010, -1.42406E-010
73, 0.00000, -0.11719, -0.0275365, -0.11718, -0.0275354, -0.117176, -0.0275422, 3.50877E-010, -1.47837E-010
74, 0.00000, -0.0710788, -0.0232481, -0.0710691, -0.0232471, -0.0710665, -0.023254, 1.13173E-010, -6.13829E-011
75, 0.00000, -0.0970502, -0.0209362, -0.0970475, -0.020936, -0.0970465, -0.0209377, 1.65987E-010, -6.60215E-011
76, 0.00000, -0.0608375, -0.019867, -0.0608347, -0.0198669, -0.0608341, -0.0198689, 6.44467E-011, -3.19172E-011
77, 0.00000, -0.062618, -0.019864, -0.0626182, -0.0198642, -0.0626183, -0.0198639, 6.50434E-011, -2.83099E-011
78, 0.00000, -0.063694, -0.0209123, -0.0636955, -0.0209126, -0.0636958, -0.0209114, 7.07377E-011, -2.94992E-011
79, 0.00000, -0.0735158, -0.0233351, -0.0735201, -0.0233357, -0.0735211, -0.0233325, 1.03352E-010, -3.92598E-011
80, 0.00000, -0.0713395, -0.0279096, -0.0713436, -0.0279108, -0.0713455, -0.0279076, 1.12627E-010, -4.93646E-011
81, 0.00000, -0.0403438, -0.0351379, -0.0403353, -0.035138, -0.0403357, -0.0351433, 3.82232E-011, -4.4711E-011
82, 0.00000, -0.314412, -0.0418882, -0.314413, -0.0418916, -0.314415, -0.0418881, 1.3477E-009, -9.30828E-010
83, 0.00000, -0.46148, -0.0454403, -0.461468, -0.0454435, -0.461464, -0.0454426, 1.52759E-009, -2.15047E-009
84, 0.00000, -0.481554, -0.0468044, -0.481554, -0.0468099, -0.481552, -0.0468043, 1.87668E-009, -2.35686E-009
85, 0.00000, -0.4326, -0.0474397, -0.432606, -0.0474453, -0.432606, -0.0474385, 2.38789E-009, -1.93239E-009
86, 0.00000, -0.282354, -0.0483491, -0.282356, -0.0483512, -0.282356, -0.0483483, 2.01163E-009, -9.53918E-010
87, 0.00000, -0.0783368, -0.0492531, -0.0783358, -0.0492524, -0.0783339, -0.0492526, 3.68657E-010, -1.80224E-010
88, 0.00000, 0.0205347, -0.0502227, 0.0205362, -0.0502228, 0.0205382, -0.0502237, 1.89998E-010, -1.08132E-011
89, 0.00000, 0.0829419, -0.0527458, 0.0829428, -0.0527458, 0.0829439, -0.0527457, 4.96341E-010, 1.6568E-011
90, 0.00000, 0.152779, -0.0541265, 0.152778, -0.0541305, 0.152776, -0.054131, 1.21025E-009, -2.67842E-011
91, 0.00000, 0.168183, -0.0538591, 0.16818, -0.053862, 0.168176, -0.0538602, 1.41433E-009, -5.66714E-011
92, 0.00000, 0.120663, -0.0536709, 0.120668, -0.0536672, 0.120675, -0.0536673, 8.16604E-010, -2.33103E-011
93, 0.00000, 0.0531863, -0.0516219, 0.0531861, -0.0516222, 0.0531856, -0.051622, 3.11201E-010, 1.62187E-011
94, 0.00000, -0.0134016, -0.0476449, -0.0134027, -0.0476453, -0.0134043, -0.0476446, 1.51498E-010, -4.08672E-011
95, 0.00000, -0.129698, -0.0419194, -0.129696, -0.0419198, -0.129695, -0.0419205, 7.02953E-010, -2.81828E-010
96, 0.00000, -0.139608, -0.0349256, -0.139605, -0.0349263, -0.139604, -0.0349277, 6.27138E-010, -2.40128E-010
97, 0.00000, -0.0857835, -0.028167, -0.0857808, -0.0281675, -0.0857805, -0.0281689, 1.88327E-010, -8.49824E-011
98, 0.00000, -0.0722991, -0.023681, -0.0722911, -0.0236802, -0.0722887, -0.0236858, 1.17376E-010, -6.11194E-011
99, 0.00000, -0.097542, -0.0210967, -0.0975388, -0.0210965, -0.0975377, -0.0210985, 1.69933E-010, -6.81263E-011
100, 0.00000, -0.0611006, -0.0198047, -0.0610974, -0.0198046, -0.0610967, -0.0198069, 6.50114E-011, -3.24743E-011
101, 0.00000, -0.0923903, -0.0194304, -0.0923943, -0.0194307, -0.0923948, -0.0194278, 1.27946E-010, -4.27015E-011
102, 0.00000, -0.0612714, -0.0200502, -0.0612698, -0.020051, -0.0612705, -0.0200522, 6.32608E-011, -3.12088E-011
103, 0.00000, -0.0676828, -0.0221588, -0.0676862, -0.0221593, -0.067687, -0.0221567, 8.34621E-011, -3.25199E-011
104, 0.00000, -0.0644638, -0.0257836, -0.064466, -0.0257845, -0.0644672, -0.0257827, 8.48307E-011, -3.9384E-011
105, 0.00000, -0.0328513, -0.0325721, -0.0328432, -0.0325723, -0.0328437, -0.0325775, 2.30918E-011, -3.22482E-011
106, 0.00000, -0.131783, -0.0397681, -0.131764, -0.0397743, -0.13177, -0.0397856, 1.63442E-010, -2.30703E-010
107, 0.00000, -0.52903, -0.0443783, -0.529011, -0.0443813, -0.52901, -0.0443828, -2.17288E-009, -2.78184E-009
108, 0.00000, -0.930661, -0.0461712, -0.93064, -0.046185, -0.93064, -0.0461741, -1.86158E-008, -9.35991E-009
109, 0.00000, -0.893903, -0.0473366, -0.893903, -0.0473527, -0.8939, -0.0473372, -1.65609E-008, -8.58008E-009
110, 0.00000, -0.0967705, -0.0481022, -0.0967763, -0.0481032, -0.0967767, -0.0480999, 1.11768E-010, -1.27965E-010
111, 0.00000, 0.115684, -0.0478518, 0.115686, -0.0478514, 0.115686, -0.0478511, 4.42765E-010, -7.95791E-011
112, 0.00000, 0.234171, -0.0474341, 0.234173, -0.0474364, 0.234177, -0.047436, 1.92686E-009, -2.55509E-010
113, 0.00000, 0.247713, -0.0494158, 0.247714, -0.0494172, 0.247716, -0.0494158, 2.27476E-009, -3.00776E-010
114, 0.00000, 0.264814, -0.0520458, 0.264815, -0.0520474, 0.264818, -0.0520459, 2.76682E-009, -3.64538E-010
115, 0.00000, 0.269287, -0.053328, 0.269288, -0.0533297, 0.26929, -0.053328, 2.96598E-009, -3.80948E-010
116, 0.00000, 0.274795, -0.0549325, 0.274797, -0.0549343, 0.274799, -0.0549325, 3.22115E-009, -4.03498E-010
117, 0.00000, 0.240766, -0.0536921, 0.240764, -0.0536929, 0.240763, -0.05369, 2.51172E-009, -2.71004E-010
118, 0.00000, 0.190287, -0.048787, 0.190286, -0.0487879, 0.190285, -0.0487864, 1.44595E-009, -1.28713E-010
119, 0.00000, 0.103701, -0.0410971, 0.1037, -0.0410975, 0.103698, -0.0410966, 4.16005E-010, -9.13334E-012
120, 0.00000, -0.0980252, -0.0321631, -0.0980235, -0.0321632, -0.0980228, -0.0321641, 2.88211E-010, -1.23358E-010
121, 0.00000, -0.0782302, -0.0256996, -0.0782281, -0.0257, -0.0782279, -0.0257011, 1.40121E-010, -6.37818E-011
122, 0.00000, -0.0996574, -0.0217712, -0.0996519, -0.0217707, -0.0996502, -0.0217743, 1.88071E-010, -7.81705E-011
123, 0.00000, -0.0656821, -0.0199351, -0.0656781, -0.019935, -0.0656773, -0.0199378, 7.5585E-011, -3.7344E-011
124, 0.00000, -0.092081, -0.0193117, -0.0920814, -0.0193111, -0.0920801, -0.0193104, 1.34071E-010, -4.78065E-011
125, 0.00000, -0.0611686, -0.020103, -0.0611685, -0.0201043, -0.0611701, -0.0201045, 6.09469E-011, -2.92572E-011
126, 0.00000, -0.0705819, -0.0232064, -0.0705872, -0.0232072, -0.0705885, -0.0232033, 9.40009E-011, -3.45657E-011
127, 0.00000, -0.122792, -0.0294075, -0.122795, -0.0294077, -0.122795, -0.0294058, 3.82141E-010, -1.38673E-010
128, 0.00000, -0.0857522, -0.0328075, -0.0857527, -0.0328084, -0.0857539, -0.0328076, 2.07425E-010, -9.59189E-011
129, 0.00000, -0.0351155, -0.033596, -0.0351134, -0.0335962, -0.0351135, -0.0335974, 2.87326E-011, -2.83951E-011
130, 0.00000, -0.090783, -0.0345636, -0.0907768, -0.0345626, -0.0907759, -0.0345662, 4.36343E-011, -8.29304E-011
131, 0.00000, -0.752162, -0.0347894, -0.752141, -0.0347986, -0.752146, -0.0347955, -1.17028E-008, -4.94018E-009
132, 0.00000, -0.917525, -0.0345317, -0.917513, -0.0345451, -0.917509, -0.0345329, -2.14073E-008, -7.39404E-009
133, 0.00000, -1.01328, -0.034683, -1.01326, -0.0346989, -1.01326, -0.0346835, -2.86059E-008, -9.19421E-009
134, 0.00000, -0.168768, -0.0353772, -0.168771, -0.035378, -0.16877, -0.0353757, -1.00535E-012, -2.04928E-010
135, 0.00000, 0.047517, -0.0368512, 0.0475196, -0.0368489, 0.04752, -0.0368503, 5.79579E-011, -2.40601E-011
136, 0.00000, 0.243687, -0.0404763, 0.243687, -0.0404825, 0.243686, -0.0404816, 1.632E-009, -2.54963E-010
137, 0.00000, 0.281358, -0.0470726, 0.28136, -0.0470753, 0.281361, -0.0470738, 2.61018E-009, -4.18017E-010
138, 0.00000, 0.324716, -0.0524229, 0.324719, -0.0524259, 0.324721, -0.0524237, 3.94894E-009, -6.33217E-010
139, 0.00000, 0.339147, -0.05453, 0.339149, -0.0545329, 0.339151, -0.0545301, 4.53612E-009, -7.19033E-010
140, 0.00000, 0.344493, -0.0557587, 0.344498, -0.0557595, 0.344506, -0.0557558, 4.78771E-009, -7.87567E-010
141, 0.00000, 0.328118, -0.0543173, 0.328118, -0.0543209, 0.328113, -0.0543185, 4.30762E-009, -6.3477E-010
142, 0.00000, 0.295897, -0.0497068, 0.295898, -0.0497082, 0.295898, -0.0497056, 3.10874E-009, -4.91533E-010
143, 0.00000, 0.24309, -0.042187, 0.243091, -0.0421873, 0.243091, -0.0421854, 1.72026E-009, -2.8253E-010
144, 0.00000, 0.143122, -0.0332147, 0.143123, -0.0332141, 0.143123, -0.0332132, 4.8756E-010, -6.45251E-011
145, 0.00000, -0.11153, -0.0257018, -0.11153, -0.0257022, -0.111529, -0.0257018, 2.71012E-010, -1.02502E-010
146, 0.00000, -0.0664576, -0.0217724, -0.0664516, -0.0217736, -0.0664522, -0.0217772, 8.44176E-011, -4.64153E-011
147, 0.00000, -0.0940111, -0.0199395, -0.0940093, -0.0199394, -0.0940086, -0.0199404, 1.46069E-010, -5.71913E-011
148, 0.00000, -0.0921145, -0.0192883, -0.0921076, -0.0192866, -0.0921036, -0.0192906, 1.47941E-010, -6.02493E-011
149, 0.00000, -0.0948227, -0.0201086, -0.0948238, -0.020109, -0.094824, -0.0201079, 1.44563E-010, -5.29996E-011
150, 0.00000, -0.0856116, -0.0232045, -0.0856159, -0.0232053, -0.085617, -0.023202, 1.36272E-010, -5.00143E-011
151, 0.00000, -0.089536, -0.0294071, -0.0895381, -0.0294072, -0.0895381, -0.0294057, 2.11306E-010, -8.58983E-011
152, 0.00000, -0.104841, -0.0327749, -0.104831, -0.0327791, -0.104834, -0.0327856, 2.72328E-010, -1.54169E-010
153, 0.00000, -0.259479, -0.0335847, -0.259465, -0.0335842, -0.259461, -0.0335897, 7.52669E-010, -5.52831E-010
154, 0.00000, -0.328238, -0.0345681, -0.328235, -0.0345703, -0.328233, -0.0345689, 9.35956E-010, -8.2201E-010
155, 0.00000, -0.450107, -0.0348052, -0.450095, -0.034808, -0.450092, -0.0348083, -3.84493E-012, -1.58108E-009
156, 0.00000, -0.47714, -0.0345394, -0.477136, -0.0345437, -0.477133, -0.0345399, -3.42637E-010, -1.72028E-009
157, 0.00000, -0.343936, -0.0346952, -0.34394, -0.0346983, -0.343939, -0.0346937, 2.61284E-010, -8.58564E-010
158, 0.00000, -0.202424, -0.0353761, -0.202425, -0.0353771, -0.202425, -0.0353755, 5.06287E-010, -3.35447E-010
159, 0.00000, -0.0295544, -0.0368108, -0.0295562, -0.0368214, -0.0295555, -0.0368257, 5.80893E-011, -3.72033E-011
160, 0.00000, 0.0254498, -0.0404849, 0.0254506, -0.0404857, 0.0254521, -0.0404864, 1.0484E-010, -1.23572E-012
161, 0.00000, 0.0673175, -0.0470735, 0.0673189, -0.0470737, 0.0673212, -0.0470743, 3.04164E-010, 8.67842E-012
162, 0.00000, 0.110296, -0.0524235, 0.110298, -0.0524238, 0.1103, -0.0524241, 6.98446E-010, 3.43239E-013
163, 0.00000, 0.180191, -0.0545092, 0.180195, -0.0545129, 0.180197, -0.0545145, 1.56523E-009, -8.47638E-011
164, 0.00000, 0.149421, -0.0557477, 0.149421, -0.0557481, 0.149422, -0.055748, 1.2281E-009, -3.2155E-011
165, 0.00000, 0.135357, -0.0543241, 0.135358, -0.0543249, 0.135358, -0.0543239, 1.01082E-009, -1.5987E-011
166, 0.00000, 0.058268, -0.0497059, 0.0582674, -0.0497064, 0.058266, -0.0497058, 3.06331E-010, 1.75103E-011
167, 0.00000, -0.0278344, -0.0421862, -0.0278354, -0.0421864, -0.0278374, -0.0421857, 1.21515E-010, -4.74372E-011
168, 0.00000, -0.102871, -0.0332083, -0.102867, -0.0332087, -0.102867, -0.0332103, 3.30549E-010, -1.4246E-010
169, 0.00000, -0.0782633, -0.0256992, -0.078261, -0.0256996, -0.0782608, -0.0257009, 1.40465E-010, -6.44737E-011
170, 0.00000, -0.0996117, -0.0217712, -0.0996062, -0.0217707, -0.0996044, -0.0217743, 1.87906E-010, -7.81272E-011
171, 0.00000, -0.0618604, -0.0199349, -0.0618562, -0.0199347, -0.0618554, -0.0199376, 6.79281E-011, -3.47225E-011
172, 0.00000, -0.0944973, -0.0193168, -0.0944992, -0.0193165, -0.0944985, -0.0193147, 1.3806E-010, -4.70919E-011
173, 0.00000, -0.0806953, -0.0201173, -0.0806996, -0.0201193, -0.0807028, -0.0201166, 9.66079E-011, -3.71841E-011
174, 0.00000, -0.104541, -0.0232073, -0.104547, -0.0232082, -0.104548, -0.0232038, 1.98895E-010, -6.65544E-011
175, 0.00000, -0.0992258, -0.0294221, -0.0992368, -0.0294239, -0.0992403, -0.0294162, 2.36414E-010, -8.01881E-011
176, 0.00000, -0.11906, -0.032812, -0.119063, -0.0328134, -0.119065, -0.0328105, 3.72083E-010, -1.48337E-010
177, 0.00000, -0.135714, -0.0335962, -0.135711, -0.0335967, -0.135711, -0.0335974, 1.87272E-010, -1.57687E-010
178, 0.00000, -0.273224, -0.0345615, -0.273215, -0.0345621, -0.273214, -0.0345649, 2.42913E-010, -5.82658E-010
179, 0.00000, -0.606246, -0.0347971, -0.606228, -0.0348028, -0.606229, -0.0348025, -4.30557E-009, -3.03552E-009
180, 0.00000, -0.428717, -0.0345537, -0.428729, -0.0345587, -0.428726, -0.0345489, -4.74898E-010, -1.29875E-009
