hour, t(sec), P1 (kW), Q1 (kvar), P2 (kW), Q2 (kvar), P3 (kW), Q3 (kvar), P4 (kW), Q4 (kvar)
1, 0.00000, -0.592499, -0.194721, -0.592475, -0.194731, -0.592449, -0.194715, -1.19571E-009, -2.0787E-010
2, 0.00000, -0.502075, -0.165007, -0.502053, -0.165011, -0.502041, -0.165002, -8.45435E-010, -1.33634E-010
3, 0.00000, -0.459748, -0.151099, -0.459726, -0.151101, -0.459705, -0.151089, -7.02495E-010, -1.04941E-010
4, 0.00000, -0.445072, -0.146273, -0.445055, -0.146276, -0.445044, -0.146268, -6.57017E-010, -9.63517E-011
5, 0.00000, -0.463463, -0.152316, -0.463448, -0.15232, -0.463442, -0.152314, -7.15023E-010, -1.07166E-010
6, 0.00000, -0.534675, -0.175722, -0.534663, -0.17573, -0.534661, -0.175723, -9.62599E-010, -1.54501E-010
7, 0.00000, -0.6779, -0.222793, -0.677866, -0.222802, -0.677844, -0.222785, -1.59172E-009, -3.04155E-010
8, 0.00000, -0.687788, -0.248525, -0.687768, -0.248538, -0.687759, -0.248525, -1.82791E-009, -4.18619E-010
9, 0.00000, -0.0720361, -0.254514, -0.0720242, -0.254509, -0.0720187, -0.254504, -2.95593E-010, -5.62869E-010
10, 0.00000, 0.189152, -0.261929, 0.189183, -0.261927, 0.189202, -0.261914, 3.06151E-010, -7.19276E-010
11, 0.00000, 1.28542, -0.264326, 1.28568, -0.264356, 1.28587, -0.264263, 2.48784E-009, -1.57866E-009
12, 0.00000, 1.34388, -0.262312, 1.34418, -0.262369, 1.34438, -0.262234, 2.56276E-009, -1.62035E-009
13, 0.00000, 0.923078, -0.263138, 0.923276, -0.263197, 0.92339, -0.263097, 1.82469E-009, -1.23939E-009
14, 0.00000, -0.0573855, -0.267964, -0.0573754, -0.267972, -0.057368, -0.267966, -2.82372E-010, -6.33108E-010
15, 0.00000, -0.578686, -0.279134, -0.578669, -0.279146, -0.578651, -0.279133, -1.74886E-009, -5.68833E-010
16, 0.00000, -0.933562, -0.306805, -0.933501, -0.306829, -0.933463, -0.306797, -3.18349E-009, -7.91434E-010
17, 0.00000, -1.08556, -0.356759, -1.08547, -0.356787, -1.08541, -0.356742, -4.45392E-009, -1.2815E-009
18, 0.00000, -1.20902, -0.397333, -1.2089, -0.397366, -1.20883, -0.397308, -5.67213E-009, -1.80437E-009
19, 0.00000, -1.25765, -0.413315, -1.25751, -0.413347, -1.25743, -0.413279, -6.2025E-009, -2.05114E-009
20, 0.00000, -1.28434, -0.42211, -1.28544, -0.422546, -1.28539, -0.42248, -6.43929E-009, -2.00173E-009
21, 0.00000, -1.25288, -0.411752, -1.25272, -0.411779, -1.25264, -0.411706, -6.13274E-009, -1.99842E-009
22, 0.00000, -1.14629, -0.376725, -1.14615, -0.376745, -1.14607, -0.376682, -5.01424E-009, -1.49731E-009
23, 0.00000, -0.972729, -0.319688, -0.97263, -0.319701, -0.972574, -0.319657, -3.48183E-009, -8.97088E-010
24, 0.00000, -0.765732, -0.25166, -0.765674, -0.251668, -0.765639, -0.251642, -2.07324E-009, -4.4477E-010
25, 0.00000, -0.592545, -0.194741, -0.5925, -0.194742, -0.592478, -0.194726, -1.20886E-009, -2.27856E-010
26, 0.00000, -0.502098, -0.165015, -0.502056, -0.165013, -0.502048, -0.165004, -8.48299E-010, -1.3794E-010
27, 0.00000, -0.459711, -0.151084, -0.459687, -0.151085, -0.459676, -0.151077, -7.05581E-010, -1.09052E-010
28, 0.00000, -0.445072, -0.146273, -0.445051, -0.146274, -0.445042, -0.146267, -6.58207E-010, -9.80777E-011
29, 0.00000, -0.463472, -0.15232, -0.463461, -0.152325, -0.463451, -0.152318, -7.1749E-010, -1.10846E-010
30, 0.00000, -0.534719, -0.175735, -0.534712, -0.175745, -0.5347, -0.175736, -9.69197E-010, -1.64524E-010
31, 0.00000, -0.677894, -0.22279, -0.677869, -0.222804, -0.677845, -0.222785, -1.6088E-009, -3.30604E-010
32, 0.00000, -0.688781, -0.248546, -0.688758, -0.248559, -0.68874, -0.248543, -1.84622E-009, -4.45327E-010
33, 0.00000, -0.294035, -0.254501, -0.294024, -0.254498, -0.294021, -0.254495, -8.37005E-010, -4.97883E-010
34, 0.00000, 0.0355385, -0.261908, 0.0355626, -0.261896, 0.0355727, -0.261892, -4.49773E-011, -6.4986E-010
35, 0.00000, 0.514273, -0.263894, 0.514351, -0.263888, 0.514403, -0.263867, 1.03752E-009, -9.28417E-010
36, 0.00000, 0.587572, -0.261841, 0.587671, -0.261859, 0.587732, -0.261816, 1.1783E-009, -9.66266E-010
37, 0.00000, 0.30249, -0.262846, 0.302539, -0.262874, 0.302569, -0.262842, 5.71764E-010, -7.87737E-010
38, 0.00000, -0.201101, -0.267955, -0.201099, -0.267962, -0.201094, -0.267957, -6.45608E-010, -5.93342E-010
39, 0.00000, -0.71568, -0.279132, -0.715676, -0.279157, -0.715667, -0.279145, -2.17814E-009, -5.91618E-010
40, 0.00000, -0.933563, -0.306812, -0.933502, -0.306834, -0.933465, -0.306801, -3.20319E-009, -8.24498E-010
41, 0.00000, -1.08555, -0.35676, -1.08546, -0.356788, -1.08541, -0.356743, -4.46596E-009, -1.30242E-009
42, 0.00000, -1.209, -0.397326, -1.20889, -0.397362, -1.20882, -0.397305, -5.70458E-009, -1.86269E-009
43, 0.00000, -1.25319, -0.411848, -1.25749, -0.413344, -1.25742, -0.413275, -5.88572E-009, -1.34194E-009
44, 0.00000, -1.27545, -0.419161, -1.28561, -0.422584, -1.28552, -0.422518, -5.60378E-009, -3.49411E-010
45, 0.00000, -1.2483, -0.410246, -1.25274, -0.411779, -1.25265, -0.41171, -5.82461E-009, -1.30476E-009
46, 0.00000, -1.1463, -0.376728, -1.14617, -0.37675, -1.14609, -0.376686, -5.06896E-009, -1.5951E-009
47, 0.00000, -0.972754, -0.319694, -0.972645, -0.319706, -0.972585, -0.319659, -3.52537E-009, -9.71473E-010
48, 0.00000, -0.765743, -0.251662, -0.765668, -0.251666, -0.76564, -0.251641, -2.0984E-009, -4.85025E-010
49, 0.00000, -0.592524, -0.194734, -0.592481, -0.194736, -0.592466, -0.194722, -1.20591E-009, -2.22978E-010
50, 0.00000, -0.502117, -0.165021, -0.502076, -0.165019, -0.502061, -0.165008, -8.50337E-010, -1.4123E-010
51, 0.00000, -0.459718, -0.151086, -0.459691, -0.151087, -0.45968, -0.151078, -7.05719E-010, -1.09307E-010
52, 0.00000, -0.445074, -0.146273, -0.445052, -0.146275, -0.445042, -0.146267, -6.57904E-010, -9.76528E-011
53, 0.00000, -0.463476, -0.152321, -0.463463, -0.152326, -0.463453, -0.152318, -7.16131E-010, -1.08889E-010
54, 0.00000, -0.53468, -0.175722, -0.534693, -0.175739, -0.534682, -0.17573, -9.75619E-010, -1.73877E-010
55, 0.00000, -0.677841, -0.222764, -0.677827, -0.222784, -0.677803, -0.222766, -1.60227E-009, -3.20167E-010
56, 0.00000, -0.756233, -0.248535, -0.756242, -0.248564, -0.756223, -0.248547, -2.03796E-009, -4.56773E-010
57, 0.00000, -0.574734, -0.254566, -0.574669, -0.254553, -0.574652, -0.254539, -1.57747E-009, -4.71976E-010
58, 0.00000, -0.462102, -0.261898, -0.462066, -0.261889, -0.462058, -0.261883, -1.31129E-009, -5.02005E-010
59, 0.00000, -0.330825, -0.263737, -0.330796, -0.263725, -0.330791, -0.263724, -9.67001E-010, -5.23654E-010
60, 0.00000, -0.324599, -0.261624, -0.324614, -0.26164, -0.324611, -0.261634, -9.47869E-010, -5.38941E-010
61, 0.00000, -0.396644, -0.262774, -0.396649, -0.262784, -0.396644, -0.262779, -1.14787E-009, -5.3874E-010
62, 0.00000, -0.548385, -0.267964, -0.548387, -0.267979, -0.548377, -0.267971, -1.59974E-009, -5.45486E-010
63, 0.00000, -0.582295, -0.279124, -0.582302, -0.279142, -0.582292, -0.279135, -1.79042E-009, -6.32004E-010
64, 0.00000, -0.933573, -0.306814, -0.933526, -0.306841, -0.933478, -0.306808, -3.25135E-009, -9.07185E-010
65, 0.00000, -1.08555, -0.356763, -1.08547, -0.356795, -1.08543, -0.35675, -4.54737E-009, -1.44709E-009
66, 0.00000, -1.19856, -0.3939, -1.2088, -0.397339, -1.20878, -0.397291, -4.86476E-009, -1.79409E-010
67, 0.00000, -1.24002, -0.407518, -1.25748, -0.413338, -1.25741, -0.413283, -4.57728E-009, 9.08179E-010
68, 0.00000, -1.2592, -0.413816, -1.27811, -0.420112, -1.28545, -0.422509, -4.86878E-009, 1.85255E-009
69, 0.00000, -1.2365, -0.406367, -1.25277, -0.411785, -1.25271, -0.411737, -4.66083E-009, 7.28515E-010
70, 0.00000, -1.1416, -0.37518, -1.14634, -0.376798, -1.14623, -0.376745, -4.7874E-009, -9.66308E-010
71, 0.00000, -0.972766, -0.319698, -0.972637, -0.319703, -0.972582, -0.319658, -3.56295E-009, -1.03725E-009
72, 0.00000, -0.765753, -0.251666, -0.765669, -0.251666, -0.765642, -0.251642, -2.09863E-009, -4.85475E-010
73, 0.00000, -0.635311, -0.208797, -0.635226, -0.208788, -0.635198, -0.208768, -1.40489E-009, -2.83313E-010
74, 0.00000, -0.536393, -0.176286, -0.53633, -0.176277, -0.536311, -0.176265, -9.76285E-010, -1.68701E-010
75, 0.00000, -0.482733, -0.158651, -0.482705, -0.158652, -0.482692, -0.158642, -7.82196E-010, -1.25512E-010
76, 0.00000, -0.458097, -0.150553, -0.458072, -0.150554, -0.458061, -0.150546, -6.98757E-010, -1.0564E-010
77, 0.00000, -0.457864, -0.150476, -0.457847, -0.15048, -0.457837, -0.150473, -6.97845E-010, -1.0503E-010
78, 0.00000, -0.48199, -0.158406, -0.481976, -0.158412, -0.481966, -0.158403, -7.773E-010, -1.21085E-010
79, 0.00000, -0.537726, -0.176724, -0.537719, -0.176734, -0.537707, -0.176725, -9.79723E-010, -1.65613E-010
80, 0.00000, -0.577134, -0.211377, -0.577128, -0.211389, -0.577117, -0.21138, -1.28284E-009, -2.76611E-010
81, 0.00000, -0.339694, -0.266275, -0.33967, -0.266263, -0.339668, -0.26626, -1.00125E-009, -5.34044E-010
82, 0.00000, -0.148916, -0.317268, -0.148907, -0.317277, -0.148901, -0.317275, -6.31057E-010, -9.03094E-010
83, 0.00000, 0.246898, -0.344389, 0.246953, -0.344379, 0.246986, -0.344357, 5.84995E-010, -1.27752E-009
84, 0.00000, 0.212979, -0.354617, 0.213034, -0.354636, 0.213067, -0.35461, 4.95187E-010, -1.33224E-009
85, 0.00000, -0.00831117, -0.359322, -0.00828789, -0.359348, -0.00827076, -0.359336, -2.39689E-010, -1.25734E-009
86, 0.00000, -0.50864, -0.366231, -0.508634, -0.366244, -0.508624, -0.36624, -2.13951E-009, -1.23637E-009
87, 0.00000, -1.00352, -0.37321, -1.00345, -0.373234, -1.00341, -0.373197, -4.3688E-009, -1.49912E-009
88, 0.00000, -1.15822, -0.38064, -1.15812, -0.380674, -1.15806, -0.38062, -5.2115E-009, -1.68506E-009
89, 0.00000, -1.21642, -0.399769, -1.21629, -0.399801, -1.21622, -0.399738, -5.80122E-009, -1.93322E-009
90, 0.00000, -1.24873, -0.410366, -1.2486, -0.410404, -1.24851, -0.410335, -6.1257E-009, -2.04624E-009
91, 0.00000, -1.24238, -0.408289, -1.2422, -0.408312, -1.2421, -0.408232, -6.04894E-009, -2.00727E-009
92, 0.00000, -1.2373, -0.406649, -1.23722, -0.406693, -1.23716, -0.406634, -6.0106E-009, -2.00132E-009
93, 0.00000, -1.19053, -0.391259, -1.19038, -0.391284, -1.1903, -0.391217, -5.53724E-009, -1.82886E-009
94, 0.00000, -1.09875, -0.361097, -1.09861, -0.361113, -1.09853, -0.361054, -4.6388E-009, -1.44894E-009
95, 0.00000, -0.966681, -0.317698, -0.966571, -0.317708, -0.966522, -0.317666, -3.51257E-009, -1.01374E-009
96, 0.00000, -0.805365, -0.264684, -0.805281, -0.264687, -0.805249, -0.26466, -2.34944E-009, -5.77359E-010
97, 0.00000, -0.649449, -0.213443, -0.649396, -0.213445, -0.649377, -0.213428, -1.46796E-009, -2.92886E-010
98, 0.00000, -0.546287, -0.179539, -0.54623, -0.179534, -0.546212, -0.17952, -1.01458E-009, -1.77093E-010
99, 0.00000, -0.486455, -0.159874, -0.486425, -0.159874, -0.486412, -0.159865, -7.95025E-010, -1.28405E-010
100, 0.00000, -0.456678, -0.150087, -0.456651, -0.150087, -0.45664, -0.150079, -6.94268E-010, -1.04827E-010
101, 0.00000, -0.447537, -0.147082, -0.447526, -0.147087, -0.447516, -0.14708, -6.66565E-010, -1.00371E-010
102, 0.00000, -0.462361, -0.151955, -0.462344, -0.151959, -0.462336, -0.151952, -7.12259E-010, -1.07772E-010
103, 0.00000, -0.510641, -0.167822, -0.510632, -0.167831, -0.510621, -0.167822, -8.77981E-010, -1.42507E-010
104, 0.00000, -0.528427, -0.195295, -0.528417, -0.195304, -0.528407, -0.195295, -1.07407E-009, -2.21771E-010
105, 0.00000, -0.282029, -0.246834, -0.282009, -0.246823, -0.282008, -0.246821, -7.75306E-010, -4.52992E-010
106, 0.00000, -0.103694, -0.30165, -0.103678, -0.301641, -0.103674, -0.301645, -4.66425E-010, -7.99945E-010
107, 0.00000, 1.00628, -0.336783, 1.00647, -0.336781, 1.00662, -0.336712, 2.58019E-009, -1.87092E-009
108, 0.00000, 2.1961, -0.351428, 2.1968, -0.351556, 2.19728, -0.351279, 5.31866E-009, -3.55355E-009
109, 0.00000, 2.0991, -0.35997, 2.09983, -0.36019, 2.1003, -0.35985, 5.2603E-009, -3.50873E-009
110, 0.00000, -0.163241, -0.364329, -0.163234, -0.364354, -0.163222, -0.364347, -8.12796E-010, -1.18859E-009
111, 0.00000, -0.771378, -0.362521, -0.771342, -0.362532, -0.771322, -0.362515, -3.14048E-009, -1.1332E-009
112, 0.00000, -1.09391, -0.359502, -1.09383, -0.359535, -1.09378, -0.359492, -4.49529E-009, -1.24975E-009
113, 0.00000, -1.13958, -0.374518, -1.13947, -0.374545, -1.13941, -0.374491, -4.92776E-009, -1.4299E-009
114, 0.00000, -1.20028, -0.394464, -1.20016, -0.394495, -1.20009, -0.394436, -5.53917E-009, -1.69065E-009
115, 0.00000, -1.22988, -0.404192, -1.22975, -0.404222, -1.22967, -0.404157, -5.85603E-009, -1.83597E-009
116, 0.00000, -1.26692, -0.416362, -1.26678, -0.416395, -1.2667, -0.416326, -6.26757E-009, -2.02831E-009
117, 0.00000, -1.23823, -0.406942, -1.23805, -0.406961, -1.23796, -0.406882, -5.96497E-009, -1.91569E-009
118, 0.00000, -1.12509, -0.369755, -1.12494, -0.369773, -1.12487, -0.369711, -4.81132E-009, -1.41658E-009
119, 0.00000, -0.94763, -0.311439, -0.947528, -0.311449, -0.947469, -0.311405, -3.29613E-009, -8.43584E-010
120, 0.00000, -0.741588, -0.243724, -0.741525, -0.243729, -0.741498, -0.243706, -1.95608E-009, -4.3813E-010
121, 0.00000, -0.592521, -0.194733, -0.59248, -0.194736, -0.592465, -0.194722, -1.20561E-009, -2.22514E-010
122, 0.00000, -0.502116, -0.165021, -0.502075, -0.165019, -0.502061, -0.165008, -8.5033E-010, -1.41216E-010
123, 0.00000, -0.459723, -0.151088, -0.459693, -0.151087, -0.459682, -0.151079, -7.04346E-010, -1.07338E-010
124, 0.00000, -0.445079, -0.146274, -0.445061, -0.146277, -0.445049, -0.146269, -6.5907E-010, -9.93561E-011
125, 0.00000, -0.463458, -0.152316, -0.463444, -0.15232, -0.463438, -0.152314, -7.15729E-010, -1.08219E-010
126, 0.00000, -0.53471, -0.175732, -0.534707, -0.175744, -0.534696, -0.175735, -9.67779E-010, -1.62325E-010
127, 0.00000, -0.677891, -0.22279, -0.677869, -0.222803, -0.677844, -0.222785, -1.61269E-009, -3.36723E-010
128, 0.00000, -0.689915, -0.248551, -0.689885, -0.248562, -0.689867, -0.248546, -1.8497E-009, -4.46231E-010
129, 0.00000, -0.301567, -0.254502, -0.301554, -0.254498, -0.301552, -0.254495, -8.52896E-010, -4.82925E-010
130, 0.00000, 0.0236485, -0.261904, 0.0236639, -0.261896, 0.0236732, -0.261887, -8.3086E-011, -6.31808E-010
131, 0.00000, 1.95672, -0.264851, 1.95722, -0.264937, 1.9576, -0.264756, 3.51527E-009, -2.30504E-009
132, 0.00000, 2.46497, -0.263398, 2.46577, -0.263592, 2.4663, -0.26324, 4.15554E-009, -2.89678E-009
133, 0.00000, 2.76521, -0.264926, 2.76618, -0.26517, 2.76682, -0.264736, 4.53318E-009, -3.29646E-009
134, 0.00000, 0.267568, -0.268025, 0.267617, -0.268045, 0.267642, -0.26802, 4.78225E-010, -7.92256E-010
135, 0.00000, -0.380369, -0.279126, -0.380363, -0.27913, -0.380358, -0.279126, -1.16856E-009, -5.76118E-010
136, 0.00000, -0.93358, -0.306795, -0.933511, -0.306825, -0.933467, -0.306788, -3.15205E-009, -7.3979E-010
137, 0.00000, -1.08557, -0.356762, -1.08548, -0.356789, -1.08542, -0.356742, -4.40225E-009, -1.19332E-009
138, 0.00000, -1.20903, -0.397334, -1.20891, -0.397366, -1.20884, -0.397307, -5.60399E-009, -1.68344E-009
139, 0.00000, -1.25765, -0.413314, -1.25751, -0.413345, -1.25742, -0.413277, -6.12874E-009, -1.9178E-009
140, 0.00000, -1.28559, -0.422537, -1.28546, -0.422566, -1.2854, -0.422507, -6.44252E-009, -2.05748E-009
141, 0.00000, -1.25303, -0.411771, -1.25284, -0.411798, -1.25274, -0.411715, -6.08546E-009, -1.91378E-009
142, 0.00000, -1.14627, -0.376721, -1.14614, -0.376741, -1.14606, -0.376681, -4.9747E-009, -1.42795E-009
143, 0.00000, -0.972707, -0.319685, -0.972616, -0.319698, -0.972564, -0.319656, -3.45336E-009, -8.49623E-010
144, 0.00000, -0.765716, -0.251657, -0.765663, -0.251665, -0.765633, -0.251641, -2.05707E-009, -4.19196E-010
145, 0.00000, -0.592531, -0.194736, -0.592492, -0.194739, -0.592472, -0.194724, -1.20858E-009, -2.27249E-010
146, 0.00000, -0.502098, -0.165015, -0.502056, -0.165013, -0.502048, -0.165004, -8.48288E-010, -1.37924E-010
147, 0.00000, -0.459711, -0.151084, -0.459687, -0.151085, -0.459676, -0.151077, -7.05574E-010, -1.09041E-010
148, 0.00000, -0.445133, -0.146293, -0.445102, -0.146292, -0.445087, -0.146282, -6.59539E-010, -1.00266E-010
149, 0.00000, -0.463476, -0.152321, -0.463463, -0.152326, -0.463453, -0.152318, -7.17525E-010, -1.10919E-010
150, 0.00000, -0.53472, -0.175735, -0.534713, -0.175745, -0.534701, -0.175736, -9.6907E-010, -1.6434E-010
151, 0.00000, -0.677894, -0.22279, -0.677869, -0.222804, -0.677845, -0.222785, -1.60865E-009, -3.30375E-010
152, 0.00000, -0.622998, -0.248533, -0.62296, -0.248535, -0.622956, -0.248525, -1.66709E-009, -4.43648E-010
153, 0.00000, -0.092894, -0.254548, -0.0928759, -0.254526, -0.0928706, -0.254519, -3.42118E-010, -5.63932E-010
154, 0.00000, 0.0233941, -0.261888, 0.0234112, -0.261888, 0.0234209, -0.261881, -7.23405E-011, -6.45422E-010
155, 0.00000, 0.499486, -0.263891, 0.499556, -0.263887, 0.499605, -0.26386, 1.00326E-009, -9.1815E-010
156, 0.00000, 0.57494, -0.261835, 0.575036, -0.261854, 0.575095, -0.26181, 1.15115E-009, -9.5737E-010
157, 0.00000, 0.294094, -0.262848, 0.294144, -0.262869, 0.294173, -0.262844, 5.46365E-010, -7.82642E-010
158, 0.00000, -0.20596, -0.267955, -0.205956, -0.267961, -0.205952, -0.267958, -6.58393E-010, -5.89569E-010
159, 0.00000, -0.716763, -0.27914, -0.716753, -0.279163, -0.716742, -0.27915, -2.18213E-009, -5.93337E-010
160, 0.00000, -0.933562, -0.306811, -0.933501, -0.306833, -0.933465, -0.306801, -3.20693E-009, -8.30731E-010
161, 0.00000, -1.08554, -0.356758, -1.08546, -0.356787, -1.08541, -0.356742, -4.47993E-009, -1.32679E-009
162, 0.00000, -1.209, -0.397331, -1.20889, -0.397365, -1.20883, -0.397307, -5.7059E-009, -1.86545E-009
163, 0.00000, -1.25749, -0.413237, -1.25738, -0.413286, -1.25731, -0.413227, -6.20882E-009, -2.06071E-009
164, 0.00000, -1.27907, -0.420347, -1.2856, -0.422581, -1.28551, -0.422512, -5.95924E-009, -1.00556E-009
165, 0.00000, -1.25146, -0.411284, -1.25273, -0.411779, -1.25264, -0.411707, -6.0912E-009, -1.87051E-009
166, 0.00000, -1.1463, -0.376724, -1.14616, -0.376746, -1.14608, -0.376682, -5.07606E-009, -1.60779E-009
167, 0.00000, -0.972755, -0.319694, -0.972646, -0.319706, -0.972585, -0.319659, -3.53167E-009, -9.82353E-010
168, 0.00000, -0.765745, -0.251663, -0.765668, -0.251666, -0.76564, -0.251641, -2.09846E-009, -4.85127E-010
169, 0.00000, -0.592524, -0.194734, -0.592481, -0.194736, -0.592466, -0.194722, -1.20571E-009, -2.22672E-010
170, 0.00000, -0.502116, -0.165021, -0.502075, -0.165019, -0.502061, -0.165008, -8.50327E-010, -1.41212E-010
171, 0.00000, -0.459724, -0.151088, -0.459693, -0.151087, -0.459682, -0.151079, -7.0416E-010, -1.07074E-010
172, 0.00000, -0.445068, -0.14627, -0.445052, -0.146274, -0.445041, -0.146266, -6.59086E-010, -9.93315E-011
173, 0.00000, -0.463426, -0.152304, -0.46342, -0.152312, -0.463416, -0.152306, -7.16463E-010, -1.09151E-010
174, 0.00000, -0.534706, -0.175731, -0.534705, -0.175743, -0.534694, -0.175734, -9.70159E-010, -1.65843E-010
175, 0.00000, -0.677799, -0.222756, -0.677812, -0.222779, -0.677795, -0.22277, -1.60811E-009, -3.28345E-010
176, 0.00000, -0.690002, -0.248541, -0.689985, -0.248557, -0.689967, -0.248541, -1.85395E-009, -4.52597E-010
177, 0.00000, -0.165276, -0.254502, -0.165266, -0.254498, -0.165263, -0.254496, -5.18729E-010, -5.28563E-010
178, 0.00000, 0.224691, -0.261946, 0.224726, -0.261937, 0.224748, -0.261926, 3.86866E-010, -7.39116E-010
179, 0.00000, 1.23551, -0.264285, 1.23575, -0.26431, 1.23593, -0.264229, 2.40199E-009, -1.53035E-009
180, 0.00000, 0.570039, -0.261801, 0.570151, -0.261853, 0.57021, -0.261788, 1.13066E-009, -9.53779E-010
181, 0.00000, 0.291475, -0.262847, 0.291523, -0.262869, 0.291552, -0.262842, 5.36657E-010, -7.80385E-010
182, 0.00000, -0.206477, -0.267915, -0.206487, -0.267938, -0.206484, -0.267939, -6.59965E-010, -5.76185E-010
183, 0.00000, -0.582574, -0.279132, -0.582558, -0.279145, -0.582541, -0.279132, -1.76189E-009, -5.71453E-010
184, 0.00000, -0.93356, -0.306804, -0.9335, -0.306828, -0.933463, -0.306796, -3.19128E-009, -8.04258E-010
185, 0.00000, -1.08556, -0.356761, -1.08547, -0.356788, -1.08542, -0.356743, -4.459E-009, -1.29041E-009
186, 0.00000, -1.20902, -0.397332, -1.2089, -0.397365, -1.20883, -0.397307, -5.68178E-009, -1.82177E-009
187, 0.00000, -1.25543, -0.412584, -1.25749, -0.413343, -1.25742, -0.41327, -6.08899E-009, -1.76653E-009
