hour, t(sec), V1.re, V1.im, V2.re, V2.im, V3.re, V3.im, V4.re, V4.im, I1.re, I1.im, I2.re, I2.im, I3.re, I3.im, I4.re, I4.im
1, 0.00000, 191.728, -111.788, -192.931, -110.188, 0.97622, 222.326, -1.13267E-005, -2.16577E-005, -0.86827, 0.979298, 1.28095, 0.261472, -0.413371, -1.23929, 0.0120217, 0.0201811
2, 0.00000, 192.06, -111.921, -193.187, -110.406, 0.917901, 222.642, -9.52072E-006, -1.82004E-005, -0.734775, 0.828351, 1.08377, 0.221542, -0.349525, -1.04881, 0.0100501, 0.0171169
3, 0.00000, 192.312, -111.988, -193.352, -110.589, 0.847674, 222.865, -8.69781E-006, -1.65812E-005, -0.672251, 0.757396, 0.991229, 0.202975, -0.319411, -0.959461, 0.00912991, 0.0156723
4, 0.00000, 192.341, -112.008, -193.382, -110.604, 0.849246, 222.897, -8.40825E-006, -1.6044E-005, -0.650741, 0.733176, 0.959524, 0.196479, -0.309202, -0.928784, 0.00882757, 0.0151724
5, 0.00000, 192.245, -111.98, -193.316, -110.536, 0.873815, 222.811, -8.76584E-006, -1.67414E-005, -0.677882, 0.763919, 0.999653, 0.204572, -0.322228, -0.967551, 0.00922298, 0.0158011
6, 0.00000, 192.022, -111.876, -193.133, -110.394, 0.902851, 222.591, -1.01501E-005, -1.94153E-005, -0.782853, 0.882396, 1.15454, 0.236095, -0.372275, -1.11732, 0.0107412, 0.0182486
7, 0.00000, 191.327, -111.655, -192.648, -109.909, 1.06848, 221.96, -1.29746E-005, -2.49436E-005, -0.994733, 1.12284, 1.46812, 0.298978, -0.474317, -1.42, 0.0139047, 0.0231287
8, 0.00000, 191.052, -111.509, -192.408, -109.744, 1.08827, 221.682, -1.45209E-005, -2.80241E-005, -1.11127, 1.25453, 1.64009, 0.333805, -0.529988, -1.58616, 0.0156879, 0.0258563
9, 0.00000, 193.067, -111.304, -193.118, -111.531, -0.0444714, 223.107, -1.45928E-005, -2.81541E-005, -1.13656, 1.26933, 1.66652, 0.348537, -0.53108, -1.61686, 0.0157193, 0.0271495
10, 0.00000, 193.912, -111.183, -193.389, -112.296, -0.547079, 223.691, -1.48933E-005, -2.87421E-005, -1.16901, 1.29939, 1.70917, 0.361668, -0.541294, -1.66053, 0.0160209, 0.0282145
11, 0.00000, 197.372, -110.785, -194.589, -115.398, -2.5418, 226.149, -1.45525E-005, -2.80631E-005, -1.17439, 1.28163, 1.69802, 0.37565, -0.524594, -1.65865, 0.015509, 0.0294328
12, 0.00000, 197.587, -110.773, -194.674, -115.585, -2.65515, 226.309, -1.44377E-005, -2.77805E-005, -1.16493, 1.27001, 1.68334, 0.373313, -0.519319, -1.64479, 0.0153407, 0.0292471
13, 0.00000, 196.237, -110.926, -194.202, -114.374, -1.87714, 225.344, -1.46552E-005, -2.82022E-005, -1.17111, 1.28581, 1.69958, 0.370597, -0.529442, -1.6572, 0.0156213, 0.0290033
14, 0.00000, 193.128, -111.228, -193.082, -111.616, -0.131646, 223.117, -1.53428E-005, -2.96233E-005, -1.19715, 1.33583, 1.75443, 0.367678, -0.558479, -1.70252, 0.0165369, 0.0286387
15, 0.00000, 191.388, -111.319, -192.395, -110.112, 0.78033, 221.841, -1.63483E-005, -3.15569E-005, -1.24938, 1.40614, 1.8404, 0.377408, -0.592387, -1.78119, 0.0177179, 0.0291984
16, 0.00000, 189.987, -111.25, -191.731, -108.966, 1.40213, 220.755, -1.81429E-005, -3.52558E-005, -1.3759, 1.55771, 2.03382, 0.410679, -0.659696, -1.96493, 0.0199126, 0.031799
17, 0.00000, 189.104, -110.998, -191.142, -108.339, 1.63257, 219.972, -2.13084E-005, -4.16846E-005, -1.60431, 1.82014, 2.37409, 0.476528, -0.772201, -2.2919, 0.0237274, 0.0369142
18, 0.00000, 188.489, -110.798, -190.711, -107.913, 1.77409, 219.415, -2.38972E-005, -4.69929E-005, -1.79049, 2.03396, 2.65131, 0.530183, -0.863828, -2.55823, 0.0269013, 0.0410765
19, 0.00000, 188.253, -110.719, -190.544, -107.75, 1.82681, 219.201, -2.49254E-005, -4.91145E-005, -1.86397, 2.11846, 2.76078, 0.551296, -0.900062, -2.66335, 0.0281768, 0.0427118
20, 0.00000, 188.122, -110.674, -190.45, -107.661, 1.85482, 219.081, -2.5512E-005, -5.03337E-005, -1.90644, 2.16727, 2.82404, 0.563502, -0.920998, -2.72411, 0.0289102, 0.0436662
21, 0.00000, 188.421, -110.737, -190.63, -107.882, 1.76074, 219.334, -2.47666E-005, -4.8788E-005, -1.85622, 2.10829, 2.7483, 0.549748, -0.895273, -2.65185, 0.0279605, 0.0425964
22, 0.00000, 188.995, -110.912, -191.023, -108.285, 1.62032, 219.848, -2.25089E-005, -4.41399E-005, -1.69509, 1.92281, 2.50808, 0.503558, -0.815649, -2.42125, 0.0251695, 0.0390164
23, 0.00000, 189.853, -111.19, -191.624, -108.88, 1.42145, 220.626, -1.89185E-005, -3.68295E-005, -1.43427, 1.62406, 2.12025, 0.427907, -0.687893, -2.04828, 0.0208331, 0.0331457
24, 0.00000, 190.74, -111.51, -192.273, -109.481, 1.23913, 221.448, -1.47486E-005, -2.8479E-005, -1.12547, 1.2724, 1.66248, 0.337103, -0.538214, -1.60711, 0.0159567, 0.0260912
25, 0.00000, 191.163, -111.759, -192.665, -109.727, 1.22318, 221.889, -1.13492E-005, -2.18136E-005, -0.869056, 0.982515, 1.28387, 0.260451, -0.415584, -1.24128, 0.0121211, 0.0201265
26, 0.00000, 191.918, -111.914, -193.121, -110.292, 0.979595, 222.533, -9.52445E-006, -1.82581E-005, -0.734972, 0.829067, 1.0844, 0.22133, -0.349993, -1.04924, 0.0100903, 0.0170991
27, 0.00000, 192.066, -111.977, -193.237, -110.387, 0.956512, 222.675, -8.70532E-006, -1.66452E-005, -0.672525, 0.758484, 0.992214, 0.202634, -0.320152, -0.960118, 0.00916772, 0.0156446
28, 0.00000, 192.246, -112.004, -193.338, -110.526, 0.891145, 222.824, -8.41323E-006, -1.60692E-005, -0.650848, 0.73359, 0.959899, 0.196352, -0.309481, -0.929033, 0.00884237, 0.0151597
29, 0.00000, 192.037, -111.97, -193.219, -110.366, 0.965754, 222.65, -8.77997E-006, -1.67833E-005, -0.678104, 0.764839, 1.0005, 0.204281, -0.322862, -0.968111, 0.00924411, 0.0157736
30, 0.00000, 191.628, -111.858, -192.948, -110.072, 1.07654, 222.286, -1.01845E-005, -1.95117E-005, -0.783348, 0.884417, 1.1564, 0.235462, -0.373664, -1.11856, 0.0107964, 0.0181937
31, 0.00000, 190.715, -111.624, -192.359, -109.411, 1.33541, 221.486, -1.30623E-005, -2.51651E-005, -0.995739, 1.12686, 1.47181, 0.297727, -0.477057, -1.42245, 0.0140523, 0.0230227
32, 0.00000, 190.566, -111.484, -192.179, -109.349, 1.30009, 221.306, -1.46085E-005, -2.82222E-005, -1.11217, 1.25811, 1.64338, 0.332701, -0.532425, -1.58835, 0.0158245, 0.0257622
33, 0.00000, 192.171, -111.362, -192.775, -110.751, 0.432988, 222.457, -1.4723E-005, -2.84181E-005, -1.13751, 1.27613, 1.67244, 0.345826, -0.536104, -1.62042, 0.0158956, 0.0268894
34, 0.00000, 193.053, -111.219, -193.043, -111.558, -0.105526, 223.057, -1.50227E-005, -2.90392E-005, -1.17015, 1.30606, 1.71507, 0.359182, -0.546124, -1.6642, 0.0162309, 0.0279974
35, 0.00000, 194.507, -111.055, -193.547, -112.858, -0.93875, 224.084, -1.49267E-005, -2.88551E-005, -1.17728, 1.30381, 1.71738, 0.36666, -0.541252, -1.67028, 0.0160789, 0.028661
36, 0.00000, 194.803, -111.043, -193.667, -113.112, -1.09112, 224.304, -1.47798E-005, -2.85167E-005, -1.16762, 1.29129, 1.70189, 0.36462, -0.53536, -1.65591, 0.0158705, 0.0285124
37, 0.00000, 193.827, -111.128, -193.308, -112.251, -0.550973, 223.601, -1.49748E-005, -2.88889E-005, -1.17361, 1.30444, 1.71584, 0.363096, -0.543368, -1.667, 0.016109, 0.0283534
38, 0.00000, 192.206, -111.253, -192.701, -110.83, 0.330687, 222.431, -1.54954E-005, -2.99637E-005, -1.19848, 1.34316, 1.76094, 0.364999, -0.563746, -1.7066, 0.0167777, 0.0284052
39, 0.00000, 190.546, -111.335, -192.044, -109.399, 1.19562, 221.216, -1.64687E-005, -3.18766E-005, -1.25063, 1.41316, 1.84658, 0.374808, -0.597429, -1.78509, 0.0179458, 0.0289954
40, 0.00000, 189.653, -111.23, -191.572, -108.696, 1.5453, 220.496, -1.82213E-005, -3.54353E-005, -1.37667, 1.56076, 2.03661, 0.409738, -0.661759, -1.96679, 0.0200446, 0.0317249
41, 0.00000, 188.958, -110.989, -191.072, -108.221, 1.69477, 219.859, -2.13528E-005, -4.17803E-005, -1.60471, 1.82171, 2.37552, 0.476047, -0.773256, -2.29285, 0.0237998, 0.0368757
42, 0.00000, 188.186, -110.778, -190.565, -107.669, 1.9017, 219.181, -2.40109E-005, -4.72264E-005, -1.79144, 2.0376, 2.65463, 0.529081, -0.866258, -2.56044, 0.0270804, 0.040982
43, 0.00000, 187.851, -110.691, -190.35, -107.427, 1.9958, 218.889, -2.50874E-005, -4.94443E-005, -1.86531, 2.1235, 2.76539, 0.549773, -0.903427, -2.66642, 0.028433, 0.0425867
44, 0.00000, 187.664, -110.641, -190.229, -107.293, 2.04709, 218.725, -2.5709E-005, -5.07299E-005, -1.90807, 2.17323, 2.82951, 0.561747, -0.924948, -2.72777, 0.02922, 0.0435244
45, 0.00000, 187.828, -110.696, -190.344, -107.406, 2.01, 218.874, -2.5003E-005, -4.92679E-005, -1.85818, 2.1157, 2.75506, 0.547513, -0.900214, -2.65635, 0.0283323, 0.0424111
46, 0.00000, 188.419, -110.875, -190.747, -107.821, 1.86407, 219.402, -2.27116E-005, -4.45575E-005, -1.69681, 1.92937, 2.51407, 0.501573, -0.820032, -2.42523, 0.0254872, 0.0388443
47, 0.00000, 189.199, -111.151, -191.312, -108.351, 1.70126, 220.119, -1.9099E-005, -3.7218E-005, -1.4359, 1.63034, 2.12599, 0.425994, -0.692109, -2.05209, 0.0211205, 0.0329794
48, 0.00000, 190.104, -111.475, -191.972, -108.966, 1.51387, 220.956, -1.48659E-005, -2.87685E-005, -1.1267, 1.27717, 1.66683, 0.335637, -0.541432, -1.61, 0.0161603, 0.0259618
49, 0.00000, 191.296, -111.766, -192.728, -109.835, 1.16517, 221.992, -1.13314E-005, -2.17747E-005, -0.868865, 0.981753, 1.28316, 0.260686, -0.415064, -1.24081, 0.0120977, 0.0201492
50, 0.00000, 191.779, -111.908, -193.056, -110.178, 1.04127, 222.426, -9.54223E-006, -1.82841E-005, -0.735135, 0.829737, 1.08503, 0.221121, -0.350456, -1.04965, 0.0101015, 0.0170757
51, 0.00000, 192.066, -111.977, -193.237, -110.388, 0.956214, 222.675, -8.70496E-006, -1.66489E-005, -0.672531, 0.75849, 0.992217, 0.202636, -0.320152, -0.960122, 0.00917093, 0.0156443
52, 0.00000, 192.276, -112.005, -193.352, -110.551, 0.877768, 222.847, -8.41156E-006, -1.60637E-005, -0.650818, 0.733463, 0.959782, 0.196393, -0.309393, -0.928956, 0.00883975, 0.0151634
53, 0.00000, 192.151, -111.976, -193.272, -110.459, 0.915374, 222.738, -8.77324E-006, -1.67588E-005, -0.677982, 0.764335, 1.00004, 0.204441, -0.322515, -0.967805, 0.00923117, 0.0157881
54, 0.00000, 191.208, -111.837, -192.75, -109.731, 1.26045, 221.962, -1.0222E-005, -1.96108E-005, -0.783855, 0.886548, 1.15836, 0.23478, -0.375137, -1.11985, 0.0108519, 0.0181345
55, 0.00000, 190.919, -111.637, -192.456, -109.577, 1.2477, 221.644, -1.3092E-005, -2.51533E-005, -0.995482, 1.1256, 1.47067, 0.298169, -0.476139, -1.42162, 0.0140477, 0.0230033
56, 0.00000, 190.174, -111.492, -192.015, -109.017, 1.49375, 221.015, -1.46701E-005, -2.83281E-005, -1.11263, 1.26097, 1.64592, 0.331608, -0.534511, -1.58991, 0.0158897, 0.0256593
57, 0.00000, 191.056, -111.429, -192.346, -109.785, 1.02161, 221.649, -1.48878E-005, -2.88049E-005, -1.13878, 1.28475, 1.67991, 0.342434, -0.5424, -1.62493, 0.0161583, 0.0265485
58, 0.00000, 191.67, -111.372, -192.565, -110.325, 0.683339, 222.083, -1.52144E-005, -2.94218E-005, -1.17119, 1.31702, 1.72437, 0.354419, -0.554449, -1.66954, 0.0164849, 0.027519
59, 0.00000, 192.4, -111.338, -192.854, -110.954, 0.306169, 222.618, -1.52012E-005, -2.9374E-005, -1.17856, 1.32056, 1.73151, 0.359141, -0.554171, -1.67824, 0.016426, 0.0279168
60, 0.00000, 191.518, -111.308, -192.447, -110.228, 0.703966, 221.938, -1.52495E-005, -2.94573E-005, -1.17085, 1.31688, 1.72407, 0.354151, -0.554481, -1.66911, 0.0165119, 0.027535
61, 0.00000, 191.162, -111.315, -192.299, -109.927, 0.8801, 221.674, -1.53719E-005, -2.97399E-005, -1.17648, 1.32544, 1.73406, 0.354668, -0.558899, -1.67793, 0.0166947, 0.0275545
62, 0.00000, 190.817, -111.335, -192.164, -109.627, 1.06322, 221.423, -1.57214E-005, -3.04343E-005, -1.20006, 1.35436, 1.77066, 0.360544, -0.571981, -1.71245, 0.0171001, 0.027978
63, 0.00000, 190.182, -111.255, -191.826, -109.131, 1.30511, 220.909, -1.65024E-005, -3.20135E-005, -1.25174, 1.41594, 1.84935, 0.374277, -0.599159, -1.78724, 0.0180469, 0.02904
64, 0.00000, 188.84, -111.179, -191.183, -108.041, 1.8911, 219.867, -1.84326E-005, -3.588E-005, -1.37859, 1.56823, 2.04344, 0.407454, -0.666785, -1.97133, 0.0203683, 0.0315273
65, 0.00000, 188.002, -110.925, -190.613, -107.453, 2.09684, 219.12, -2.16616E-005, -4.24271E-005, -1.6074, 1.832, 2.38491, 0.472924, -0.780134, -2.2991, 0.0242868, 0.0366057
66, 0.00000, 187.329, -110.716, -190.151, -106.983, 2.25931, 218.516, -2.43393E-005, -4.79032E-005, -1.79417, 2.04794, 2.66405, 0.525955, -0.873144, -2.56672, 0.0276036, 0.0407275
67, 0.00000, 187.147, -110.639, -190.009, -106.863, 2.28897, 218.341, -2.53709E-005, -5.0028E-005, -1.86768, 2.13236, 2.77348, 0.547103, -0.909329, -2.67182, 0.0288911, 0.0423889
68, 0.00000, 186.782, -110.573, -189.8, -106.587, 2.41346, 218.037, -2.60753E-005, -5.14827E-005, -1.91113, 2.18459, 2.8399, 0.558333, -0.93252, -2.73472, 0.0298278, 0.043278
69, 0.00000, 187.197, -110.649, -190.038, -106.9, 2.27302, 218.383, -2.52522E-005, -4.97916E-005, -1.86031, 2.12363, 2.76231, 0.545131, -0.905495, -2.66121, 0.0287438, 0.0422371
70, 0.00000, 187.394, -110.801, -190.251, -107, 2.29222, 218.608, -2.30839E-005, -4.53061E-005, -1.70001, 1.94121, 2.52494, 0.498074, -0.827894, -2.43252, 0.0260554, 0.0385435
71, 0.00000, 188.655, -111.116, -191.052, -107.914, 1.93096, 219.699, -1.92456E-005, -3.7572E-005, -1.43729, 1.6356, 2.13076, 0.424403, -0.695609, -2.05527, 0.021385, 0.0328379
72, 0.00000, 190.111, -111.476, -191.975, -108.972, 1.51087, 220.961, -1.48626E-005, -2.87728E-005, -1.12669, 1.27713, 1.66679, 0.335653, -0.541398, -1.60997, 0.0161646, 0.0259636
73, 0.00000, 190.869, -111.688, -192.48, -109.513, 1.30901, 221.634, -1.2213E-005, -2.35378E-005, -0.932503, 1.05508, 1.37816, 0.278967, -0.446565, -1.33207, 0.0131225, 0.0215574
74, 0.00000, 191.686, -111.858, -192.974, -110.122, 1.04835, 222.331, -1.02096E-005, -1.95906E-005, -0.785631, 0.886761, 1.15954, 0.236262, -0.374548, -1.12168, 0.0108503, 0.0182501
75, 0.00000, 191.911, -111.939, -193.139, -110.274, 1.00243, 222.54, -9.159E-006, -1.75303E-005, -0.706511, 0.797147, 1.04259, 0.212679, -0.336592, -1.00872, 0.00967078, 0.0164227
76, 0.00000, 192.216, -111.986, -193.309, -110.509, 0.891547, 222.792, -8.66515E-006, -1.65554E-005, -0.669993, 0.755164, 0.988119, 0.202122, -0.318579, -0.956338, 0.00911867, 0.0156076
77, 0.00000, 192.21, -111.986, -193.307, -110.504, 0.894544, 222.788, -8.66154E-006, -1.65413E-005, -0.66967, 0.75482, 0.987669, 0.202016, -0.318446, -0.955894, 0.00910865, 0.0156004
78, 0.00000, 192.056, -111.947, -193.208, -110.392, 0.939086, 222.653, -9.13549E-006, -1.746E-005, -0.705282, 0.795277, 1.04042, 0.212571, -0.335633, -1.00681, 0.00962869, 0.016419
79, 0.00000, 191.668, -111.856, -192.963, -110.107, 1.05574, 222.316, -1.02394E-005, -1.96105E-005, -0.787718, 0.889173, 1.16272, 0.236869, -0.37561, -1.12474, 0.0108519, 0.018304
80, 0.00000, 191.334, -111.673, -192.667, -109.908, 1.07641, 221.975, -1.23152E-005, -2.3663E-005, -0.943773, 1.06543, 1.39301, 0.283614, -0.450099, -1.34734, 0.0131781, 0.0219539
81, 0.00000, 192.342, -111.326, -192.819, -110.91, 0.324942, 222.568, -1.535E-005, -2.96904E-005, -1.1901, 1.33372, 1.74861, 0.362525, -0.559775, -1.69473, 0.0166109, 0.0281817
82, 0.00000, 191.861, -110.953, -192.304, -110.676, 0.264716, 222.026, -1.83353E-005, -3.58047E-005, -1.42251, 1.59299, 2.08883, 0.433588, -0.668112, -2.02455, 0.0201363, 0.0337752
83, 0.00000, 192.979, -110.687, -192.574, -111.737, -0.482934, 222.746, -1.95542E-005, -3.85194E-005, -1.54388, 1.71659, 2.25706, 0.476814, -0.715237, -2.19207, 0.0216099, 0.0371903
84, 0.00000, 192.692, -110.635, -192.406, -111.519, -0.383949, 222.504, -2.01841E-005, -3.98012E-005, -1.59109, 1.77065, 2.32731, 0.490515, -0.738385, -2.25963, 0.0223532, 0.0382603
85, 0.00000, 191.837, -110.668, -192.06, -110.784, 0.0550224, 221.872, -2.06754E-005, -4.07428E-005, -1.61411, 1.80369, 2.36682, 0.4937, -0.755004, -2.29513, 0.0229658, 0.0384864
86, 0.00000, 190.049, -110.755, -191.354, -109.244, 0.983913, 220.566, -2.15881E-005, -4.24806E-005, -1.64825, 1.85824, 2.42968, 0.495522, -0.78398, -2.34982, 0.0241385, 0.0385336
87, 0.00000, 188.477, -110.835, -190.741, -107.889, 1.8023, 219.428, -2.24872E-005, -4.41579E-005, -1.68169, 1.91105, 2.49072, 0.497652, -0.811798, -2.40312, 0.0252599, 0.0385747
88, 0.00000, 188.109, -110.838, -190.584, -107.579, 1.98259, 219.155, -2.30521E-005, -4.52585E-005, -1.7157, 1.95311, 2.54372, 0.505914, -0.830902, -2.45294, 0.0259372, 0.0391755
89, 0.00000, 188.006, -110.756, -190.471, -107.529, 1.97008, 219.037, -2.42246E-005, -4.76642E-005, -1.80307, 2.05221, 2.67287, 0.531752, -0.872939, -2.57748, 0.0273627, 0.0411824
90, 0.00000, 188.105, -110.721, -190.483, -107.626, 1.89774, 219.092, -2.48299E-005, -4.89075E-005, -1.85123, 2.10544, 2.743, 0.546747, -0.895018, -2.64561, 0.0280818, 0.0423345
91, 0.00000, 188.216, -110.737, -190.543, -107.712, 1.85713, 219.183, -2.4655E-005, -4.8552E-005, -1.84105, 2.09305, 2.72732, 0.544191, -0.889476, -2.63083, 0.0278563, 0.042144
92, 0.00000, 188.037, -110.73, -190.462, -107.565, 1.93695, 219.046, -2.46015E-005, -4.84449E-005, -1.83435, 2.08711, 2.71871, 0.541324, -0.887567, -2.62194, 0.0278108, 0.0419498
93, 0.00000, 188.043, -110.792, -190.517, -107.545, 1.97927, 219.083, -2.37087E-005, -4.66022E-005, -1.76412, 2.0081, 2.61534, 0.520192, -0.854253, -2.52197, 0.026735, 0.0402802
94, 0.00000, 188.348, -110.932, -190.765, -107.738, 1.93945, 219.379, -2.18123E-005, -4.27254E-005, -1.62596, 1.85025, 2.41025, 0.47993, -0.786901, -2.32461, 0.0244245, 0.0371533
95, 0.00000, 188.693, -111.126, -191.076, -107.941, 1.92105, 219.732, -1.91197E-005, -3.7289E-005, -1.42815, 1.62505, 2.11715, 0.421806, -0.691081, -2.04221, 0.0212103, 0.0326375
96, 0.00000, 189.691, -111.399, -191.732, -108.655, 1.65243, 220.611, -1.57175E-005, -3.04816E-005, -1.18621, 1.3464, 1.75616, 0.352363, -0.571403, -1.69554, 0.0171758, 0.0272554
97, 0.00000, 190.915, -111.672, -192.485, -109.558, 1.27566, 221.66, -1.24785E-005, -2.40366E-005, -0.953382, 1.07834, 1.40875, 0.285402, -0.456292, -1.36177, 0.0134031, 0.0220665
98, 0.00000, 191.62, -111.842, -192.932, -110.073, 1.06815, 222.273, -1.04076E-005, -1.99687E-005, -0.800286, 0.903468, 1.1813, 0.240574, -0.381668, -1.14266, 0.0110644, 0.0185854
99, 0.00000, 191.885, -111.933, -193.123, -110.255, 1.00989, 222.518, -9.23252E-006, -1.76745E-005, -0.712007, 0.803402, 1.05074, 0.214301, -0.339252, -1.01658, 0.00975305, 0.0165482
100, 0.00000, 192.224, -111.988, -193.314, -110.515, 0.889527, 222.799, -8.63736E-006, -1.65024E-005, -0.667899, 0.75279, 0.98502, 0.201498, -0.317572, -0.953344, 0.00908885, 0.0155591
101, 0.00000, 192.149, -111.996, -193.289, -110.448, 0.931839, 222.747, -8.4651E-006, -1.61683E-005, -0.654569, 0.738065, 0.965618, 0.197326, -0.311479, -0.934459, 0.0088945, 0.0152364
102, 0.00000, 192.188, -111.979, -193.291, -110.489, 0.899984, 222.767, -8.75002E-006, -1.67181E-005, -0.676328, 0.762363, 0.997506, 0.203999, -0.321638, -0.965397, 0.00921045, 0.015753
103, 0.00000, 191.862, -111.9, -193.084, -110.25, 0.997069, 222.483, -9.70121E-006, -1.85595E-005, -0.747632, 0.843473, 1.10322, 0.225077, -0.356139, -1.06738, 0.0102528, 0.0173894
104, 0.00000, 191.668, -111.753, -192.878, -110.152, 0.977674, 222.265, -1.13367E-005, -2.17364E-005, -0.871122, 0.982533, 1.28514, 0.262299, -0.414753, -1.24339, 0.0120718, 0.020299
105, 0.00000, 192.731, -111.421, -193.067, -111.194, 0.21042, 222.908, -1.41937E-005, -2.73449E-005, -1.10195, 1.23367, 1.61819, 0.336416, -0.517312, -1.56889, 0.0152618, 0.0261561
106, 0.00000, 192.906, -111.06, -192.846, -111.504, -0.153197, 222.867, -1.72261E-005, -3.35499E-005, -1.34962, 1.5055, 1.97729, 0.414572, -0.629228, -1.91881, 0.0187789, 0.032289
107, 0.00000, 196.184, -110.494, -193.824, -114.525, -2.18584, 225.098, -1.83954E-005, -3.62722E-005, -1.50295, 1.64501, 2.17659, 0.477856, -0.675311, -2.12389, 0.0200609, 0.0372912
108, 0.00000, 199.721, -109.941, -194.941, -117.767, -4.34566, 227.559, -1.83487E-005, -3.64829E-005, -1.56068, 1.67519, 2.23358, 0.513272, -0.674372, -2.19195, 0.01982, 0.0399676
109, 0.00000, 199.413, -109.935, -194.798, -117.509, -4.19841, 227.318, -1.8822E-005, -3.74548E-005, -1.60015, 1.71971, 2.29185, 0.525115, -0.693227, -2.24824, 0.0203515, 0.0408709
110, 0.00000, 192.49, -110.734, -192.394, -111.299, -0.202022, 222.394, -2.07603E-005, -4.08513E-005, -1.63447, 1.82199, 2.39337, 0.502374, -0.761074, -2.32262, 0.0229303, 0.0391115
