hour, t(sec), V1.re, V1.im, V2.re, V2.im, V3.re, V3.im, V4.re, V4.im, I1.re, I1.im, I2.re, I2.im, I3.re, I3.im, I4.re, I4.im
1, 0.00000, 191.106, -111.307, -192.244, -109.881, 0.900234, 221.633, 8.59712E-007, -0.000185138, -0.198772, 0.223983, 0.293032, 0.0599164, -0.0944578, -0.283495, 0.000197731, -0.000404311
2, 0.00000, 191.536, -111.517, -192.608, -110.148, 0.854169, 222.058, 1.1549E-007, -0.000155449, -0.168107, 0.189369, 0.247802, 0.0507285, -0.0798397, -0.239794, 0.000144723, -0.000303545
3, 0.00000, 191.833, -111.618, -192.822, -110.352, 0.789488, 222.33, -1.76242E-007, -0.00014153, -0.153763, 0.173114, 0.226593, 0.0464611, -0.0729513, -0.219319, 0.000120625, -0.000255973
4, 0.00000, 191.877, -111.651, -192.87, -110.375, 0.792976, 222.38, -2.42718E-007, -0.00013685, -0.148823, 0.167561, 0.219323, 0.0449674, -0.0706144, -0.212285, 0.000114479, -0.000243093
5, 0.00000, 191.762, -111.607, -192.783, -110.298, 0.81514, 222.272, -1.30172E-007, -0.000142823, -0.155047, 0.174601, 0.228517, 0.0468266, -0.0735934, -0.221166, 0.000124147, -0.000261546
6, 0.00000, 191.461, -111.444, -192.514, -110.117, 0.834973, 221.966, 3.70416E-007, -0.000165787, -0.179144, 0.201756, 0.264028, 0.0540748, -0.0850459, -0.255503, 0.000161717, -0.000328323
7, 0.00000, 190.614, -111.105, -191.86, -109.557, 0.981507, 221.165, 1.77545E-006, -0.000213894, -0.227865, 0.256938, 0.336025, 0.0685645, -0.108417, -0.324984, 0.000257887, -0.000519233
8, 0.00000, 190.332, -110.923, -191.584, -109.4, 0.979464, 220.864, -2.83938E-005, -0.000183954, -0.152459, 0.227528, 0.272887, 0.0180546, -0.120595, -0.24512, 0.00016645, -0.000462935
9, 0.00000, 193.013, -110.956, -192.78, -111.618, -0.259644, 222.897, -0.000302985, 0.000306236, 0.782003, -0.309488, -0.658975, -0.521769, -0.122247, 0.831076, -0.000780488, 0.000181118
10, 0.00000, 194.143, -110.93, -193.251, -112.571, -0.813247, 223.737, -0.000418491, 0.000502126, 1.19157, -0.537569, -1.06158, -0.762317, -0.129044, 1.30001, -0.000941781, -0.000127969
11, 0.00000, 198.808, -110.955, -195.321, -116.454, -3.00579, 227.29, -0.000818861, 0.00118131, 2.78604, -1.41404, -2.62162, -1.70644, -0.164534, 3.12504, 0.000114621, -0.0045548
12, 0.00000, 199.086, -110.968, -195.455, -116.681, -3.12833, 227.509, -0.000834812, 0.00121027, 2.86224, -1.45583, -2.69623, -1.75173, -0.166285, 3.21248, 0.000268594, -0.00491511
13, 0.00000, 197.272, -110.958, -194.647, -115.169, -2.27392, 226.123, -0.000693552, 0.000973806, 2.26194, -1.13076, -2.1126, -1.39342, -0.14885, 2.52674, -0.000495547, -0.00256752
14, 0.00000, 193.09, -110.869, -192.739, -111.72, -0.361456, 222.913, -0.000327141, 0.00033531, 0.850851, -0.341136, -0.720844, -0.565509, -0.129155, 0.906485, -0.000851738, 0.000159771
15, 0.00000, 190.784, -110.734, -191.621, -109.857, 0.625323, 221.111, -0.000119299, -4.84755E-005, 0.11799, 0.0869259, 0.0161555, -0.145467, -0.133926, 0.058652, -0.000219872, -0.000110491
16, 0.00000, 189.004, -110.487, -190.641, -108.482, 1.27944, 219.657, 5.76612E-006, -0.000304437, -0.315751, 0.356943, 0.466191, 0.0943978, -0.150933, -0.45035, 0.000492884, -0.000990208
17, 0.00000, 187.964, -110.111, -189.874, -107.779, 1.48788, 218.696, 9.02829E-006, -0.000361707, -0.368572, 0.417426, 0.544674, 0.109686, -0.176774, -0.525743, 0.00067249, -0.00136889
18, 0.00000, 187.217, -109.806, -189.296, -107.289, 1.61122, 217.992, 1.2187E-005, -0.000409202, -0.411717, 0.466787, 0.608723, 0.122176, -0.197843, -0.587259, 0.000836317, -0.00170374
19, 0.00000, 186.929, -109.686, -189.07, -107.102, 1.65669, 217.719, 1.35489E-005, -0.000428269, -0.428768, 0.486312, 0.634043, 0.127099, -0.20618, -0.611564, 0.000905541, -0.00184625
20, 0.00000, 186.768, -109.617, -188.942, -106.998, 1.68053, 217.565, 1.43734E-005, -0.000439234, -0.438631, 0.4976, 0.648685, 0.129949, -0.211, -0.625622, 0.000946542, -0.00192677
21, 0.00000, 187.097, -109.706, -189.159, -107.233, 1.59163, 217.854, 1.33746E-005, -0.000425213, -0.426977, 0.483976, 0.631167, 0.126735, -0.205082, -0.608913, 0.000891827, -0.00179761
22, 0.00000, 187.784, -109.971, -189.679, -107.69, 1.46713, 218.495, 1.04706E-005, -0.000383492, -0.389609, 0.441136, 0.575634, 0.115971, -0.186767, -0.555619, 0.000742117, -0.00148798
23, 0.00000, 188.827, -110.395, -190.487, -108.375, 1.29344, 219.48, 6.49463E-006, -0.000318429, -0.329244, 0.372236, 0.486122, 0.0983908, -0.15741, -0.46956, 0.000531947, -0.00106627
24, 0.00000, 189.937, -110.889, -191.384, -109.086, 1.13992, 220.551, 2.91873E-006, -0.000244949, -0.257971, 0.291297, 0.3807, 0.0773676, -0.123062, -0.367984, 0.000332413, -0.000680816
25, 0.00000, 190.555, -111.286, -191.988, -109.428, 1.14685, 221.207, 8.59215E-007, -0.000187098, -0.198946, 0.22471, 0.293695, 0.0596845, -0.0949581, -0.283933, 0.000209049, -0.000462133
26, 0.00000, 191.398, -111.512, -192.544, -110.035, 0.915937, 221.952, 1.45033E-007, -0.000155894, -0.168145, 0.189524, 0.247942, 0.0506797, -0.0799452, -0.239886, 0.000148275, -0.000316896
27, 0.00000, 191.591, -111.609, -192.711, -110.154, 0.898062, 222.144, -1.62535E-007, -0.000142148, -0.153817, 0.173353, 0.226809, 0.0463818, -0.0731177, -0.219461, 0.000125144, -0.000274232
28, 0.00000, 191.785, -111.648, -192.827, -110.299, 0.834761, 222.309, -2.39586E-007, -0.000137099, -0.148845, 0.167652, 0.219406, 0.0449382, -0.0706772, -0.212339, 0.000116126, -0.000250525
29, 0.00000, 191.559, -111.6, -192.688, -110.13, 0.906723, 222.115, -1.57466E-007, -0.00014338, -0.155098, 0.174811, 0.22871, 0.0467605, -0.073738, -0.221294, 0.000126657, -0.000278012
30, 0.00000, 191.075, -111.43, -192.335, -109.801, 1.00803, 221.668, 3.28138E-007, -0.000167029, -0.179259, 0.202219, 0.264454, 0.0539311, -0.0853629, -0.255785, 0.000167555, -0.000364957
31, 0.00000, 190.017, -111.081, -191.581, -109.069, 1.24745, 220.703, 1.75315E-006, -0.000216365, -0.228084, 0.257843, 0.336852, 0.0682776, -0.109039, -0.325529, 0.0002708, -0.000592084
32, 0.00000, 189.857, -110.903, -191.362, -109.011, 1.19068, 220.497, -2.82602E-005, -0.000186385, -0.153899, 0.228927, 0.274773, 0.018591, -0.121044, -0.247004, 0.000170472, -0.000513739
33, 0.00000, 191.88, -110.927, -192.262, -110.685, 0.25453, 222.029, -0.000210489, 0.000140442, 0.454393, -0.121804, -0.332589, -0.332077, -0.121233, 0.453685, -0.000570389, 0.000196312
34, 0.00000, 193.122, -110.907, -192.786, -111.728, -0.345874, 222.954, -0.000359453, 0.000397445, 0.967212, -0.411428, -0.839874, -0.631022, -0.126372, 1.04226, -0.000964963, 0.000192684
35, 0.00000, 195.097, -110.928, -193.668, -113.365, -1.26338, 224.457, -0.000551063, 0.000729142, 1.67496, -0.808787, -1.53869, -1.04531, -0.135226, 1.85482, -0.00104962, -0.000721741
36, 0.00000, 195.472, -110.947, -193.849, -113.67, -1.42692, 224.751, -0.000574997, 0.000772829, 1.77411, -0.864783, -1.63698, -1.10328, -0.136154, 1.96904, -0.000974583, -0.000979285
37, 0.00000, 194.187, -110.92, -193.263, -112.609, -0.838177, 223.764, -0.00046787, 0.000586575, 1.36244, -0.634486, -1.23102, -0.861726, -0.130349, 1.4964, -0.00107117, -0.000186452
38, 0.00000, 192.02, -110.839, -192.249, -110.838, 0.124332, 222.09, -0.000269703, 0.000231794, 0.63977, -0.221065, -0.51119, -0.442774, -0.127787, 0.663549, -0.000792971, 0.000289909
39, 0.00000, 189.804, -110.699, -191.166, -109.055, 1.06225, 220.358, -5.78165E-005, -0.000161938, -0.0864765, 0.206641, 0.22181, -0.0285558, -0.135404, -0.177641, 7.05118E-005, -0.000443672
40, 0.00000, 188.679, -110.472, -190.489, -108.218, 1.42215, 219.406, 5.76358E-006, -0.000306384, -0.315918, 0.35763, 0.466818, 0.0941807, -0.151402, -0.450763, 0.000502563, -0.00104773
41, 0.00000, 187.822, -110.103, -189.807, -107.663, 1.54987, 218.586, 9.02751E-006, -0.000362712, -0.368658, 0.417779, 0.544994, 0.109575, -0.177014, -0.525955, 0.000677375, -0.00139855
42, 0.00000, 186.925, -109.791, -189.156, -107.051, 1.73833, 217.765, 1.22138E-005, -0.000411575, -0.411919, 0.467602, 0.609466, 0.121921, -0.198395, -0.58775, 0.000848467, -0.00177396
43, 0.00000, 186.541, -109.665, -188.885, -106.786, 1.82502, 217.418, 1.36115E-005, -0.000431559, -0.429052, 0.487441, 0.635074, 0.126747, -0.206945, -0.612245, 0.000923166, -0.00194352
44, 0.00000, 186.327, -109.592, -188.731, -106.638, 1.87202, 217.222, 1.44691E-005, -0.000443101, -0.438976, 0.49893, 0.649905, 0.129542, -0.211896, -0.626431, 0.00096807, -0.00204056
45, 0.00000, 186.525, -109.674, -188.886, -106.768, 1.83989, 217.41, 1.34649E-005, -0.000430031, -0.427395, 0.485633, 0.632681, 0.126221, -0.206204, -0.609914, 0.000917638, -0.00194
46, 0.00000, 187.227, -109.942, -189.414, -107.237, 1.70992, 218.063, 1.05282E-005, -0.000387786, -0.389977, 0.442605, 0.576975, 0.115514, -0.187762, -0.556504, 0.000764456, -0.00161521
47, 0.00000, 188.192, -110.365, -190.188, -107.858, 1.5722, 218.989, 6.53434E-006, -0.000322471, -0.329592, 0.373642, 0.487406, 0.0979512, -0.158367, -0.470407, 0.000553279, -0.00118588
48, 0.00000, 189.319, -110.862, -191.095, -108.581, 1.41383, 220.073, 2.95034E-006, -0.000247949, -0.258231, 0.292364, 0.381673, 0.0770315, -0.123791, -0.368626, 0.00034927, -0.000769634
49, 0.00000, 190.684, -111.291, -192.048, -109.534, 1.08909, 221.307, 8.68194E-007, -0.000186612, -0.198903, 0.224538, 0.293537, 0.0597384, -0.0948401, -0.283828, 0.000206686, -0.000447714
50, 0.00000, 191.262, -111.507, -192.481, -109.923, 0.977251, 221.846, 1.28312E-007, -0.000156319, -0.168183, 0.189677, 0.248083, 0.0506316, -0.0800505, -0.239979, 0.00015017, -0.00032952
51, 0.00000, 191.592, -111.609, -192.711, -110.154, 0.897802, 222.145, -1.54588E-007, -0.000142158, -0.153817, 0.173353, 0.226809, 0.0463821, -0.0731174, -0.219461, 0.000125421, -0.000274577
52, 0.00000, 191.814, -111.649, -192.84, -110.323, 0.821437, 222.331, -2.35277E-007, -0.000137025, -0.148838, 0.167623, 0.219379, 0.0449475, -0.0706571, -0.212322, 0.000115791, -0.000248353
53, 0.00000, 191.67, -111.604, -192.74, -110.222, 0.856521, 222.201, -1.47635E-007, -0.000143082, -0.155071, 0.174697, 0.228606, 0.0467971, -0.0736592, -0.221225, 0.000125108, -0.000269185
54, 0.00000, 190.666, -111.414, -192.144, -109.465, 1.19124, 221.352, 2.74064E-007, -0.000168288, -0.179372, 0.202702, 0.264896, 0.0537754, -0.0856975, -0.256076, 0.000173395, -0.000401987
55, 0.00000, 190.216, -111.089, -191.674, -109.231, 1.15919, 220.857, 1.7763E-006, -0.000215583, -0.228014, 0.257544, 0.336578, 0.0683743, -0.108832, -0.325349, 0.000267083, -0.000569195
56, 0.00000, 189.398, -110.885, -191.148, -108.636, 1.39466, 220.143, 2.71504E-006, -0.000244314, -0.255003, 0.288657, 0.376873, 0.0761014, -0.122207, -0.364016, 0.000336765, -0.000741795
57, 0.00000, 190.467, -110.885, -191.611, -109.527, 0.888922, 220.946, -8.80609E-005, -8.22749E-005, 0.0376035, 0.120042, 0.0849702, -0.0925139, -0.122462, -0.0273352, -0.000111544, -0.000192695
58, 0.00000, 191.196, -110.86, -191.907, -110.145, 0.526059, 221.482, -0.000147543, 1.95719E-005, 0.230934, 0.0115803, -0.105458, -0.205469, -0.125127, 0.193856, -0.000348716, 3.33294E-005
59, 0.00000, 192.063, -110.874, -192.296, -110.863, 0.12619, 222.142, -0.000205959, 0.00012416, 0.431824, -0.103438, -0.305439, -0.32176, -0.125856, 0.425051, -0.000529631, 0.000146932
60, 0.00000, 191.204, -110.856, -191.908, -110.151, 0.523119, 221.484, -0.000209217, 0.000128968, 0.434989, -0.106842, -0.309894, -0.322697, -0.12447, 0.429294, -0.000625142, 0.000244967
61, 0.00000, 190.775, -110.835, -191.704, -109.802, 0.710106, 221.151, -0.000179728, 7.41375E-005, 0.332141, -0.0466515, -0.206395, -0.263822, -0.12522, 0.310304, -0.00052496, 0.000170177
62, 0.00000, 190.262, -110.786, -191.439, -109.398, 0.913459, 220.743, -0.00011893, -4.06979E-005, 0.124251, 0.0772477, 0.00465668, -0.146017, -0.128656, 0.0688584, -0.000251963, -8.90828E-005
63, 0.00000, 189.605, -110.685, -191.07, -108.892, 1.15006, 220.2, -0.000120248, -5.18857E-005, 0.113299, 0.0902278, 0.0213393, -0.143009, -0.134367, 0.0529059, -0.000271064, -0.000124215
64, 0.00000, 187.894, -110.434, -190.118, -107.577, 1.76685, 218.798, 5.78112E-006, -0.000311172, -0.31633, 0.359303, 0.468344, 0.0936557, -0.152542, -0.451769, 0.000527067, -0.00118949
65, 0.00000, 186.901, -110.055, -189.37, -106.915, 1.95079, 217.873, 9.07263E-006, -0.00036939, -0.369226, 0.420077, 0.547089, 0.108855, -0.178574, -0.527336, 0.000711024, -0.00159631
66, 0.00000, 186.102, -109.744, -188.764, -106.383, 2.09493, 217.126, 1.23237E-005, -0.000418251, -0.412492, 0.469905, 0.611565, 0.1212, -0.199957, -0.589134, 0.000883985, -0.00197128
67, 0.00000, 185.866, -109.625, -188.562, -106.237, 2.11737, 216.891, 1.37567E-005, -0.000437159, -0.429549, 0.489413, 0.636877, 0.126131, -0.208284, -0.613436, 0.000955144, -0.00210821
68, 0.00000, 185.482, -109.541, -188.326, -105.952, 2.23744, 216.562, 1.47654E-005, -0.000450234, -0.439615, 0.501457, 0.652216, 0.128754, -0.213614, -0.627961, 0.00101275, -0.00224999
69, 0.00000, 185.92, -109.639, -188.596, -106.276, 2.10219, 216.938, 1.3627E-005, -0.000435011, -0.427842, 0.487399, 0.634297, 0.125671, -0.207402, -0.610984, 0.000947318, -0.00208625
70, 0.00000, 186.242, -109.888, -188.946, -106.438, 2.13674, 217.3, 1.07951E-005, -0.000395542, -0.390643, 0.445233, 0.579369, 0.114702, -0.189536, -0.558089, 0.000809983, -0.00184535
71, 0.00000, 187.668, -110.338, -189.94, -107.431, 1.80145, 218.583, 6.60471E-006, -0.00032589, -0.329881, 0.374809, 0.488468, 0.0975853, -0.159159, -0.471107, 0.000572282, -0.00128754
72, 0.00000, 189.326, -110.862, -191.098, -108.586, 1.4109, 220.079, 2.96157E-006, -0.000247933, -0.258229, 0.292353, 0.381663, 0.0770351, -0.123783, -0.368619, 0.000349508, -0.000769228
73, 0.00000, 190.219, -111.181, -191.753, -109.193, 1.22705, 220.903, 1.3438E-006, -0.000202045, -0.213526, 0.241353, 0.315334, 0.0639506, -0.102051, -0.304766, 0.000242639, -0.000537163
74, 0.00000, 191.132, -111.429, -192.358, -109.848, 0.980046, 221.71, 4.26122E-007, -0.000167492, -0.179776, 0.202748, 0.265169, 0.0541141, -0.085564, -0.256496, 0.000170365, -0.000365981
75, 0.00000, 191.413, -111.554, -192.586, -110.029, 0.940936, 221.983, -1.65862E-008, -0.000149809, -0.161615, 0.182211, 0.238355, 0.0486906, -0.0768785, -0.230598, 0.000138239, -0.000303186
76, 0.00000, 191.74, -111.618, -192.783, -110.275, 0.833549, 222.261, -1.57086E-007, -0.000141253, -0.153237, 0.172594, 0.225873, 0.0462638, -0.0727585, -0.218596, 0.000122482, -0.000261647
77, 0.00000, 191.735, -111.618, -192.78, -110.27, 0.836493, 222.257, -1.74698E-007, -0.000141174, -0.153164, 0.172517, 0.225771, 0.0462397, -0.0727284, -0.218496, 0.000121895, -0.000261057
78, 0.00000, 191.556, -111.56, -192.654, -110.146, 0.877804, 222.094, -3.3827E-008, -0.000149139, -0.161336, 0.181787, 0.237862, 0.0486659, -0.0766605, -0.230164, 0.000134943, -0.000289303
79, 0.00000, 191.111, -111.425, -192.346, -109.833, 0.986899, 221.693, 3.51258E-007, -0.000167853, -0.180264, 0.203311, 0.265904, 0.0542549, -0.0858087, -0.257202, 0.00016832, -0.000363474
80, 0.00000, 190.737, -111.182, -191.979, -109.625, 0.982773, 221.293, -2.82397E-005, -0.000148676, -0.117663, 0.186288, 0.219872, 0.00861135, -0.102315, -0.194557, 0.000105488, -0.00034215
81, 0.00000, 191.995, -110.855, -192.25, -110.814, 0.144135, 222.082, -0.000205829, 0.00012107, 0.427631, -0.0996029, -0.300018, -0.32004, -0.127075, 0.419495, -0.000537732, 0.000148573
82, 0.00000, 191.74, -110.5, -191.841, -110.749, 0.00488713, 221.714, -0.000363767, 0.0003441, 0.89211, -0.338359, -0.738877, -0.602225, -0.151981, 0.940153, -0.00125136, 0.000431664
83, 0.00000, 193.29, -110.356, -192.397, -112.102, -0.833619, 222.812, -0.000567522, 0.000665498, 1.57148, -0.708033, -1.39915, -1.00529, -0.17052, 1.7133, -0.00181197, 1.97846E-005
84, 0.00000, 192.969, -110.279, -192.192, -111.866, -0.738408, 222.532, -0.000570181, 0.000658331, 1.55891, -0.69574, -1.38213, -1.00043, -0.174855, 1.69604, -0.00192156, 0.000137958
85, 0.00000, 191.877, -110.219, -191.665, -110.981, -0.266528, 221.679, -0.000487088, 0.000510607, 1.25043, -0.519373, -1.07482, -0.821503, -0.173783, 1.34037, -0.00182874, 0.000503706
86, 0.00000, 189.555, -110.1, -190.556, -109.1, 0.738276, 219.878, -0.000279529, 0.000140461, 0.532317, -0.103969, -0.356015, -0.407976, -0.175202, 0.51156, -0.00109947, 0.00038467
87, 0.00000, 187.452, -109.972, -189.537, -107.409, 1.62881, 218.244, -5.52814E-005, -0.000267583, -0.186608, 0.320882, 0.370301, 0.000765667, -0.183972, -0.320598, 0.00027881, -0.00105046
88, 0.00000, 186.913, -109.899, -189.244, -106.994, 1.82631, 217.809, 1.08711E-005, -0.00039424, -0.394339, 0.448061, 0.583804, 0.116528, -0.190256, -0.562887, 0.00079054, -0.00170172
89, 0.00000, 186.742, -109.765, -189.056, -106.91, 1.80544, 217.616, 1.24208E-005, -0.000415669, -0.414607, 0.470963, 0.613671, 0.122545, -0.199929, -0.591677, 0.000864446, -0.00183131
90, 0.00000, 186.797, -109.698, -189.024, -106.986, 1.72845, 217.626, 1.33306E-005, -0.000426404, -0.425786, 0.483269, 0.629894, 0.126036, -0.20501, -0.607437, 0.000901331, -0.00186853
91, 0.00000, 186.913, -109.719, -189.09, -107.074, 1.68905, 217.722, 1.31313E-005, -0.000423287, -0.423436, 0.480426, 0.626289, 0.12544, -0.203741, -0.604033, 0.000888542, -0.00183339
92, 0.00000, 186.745, -109.72, -189.019, -106.933, 1.76953, 217.597, 1.29646E-005, -0.000422698, -0.421885, 0.479053, 0.624297, 0.124779, -0.2033, -0.601976, 0.00088775, -0.00185617
93, 0.00000, 186.81, -109.824, -189.136, -106.941, 1.81833, 217.696, 1.17173E-005, -0.000406226, -0.405568, 0.460768, 0.600365, 0.119852, -0.195628, -0.578842, 0.000831449, -0.00177725
94, 0.00000, 187.217, -110.044, -189.497, -107.184, 1.79186, 218.105, 9.36942E-006, -0.000371673, -0.373547, 0.424323, 0.552973, 0.110481, -0.180139, -0.533252, 0.000713526, -0.00155103
95, 0.00000, 187.712, -110.354, -189.972, -107.461, 1.79226, 218.623, 6.4511E-006, -0.000323512, -0.327775, 0.372385, 0.485331, 0.0969829, -0.15812, -0.468099, 0.000564041, -0.00126923
96, 0.00000, 188.872, -110.757, -190.813, -108.253, 1.54667, 219.687, 3.55128E-006, -0.000263149, -0.27194, 0.308268, 0.402209, 0.0808986, -0.13066, -0.388289, 0.000391038, -0.000877433
97, 0.00000, 190.246, -111.151, -191.74, -109.229, 1.19182, 220.91, 1.45924E-006, -0.000206364, -0.218336, 0.2467, 0.322368, 0.0654347, -0.104282, -0.311593, 0.00024912, -0.000541918
98, 0.00000, 191.055, -111.404, -192.304, -109.795, 0.998458, 221.641, 4.86784E-007, -0.000170824, -0.183143, 0.20658, 0.270161, 0.0551068, -0.087194, -0.261308, 0.000176064, -0.000379189
99, 0.00000, 191.384, -111.545, -192.566, -110.009, 0.947909, 221.956, 9.8699E-009, -0.000151055, -0.162876, 0.183644, 0.240222, 0.0490635, -0.0774872, -0.232399, 0.000140473, -0.000308121
100, 0.00000, 191.75, -111.622, -192.789, -110.281, 0.831723, 222.27, -1.63508E-007, -0.000140791, -0.152756, 0.17205, 0.225162, 0.0461204, -0.0725281, -0.21791, 0.000121809, -0.000260226
101, 0.00000, 191.687, -111.639, -192.777, -110.221, 0.87493, 222.23, -2.57602E-007, -0.00013808, -0.149703, 0.168682, 0.220721, 0.0451631, -0.0711355, -0.213587, 0.000117602, -0.000257969
102, 0.00000, 191.708, -111.608, -192.76, -110.252, 0.84137, 222.231, -1.36853E-007, -0.000142649, -0.154688, 0.17424, 0.22802, 0.0466945, -0.0734572, -0.220669, 0.000124628, -0.000266039
103, 0.00000, 191.332, -111.491, -192.498, -109.989, 0.93191, 221.891, 1.51331E-007, -0.000158701, -0.171058, 0.192834, 0.25226, 0.0515419, -0.0813526, -0.24405, 0.000151457, -0.00032573
104, 0.00000, 191.12, -111.301, -192.246, -109.893, 0.890771, 221.64, -2.83009E-005, -0.000132454, -0.10145, 0.16761, 0.195642, 0.00394021, -0.0942739, -0.171271, 8.14747E-005, -0.000279173
105, 0.00000, 192.444, -110.997, -192.565, -111.128, 0.0377197, 222.489, -0.000203258, 0.000136842, 0.444437, -0.120108, -0.326184, -0.324385, -0.11776, 0.444357, -0.000493013, 0.000135576
106, 0.00000, 192.819, -110.639, -192.427, -111.593, -0.405429, 222.596, -0.000355454, 0.000348394, 0.901269, -0.350974, -0.754552, -0.604089, -0.145679, 0.954874, -0.00103786, 0.00018956
