hour, t(sec), V1.re, V1.im, V2.re, V2.im, V3.re, V3.im, V4.re, V4.im, I1.re, I1.im, I2.re, I2.im, I3.re, I3.im, I4.re, I4.im
1, 0.00000, 191.401, -111.545, -192.562, -110.013, 0.953217, 221.955, 3.5009E-005, -0.000329772, -0.481776, 0.543166, 0.710581, 0.145149, -0.229225, -0.687437, 0.000419313, -0.000878396
2, 0.00000, 191.796, -111.722, -192.885, -110.267, 0.897196, 222.34, 2.83624E-005, -0.000277131, -0.407561, 0.459302, 0.601014, 0.122939, -0.19376, -0.58158, 0.000307573, -0.000660475
3, 0.00000, 192.071, -111.806, -193.076, -110.461, 0.82857, 222.589, 2.54071E-005, -0.000252416, -0.372837, 0.41992, 0.549632, 0.112617, -0.177052, -0.531981, 0.000256151, -0.00055682
4, 0.00000, 192.112, -111.834, -193.118, -110.483, 0.830283, 222.634, 2.44196E-005, -0.000244116, -0.360874, 0.406459, 0.532011, 0.109004, -0.171381, -0.514933, 0.000243563, -0.000529466
5, 0.00000, 192.005, -111.798, -193.04, -110.409, 0.854252, 222.535, 2.56848E-005, -0.000254728, -0.375946, 0.42352, 0.554289, 0.113502, -0.178607, -0.536452, 0.000264212, -0.00056969
6, 0.00000, 191.729, -111.659, -192.802, -110.238, 0.88216, 222.259, 3.07761E-005, -0.000295474, -0.434287, 0.489331, 0.64034, 0.13103, -0.206397, -0.619648, 0.000343629, -0.000713614
7, 0.00000, 190.946, -111.376, -192.22, -109.705, 1.04337, 221.528, 4.16269E-005, -0.000380654, -0.552139, 0.622967, 0.814674, 0.166037, -0.263081, -0.787878, 0.00054601, -0.00112569
8, 0.00000, 190.679, -111.217, -191.969, -109.55, 1.05209, 221.248, 4.92276E-005, -0.000423921, -0.616861, 0.695974, 0.910101, 0.185439, -0.293916, -0.880087, 0.000675456, -0.00132623
9, 0.00000, 193.13, -111.165, -192.994, -111.62, -0.152215, 223.069, 6.15707E-005, -0.000386373, -0.629882, 0.702492, 0.922965, 0.193629, -0.293697, -0.895615, 0.00061348, -0.000506759
10, 0.00000, 194.162, -111.106, -193.396, -112.508, -0.68797, 223.821, 6.79339E-005, -0.000377966, -0.647425, 0.718395, 0.945808, 0.200929, -0.298985, -0.919158, 0.000602759, -0.000164978
11, 0.00000, 198.424, -110.986, -195.17, -116.131, -2.81612, 227.003, 8.42092E-005, -0.000303952, -0.648447, 0.705544, 0.936347, 0.208588, -0.288324, -0.915331, 0.00042418, 0.00119891
12, 0.00000, 198.68, -110.99, -195.286, -116.344, -2.93584, 227.201, 8.42704E-005, -0.000297218, -0.643117, 0.698996, 0.92807, 0.207274, -0.285353, -0.907531, 0.000399607, 0.00126079
13, 0.00000, 197.021, -111.036, -194.593, -114.933, -2.10645, 225.958, 7.87641E-005, -0.000327061, -0.647303, 0.708867, 0.938301, 0.205826, -0.291471, -0.915465, 0.000473063, 0.000771666
14, 0.00000, 193.2, -111.083, -192.956, -111.713, -0.246413, 223.082, 6.58328E-005, -0.000405192, -0.663488, 0.739268, 0.971641, 0.204298, -0.308818, -0.94307, 0.000664966, -0.000495916
15, 0.00000, 191.09, -111.032, -191.991, -109.973, 0.718576, 221.466, 6.08873E-005, -0.000464103, -0.693402, 0.779714, 1.02092, 0.209737, -0.328335, -0.988124, 0.000813065, -0.00132726
16, 0.00000, 189.454, -110.861, -191.134, -108.68, 1.36759, 220.152, 6.37333E-005, -0.000540443, -0.76443, 0.864917, 1.12954, 0.228328, -0.366152, -1.0911, 0.001038, -0.00214285
17, 0.00000, 188.489, -110.547, -190.45, -108.009, 1.59164, 219.273, 7.85709E-005, -0.000641109, -0.891825, 1.01108, 1.31917, 0.265122, -0.428758, -1.27324, 0.001414, -0.00295881
18, 0.00000, 187.799, -110.293, -189.935, -107.543, 1.72854, 218.632, 9.15961E-005, -0.000724417, -0.995799, 1.13031, 1.47384, 0.295142, -0.4798, -1.42177, 0.00175545, -0.00367913
19, 0.00000, 187.533, -110.192, -189.734, -107.364, 1.77944, 218.383, 9.69604E-005, -0.000757833, -1.03687, 1.17745, 1.53497, 0.306966, -0.499996, -1.48043, 0.00189989, -0.00398642
20, 0.00000, 187.384, -110.134, -189.62, -107.265, 1.80646, 218.243, 0.000100077, -0.000776912, -1.0606, 1.20469, 1.57029, 0.313801, -0.511667, -1.51434, 0.00198416, -0.00415357
21, 0.00000, 187.691, -110.206, -189.815, -107.49, 1.71464, 218.509, 9.63917E-005, -0.000752501, -1.03259, 1.17186, 1.52808, 0.3061, -0.497356, -1.47408, 0.00187187, -0.00388003
22, 0.00000, 188.327, -110.428, -190.278, -107.926, 1.57864, 219.094, 8.48437E-005, -0.00067939, -0.94258, 1.06841, 1.39401, 0.280243, -0.452993, -1.34544, 0.00156049, -0.00321423
23, 0.00000, 189.292, -110.783, -190.998, -108.578, 1.38614, 219.992, 6.74232E-005, -0.000565076, -0.79701, 0.901903, 1.17774, 0.237952, -0.381852, -1.13755, 0.00112178, -0.00230649
24, 0.00000, 190.316, -111.198, -191.795, -109.255, 1.20987, 220.966, 4.87747E-005, -0.000435549, -0.62489, 0.706101, 0.922763, 0.187283, -0.298576, -0.891907, 0.000703586, -0.00147671
25, 0.00000, 190.878, -111.535, -192.327, -109.578, 1.19598, 221.555, 3.47507E-005, -0.00033325, -0.482141, 0.54484, 0.712094, 0.144585, -0.230397, -0.688418, 0.000444112, -0.0010075
26, 0.00000, 191.665, -111.72, -192.826, -110.159, 0.957979, 222.24, 2.83462E-005, -0.000277926, -0.407641, 0.459659, 0.601333, 0.12282, -0.194007, -0.581788, 0.000315448, -0.000690521
27, 0.00000, 191.843, -111.802, -192.974, -110.271, 0.935391, 222.414, 2.53041E-005, -0.000253537, -0.372951, 0.420472, 0.550126, 0.112425, -0.177442, -0.532299, 0.000266477, -0.000598339
28, 0.00000, 192.024, -111.832, -193.079, -110.41, 0.871391, 222.567, 2.43755E-005, -0.000244565, -0.36092, 0.406669, 0.532201, 0.108933, -0.171528, -0.515055, 0.000247245, -0.000546254
29, 0.00000, 191.812, -111.794, -192.954, -110.249, 0.944357, 222.387, 2.55258E-005, -0.000255727, -0.376053, 0.424004, 0.55473, 0.113341, -0.178946, -0.536739, 0.00026964, -0.00060652
30, 0.00000, 191.363, -111.653, -192.638, -109.934, 1.05246, 221.979, 3.05071E-005, -0.000297686, -0.434528, 0.490395, 0.641311, 0.130681, -0.20714, -0.620281, 0.000356178, -0.000795349
31, 0.00000, 190.38, -111.364, -191.965, -109.236, 1.30524, 221.095, 4.13452E-005, -0.000385045, -0.552599, 0.625051, 0.816562, 0.16534, -0.264537, -0.789102, 0.000574254, -0.00128902
32, 0.00000, 190.229, -111.207, -191.766, -109.176, 1.26008, 220.903, 4.90285E-005, -0.000427938, -0.61729, 0.697846, 0.911806, 0.184828, -0.295216, -0.881198, 0.000700288, -0.00147492
33, 0.00000, 192.088, -111.171, -192.544, -110.745, 0.348999, 222.285, 5.78588E-005, -0.000404386, -0.63076, 0.70683, 0.926859, 0.192132, -0.296756, -0.898104, 0.000656078, -0.000856926
34, 0.00000, 193.216, -111.111, -192.987, -111.713, -0.231705, 223.107, 6.55714E-005, -0.000392203, -0.648268, 0.722417, 0.949436, 0.199558, -0.30182, -0.921494, 0.000652642, -0.000480909
35, 0.00000, 195.019, -111.069, -193.742, -113.239, -1.12264, 224.451, 7.35136E-005, -0.000360379, -0.651363, 0.719808, 0.949245, 0.203686, -0.29847, -0.923624, 0.000587671, 0.00013117
36, 0.00000, 195.364, -111.076, -193.899, -113.525, -1.28257, 224.716, 7.38285E-005, -0.000351613, -0.645907, 0.712725, 0.940485, 0.202542, -0.295135, -0.915513, 0.000556764, 0.000246178
37, 0.00000, 194.186, -111.09, -193.394, -112.534, -0.709715, 223.83, 6.97701E-005, -0.00037414, -0.649731, 0.720781, 0.949053, 0.201722, -0.29993, -0.922369, 0.000607582, -0.000133977
38, 0.00000, 192.206, -111.083, -192.522, -110.881, 0.228459, 222.33, 6.34935E-005, -0.000419926, -0.664404, 0.74362, 0.975566, 0.202817, -0.311879, -0.945596, 0.000717466, -0.000840775
39, 0.00000, 190.181, -111.025, -191.59, -109.215, 1.14611, 220.778, 5.84296E-005, -0.000478636, -0.694262, 0.783903, 1.02468, 0.208294, -0.331278, -0.990533, 0.000859431, -0.00166364
40, 0.00000, 189.147, -110.852, -190.994, -108.426, 1.50825, 219.916, 6.36702E-005, -0.000543856, -0.764783, 0.866494, 1.13097, 0.227803, -0.367248, -1.09203, 0.00105991, -0.00227065
41, 0.00000, 188.354, -110.543, -190.388, -107.898, 1.65278, 219.17, 7.8563E-005, -0.00064288, -0.892007, 1.01189, 1.3199, 0.264854, -0.429318, -1.27371, 0.00142513, -0.00302532
42, 0.00000, 187.521, -110.283, -189.807, -107.314, 1.85397, 218.419, 9.16287E-005, -0.000728586, -0.996224, 1.13218, 1.47553, 0.294525, -0.481092, -1.42287, 0.00178165, -0.00383625
43, 0.00000, 187.164, -110.179, -189.564, -107.061, 1.94558, 218.1, 9.70607E-005, -0.000763593, -1.03746, 1.18005, 1.53731, 0.306112, -0.501785, -1.48195, 0.00193789, -0.00420342
44, 0.00000, 186.965, -110.118, -189.427, -106.92, 1.99548, 217.921, 0.000100281, -0.000783782, -1.06135, 1.20776, 1.57308, 0.31282, -0.513769, -1.51617, 0.00203156, -0.00441244
45, 0.00000, 187.148, -110.187, -189.564, -107.044, 1.95966, 218.092, 9.65073E-005, -0.000760915, -1.03346, 1.17567, 1.53152, 0.304848, -0.499983, -1.47632, 0.00192637, -0.00419664
46, 0.00000, 187.799, -110.411, -190.036, -107.49, 1.81815, 218.689, 8.48737E-005, -0.000686913, -0.943349, 1.07179, 1.39706, 0.279132, -0.455323, -1.34742, 0.00160778, -0.00349774
47, 0.00000, 188.69, -110.766, -190.723, -108.081, 1.66095, 219.531, 6.73481E-005, -0.000572193, -0.79774, 0.905137, 1.18067, 0.236883, -0.384094, -1.13945, 0.00116743, -0.00257397
48, 0.00000, 189.73, -111.183, -191.529, -108.77, 1.4797, 220.517, 4.86019E-005, -0.000440851, -0.625436, 0.708556, 0.924981, 0.186464, -0.300285, -0.893345, 0.000739758, -0.00167524
49, 0.00000, 191, -111.537, -192.382, -109.68, 1.13912, 221.648, 3.48248E-005, -0.000332386, -0.482051, 0.544443, 0.711733, 0.144716, -0.23012, -0.688184, 0.00043898, -0.000975186
50, 0.00000, 191.536, -111.717, -192.768, -110.051, 1.01832, 222.141, 2.82476E-005, -0.000278687, -0.407721, 0.460013, 0.601655, 0.122703, -0.194254, -0.581997, 0.000319583, -0.000718849
51, 0.00000, 191.843, -111.802, -192.974, -110.272, 0.935136, 222.415, 2.53191E-005, -0.000253553, -0.372952, 0.420472, 0.550126, 0.112426, -0.177441, -0.532299, 0.000267091, -0.000599113
52, 0.00000, 192.052, -111.833, -193.091, -110.433, 0.858282, 222.588, 2.43995E-005, -0.000244432, -0.360906, 0.406602, 0.53214, 0.108955, -0.171481, -0.515016, 0.000246503, -0.000541371
53, 0.00000, 191.918, -111.796, -193.001, -110.337, 0.894964, 222.468, 2.56033E-005, -0.000255189, -0.375997, 0.423741, 0.554492, 0.11343, -0.178762, -0.536584, 0.000266214, -0.000586678
54, 0.00000, 190.976, -111.645, -192.463, -109.612, 1.23279, 221.682, 3.02065E-005, -0.000299943, -0.434767, 0.49151, 0.642322, 0.130303, -0.207924, -0.620934, 0.000369033, -0.00087852
55, 0.00000, 190.568, -111.368, -192.05, -109.392, 1.21832, 221.239, 4.1482E-005, -0.000383692, -0.552455, 0.624366, 0.815942, 0.165575, -0.264053, -0.788701, 0.00056659, -0.0012394
56, 0.00000, 189.803, -111.203, -191.577, -108.822, 1.45967, 220.581, 4.76262E-005, -0.000434445, -0.617641, 0.699593, 0.913375, 0.184221, -0.296447, -0.8822, 0.000713151, -0.00161419
57, 0.00000, 190.79, -111.173, -191.981, -109.66, 0.967756, 221.309, 5.31566E-005, -0.000427907, -0.631879, 0.712307, 0.931758, 0.190248, -0.300594, -0.901232, 0.000714981, -0.00132203
58, 0.00000, 191.464, -111.132, -192.239, -110.241, 0.615912, 221.796, 5.74069E-005, -0.000428507, -0.649749, 0.729956, 0.95617, 0.196927, -0.307138, -0.925773, 0.00071692, -0.00111
59, 0.00000, 192.266, -111.122, -192.58, -110.917, 0.22585, 222.397, 6.02492E-005, -0.000418673, -0.653663, 0.731621, 0.959811, 0.199552, -0.306835, -0.930339, 0.000687375, -0.000834591
60, 0.00000, 191.451, -111.12, -192.224, -110.233, 0.615704, 221.779, 5.93195E-005, -0.000421986, -0.649253, 0.72937, 0.955437, 0.196779, -0.306903, -0.925069, 0.000719632, -0.00108059
61, 0.00000, 191.055, -111.112, -192.045, -109.905, 0.798792, 221.476, 5.85013E-005, -0.000430499, -0.65246, 0.73426, 0.961143, 0.197068, -0.309429, -0.930096, 0.000746079, -0.00123177
62, 0.00000, 190.591, -111.085, -191.82, -109.53, 0.998158, 221.115, 5.7553E-005, -0.000449475, -0.665849, 0.750764, 0.981964, 0.200348, -0.316901, -0.949679, 0.000785832, -0.00143236
63, 0.00000, 189.973, -111.007, -191.485, -109.046, 1.23528, 220.61, 6.04448E-005, -0.000474633, -0.694522, 0.784843, 1.02557, 0.208011, -0.331931, -0.991138, 0.00087994, -0.00171561
64, 0.00000, 188.401, -110.831, -190.654, -107.811, 1.84808, 219.345, 6.34637E-005, -0.000552278, -0.765645, 0.87034, 1.13445, 0.226527, -0.369916, -1.09428, 0.00111055, -0.00258682
65, 0.00000, 187.481, -110.515, -189.987, -107.179, 2.04828, 218.501, 7.85204E-005, -0.000654626, -0.8932, 1.01717, 1.32467, 0.263107, -0.432968, -1.27681, 0.00149764, -0.00346798
66, 0.00000, 186.741, -110.255, -189.447, -106.672, 2.20594, 217.818, 9.17815E-005, -0.000740283, -0.997426, 1.13747, 1.48031, 0.292775, -0.484746, -1.42597, 0.00185861, -0.00427684
67, 0.00000, 186.525, -110.154, -189.267, -106.533, 2.2342, 217.606, 9.72744E-005, -0.000773344, -1.0385, 1.18457, 1.54141, 0.304616, -0.504916, -1.48462, 0.00200658, -0.00456869
68, 0.00000, 186.164, -110.086, -189.055, -106.26, 2.3563, 217.301, 0.000100768, -0.000796169, -1.06268, 1.21356, 1.57834, 0.310906, -0.517786, -1.51959, 0.0021284, -0.00487596
69, 0.00000, 186.574, -110.166, -189.298, -106.57, 2.21861, 217.649, 9.67453E-005, -0.000769569, -1.0344, 1.17972, 1.53519, 0.303512, -0.502786, -1.47871, 0.00199005, -0.00452024
70, 0.00000, 186.865, -110.378, -189.606, -106.722, 2.23937, 217.972, 8.52189E-005, -0.000700443, -0.944742, 1.07782, 1.40251, 0.277157, -0.459473, -1.35097, 0.00170469, -0.00400898
71, 0.00000, 188.193, -110.751, -190.496, -107.671, 1.88702, 219.15, 6.73475E-005, -0.000578189, -0.798343, 0.90782, 1.18308, 0.235992, -0.385949, -1.14101, 0.00120791, -0.00280032
72, 0.00000, 189.736, -111.184, -191.532, -108.775, 1.47681, 220.522, 4.8625E-005, -0.000440821, -0.625431, 0.708531, 0.924957, 0.186473, -0.300267, -0.89333, 0.000740293, -0.00167434
73, 0.00000, 190.565, -111.448, -192.117, -109.354, 1.28005, 221.276, 3.80893E-005, -0.000359707, -0.517393, 0.58512, 0.764468, 0.15489, -0.24759, -0.738839, 0.000515258, -0.00117104
74, 0.00000, 191.417, -111.651, -192.66, -109.98, 1.02512, 222.019, 3.08127E-005, -0.000298493, -0.435783, 0.491684, 0.643052, 0.131123, -0.207631, -0.62201, 0.000362269, -0.000797462
75, 0.00000, 191.677, -111.756, -192.862, -110.152, 0.980291, 222.266, 2.68798E-005, -0.000267136, -0.391826, 0.441928, 0.578094, 0.118009, -0.186562, -0.559276, 0.000294256, -0.000661428
76, 0.00000, 191.984, -111.807, -193.04, -110.387, 0.87173, 222.524, 2.52954E-005, -0.000251937, -0.371557, 0.418649, 0.547875, 0.11214, -0.176579, -0.530218, 0.000260672, -0.000570182
77, 0.00000, 191.978, -111.808, -193.038, -110.383, 0.874599, 222.52, 2.52465E-005, -0.000251801, -0.371382, 0.418463, 0.547628, 0.112081, -0.176505, -0.529975, 0.000259387, -0.000568879
78, 0.00000, 191.812, -111.76, -192.924, -110.264, 0.918085, 222.371, 2.68784E-005, -0.000265942, -0.391164, 0.440921, 0.576919, 0.11795, -0.186042, -0.558241, 0.000287018, -0.000630294
79, 0.00000, 191.398, -111.648, -192.649, -109.966, 1.03203, 222.003, 3.07502E-005, -0.000299145, -0.436965, 0.493048, 0.644832, 0.131464, -0.208225, -0.623721, 0.000357691, -0.000791726
80, 0.00000, 191.048, -111.437, -192.317, -109.763, 1.04181, 221.634, 3.98787E-005, -0.000357523, -0.523641, 0.590819, 0.772654, 0.157481, -0.249513, -0.747269, 0.000500246, -0.00103065
81, 0.00000, 192.203, -111.107, -192.54, -110.871, 0.244392, 222.342, 6.09275E-005, -0.000423477, -0.660078, 0.738923, 0.969317, 0.201439, -0.309943, -0.939499, 0.000704162, -0.000863064
82, 0.00000, 191.931, -110.778, -192.143, -110.78, 0.13279, 221.971, 8.03837E-005, -0.000495675, -0.78857, 0.881571, 1.15696, 0.241085, -0.369393, -1.12159, 0.00100036, -0.00106145
83, 0.00000, 193.341, -110.598, -192.607, -112.036, -0.672446, 222.946, 9.5724E-005, -0.000504527, -0.854962, 0.948393, 1.24854, 0.265174, -0.394669, -1.21308, 0.00109148, -0.000489828
84, 0.00000, 193.041, -110.536, -192.423, -111.811, -0.575219, 222.688, 9.86477E-005, -0.000524265, -0.881213, 0.978352, 1.28751, 0.272837, -0.407466, -1.25057, 0.00116659, -0.000616994
85, 0.00000, 192.038, -110.514, -191.966, -110.981, -0.113612, 221.919, 9.70456E-005, -0.000552484, -0.894491, 0.997423, 1.31026, 0.274649, -0.417027, -1.27098, 0.00125591, -0.00109553
86, 0.00000, 189.911, -110.475, -191.007, -109.221, 0.868449, 220.3, 9.18922E-005, -0.000611912, -0.914609, 1.02951, 1.34715, 0.275716, -0.433976, -1.30301, 0.0014325, -0.00221512
87, 0.00000, 187.991, -110.425, -190.131, -107.643, 1.73945, 218.838, 8.61254E-005, -0.000671619, -0.934435, 1.06082, 1.38324, 0.276934, -0.450387, -1.33443, 0.00158607, -0.00333134
88, 0.00000, 187.503, -110.378, -189.88, -107.257, 1.93448, 218.452, 8.61494E-005, -0.000698204, -0.953806, 1.08489, 1.41347, 0.281559, -0.461328, -1.36276, 0.00166171, -0.00368668
89, 0.00000, 187.349, -110.263, -189.716, -107.179, 1.92111, 218.28, 9.24485E-005, -0.000735767, -1.00267, 1.14025, 1.48564, 0.296021, -0.484784, -1.43231, 0.00181555, -0.00396296
90, 0.00000, 187.406, -110.205, -189.69, -107.252, 1.84915, 218.294, 9.60223E-005, -0.00075463, -1.02965, 1.17005, 1.52489, 0.304407, -0.497138, -1.47042, 0.00189083, -0.00404119
91, 0.00000, 187.515, -110.221, -189.751, -107.336, 1.80946, 218.384, 9.5328E-005, -0.000749176, -1.02401, 1.16321, 1.51622, 0.302985, -0.494071, -1.46223, 0.00186581, -0.00396493
92, 0.00000, 187.355, -110.224, -189.685, -107.201, 1.88829, 218.265, 9.46662E-005, -0.000748005, -1.02022, 1.15981, 1.51132, 0.301389, -0.492966, -1.45719, 0.00186347, -0.00400962
93, 0.00000, 187.41, -110.314, -189.786, -107.207, 1.93061, 218.351, 8.96351E-005, -0.000719239, -0.980879, 1.1156, 1.45349, 0.28955, -0.474354, -1.4013, 0.00174734, -0.00384929
94, 0.00000, 187.783, -110.5, -190.105, -107.438, 1.8931, 218.721, 7.9915E-005, -0.000658649, -0.903694, 1.02754, 1.33901, 0.267025, -0.436815, -1.2912, 0.00150239, -0.00336508
95, 0.00000, 188.234, -110.763, -190.524, -107.7, 1.87721, 219.187, 6.67096E-005, -0.000574008, -0.793265, 0.901963, 1.17551, 0.234542, -0.383433, -1.13374, 0.00119058, -0.00276046
96, 0.00000, 189.311, -111.098, -191.275, -108.456, 1.61539, 220.16, 5.19543E-005, -0.000467679, -0.658521, 0.746984, 0.974607, 0.195789, -0.316914, -0.940862, 0.000827883, -0.00191087
97, 0.00000, 190.593, -111.422, -192.107, -109.389, 1.24705, 221.284, 3.91731E-005, -0.000367352, -0.529037, 0.598087, 0.781516, 0.158475, -0.253008, -0.755383, 0.000528625, -0.00118005
98, 0.00000, 191.345, -111.631, -192.612, -109.929, 1.04441, 221.955, 3.14886E-005, -0.000304402, -0.443931, 0.500965, 0.655141, 0.133523, -0.211584, -0.633662, 0.000374259, -0.000826159
99, 0.00000, 191.65, -111.749, -192.844, -110.133, 0.987593, 222.242, 2.71398E-005, -0.000269348, -0.394877, 0.445399, 0.582617, 0.118911, -0.188038, -0.563638, 0.000298998, -0.000672186
100, 0.00000, 191.992, -111.81, -193.046, -110.393, 0.869766, 222.532, 2.52021E-005, -0.000251118, -0.370393, 0.41733, 0.546153, 0.111793, -0.17602, -0.528556, 0.000259251, -0.000567106
101, 0.00000, 191.931, -111.826, -193.033, -110.335, 0.9112, 222.493, 2.44398E-005, -0.000246315, -0.362993, 0.409157, 0.535378, 0.109477, -0.172635, -0.518071, 0.000250399, -0.000562809
102, 0.00000, 191.953, -111.799, -193.019, -110.365, 0.879928, 222.497, 2.55752E-005, -0.000254419, -0.37507, 0.422638, 0.553078, 0.113182, -0.178273, -0.53524, 0.000265218, -0.000579701
103, 0.00000, 191.604, -111.702, -192.785, -110.114, 0.974708, 222.185, 2.8846E-005, -0.000282912, -0.414692, 0.467677, 0.61179, 0.124905, -0.19742, -0.591873, 0.000321984, -0.000709543
104, 0.00000, 191.405, -111.536, -192.556, -110.019, 0.945432, 221.952, 3.6181E-005, -0.000327772, -0.483254, 0.544783, 0.712725, 0.145614, -0.229896, -0.68953, 0.000425472, -0.000866495
105, 0.00000, 192.621, -111.224, -192.822, -111.17, 0.132722, 222.716, 5.59056E-005, -0.000387875, -0.611067, 0.683394, 0.896871, 0.186883, -0.286399, -0.869601, 0.000595056, -0.000675026
106, 0.00000, 192.948, -110.883, -192.675, -111.589, -0.276529, 222.793, 7.6253E-005, -0.000460123, -0.748155, 0.833245, 1.09524, 0.230452, -0.347948, -1.06305, 0.000861315, -0.000648066
107, 0.00000, 197.052, -110.586, -194.226, -115.151, -2.45642, 225.759, 0.000103043, -0.0004239, -0.830668, 0.906394, 1.20133, 0.265611, -0.371474, -1.17306, 0.000808983, 0.00105139
108, 0.00000, 201.484, -110.33, -195.969, -118.98, -4.77519, 229.021, 0.000120993, -0.000354184, -0.859738, 0.918716, 1.22808, 0.285068, -0.368918, -1.20664, 0.000580101, 0.002854
