hour, t(sec), V1.re, V1.im, V2.re, V2.im, V3.re, V3.im, V4.re, V4.im, I1.re, I1.im, I2.re, I2.im, I3.re, I3.im, I4.re, I4.im
1, 0.00000, 191.971, -112.132, -193.473, -110.287, 1.07978, 222.79, -9.38953E-006, -1.61341E-005, -0.676978, 0.764768, 0.999187, 0.203104, -0.322931, -0.966679, 0.0101115, 0.0149413
2, 0.00000, 192.393, -112.26, -193.738, -110.573, 0.986176, 223.151, -7.93208E-006, -1.35351E-005, -0.57287, 0.646559, 0.845215, 0.172268, -0.272864, -0.817966, 0.0084503, 0.0126747
3, 0.00000, 192.629, -112.302, -193.865, -110.749, 0.907808, 223.341, -7.24918E-006, -1.2338E-005, -0.524247, 0.59124, 0.77318, 0.15791, -0.249371, -0.748424, 0.00768717, 0.0116113
4, 0.00000, 192.687, -112.327, -193.907, -110.784, 0.901477, 223.394, -7.01524E-006, -1.1922E-005, -0.507419, 0.572221, 0.748359, 0.152876, -0.241348, -0.724419, 0.0074232, 0.0112442
5, 0.00000, 192.59, -112.306, -193.853, -110.714, 0.930757, 223.314, -7.31088E-006, -1.24368E-005, -0.528541, 0.596208, 0.779622, 0.159138, -0.25152, -0.754616, 0.00774984, 0.0117075
6, 0.00000, 192.272, -112.199, -193.644, -110.505, 0.991254, 223.039, -8.45248E-006, -1.44532E-005, -0.610457, 0.689031, 0.900654, 0.183513, -0.290776, -0.87159, 0.00903112, 0.013499
7, 0.00000, 191.536, -112.027, -193.219, -109.979, 1.19876, 222.429, -1.07794E-005, -1.86392E-005, -0.775499, 0.877083, 1.14521, 0.232024, -0.370657, -1.10754, 0.0117271, 0.0170741
8, 0.00000, 191.257, -111.91, -193.004, -109.79, 1.24817, 222.164, -1.1341E-005, -1.70619E-005, -0.684661, 0.873775, 1.09689, 0.155086, -0.413112, -1.02725, 0.0122194, 0.0154495
9, 0.00000, 192.754, -111.48, -193.158, -111.132, 0.283158, 222.99, -5.09327E-006, 1.74089E-005, 0.972498, -0.0816043, -0.557084, -0.800351, -0.414523, 0.881956, 0.00420219, -0.0174098
10, 0.00000, 193.354, -111.264, -193.181, -111.687, -0.1356, 223.3, -2.65264E-006, 3.17646E-005, 1.6963, -0.482895, -1.26702, -1.22618, -0.428116, 1.70916, 0.00149291, -0.0318485
11, 0.00000, 196.004, -110.531, -193.488, -114.055, -1.82583, 224.79, 7.58377E-006, 8.53896E-005, 4.59049, -2.09872, -4.12364, -2.92709, -0.468085, 5.03079, -0.006348, -0.0903667
12, 0.00000, 196.17, -110.499, -193.521, -114.2, -1.92357, 224.892, 8.15621E-006, 8.7873E-005, 4.73408, -2.18092, -4.2675, -3.01067, -0.468123, 5.19703, -0.00661401, -0.0933027
13, 0.00000, 195.135, -110.779, -193.393, -113.275, -1.26566, 224.304, 4.30629E-006, 6.8353E-005, 3.63429, -1.57275, -3.18529, -2.36058, -0.448877, 3.93591, -0.00443019, -0.0709369
14, 0.00000, 192.713, -111.381, -193.056, -111.138, 0.228962, 222.911, -5.20868E-006, 1.93367E-005, 1.07331, -0.113947, -0.63553, -0.871346, -0.436773, 0.985291, 0.00420209, -0.0193339
15, 0.00000, 191.33, -111.647, -192.796, -109.946, 1.02691, 222.081, -1.07408E-005, -8.30247E-006, -0.25557, 0.680433, 0.715614, -0.119165, -0.460324, -0.560127, 0.0110199, 0.00716164
16, 0.00000, 190.176, -111.729, -192.448, -108.995, 1.60063, 221.311, -1.50175E-005, -2.64459E-005, -1.07187, 1.21704, 1.58583, 0.317767, -0.515773, -1.53178, 0.0168365, 0.0234114
17, 0.00000, 189.33, -111.562, -191.983, -108.374, 1.86642, 220.625, -1.76006E-005, -3.13162E-005, -1.24903, 1.42191, 1.85029, 0.368046, -0.603739, -1.78577, 0.0200781, 0.0271364
18, 0.00000, 188.68, -111.406, -191.605, -107.913, 2.04573, 220.087, -1.97187E-005, -3.53906E-005, -1.39361, 1.58935, 2.06617, 0.408871, -0.675647, -1.99298, 0.0228096, 0.0301459
19, 0.00000, 188.426, -111.343, -191.456, -107.733, 2.11396, 219.877, -2.05605E-005, -3.70277E-005, -1.45068, 1.65558, 2.15144, 0.424898, -0.704118, -2.07478, 0.023913, 0.0313239
20, 0.00000, 188.281, -111.305, -191.37, -107.632, 2.15143, 219.756, -2.10437E-005, -3.79688E-005, -1.48368, 1.69387, 2.20076, 0.43417, -0.720581, -2.12208, 0.024547, 0.0320095
21, 0.00000, 188.507, -111.324, -191.476, -107.812, 2.05769, 219.93, -2.04577E-005, -3.68517E-005, -1.44517, 1.64843, 2.14257, 0.423741, -0.700729, -2.06654, 0.0237839, 0.0312174
22, 0.00000, 189.086, -111.452, -191.804, -108.229, 1.88814, 220.404, -1.86161E-005, -3.32907E-005, -1.32016, 1.5033, 1.95568, 0.388647, -0.638286, -1.88728, 0.0213866, 0.0286269
23, 0.00000, 189.995, -111.67, -192.332, -108.875, 1.63675, 221.156, -1.56711E-005, -2.76808E-005, -1.11743, 1.26926, 1.65346, 0.330947, -0.538005, -1.5969, 0.0176501, 0.0243734
24, 0.00000, 191.021, -111.948, -192.952, -109.587, 1.38171, 222.018, -1.22344E-005, -2.12802E-005, -0.876947, 0.993564, 1.29619, 0.261345, -0.42046, -1.25288, 0.0134505, 0.0192507
25, 0.00000, 191.752, -112.235, -193.459, -110.046, 1.27823, 222.665, -9.4228E-006, -1.61608E-005, -0.676708, 0.765848, 0.999956, 0.202312, -0.323975, -0.966924, 0.0101496, 0.0149241
26, 0.00000, 192.339, -112.286, -193.735, -110.513, 1.03576, 223.12, -7.9393E-006, -1.35413E-005, -0.572814, 0.646787, 0.845378, 0.172101, -0.273084, -0.818018, 0.00845872, 0.0126708
27, 0.00000, 192.533, -112.347, -193.859, -110.643, 0.994861, 223.287, -7.25922E-006, -1.23398E-005, -0.524132, 0.591577, 0.773411, 0.157637, -0.249715, -0.748482, 0.0076943, 0.0116073
28, 0.00000, 192.65, -112.344, -193.905, -110.744, 0.934957, 223.373, -7.01935E-006, -1.19234E-005, -0.50738, 0.572352, 0.748452, 0.152775, -0.241478, -0.724446, 0.00742643, 0.0112424
29, 0.00000, 192.509, -112.345, -193.848, -110.625, 1.00416, 223.268, -7.32032E-006, -1.24462E-005, -0.528472, 0.596528, 0.779854, 0.158913, -0.251824, -0.754697, 0.00776218, 0.0117026
30, 0.00000, 192.119, -112.271, -193.635, -110.336, 1.13017, 222.951, -8.4734E-006, -1.44789E-005, -0.61032, 0.689747, 0.901175, 0.183023, -0.291444, -0.871778, 0.00906233, 0.0134872
31, 0.00000, 191.299, -112.137, -193.204, -109.718, 1.41318, 222.293, -1.08214E-005, -1.86708E-005, -0.775167, 0.878427, 1.14617, 0.231043, -0.371953, -1.10785, 0.0117728, 0.0170527
32, 0.00000, 191.067, -111.997, -192.992, -109.583, 1.41856, 222.056, -1.13868E-005, -1.71446E-005, -0.686825, 0.876248, 1.10007, 0.155703, -0.414136, -1.03028, 0.0122728, 0.015476
33, 0.00000, 192.136, -111.654, -193.083, -110.57, 0.687928, 222.639, -7.34472E-006, 5.43188E-006, 0.385682, 0.258261, 0.0304547, -0.462582, -0.415665, 0.204607, 0.00687303, -0.00571787
34, 0.00000, 192.833, -111.431, -193.126, -111.194, 0.231467, 223.004, -4.15674E-006, 2.37725E-005, 1.29106, -0.251502, -0.863618, -0.991039, -0.426353, 1.2425, 0.0030629, -0.0237323
35, 0.00000, 193.965, -111.125, -193.257, -112.198, -0.480383, 223.638, 4.80393E-007, 4.85417E-005, 2.56298, -0.973233, -2.12667, -1.7316, -0.435246, 2.70557, -0.00154028, -0.0492719
36, 0.00000, 194.181, -111.079, -193.297, -112.389, -0.611552, 223.769, 1.21927E-006, 5.20023E-005, 2.74643, -1.08034, -2.31169, -1.83705, -0.433807, 2.91838, -0.00215087, -0.0529867
37, 0.00000, 193.451, -111.269, -193.2, -111.738, -0.151186, 223.351, -1.54332E-006, 3.77356E-005, 2.00019, -0.655748, -1.56911, -1.40286, -0.429881, 2.05882, 0.000344165, -0.0379476
38, 0.00000, 192.179, -111.557, -193, -110.627, 0.612641, 222.608, -6.65359E-006, 1.16465E-005, 0.693665, 0.105132, -0.256008, -0.652378, -0.436875, 0.547363, 0.00587139, -0.0117638
39, 0.00000, 190.835, -111.803, -192.74, -109.477, 1.37535, 221.799, -1.22056E-005, -1.61138E-005, -0.618864, 0.895238, 1.0824, 0.0874053, -0.464392, -0.980861, 0.0130596, 0.0143314
40, 0.00000, 190.047, -111.788, -192.439, -108.854, 1.7164, 221.237, -1.50518E-005, -2.64706E-005, -1.07162, 1.21806, 1.58655, 0.317027, -0.51675, -1.53201, 0.0168712, 0.0233929
41, 0.00000, 189.274, -111.588, -191.979, -108.313, 1.91693, 220.592, -1.76188E-005, -3.13282E-005, -1.2489, 1.42243, 1.85067, 0.367666, -0.604238, -1.78589, 0.0200952, 0.0271265
42, 0.00000, 188.563, -111.458, -191.596, -107.785, 2.14966, 220.02, -1.9761E-005, -3.54204E-005, -1.39332, 1.59056, 2.06703, 0.408, -0.676798, -1.99326, 0.0228506, 0.0301225
43, 0.00000, 188.271, -111.412, -191.444, -107.564, 2.2518, 219.786, -2.06167E-005, -3.70685E-005, -1.45028, 1.65725, 2.15264, 0.423694, -0.705711, -2.07517, 0.0239699, 0.0312937
44, 0.00000, 188.105, -111.384, -191.355, -107.439, 2.30837, 219.653, -2.11083E-005, -3.80237E-005, -1.48326, 1.69588, 2.20222, 0.432767, -0.722465, -2.1226, 0.02462, 0.0319751
45, 0.00000, 188.278, -111.426, -191.457, -107.562, 2.26091, 219.797, -2.05398E-005, -3.69104E-005, -1.44459, 1.65088, 2.14433, 0.421974, -0.703068, -2.06711, 0.0238664, 0.0311737
46, 0.00000, 188.863, -111.552, -191.786, -107.986, 2.08627, 220.275, -1.86916E-005, -3.33468E-005, -1.31964, 1.50547, 1.95723, 0.38708, -0.640361, -1.88779, 0.0214625, 0.028585
47, 0.00000, 189.742, -111.786, -192.313, -108.599, 1.86325, 221.01, -1.57412E-005, -2.77341E-005, -1.11693, 1.27134, 1.65495, 0.32944, -0.54, -1.59739, 0.0177232, 0.0243353
48, 0.00000, 190.775, -112.063, -192.936, -109.317, 1.60329, 221.877, -1.22849E-005, -2.13172E-005, -0.876556, 0.995139, 1.29732, 0.260195, -0.421979, -1.25324, 0.0135038, 0.0192245
49, 0.00000, 191.803, -112.211, -193.462, -110.102, 1.2317, 222.694, -9.41469E-006, -1.61536E-005, -0.676768, 0.76559, 0.999771, 0.202497, -0.323728, -0.966862, 0.0101399, 0.0149285
50, 0.00000, 192.284, -112.312, -193.732, -110.453, 1.08499, 223.089, -7.9463E-006, -1.35467E-005, -0.572759, 0.647015, 0.845542, 0.171936, -0.273303, -0.818072, 0.00846648, 0.0126673
51, 0.00000, 192.533, -112.347, -193.859, -110.644, 0.994659, 223.287, -7.2593E-006, -1.23401E-005, -0.524133, 0.591577, 0.773411, 0.157638, -0.249714, -0.748482, 0.00769451, 0.0116072
52, 0.00000, 192.662, -112.339, -193.906, -110.757, 0.924283, 223.38, -7.01807E-006, -1.19226E-005, -0.507392, 0.572309, 0.748421, 0.152807, -0.241436, -0.724436, 0.00742507, 0.011243
53, 0.00000, 192.554, -112.324, -193.85, -110.674, 0.963907, 223.293, -7.3153E-006, -1.24425E-005, -0.528515, 0.596359, 0.779733, 0.159037, -0.251659, -0.754659, 0.0077566, 0.011705
54, 0.00000, 191.957, -112.348, -193.625, -110.157, 1.27761, 222.859, -8.49494E-006, -1.44937E-005, -0.610136, 0.690465, 0.901688, 0.182493, -0.292142, -0.871942, 0.00908541, 0.0134769
55, 0.00000, 191.378, -112.101, -193.209, -109.805, 1.34187, 222.338, -1.08059E-005, -1.86601E-005, -0.775283, 0.877984, 1.14585, 0.231372, -0.371524, -1.10776, 0.0117578, 0.0170613
56, 0.00000, 190.832, -112.07, -192.964, -109.362, 1.58175, 221.922, -1.21252E-005, -2.10256E-005, -0.86574, 0.982653, 1.28117, 0.257106, -0.41662, -1.23773, 0.0133116, 0.0189975
57, 0.00000, 191.36, -111.866, -192.985, -109.869, 1.19013, 222.198, -1.02727E-005, -1.01572E-005, -0.357069, 0.693087, 0.777302, -0.0377407, -0.420629, -0.654193, 0.0106693, 0.00900439
58, 0.00000, 191.69, -111.703, -192.97, -110.203, 0.915925, 222.356, -9.21458E-006, -3.21919E-006, -0.0253486, 0.512276, 0.45542, -0.234119, -0.430035, -0.277429, 0.00917778, 0.00249077
59, 0.00000, 192.123, -111.553, -193.006, -110.617, 0.602756, 222.594, -7.88745E-006, 4.18974E-006, 0.330435, 0.308026, 0.101091, -0.439664, -0.4311, 0.132002, 0.00746197, -0.00455468
60, 0.00000, 191.8, -111.728, -193.003, -110.249, 0.916427, 222.418, -7.80266E-006, 4.37814E-006, 0.337976, 0.299935, 0.0903166, -0.442128, -0.427835, 0.142545, 0.00734509, -0.00473007
61, 0.00000, 191.567, -111.788, -192.967, -110.036, 1.06714, 222.281, -8.57402E-006, 5.00973E-007, 0.152599, 0.410524, 0.278559, -0.337105, -0.430893, -0.072876, 0.00830914, -0.00104382
62, 0.00000, 191.215, -111.822, -192.878, -109.755, 1.23734, 222.06, -1.02527E-005, -7.54332E-006, -0.225825, 0.642412, 0.667943, -0.125868, -0.442335, -0.51549, 0.01047, 0.0064896
63, 0.00000, 190.858, -111.864, -192.764, -109.43, 1.44988, 221.811, -1.08401E-005, -8.52214E-006, -0.264287, 0.687507, 0.726032, -0.115178, -0.462017, -0.571115, 0.0111127, 0.00730796
64, 0.00000, 189.733, -111.932, -192.416, -108.511, 1.997, 221.057, -1.51354E-005, -2.65334E-005, -1.07102, 1.22054, 1.58832, 0.315234, -0.519122, -1.53259, 0.0169575, 0.0233474
65, 0.00000, 188.904, -111.754, -191.95, -107.911, 2.24463, 220.38, -1.7737E-005, -3.14156E-005, -1.24808, 1.42583, 1.85309, 0.365209, -0.607486, -1.78668, 0.0202139, 0.0270609
66, 0.00000, 188.233, -111.606, -191.569, -107.426, 2.44225, 219.828, -1.98742E-005, -3.54999E-005, -1.39249, 1.59394, 2.06945, 0.405539, -0.680046, -1.99404, 0.0229639, 0.0300627
67, 0.00000, 188.001, -111.532, -191.421, -107.269, 2.492, 219.628, -2.07038E-005, -3.71268E-005, -1.44958, 1.66014, 2.15472, 0.42159, -0.708496, -2.07585, 0.0240609, 0.0312531
68, 0.00000, 187.768, -111.534, -191.327, -107.071, 2.60904, 219.454, -2.12094E-005, -3.80984E-005, -1.48237, 1.69957, 2.20487, 0.430077, -0.726035, -2.12348, 0.0247388, 0.0319315
69, 0.00000, 188.036, -111.534, -191.437, -107.297, 2.47643, 219.655, -2.0614E-005, -3.69609E-005, -1.44397, 1.65346, 2.14619, 0.420096, -0.705561, -2.06774, 0.0239472, 0.031141
70, 0.00000, 188.468, -111.729, -191.754, -107.556, 2.43641, 220.047, -1.88193E-005, -3.34328E-005, -1.31872, 1.50932, 1.96, 0.384303, -0.644046, -1.88871, 0.0215873, 0.0285192
71, 0.00000, 189.532, -111.881, -192.298, -108.37, 2.05024, 220.89, -1.58004E-005, -2.77761E-005, -1.11651, 1.27306, 1.65618, 0.328192, -0.541648, -1.59778, 0.0177815, 0.024303
72, 0.00000, 190.777, -112.061, -192.936, -109.32, 1.60092, 221.878, -1.22846E-005, -2.13175E-005, -0.876561, 0.995123, 1.2973, 0.260208, -0.421963, -1.25324, 0.0135037, 0.0192245
73, 0.00000, 191.499, -112.199, -193.33, -109.853, 1.36985, 222.464, -1.01265E-005, -1.74168E-005, -0.725868, 0.822205, 1.07309, 0.216585, -0.348056, -1.03736, 0.0109635, 0.0159848
74, 0.00000, 192.137, -112.257, -193.632, -110.359, 1.10873, 222.96, -8.49648E-006, -1.45259E-005, -0.612147, 0.691678, 0.90375, 0.183637, -0.292198, -0.874314, 0.00909088, 0.0135258
75, 0.00000, 192.398, -112.328, -193.79, -110.54, 1.04368, 223.179, -7.63185E-006, -1.29934E-005, -0.550535, 0.621666, 0.812568, 0.165409, -0.262513, -0.786265, 0.00811205, 0.0121835
76, 0.00000, 192.597, -112.323, -193.867, -110.71, 0.942133, 223.325, -7.22703E-006, -1.22896E-005, -0.522329, 0.58926, 0.770515, 0.157242, -0.248617, -0.745781, 0.00765832, 0.0115697
77, 0.00000, 192.595, -112.324, -193.868, -110.708, 0.944344, 223.324, -7.22364E-006, -1.22831E-005, -0.52208, 0.58899, 0.770158, 0.157161, -0.248509, -0.745432, 0.00765428, 0.0115645
78, 0.00000, 192.457, -112.302, -193.796, -110.604, 0.99256, 223.214, -7.6134E-006, -1.2967E-005, -0.549772, 0.620514, 0.8112, 0.165328, -0.261905, -0.785045, 0.00809078, 0.0121694
79, 0.00000, 192.125, -112.257, -193.628, -110.349, 1.11508, 222.951, -8.51924E-006, -1.45631E-005, -0.613803, 0.69359, 0.906232, 0.184112, -0.293024, -0.876702, 0.00911444, 0.0135639
80, 0.00000, 191.733, -112.096, -193.335, -110.09, 1.17963, 222.586, -9.53074E-006, -1.39012E-005, -0.560484, 0.729143, 0.910183, 0.120151, -0.350306, -0.848141, 0.0101379, 0.0127483
81, 0.00000, 192.074, -111.548, -192.982, -110.578, 0.621882, 222.556, -8.02744E-006, 3.91904E-006, 0.318597, 0.319806, 0.117188, -0.435308, -0.435364, 0.115886, 0.00760654, -0.00430384
82, 0.00000, 191.802, -111.299, -192.612, -110.401, 0.615886, 222.192, -7.10213E-006, 1.87412E-005, 1.06006, -0.0127042, -0.541276, -0.910143, -0.517476, 0.922877, 0.00578876, -0.0187712
83, 0.00000, 192.551, -110.903, -192.521, -111.132, 0.0105406, 222.507, -3.78443E-006, 4.20762E-005, 2.23414, -0.63568, -1.66872, -1.61446, -0.563342, 2.25021, 0.00170641, -0.0421448
84, 0.00000, 192.334, -110.891, -192.425, -110.956, 0.105492, 222.342, -4.32567E-006, 4.12418E-005, 2.19272, -0.592902, -1.61085, -1.59985, -0.579674, 2.19277, 0.0021362, -0.0412514
85, 0.00000, 191.702, -111.025, -192.311, -110.4, 0.485563, 221.963, -6.57656E-006, 3.00087E-005, 1.62877, -0.260693, -1.04056, -1.27782, -0.58619, 1.5384, 0.00455964, -0.0299036
86, 0.00000, 190.351, -111.318, -192.082, -109.219, 1.2938, 221.165, -1.17584E-005, 3.12485E-006, 0.332333, 0.506324, 0.271221, -0.540142, -0.60285, 0.0347122, 0.0110549, -0.00401872
87, 0.00000, 189.085, -111.562, -191.853, -108.136, 2.01723, 220.416, -1.71206E-005, -2.50689E-005, -0.954198, 1.28155, 1.58218, 0.18358, -0.6298, -1.46145, 0.018943, 0.0213962
88, 0.00000, 188.703, -111.58, -191.742, -107.836, 2.18918, 220.168, -1.89298E-005, -3.37611E-005, -1.33348, 1.52273, 1.97894, 0.390361, -0.648283, -1.90819, 0.0217563, 0.0288624
89, 0.00000, 188.468, -111.474, -191.569, -107.697, 2.20934, 219.955, -1.99114E-005, -3.56852E-005, -1.40184, 1.6012, 2.08039, 0.410013, -0.681677, -2.00581, 0.023039, 0.030288
90, 0.00000, 188.399, -111.387, -191.478, -107.686, 2.16698, 219.873, -2.04368E-005, -3.6734E-005, -1.44002, 1.6442, 2.13637, 0.4214, -0.699644, -2.05996, 0.0237257, 0.0310932
91, 0.00000, 188.464, -111.382, -191.5, -107.743, 2.13056, 219.919, -2.03135E-005, -3.65282E-005, -1.43245, 1.63501, 2.12469, 0.419479, -0.695509, -2.0489, 0.0235848, 0.0309354
92, 0.00000, 188.41, -111.423, -191.508, -107.676, 2.19339, 219.894, -2.02531E-005, -3.63778E-005, -1.42666, 1.62933, 2.11692, 0.417321, -0.693502, -2.04109, 0.0234973, 0.0308119
93, 0.00000, 188.57, -111.523, -191.646, -107.756, 2.20328, 220.048, -1.94756E-005, -3.48312E-005, -1.37133, 1.56621, 2.03514, 0.401221, -0.666804, -1.96225, 0.0224706, 0.0296493
94, 0.00000, 188.994, -111.666, -191.923, -108.035, 2.12285, 220.414, -1.79139E-005, -3.18142E-005, -1.26372, 1.44209, 1.87489, 0.370577, -0.613703, -1.80825, 0.0204555, 0.0274032
95, 0.00000, 189.566, -111.887, -192.316, -108.396, 2.03885, 220.918, -1.56957E-005, -2.75811E-005, -1.10947, 1.26489, 1.64564, 0.326208, -0.538128, -1.58767, 0.0176515, 0.0241564
96, 0.00000, 190.485, -112.053, -192.81, -109.079, 1.73618, 221.659, -1.29621E-005, -2.25373E-005, -0.922293, 1.04838, 1.36598, 0.273031, -0.445036, -1.31907, 0.0143127, 0.0201952
97, 0.00000, 191.47, -112.161, -193.29, -109.849, 1.35033, 222.429, -1.03507E-005, -1.78267E-005, -0.74233, 0.840711, 1.09727, 0.221551, -0.355811, -1.06078, 0.0112238, 0.0163447
98, 0.00000, 192.079, -112.249, -193.602, -110.315, 1.12974, 222.913, -8.65796E-006, -1.4811E-005, -0.623535, 0.704689, 0.920662, 0.186969, -0.297743, -0.890621, 0.00927406, 0.0137734
99, 0.00000, 192.376, -112.325, -193.779, -110.524, 1.05161, 223.162, -7.69218E-006, -1.30994E-005, -0.554803, 0.626532, 0.818899, 0.166663, -0.264584, -0.792372, 0.00817992, 0.0122764
100, 0.00000, 192.604, -112.324, -193.872, -110.716, 0.939781, 223.331, -7.20418E-006, -1.22495E-005, -0.520698, 0.587406, 0.7681, 0.156758, -0.247831, -0.743449, 0.00763283, 0.011534
101, 0.00000, 192.604, -112.357, -193.896, -110.698, 0.968687, 223.343, -7.06233E-006, -1.19965E-005, -0.510208, 0.575719, 0.752767, 0.153534, -0.242972, -0.728559, 0.00747537, 0.0113037
102, 0.00000, 192.572, -112.319, -193.854, -110.691, 0.951078, 223.305, -7.29642E-006, -1.24085E-005, -0.527244, 0.594855, 0.777803, 0.158692, -0.250996, -0.752816, 0.00773366, 0.0116776
103, 0.00000, 192.288, -112.279, -193.709, -110.475, 1.05392, 223.08, -8.0781E-006, -1.37846E-005, -0.58268, 0.65804, 0.860018, 0.175, -0.277875, -0.832142, 0.00861431, 0.0128869
104, 0.00000, 192.022, -112.137, -193.483, -110.311, 1.07493, 222.816, -8.73088E-006, -1.25024E-005, -0.504853, 0.665182, 0.827229, 0.10407, -0.322879, -0.768291, 0.00923279, 0.0115416
105, 0.00000, 192.416, -111.6, -193.159, -110.839, 0.50004, 222.83, -7.07096E-006, 5.42145E-006, 0.381807, 0.245704, 0.0215517, -0.452983, -0.402922, 0.207542, 0.00663449, -0.00568506
106, 0.00000, 192.362, -111.206, -192.772, -110.924, 0.259056, 222.575, -6.35328E-006, 1.97477E-005, 1.10642, -0.0685788, -0.612817, -0.922452, -0.492388, 0.991076, 0.00513668, -0.0197929
107, 0.00000, 194.766, -110.313, -192.832, -113.144, -1.42618, 223.795, 3.38946E-006, 7.88664E-005, 4.20054, -1.75038, -3.62379, -2.76129, -0.575965, 4.51478, -0.00417609, -0.0819688
108, 0.00000, 197.476, -109.456, -193.05, -115.601, -3.22707, 225.268, 1.33675E-005, 0.000132991, 7.39256, -3.45236, -6.71602, -4.68162, -0.682309, 8.14821, -0.00760476, -0.147222
109, 0.00000, 197.189, -109.469, -192.956, -115.369, -3.09121, 225.071, 1.23419E-005, 0.000129734, 7.18075, -3.32416, -6.49697, -4.56132, -0.688662, 7.89855, -0.00746307, -0.142799
