hour, t(sec), V1.re, V1.im, V2.re, V2.im, V3.re, V3.im, V4.re, V4.im, I1.re, I1.im, I2.re, I2.im, I3.re, I3.im, I4.re, I4.im
1, 0.00000, 192.142, -112.241, -193.626, -110.39, 1.07234, 222.942, -5.64214E-006, -9.70065E-006, -0.402984, 0.455274, 0.594849, 0.120953, -0.192261, -0.575594, 0.00603759, 0.00906731
2, 0.00000, 192.552, -112.357, -193.879, -110.67, 0.977543, 223.292, -4.76689E-006, -8.14659E-006, -0.341043, 0.384925, 0.503218, 0.102598, -0.162458, -0.487069, 0.00505034, 0.00769234
3, 0.00000, 192.775, -112.391, -193.994, -110.838, 0.89962, 223.472, -4.35701E-006, -7.43061E-006, -0.312118, 0.352014, 0.460357, 0.0940504, -0.148479, -0.445681, 0.00459705, 0.00704695
4, 0.00000, 192.834, -112.415, -194.035, -110.874, 0.892845, 223.525, -4.21655E-006, -7.18119E-006, -0.302102, 0.34069, 0.445581, 0.0910532, -0.143702, -0.431386, 0.00443969, 0.00682418
5, 0.00000, 192.741, -112.397, -193.985, -110.806, 0.922067, 223.449, -4.39417E-006, -7.48952E-006, -0.314669, 0.354964, 0.464185, 0.0947813, -0.149755, -0.449361, 0.00463393, 0.00710527
6, 0.00000, 192.43, -112.298, -193.785, -110.6, 0.983879, 223.179, -5.08036E-006, -8.69739E-006, -0.363415, 0.410215, 0.536225, 0.109292, -0.173126, -0.519001, 0.00539649, 0.00819184
7, 0.00000, 191.724, -112.148, -193.389, -110.092, 1.1916, 222.596, -6.4758E-006, -1.11943E-005, -0.461579, 0.522091, 0.68172, 0.138165, -0.22066, -0.659424, 0.00699509, 0.0103615
8, 0.00000, 191.485, -112.049, -193.182, -109.909, 1.25205, 222.349, -7.10534E-006, -1.24384E-005, -0.515451, 0.58321, 0.761506, 0.154136, -0.246652, -0.736418, 0.00770232, 0.0115105
9, 0.00000, 193.127, -111.636, -193.207, -111.17, 0.398754, 223.143, -5.96941E-006, -1.13771E-005, -0.528199, 0.591272, 0.776877, 0.16118, -0.248829, -0.752509, 0.00611975, 0.0114335
10, 0.00000, 193.791, -111.428, -193.175, -111.688, 0.0301266, 223.44, -5.60377E-006, -1.11254E-005, -0.54373, 0.605857, 0.798189, 0.167338, -0.254414, -0.773685, 0.00555897, 0.0116151
11, 0.00000, 196.681, -110.716, -193.259, -113.909, -1.46782, 224.872, -3.48499E-006, -8.77933E-006, -0.547818, 0.599326, 0.798114, 0.17432, -0.249408, -0.775843, 0.00259716, 0.0109759
12, 0.00000, 196.854, -110.682, -193.278, -114.045, -1.55624, 224.969, -3.33118E-006, -8.56907E-006, -0.543507, 0.594007, 0.791489, 0.173268, -0.247051, -0.76954, 0.00240057, 0.0108344
13, 0.00000, 195.734, -110.958, -193.237, -113.179, -0.971306, 224.405, -4.16731E-006, -9.53888E-006, -0.545798, 0.600727, 0.797164, 0.171808, -0.250753, -0.77418, 0.00355456, 0.0111842
14, 0.00000, 193.101, -111.543, -193.098, -111.17, 0.355242, 223.064, -6.24273E-006, -1.19422E-005, -0.556501, 0.622573, 0.818281, 0.169977, -0.261931, -0.792649, 0.00639308, 0.0120408
15, 0.00000, 191.616, -111.803, -192.945, -110.045, 1.06787, 222.265, -7.58881E-006, -1.36499E-005, -0.57986, 0.65443, 0.855745, 0.174155, -0.276484, -0.827758, 0.00818822, 0.0128233
16, 0.00000, 190.423, -111.894, -192.674, -109.144, 1.59325, 221.531, -9.01472E-006, -1.58255E-005, -0.637742, 0.724231, 0.943722, 0.189179, -0.306975, -0.911792, 0.0100095, 0.0142074
17, 0.00000, 189.618, -111.755, -192.246, -108.547, 1.85836, 220.88, -1.05582E-005, -1.86987E-005, -0.742968, 0.845958, 1.10088, 0.219083, -0.359264, -1.06281, 0.0119128, 0.0164693
18, 0.00000, 188.994, -111.618, -191.894, -108.1, 2.03821, 220.365, -1.18241E-005, -2.1097E-005, -0.828825, 0.945448, 1.22915, 0.243358, -0.402012, -1.18601, 0.013514, 0.0182959
19, 0.00000, 188.749, -111.563, -191.754, -107.926, 2.10674, 220.163, -1.23268E-005, -2.20594E-005, -0.86271, 0.984795, 1.27981, 0.252887, -0.418936, -1.23463, 0.0141603, 0.0190109
20, 0.00000, 188.61, -111.53, -191.674, -107.828, 2.14444, 220.047, -1.26163E-005, -2.26102E-005, -0.882293, 1.00754, 1.3091, 0.258393, -0.428723, -1.26275, 0.0145296, 0.0194268
21, 0.00000, 188.82, -111.54, -191.766, -107.998, 2.05176, 220.206, -1.22674E-005, -2.19612E-005, -0.859473, 0.980597, 1.2746, 0.2522, -0.416945, -1.22978, 0.0140886, 0.0189449
22, 0.00000, 189.374, -111.649, -192.07, -108.401, 1.88212, 220.659, -1.11673E-005, -1.98687E-005, -0.785256, 0.894382, 1.16357, 0.231336, -0.379831, -1.12322, 0.0126855, 0.0173724
23, 0.00000, 190.247, -111.839, -192.563, -109.026, 1.63007, 221.379, -9.40555E-006, -1.65589E-005, -0.664829, 0.755288, 0.983946, 0.197022, -0.320202, -0.950542, 0.0104909, 0.0147913
24, 0.00000, 191.238, -112.088, -193.147, -109.718, 1.37318, 222.21, -7.34614E-006, -1.27628E-005, -0.521879, 0.591337, 0.771487, 0.155615, -0.250274, -0.745872, 0.00801282, 0.0116834
25, 0.00000, 191.96, -112.358, -193.64, -110.174, 1.26514, 222.851, -5.65797E-006, -9.70817E-006, -0.402766, 0.455823, 0.595207, 0.120483, -0.192837, -0.575657, 0.00605402, 0.00905945
26, 0.00000, 192.507, -112.387, -193.882, -110.616, 1.0257, 223.27, -4.77038E-006, -8.14851E-006, -0.340998, 0.385041, 0.503293, 0.102499, -0.162579, -0.487082, 0.00505405, 0.00769048
27, 0.00000, 192.696, -112.443, -194.001, -110.744, 0.984156, 223.433, -4.36197E-006, -7.4291E-006, -0.31203, 0.352182, 0.460461, 0.0938881, -0.148668, -0.445687, 0.00459924, 0.00704523
28, 0.00000, 192.803, -112.435, -194.038, -110.837, 0.925354, 223.51, -4.21858E-006, -7.18107E-006, -0.302072, 0.340756, 0.445623, 0.0909934, -0.143773, -0.431392, 0.00444083, 0.00682336
29, 0.00000, 192.674, -112.441, -193.99, -110.726, 0.993352, 223.416, -4.39857E-006, -7.49272E-006, -0.314612, 0.355127, 0.464294, 0.0946476, -0.149923, -0.449385, 0.00463957, 0.00710306
30, 0.00000, 192.304, -112.38, -193.795, -110.449, 1.11881, 223.116, -5.08996E-006, -8.70729E-006, -0.363298, 0.410581, 0.536472, 0.109001, -0.173496, -0.519062, 0.00541133, 0.00818648
31, 0.00000, 191.527, -112.274, -193.403, -109.857, 1.39997, 222.497, -6.49588E-006, -1.12028E-005, -0.46131, 0.522774, 0.682167, 0.137582, -0.221376, -0.659505, 0.00701471, 0.0103517
32, 0.00000, 191.327, -112.148, -193.193, -109.722, 1.41753, 222.27, -7.12718E-006, -1.24523E-005, -0.515238, 0.583849, 0.761937, 0.153623, -0.247298, -0.73652, 0.00772521, 0.0115002
33, 0.00000, 192.47, -111.809, -193.186, -110.644, 0.7628, 222.814, -6.43123E-006, -1.1866E-005, -0.528064, 0.593684, 0.778173, 0.159827, -0.250427, -0.753205, 0.00674906, 0.0115594
34, 0.00000, 193.262, -111.602, -193.169, -111.232, 0.366474, 223.175, -5.92717E-006, -1.14727E-005, -0.543512, 0.607879, 0.799318, 0.166108, -0.255883, -0.774217, 0.00600286, 0.0117026
35, 0.00000, 194.507, -111.308, -193.206, -112.176, -0.26156, 223.789, -5.00378E-006, -1.049E-005, -0.547451, 0.607486, 0.802541, 0.169775, -0.254796, -0.778265, 0.00470996, 0.0114947
36, 0.00000, 194.733, -111.261, -193.229, -112.355, -0.380499, 223.912, -4.81109E-006, -1.02393E-005, -0.543157, 0.601893, 0.79576, 0.168875, -0.252252, -0.771881, 0.00446112, 0.011352
37, 0.00000, 193.946, -111.448, -193.193, -111.744, 0.0301007, 223.513, -5.40829E-006, -1.09177E-005, -0.545449, 0.607443, 0.800803, 0.168035, -0.255222, -0.776144, 0.00527575, 0.0115844
38, 0.00000, 192.566, -111.727, -193.093, -110.697, 0.709031, 222.797, -6.55511E-006, -1.2274E-005, -0.55623, 0.624677, 0.81947, 0.168662, -0.263505, -0.79318, 0.00682076, 0.012115
39, 0.00000, 191.115, -111.965, -192.936, -109.611, 1.38837, 222.014, -7.89635E-006, -1.39724E-005, -0.579604, 0.65648, 0.856883, 0.172886, -0.277992, -0.828277, 0.00860904, 0.0128829
40, 0.00000, 190.316, -111.961, -192.681, -109.016, 1.70584, 221.476, -9.03098E-006, -1.5833E-005, -0.637541, 0.724748, 0.944061, 0.18874, -0.307514, -0.911855, 0.0100247, 0.0141989
41, 0.00000, 189.571, -111.784, -192.249, -108.491, 1.9075, 220.856, -1.05669E-005, -1.87022E-005, -0.742865, 0.846222, 1.10105, 0.218858, -0.35954, -1.06284, 0.0119202, 0.0164647
42, 0.00000, 188.896, -111.679, -191.899, -107.985, 2.13937, 220.315, -1.18446E-005, -2.11056E-005, -0.828589, 0.946061, 1.22955, 0.242841, -0.402648, -1.18608, 0.0135315, 0.0182848
43, 0.00000, 188.62, -111.642, -191.761, -107.773, 2.24094, 220.096, -1.23539E-005, -2.20706E-005, -0.862386, 0.985642, 1.28037, 0.252172, -0.419816, -1.23474, 0.0141844, 0.0189968
44, 0.00000, 188.463, -111.62, -191.681, -107.654, 2.29725, 219.97, -1.26466E-005, -2.26296E-005, -0.881953, 1.00857, 1.3098, 0.257566, -0.429765, -1.26292, 0.0145633, 0.0194111
45, 0.00000, 188.629, -111.657, -191.776, -107.773, 2.2496, 220.109, -1.23072E-005, -2.19764E-005, -0.858997, 0.981841, 1.27542, 0.251151, -0.418237, -1.22994, 0.0141229, 0.0189246
46, 0.00000, 189.188, -111.764, -192.08, -108.182, 2.07494, 220.564, -1.12042E-005, -1.98846E-005, -0.784832, 0.895488, 1.1643, 0.230405, -0.380977, -1.12336, 0.0127175, 0.0173524
47, 0.00000, 190.036, -111.971, -192.576, -108.776, 1.85038, 221.272, -9.4396E-006, -1.6574E-005, -0.664421, 0.756347, 0.984643, 0.196126, -0.321304, -0.950672, 0.0105219, 0.0147732
48, 0.00000, 191.033, -112.218, -193.162, -109.475, 1.58859, 222.108, -7.37073E-006, -1.2772E-005, -0.521562, 0.592137, 0.772011, 0.154931, -0.251113, -0.745966, 0.00803489, 0.0116712
49, 0.00000, 192.003, -112.33, -193.637, -110.224, 1.21993, 222.872, -5.65408E-006, -9.70593E-006, -0.402814, 0.455691, 0.59512, 0.120593, -0.192701, -0.57564, 0.00604982, 0.00906149
50, 0.00000, 192.462, -112.416, -193.886, -110.562, 1.07352, 223.248, -4.77375E-006, -8.14991E-006, -0.340953, 0.385157, 0.50337, 0.102401, -0.162701, -0.487097, 0.00505732, 0.00768888
51, 0.00000, 192.697, -112.442, -194.001, -110.744, 0.98396, 223.433, -4.36201E-006, -7.42926E-006, -0.312031, 0.352182, 0.460461, 0.0938886, -0.148668, -0.445687, 0.00459936, 0.00704515
52, 0.00000, 192.813, -112.428, -194.037, -110.849, 0.914989, 223.514, -4.21798E-006, -7.18088E-006, -0.302081, 0.340734, 0.445609, 0.0910123, -0.14375, -0.431389, 0.00444025, 0.00682362
53, 0.00000, 192.711, -112.417, -193.987, -110.77, 0.954258, 223.434, -4.39619E-006, -7.49181E-006, -0.314647, 0.355041, 0.464238, 0.0947217, -0.149832, -0.449375, 0.00463719, 0.00710413
54, 0.00000, 192.169, -112.467, -193.806, -110.288, 1.26205, 223.049, -5.10017E-006, -8.71077E-006, -0.36315, 0.410946, 0.53671, 0.108686, -0.173881, -0.519103, 0.00542108, 0.00818194
55, 0.00000, 191.593, -112.233, -193.399, -109.935, 1.33067, 222.53, -6.48845E-006, -1.12E-005, -0.461403, 0.52255, 0.682022, 0.137778, -0.221139, -0.659483, 0.00700839, 0.0103557
56, 0.00000, 191.087, -112.223, -193.187, -109.517, 1.56723, 222.15, -7.2754E-006, -1.25999E-005, -0.515136, 0.584718, 0.762417, 0.153092, -0.247928, -0.736744, 0.0079221, 0.0115332
57, 0.00000, 191.644, -112.02, -193.156, -109.988, 1.21381, 222.4, -7.02395E-006, -1.24881E-005, -0.52791, 0.596738, 0.779807, 0.158134, -0.252427, -0.754093, 0.00755457, 0.0117082
58, 0.00000, 191.991, -111.857, -193.104, -110.295, 0.966159, 222.538, -6.94903E-006, -1.25777E-005, -0.543528, 0.612635, 0.801775, 0.16369, -0.258708, -0.775731, 0.0074102, 0.011984
59, 0.00000, 192.435, -111.703, -193.097, -110.678, 0.680211, 222.751, -6.70673E-006, -1.23646E-005, -0.547601, 0.615237, 0.806521, 0.165928, -0.259282, -0.780801, 0.00706872, 0.0120015
60, 0.00000, 192.172, -111.9, -193.137, -110.349, 0.984576, 222.63, -6.67706E-006, -1.22674E-005, -0.542789, 0.611501, 0.800885, 0.163621, -0.258449, -0.774748, 0.00702996, 0.0118925
61, 0.00000, 191.932, -111.962, -193.122, -110.151, 1.12217, 222.504, -6.85883E-006, -1.24833E-005, -0.545096, 0.61507, 0.804886, 0.163819, -0.2602, -0.778386, 0.00726941, 0.0119798
62, 0.00000, 191.541, -111.99, -193.056, -109.881, 1.27037, 222.282, -7.29299E-006, -1.30635E-005, -0.556018, 0.628659, 0.821601, 0.166444, -0.266124, -0.794333, 0.00783415, 0.012294
63, 0.00000, 191.222, -112.05, -192.972, -109.581, 1.47851, 222.067, -7.64561E-006, -1.36756E-005, -0.579192, 0.656128, 0.856853, 0.172705, -0.278258, -0.827959, 0.00824212, 0.012802
64, 0.00000, 190.055, -112.125, -192.697, -108.707, 1.97883, 221.344, -9.07141E-006, -1.58512E-005, -0.637056, 0.726008, 0.944889, 0.187675, -0.308824, -0.91201, 0.0100618, 0.0141773
65, 0.00000, 189.263, -111.974, -192.266, -108.128, 2.22648, 220.7, -1.06243E-005, -1.8728E-005, -0.742202, 0.847952, 1.10219, 0.217401, -0.361333, -1.06306, 0.0119712, 0.0164333
66, 0.00000, 188.621, -111.847, -191.913, -107.66, 2.4243, 220.174, -1.1899E-005, -2.11268E-005, -0.827924, 0.947782, 1.23068, 0.241382, -0.404441, -1.18629, 0.0135794, 0.0182571
67, 0.00000, 188.396, -111.78, -191.772, -107.506, 2.47488, 219.979, -1.23949E-005, -2.20827E-005, -0.861819, 0.98711, 1.28135, 0.250924, -0.421354, -1.23493, 0.0142215, 0.0189797
68, 0.00000, 188.183, -111.792, -191.695, -107.321, 2.59014, 219.823, -1.2693E-005, -2.26448E-005, -0.881228, 1.01044, 1.31105, 0.25597, -0.431736, -1.26316, 0.0146122, 0.0193942
69, 0.00000, 188.428, -111.781, -191.785, -107.534, 2.45951, 220.004, -1.23417E-005, -2.1986E-005, -0.858493, 0.983155, 1.27629, 0.250036, -0.419614, -1.23012, 0.0141556, 0.0189114
70, 0.00000, 188.859, -111.967, -192.097, -107.793, 2.41589, 220.396, -1.1266E-005, -1.99053E-005, -0.784082, 0.897445, 1.16559, 0.228756, -0.383013, -1.12362, 0.0127688, 0.017322
71, 0.00000, 189.861, -112.08, -192.586, -108.57, 2.03235, 221.184, -9.46864E-006, -1.65851E-005, -0.664077, 0.757219, 0.985214, 0.195384, -0.322214, -0.950776, 0.0105461, 0.0147577
72, 0.00000, 191.036, -112.217, -193.162, -109.478, 1.58628, 222.109, -7.37059E-006, -1.27723E-005, -0.521565, 0.592129, 0.772005, 0.154938, -0.251104, -0.745965, 0.00803492, 0.0116711
73, 0.00000, 191.722, -112.331, -193.523, -109.989, 1.35602, 222.663, -6.07908E-006, -1.04551E-005, -0.43199, 0.489327, 0.638691, 0.128978, -0.207156, -0.617554, 0.00653494, 0.0097037
74, 0.00000, 192.317, -112.365, -193.789, -110.469, 1.09805, 223.12, -5.10425E-006, -8.73587E-006, -0.36439, 0.41174, 0.538015, 0.109366, -0.173949, -0.52058, 0.00542864, 0.00820961
75, 0.00000, 192.569, -112.428, -193.938, -110.645, 1.03256, 223.332, -4.58532E-006, -7.81963E-006, -0.327735, 0.37008, 0.483756, 0.0985148, -0.156282, -0.46817, 0.00484715, 0.00739505
76, 0.00000, 192.75, -112.414, -194.001, -110.804, 0.932882, 223.462, -4.34343E-006, -7.40064E-006, -0.310969, 0.350822, 0.458758, 0.0936525, -0.148024, -0.444095, 0.00457901, 0.00702191
77, 0.00000, 192.749, -112.416, -194.002, -110.802, 0.935019, 223.462, -4.34135E-006, -7.3967E-006, -0.31082, 0.35066, 0.458544, 0.0936044, -0.147959, -0.443887, 0.00457659, 0.0070188
78, 0.00000, 192.618, -112.399, -193.937, -110.702, 0.982879, 223.358, -4.57506E-006, -7.80559E-006, -0.327293, 0.369414, 0.482962, 0.0984669, -0.15593, -0.467462, 0.00483582, 0.00738603
79, 0.00000, 192.306, -112.366, -193.786, -110.459, 1.10427, 223.112, -5.11781E-006, -8.7583E-006, -0.365374, 0.412876, 0.539489, 0.109649, -0.17444, -0.521999, 0.00544278, 0.00823281
80, 0.00000, 191.954, -112.223, -193.502, -110.207, 1.18024, 222.766, -6.01259E-006, -1.04579E-005, -0.437647, 0.494792, 0.646413, 0.131141, -0.209192, -0.625267, 0.00643816, 0.00979225
81, 0.00000, 192.389, -111.699, -193.076, -110.642, 0.698976, 222.716, -6.78392E-006, -1.25014E-005, -0.552919, 0.621325, 0.814431, 0.167475, -0.261886, -0.78842, 0.00715795, 0.0121211
82, 0.00000, 192.286, -111.505, -192.708, -110.476, 0.745456, 222.415, -7.58377E-006, -1.43852E-005, -0.659819, 0.740667, 0.972226, 0.200099, -0.312696, -0.940716, 0.00787293, 0.0143354
83, 0.00000, 193.162, -111.133, -192.538, -111.156, 0.223583, 222.723, -7.35373E-006, -1.45701E-005, -0.716822, 0.799144, 1.05333, 0.220124, -0.336424, -1.02009, 0.00727363, 0.0153945
84, 0.00000, 192.96, -111.13, -192.454, -110.991, 0.316921, 222.572, -7.66069E-006, -1.51047E-005, -0.738451, 0.823981, 1.08564, 0.226361, -0.347147, -1.05113, 0.00761642, 0.0158896
85, 0.00000, 192.293, -111.265, -192.392, -110.469, 0.659876, 222.213, -8.25039E-006, -1.59098E-005, -0.748433, 0.838532, 1.10228, 0.22765, -0.354046, -1.06648, 0.00844473, 0.0162065
86, 0.00000, 190.846, -111.554, -192.271, -109.356, 1.38348, 221.45, -9.52296E-006, -1.7599E-005, -0.762843, 0.862303, 1.12775, 0.228105, -0.365663, -1.08951, 0.0102759, 0.0167049
87, 0.00000, 189.467, -111.787, -192.139, -108.331, 2.02507, 220.722, -1.08134E-005, -1.93149E-005, -0.777292, 0.885884, 1.15294, 0.228712, -0.376983, -1.11244, 0.0121442, 0.0171554
88, 0.00000, 189.047, -111.8, -192.05, -108.043, 2.17564, 220.473, -1.13433E-005, -2.01205E-005, -0.792998, 0.905659, 1.17711, 0.232355, -0.385648, -1.13542, 0.0128838, 0.0175229
89, 0.00000, 188.812, -111.699, -191.88, -107.904, 2.19781, 220.261, -1.1932E-005, -2.12569E-005, -0.833622, 0.952332, 1.23744, 0.244039, -0.405524, -1.1935, 0.0136387, 0.0183867
90, 0.00000, 188.732, -111.611, -191.783, -107.885, 2.15797, 220.168, -1.22508E-005, -2.18806E-005, -0.856338, 0.97797, 1.27079, 0.250807, -0.416245, -1.22577, 0.0140456, 0.0188723
91, 0.00000, 188.791, -111.603, -191.801, -107.939, 2.12223, 220.209, -1.21771E-005, -2.17629E-005, -0.851868, 0.972538, 1.26388, 0.249668, -0.4138, -1.21922, 0.0139661, 0.0187764
92, 0.00000, 188.749, -111.648, -191.818, -107.879, 2.18318, 220.195, -1.2138E-005, -2.16679E-005, -0.848379, 0.969091, 1.25918, 0.248382, -0.412575, -1.21451, 0.0139101, 0.0187035
93, 0.00000, 188.914, -111.746, -191.956, -107.963, 2.19078, 220.354, -1.16702E-005, -2.07525E-005, -0.815489, 0.931522, 1.21053, 0.238813, -0.39667, -1.16758, 0.0133043, 0.018
94, 0.00000, 189.329, -111.878, -192.222, -108.237, 2.10849, 220.712, -1.07352E-005, -1.89739E-005, -0.751567, 0.857736, 1.11527, 0.220592, -0.365087, -1.07599, 0.0121211, 0.0166377
95, 0.00000, 189.894, -112.085, -192.603, -108.595, 2.021, 221.21, -9.4062E-006, -1.64703E-005, -0.659897, 0.752367, 0.978957, 0.194204, -0.320124, -0.944769, 0.01047, 0.0146686
96, 0.00000, 190.766, -112.22, -193.055, -109.25, 1.71953, 221.91, -7.77391E-006, -1.34915E-005, -0.548716, 0.623743, 0.812783, 0.162568, -0.264802, -0.785081, 0.00850885, 0.0122618
97, 0.00000, 191.688, -112.292, -193.481, -109.982, 1.33766, 222.623, -6.21431E-006, -1.07014E-005, -0.441792, 0.500355, 0.653095, 0.131933, -0.21178, -0.631508, 0.00669055, 0.00992165
98, 0.00000, 192.263, -112.358, -193.763, -110.427, 1.11888, 223.077, -5.20098E-006, -8.90592E-006, -0.371163, 0.419478, 0.548074, 0.11135, -0.177247, -0.530282, 0.0055372, 0.00836001
99, 0.00000, 192.549, -112.425, -193.928, -110.629, 1.04042, 223.316, -4.62147E-006, -7.88295E-006, -0.330274, 0.372974, 0.487522, 0.0992616, -0.157514, -0.471805, 0.00488741, 0.00745151
100, 0.00000, 192.757, -112.416, -194.005, -110.809, 0.930537, 223.468, -4.32972E-006, -7.37666E-006, -0.309998, 0.349719, 0.457321, 0.0933649, -0.147556, -0.442707, 0.00456385, 0.00700024
101, 0.00000, 192.764, -112.45, -194.033, -110.796, 0.958216, 223.486, -4.24395E-006, -7.22383E-006, -0.303748, 0.342749, 0.44818, 0.0914451, -0.144657, -0.433831, 0.00446923, 0.00686083
102, 0.00000, 192.727, -112.412, -193.99, -110.786, 0.941751, 223.443, -4.38501E-006, -7.47199E-006, -0.313893, 0.354151, 0.463094, 0.0945161, -0.14944, -0.448282, 0.00462394, 0.00708739
103, 0.00000, 192.46, -112.381, -193.859, -110.579, 1.04371, 223.232, -4.85356E-006, -8.29391E-006, -0.346866, 0.391735, 0.512002, 0.104224, -0.165429, -0.495487, 0.00514641, 0.00782168
104, 0.00000, 192.226, -112.255, -193.636, -110.417, 1.07637, 222.981, -5.53358E-006, -9.60856E-006, -0.404121, 0.456433, 0.59658, 0.121357, -0.192819, -0.577231, 0.00589368, 0.00904966
105, 0.00000, 192.71, -111.739, -193.236, -110.89, 0.57784, 222.972, -6.21375E-006, -1.14827E-005, -0.5122, 0.574907, 0.753994, 0.155525, -0.242091, -0.730162, 0.00651058, 0.0112121
106, 0.00000, 192.778, -111.384, -192.819, -110.957, 0.396442, 222.738, -7.08629E-006, -1.35634E-005, -0.627374, 0.702011, 0.922571, 0.191445, -0.295446, -0.89351, 0.00733633, 0.0136176
107, 0.00000, 195.479, -110.532, -192.657, -113.033, -1.0771, 223.92, -5.58164E-006, -1.22705E-005, -0.700607, 0.769433, 1.02254, 0.221182, -0.321089, -0.992966, 0.00474049, 0.0146224
108, 0.00000, 198.462, -109.698, -192.639, -115.33, -2.66512, 225.341, -3.53407E-006, -9.74955E-006, -0.729504, 0.785758, 1.05632, 0.23831, -0.324734, -1.02884, 0.00144892, 0.0145232
