hour, t(sec), V1.re, V1.im, V2.re, V2.im, V3.re, V3.im, V4.re, V4.im, I1.re, I1.im, I2.re, I2.im, I3.re, I3.im, I4.re, I4.im
1, 0.00000, 191.572, -111.684, -192.749, -110.089, 0.984291, 222.144, -0.000150719, -1.06262E-005, 0.141, 0.0518315, -0.0256272, -0.147897, -0.115212, 0.0960182, -0.000161606, 4.69526E-005
2, 0.00000, 191.944, -111.84, -193.044, -110.334, 0.922271, 222.502, -4.90385E-005, -0.000155259, -0.0803883, 0.160314, 0.178865, -0.0105969, -0.0985086, -0.149521, 3.21244E-005, -0.000196208
3, 0.00000, 192.207, -111.914, -193.222, -110.523, 0.851332, 222.738, -3.64135E-005, -0.000154887, -0.0934293, 0.158057, 0.183446, 0.0018082, -0.0900797, -0.159705, 6.33294E-005, -0.000159516
4, 0.00000, 192.244, -111.938, -193.259, -110.544, 0.851958, 222.778, -1.18858E-005, -0.000195149, -0.152133, 0.189017, 0.239576, 0.0371308, -0.0875324, -0.225922, 8.95254E-005, -0.000225887
5, 0.00000, 192.142, -111.906, -193.188, -110.472, 0.876996, 222.685, -2.20622E-005, -0.000186298, -0.134041, 0.182745, 0.2251, 0.0246127, -0.0911292, -0.207128, 7.03586E-005, -0.000230091
6, 0.00000, 191.884, -111.785, -192.971, -110.308, 0.909795, 222.43, -0.000115433, -5.02206E-005, 0.0744401, 0.0775614, 0.0298807, -0.103165, -0.104209, 0.0256786, -0.000112017, -7.49561E-005
7, 0.00000, 191.139, -111.535, -192.434, -109.791, 1.07974, 221.744, -0.000218784, 6.54662E-005, 0.271439, -0.00456153, -0.13963, -0.232462, -0.131449, 0.236912, -0.000361179, 0.000111902
8, 0.00000, 190.88, -111.388, -192.196, -109.636, 1.09478, 221.474, -0.000192734, -1.58462E-005, 0.177892, 0.068078, -0.0300582, -0.187862, -0.14755, 0.119826, -0.000284026, -4.19696E-005
9, 0.00000, 193.186, -111.281, -193.111, -111.614, -0.0887104, 223.16, 0.000145427, -0.000546695, -0.62291, 0.532709, 0.772566, 0.272562, -0.150227, -0.804919, 0.000570891, -0.000352505
10, 0.00000, 194.157, -111.201, -193.469, -112.462, -0.613755, 223.856, 0.000268093, -0.000735417, -0.930032, 0.710691, 1.08054, 0.449447, -0.151236, -1.16007, 0.000729986, -7.18914E-005
11, 0.00000, 198.167, -110.987, -195.052, -115.922, -2.70315, 226.801, 0.000789984, -0.00148793, -2.30792, 1.46819, 2.42842, 1.2648, -0.120839, -2.73638, 0.000339436, 0.00338254
12, 0.00000, 198.409, -110.986, -195.158, -116.126, -2.82113, 226.985, 0.000805635, -0.00150799, -2.35595, 1.49187, 2.47317, 1.29469, -0.117429, -2.79018, 0.000211231, 0.00361417
13, 0.00000, 196.847, -111.067, -194.537, -114.778, -2.00687, 225.833, 0.000626747, -0.00126395, -1.86818, 1.23035, 2.00137, 1.00244, -0.133768, -2.23468, 0.000574785, 0.0018907
14, 0.00000, 193.252, -111.204, -193.074, -111.703, -0.178322, 223.172, 0.000118598, -0.000512621, -0.569231, 0.510613, 0.726646, 0.237168, -0.157915, -0.74748, 0.000499725, -0.000301359
15, 0.00000, 191.267, -111.206, -192.209, -110.038, 0.77364, 221.675, -0.000185855, -4.49501E-005, 0.14335, 0.109077, 0.0227156, -0.178564, -0.165871, 0.0694915, -0.000194439, -4.9747E-006
16, 0.00000, 189.72, -111.081, -191.43, -108.797, 1.41955, 220.45, -0.000383024, 0.000223668, 0.551144, -0.109321, -0.369963, -0.421748, -0.180229, 0.53057, -0.00095201, 0.000499228
17, 0.00000, 188.799, -110.805, -190.794, -108.145, 1.65279, 219.621, -0.000458993, 0.000272459, 0.653754, -0.134358, -0.442832, -0.497729, -0.20959, 0.631384, -0.00133135, 0.00070248
18, 0.00000, 188.143, -110.581, -190.319, -107.693, 1.79777, 219.018, -0.00056471, 0.000388208, 0.835651, -0.212518, -0.601213, -0.615654, -0.232571, 0.827074, -0.0018673, 0.00109861
19, 0.00000, 187.89, -110.493, -190.134, -107.52, 1.8519, 218.785, -0.000610309, 0.000439921, 0.914216, -0.247397, -0.670576, -0.666013, -0.241523, 0.912116, -0.00211724, 0.00129366
20, 0.00000, 187.749, -110.441, -190.03, -107.424, 1.88082, 218.654, -0.000638577, 0.000472456, 0.964662, -0.270506, -0.715746, -0.697991, -0.24665, 0.967114, -0.00226625, 0.00138315
21, 0.00000, 188.045, -110.505, -190.212, -107.644, 1.78736, 218.908, -0.000660735, 0.000532254, 1.03467, -0.319133, -0.792767, -0.734246, -0.239571, 1.05185, -0.00233145, 0.00152564
22, 0.00000, 188.651, -110.7, -190.641, -108.067, 1.64454, 219.459, -0.000583465, 0.000458939, 0.91489, -0.273371, -0.693449, -0.653828, -0.219555, 0.925992, -0.00188524, 0.00120738
23, 0.00000, 189.567, -111.013, -191.305, -108.699, 1.44085, 220.301, -0.000437302, 0.000298291, 0.660892, -0.164485, -0.472493, -0.48899, -0.18722, 0.652795, -0.00117792, 0.000679669
24, 0.00000, 190.537, -111.378, -192.037, -109.354, 1.25094, 221.211, -0.000226497, 3.18068E-005, 0.248944, 0.0287974, -0.099534, -0.229632, -0.149007, 0.200763, -0.000403434, 7.16355E-005
25, 0.00000, 191.058, -111.675, -192.517, -109.662, 1.22436, 221.749, 5.47668E-005, -0.000392869, -0.376492, 0.354587, 0.49482, 0.148353, -0.118679, -0.502299, 0.000350606, -0.000641998
26, 0.00000, 191.816, -111.838, -192.987, -110.228, 0.98237, 222.404, 3.48387E-006, -0.000249553, -0.20982, 0.235841, 0.308867, 0.0635907, -0.0992387, -0.299095, 0.000191298, -0.000337141
27, 0.00000, 191.983, -111.91, -193.121, -110.336, 0.956936, 222.565, 5.24059E-005, -0.0003212, -0.32087, 0.290902, 0.412034, 0.13216, -0.0914109, -0.422645, 0.000246353, -0.000415958
28, 0.00000, 192.158, -111.937, -193.221, -110.472, 0.892597, 222.712, 2.27028E-005, -0.0002587, -0.239592, 0.24003, 0.327415, 0.0872866, -0.0879953, -0.327002, 0.000171868, -0.000315158
29, 0.00000, 191.953, -111.903, -193.102, -110.314, 0.966075, 222.54, 5.28263E-005, -0.000325187, -0.325745, 0.294665, 0.417739, 0.1345, -0.0922213, -0.428754, 0.000227098, -0.000411172
30, 0.00000, 191.525, -111.779, -192.809, -110.009, 1.07818, 222.154, 2.68303E-005, -0.000313564, -0.288124, 0.289314, 0.394273, 0.104601, -0.106351, -0.393479, 0.000202411, -0.00043585
31, 0.00000, 190.584, -111.524, -192.182, -109.329, 1.33875, 221.317, 5.44375E-006, -0.000346651, -0.287225, 0.322376, 0.422304, 0.0872239, -0.135341, -0.40898, 0.000262347, -0.000619689
32, 0.00000, 190.438, -111.38, -191.995, -109.269, 1.30051, 221.135, -1.51914E-005, -0.000339647, -0.261108, 0.324998, 0.41151, 0.0633045, -0.150647, -0.387686, 0.000245234, -0.000616914
33, 0.00000, 192.199, -111.308, -192.702, -110.775, 0.404634, 222.427, 8.70638E-005, -0.000474116, -0.489667, 0.458379, 0.641411, 0.194368, -0.152235, -0.652217, 0.000491154, -0.000530886
34, 0.00000, 193.253, -111.221, -193.089, -111.695, -0.164375, 223.179, 0.000324084, -0.000856569, -1.07299, 0.796369, 1.2259, 0.530137, -0.153899, -1.32605, 0.000985345, -0.00046061
35, 0.00000, 194.946, -111.137, -193.76, -113.15, -1.03939, 224.419, 0.000597706, -0.00126994, -1.76845, 1.1867, 1.91254, 0.937236, -0.145258, -2.12447, 0.00115858, 0.000531319
36, 0.00000, 195.273, -111.136, -193.903, -113.425, -1.19712, 224.668, 0.000612224, -0.00128556, -1.81214, 1.20822, 1.95326, 0.96443, -0.142154, -2.17343, 0.00103271, 0.000785717
37, 0.00000, 194.163, -111.176, -193.449, -112.476, -0.633852, 223.845, 0.000490403, -0.0011178, -1.50116, 1.03826, 1.64995, 0.779935, -0.149849, -1.81822, 0.00106132, 2.54915E-005
38, 0.00000, 192.3, -111.218, -192.669, -110.897, 0.289723, 222.457, 0.00020995, -0.000696688, -0.804359, 0.64917, 0.963906, 0.371189, -0.16035, -1.01967, 0.000803099, -0.00069294
39, 0.00000, 190.397, -111.213, -191.836, -109.306, 1.19531, 221.022, -0.000122797, -0.000178742, -0.0245138, 0.207633, 0.191799, -0.0826404, -0.167277, -0.124693, -7.27767E-006, -0.000299725
40, 0.00000, 189.418, -111.074, -191.292, -108.547, 1.55875, 220.217, -0.000258667, -1.55121E-006, 0.250257, 0.0669851, -0.0671849, -0.249769, -0.182555, 0.182772, -0.000516883, 1.15059E-005
41, 0.00000, 188.667, -110.802, -190.734, -108.036, 1.71332, 219.519, -0.000403866, 0.000173379, 0.522741, -0.0574897, -0.310927, -0.422923, -0.210699, 0.479951, -0.00111453, 0.00046165
42, 0.00000, 187.871, -110.573, -190.194, -107.468, 1.92197, 218.808, -0.000449572, 0.000182903, 0.566553, -0.0544158, -0.330132, -0.462169, -0.235053, 0.51603, -0.0013681, 0.000553808
43, 0.00000, 187.529, -110.481, -189.967, -107.221, 2.01645, 218.506, -0.00045694, 0.000166743, 0.557506, -0.0376651, -0.311124, -0.462656, -0.244948, 0.499777, -0.00143367, 0.000543965
44, 0.00000, 187.338, -110.428, -189.839, -107.084, 2.06804, 218.336, -0.000463894, 0.000162298, 0.558899, -0.0318637, -0.306803, -0.466723, -0.250617, 0.498039, -0.00147945, 0.000547471
45, 0.00000, 187.513, -110.488, -189.967, -107.204, 2.03002, 218.497, -0.000434786, 0.000130174, 0.508728, -0.010049, -0.262897, -0.434332, -0.244501, 0.443943, -0.00132946, 0.00043781
46, 0.00000, 188.132, -110.685, -190.403, -107.638, 1.88169, 219.059, -0.00036586, 6.96936E-005, 0.401437, 0.0280347, -0.176393, -0.360785, -0.224054, 0.332513, -0.000990662, 0.000236906
47, 0.00000, 188.977, -110.998, -191.035, -108.21, 1.71283, 219.847, -0.000192485, -0.000143574, 0.0727628, 0.180498, 0.119612, -0.153079, -0.192098, -0.0271021, -0.000276273, -0.000316994
48, 0.00000, 189.961, -111.366, -191.776, -108.876, 1.51788, 220.768, 9.74345E-006, -0.000398445, -0.327462, 0.366793, 0.480718, 0.0997498, -0.153633, -0.465721, 0.000377151, -0.00082246
49, 0.00000, 191.179, -111.677, -192.572, -109.762, 1.16813, 221.842, 6.73433E-006, -0.000303315, -0.255294, 0.283556, 0.372821, 0.0790457, -0.117759, -0.36212, 0.000231609, -0.000481796
50, 0.00000, 191.689, -111.836, -192.929, -110.122, 1.04203, 222.306, 5.40463E-005, -0.00034407, -0.338256, 0.310921, 0.437995, 0.13716, -0.100045, -0.447582, 0.000305898, -0.000498442
51, 0.00000, 191.983, -111.91, -193.121, -110.337, 0.956685, 222.566, 5.25297E-005, -0.000320905, -0.320321, 0.290569, 0.411467, 0.131849, -0.0914008, -0.421998, 0.000254991, -0.000419108
52, 0.00000, 192.186, -111.937, -193.233, -110.495, 0.879638, 222.733, 1.18837E-005, -0.000238486, -0.211702, 0.223749, 0.29939, 0.0712975, -0.0878389, -0.294758, 0.00015123, -0.000288713
53, 0.00000, 192.057, -111.905, -193.149, -110.401, 0.917245, 222.62, 1.17438E-005, -0.000248681, -0.220621, 0.23325, 0.31207, 0.0742633, -0.09159, -0.307211, 0.000140809, -0.000302895
54, 0.00000, 191.144, -111.772, -192.637, -109.691, 1.25649, 221.861, 0.000178872, -0.000597103, -0.672475, 0.514675, 0.781252, 0.32435, -0.10935, -0.838097, 0.000573119, -0.000929235
55, 0.00000, 190.769, -111.529, -192.266, -109.483, 1.25277, 221.459, -6.75162E-005, -0.00020597, -0.101615, 0.213295, 0.235264, -0.0187965, -0.133749, -0.194217, 9.96732E-005, -0.000281387
56, 0.00000, 190.031, -111.383, -191.82, -108.927, 1.49735, 220.829, 4.70484E-006, -0.000388844, -0.320143, 0.36037, 0.471576, 0.0966636, -0.151705, -0.456296, 0.000271884, -0.000738194
57, 0.00000, 190.971, -111.337, -192.191, -109.733, 1.01392, 221.515, 1.47011E-007, -0.000353808, -0.287456, 0.34344, 0.440645, 0.0768589, -0.153552, -0.419675, 0.000362928, -0.000624112
58, 0.00000, 191.614, -111.287, -192.43, -110.294, 0.668836, 221.976, -4.14478E-005, -0.000272226, -0.184748, 0.287663, 0.341155, 0.0159405, -0.156625, -0.30319, 0.000217699, -0.000414305
59, 0.00000, 192.381, -111.265, -192.746, -110.946, 0.284835, 222.546, -8.17343E-005, -0.000183649, -0.0738167, 0.223599, 0.230331, -0.0479795, -0.15663, -0.175365, 0.00011627, -0.000254277
60, 0.00000, 191.579, -111.264, -192.394, -110.273, 0.669853, 221.934, 0.000259242, -0.000800066, -0.929542, 0.720213, 1.08776, 0.443854, -0.159184, -1.16304, 0.000964118, -0.00103068
61, 0.00000, 191.202, -111.264, -192.229, -109.956, 0.850526, 221.649, 0.000261578, -0.0008151, -0.935438, 0.725815, 1.09541, 0.446076, -0.161023, -1.17069, 0.00104956, -0.00120513
62, 0.00000, 190.772, -111.253, -192.033, -109.601, 1.04762, 221.321, 0.000104461, -0.000559486, -0.562864, 0.513715, 0.72561, 0.229883, -0.16337, -0.742658, 0.000624235, -0.000939183
63, 0.00000, 190.17, -111.185, -191.712, -109.126, 1.28471, 220.831, 0.000256373, -0.000852544, -0.941946, 0.744535, 1.11453, 0.442143, -0.173787, -1.18505, 0.00119875, -0.00162467
64, 0.00000, 188.687, -111.055, -190.957, -107.941, 1.89508, 219.654, 4.56221E-005, -0.00055539, -0.477256, 0.495501, 0.666632, 0.16477, -0.190023, -0.65887, 0.000647046, -0.00140011
65, 0.00000, 187.81, -110.776, -190.34, -107.328, 2.10489, 218.859, -4.16875E-005, -0.000479239, -0.325303, 0.442536, 0.544772, 0.0598569, -0.219918, -0.501008, 0.000448618, -0.00138482
66, 0.00000, 187.105, -110.548, -189.839, -106.835, 2.27054, 218.217, -0.000121634, -0.000405143, -0.189477, 0.392131, 0.433271, -0.0323034, -0.243963, -0.358564, 0.000169096, -0.00126295
67, 0.00000, 186.901, -110.459, -189.676, -106.702, 2.3023, 218.019, -0.000186208, -0.000317173, -0.0629173, 0.328949, 0.315464, -0.110029, -0.252421, -0.217936, -0.000125395, -0.000984388
68, 0.00000, 186.553, -110.399, -189.474, -106.435, 2.42544, 217.725, -0.000122363, -0.00044666, -0.217625, 0.427614, 0.477893, -0.0257702, -0.260504, -0.40039, 0.000236269, -0.00145324
69, 0.00000, 186.949, -110.469, -189.705, -106.738, 2.28649, 218.06, -0.000192035, -0.000304086, -0.0478034, 0.318839, 0.299192, -0.118035, -0.251229, -0.199867, -0.000158764, -0.000937385
70, 0.00000, 187.216, -110.656, -189.98, -106.882, 2.2988, 218.353, 2.76074E-005, -0.000635787, -0.502296, 0.562318, 0.736493, 0.152805, -0.235084, -0.713121, 0.000886794, -0.00200175
71, 0.00000, 188.489, -110.984, -190.811, -107.806, 1.9366, 219.471, 1.39752E-005, -0.000516087, -0.411597, 0.466125, 0.608371, 0.122673, -0.197379, -0.587434, 0.000604649, -0.0013641
72, 0.00000, 189.968, -111.366, -191.779, -108.881, 1.51502, 220.773, 7.52442E-006, -0.000393868, -0.321298, 0.363161, 0.474493, 0.0962334, -0.153572, -0.45858, 0.000377115, -0.000814399
73, 0.00000, 190.759, -111.599, -192.322, -109.444, 1.31067, 221.485, 5.8549E-005, -0.000418161, -0.394774, 0.375306, 0.52179, 0.153759, -0.127478, -0.52829, 0.000461972, -0.000774413
74, 0.00000, 191.578, -111.777, -192.831, -110.054, 1.05127, 222.194, 4.7653E-006, -0.000268571, -0.223971, 0.252028, 0.329902, 0.0677274, -0.106167, -0.319338, 0.000235957, -0.000417203
75, 0.00000, 191.823, -111.87, -193.017, -110.22, 1.00301, 222.425, 5.28868E-005, -0.000333251, -0.330035, 0.301616, 0.425864, 0.134717, -0.0960993, -0.435878, 0.00027035, -0.00045518
76, 0.00000, 192.121, -111.915, -193.186, -110.45, 0.893882, 222.673, 2.20996E-006, -0.00022672, -0.191457, 0.214937, 0.281638, 0.0581827, -0.0903244, -0.272837, 0.000143535, -0.000282858
77, 0.00000, 192.115, -111.915, -193.183, -110.446, 0.896701, 222.669, 4.13239E-006, -0.000231389, -0.198384, 0.218963, 0.288596, 0.0621687, -0.0903393, -0.280853, 0.000127327, -0.000278826
78, 0.00000, 191.956, -111.873, -193.078, -110.33, 0.941456, 222.528, 8.50188E-007, -0.000237912, -0.200291, 0.225674, 0.295348, 0.0604584, -0.0951814, -0.285835, 0.000125053, -0.00029688
79, 0.00000, 191.56, -111.774, -192.821, -110.04, 1.0582, 222.178, 4.6327E-006, -0.000274041, -0.233273, 0.257931, 0.339715, 0.0728469, -0.106591, -0.330403, 0.000149595, -0.000374611
80, 0.00000, 191.223, -111.582, -192.51, -109.84, 1.07623, 221.828, -1.69106E-005, -0.000278925, -0.214774, 0.271278, 0.341987, 0.0501423, -0.127365, -0.321007, 0.000151943, -0.000413002
81, 0.00000, 192.32, -111.252, -192.708, -110.902, 0.30372, 222.493, -8.11566E-005, -0.000188142, -0.0779874, 0.227818, 0.23606, -0.0464873, -0.158199, -0.181073, 0.000126476, -0.000257717
82, 0.00000, 192.023, -110.929, -192.302, -110.788, 0.208039, 222.102, 0.000329826, -0.000949079, -1.13318, 0.872765, 1.32179, 0.543654, -0.189925, -1.41546, 0.00131539, -0.000962885
83, 0.00000, 193.344, -110.725, -192.706, -111.982, -0.577288, 222.997, 0.000555229, -0.00130107, -1.69601, 1.2063, 1.89261, 0.863983, -0.198423, -2.06988, 0.00182207, -0.000396539
84, 0.00000, 193.055, -110.67, -192.533, -111.763, -0.478956, 222.751, 0.000582645, -0.00136523, -1.77282, 1.25872, 1.97633, 0.904104, -0.205471, -2.16228, 0.00195663, -0.000539584
85, 0.00000, 192.106, -110.671, -192.118, -110.967, -0.0236159, 222.033, 0.000504514, -0.00127179, -1.58394, 1.15944, 1.79543, 0.790073, -0.213448, -1.94841, 0.00195639, -0.00110149
86, 0.00000, 190.1, -110.684, -191.254, -109.281, 0.9447, 220.528, 0.000256539, -0.000926374, -0.998661, 0.835795, 1.22187, 0.445355, -0.22472, -1.2794, 0.00151491, -0.00175199
87, 0.00000, 188.297, -110.685, -190.473, -107.775, 1.80409, 219.179, -0.000101285, -0.000378213, -0.19492, 0.37615, 0.422359, -0.0195979, -0.22764, -0.355523, 0.000201064, -0.00102858
88, 0.00000, 187.844, -110.657, -190.253, -107.409, 1.99779, 218.828, -0.000280504, -8.99753E-005, 0.19808, 0.150677, 0.0311593, -0.246388, -0.228636, 0.0959425, -0.000602945, -0.000231951
89, 0.00000, 187.703, -110.555, -190.106, -107.335, 1.98904, 218.673, -0.000401768, 9.28285E-005, 0.45095, 0.0154011, -0.212048, -0.397179, -0.237738, 0.381467, -0.00116374, 0.000310119
90, 0.00000, 187.765, -110.504, -190.089, -107.41, 1.92026, 218.696, -0.000529091, 0.000302409, 0.730357, -0.141563, -0.487246, -0.560082, -0.241365, 0.700698, -0.00174597, 0.000947308
91, 0.00000, 187.87, -110.518, -190.147, -107.492, 1.88045, 218.782, -0.000554213, 0.000349706, 0.79035, -0.178254, -0.548922, -0.593576, -0.239557, 0.770751, -0.00187138, 0.00107858
92, 0.00000, 187.713, -110.521, -190.081, -107.358, 1.95815, 218.664, -0.000471217, 0.000203266, 0.602343, -0.0687237, -0.360392, -0.48589, -0.240471, 0.554025, -0.00147909, 0.000588557
93, 0.00000, 187.758, -110.6, -190.168, -107.362, 1.99644, 218.737, -0.000344544, 5.79411E-006, 0.330533, 0.0802352, -0.0958691, -0.32558, -0.233762, 0.245283, -0.000902179, 6.22447E-005
94, 0.00000, 188.108, -110.764, -190.459, -107.584, 1.95224, 219.079, -0.000209466, -0.000183836, 0.0578421, 0.219225, 0.160474, -0.159514, -0.218005, -0.0592422, -0.000311835, -0.000468781
95, 0.00000, 188.527, -110.996, -190.837, -107.834, 1.92642, 219.506, 1.50208E-005, -0.00051574, -0.413657, 0.465892, 0.609218, 0.12458, -0.196147, -0.589126, 0.000585653, -0.00134594
96, 0.00000, 189.557, -111.29, -191.536, -108.569, 1.6551, 220.426, 6.18298E-005, -0.000514397, -0.46726, 0.45858, 0.629857, 0.174676, -0.163201, -0.63211, 0.000604622, -0.0011465
97, 0.00000, 190.789, -111.576, -192.315, -109.479, 1.27908, 221.497, 4.30773E-006, -0.000327957, -0.270704, 0.305947, 0.399845, 0.0811532, -0.129407, -0.386529, 0.000266623, -0.00057074
98, 0.00000, 191.509, -111.76, -192.786, -110.004, 1.07107, 222.133, 4.32094E-006, -0.000273417, -0.227787, 0.256585, 0.335752, 0.0687491, -0.108195, -0.324908, 0.000230266, -0.000425655
99, 0.00000, 191.798, -111.863, -193, -110.201, 1.0105, 222.402, 5.30829E-005, -0.000335313, -0.331612, 0.303402, 0.428192, 0.135185, -0.096857, -0.438125, 0.000276473, -0.000463023
100, 0.00000, 192.129, -111.917, -193.191, -110.456, 0.891837, 222.68, 2.97022E-006, -0.00022729, -0.192615, 0.215281, 0.282513, 0.0590124, -0.0900449, -0.274009, 0.000146589, -0.000284113
101, 0.00000, 192.068, -111.931, -193.176, -110.398, 0.932131, 222.64, 5.04011E-005, -0.000313637, -0.31507, 0.284778, 0.40387, 0.130222, -0.0889967, -0.414624, 0.000196628, -0.000376347
102, 0.00000, 192.092, -111.907, -193.166, -110.429, 0.902299, 222.647, 1.80257E-006, -0.000228181, -0.192746, 0.216666, 0.283783, 0.0584311, -0.0911762, -0.274821, 0.000138954, -0.000276142
103, 0.00000, 191.757, -111.822, -192.948, -110.184, 0.999535, 222.351, 1.01107E-006, -0.000253346, -0.213106, 0.239829, 0.31399, 0.0644607, -0.101014, -0.303961, 0.000129674, -0.000328922
104, 0.00000, 191.565, -111.669, -192.734, -110.089, 0.977321, 222.13, -1.76902E-005, -0.000251924, -0.192603, 0.24687, 0.309816, 0.0431832, -0.117345, -0.289707, 0.000132036, -0.000346003
105, 0.00000, 192.72, -111.355, -192.971, -111.193, 0.188998, 222.848, -8.10272E-005, -0.000158849, -0.0545813, 0.20055, 0.200791, -0.0530945, -0.146312, -0.147258, 0.000102255, -0.000197529
106, 0.00000, 193.014, -111.022, -192.815, -111.581, -0.200134, 222.902, 5.40998E-005, -0.000428682, -0.423975, 0.449908, 0.601357, 0.141719, -0.177959, -0.591319, 0.000577094, -0.000308436
107, 0.00000, 196.865, -110.642, -194.184, -114.976, -2.33356, 225.636, 0.000647075, -0.00132971, -1.94593, 1.31907, 2.11732, 1.0251, -0.172435, -2.34632, 0.00104856, 0.00214436
