hour, t(sec), P1 (kW), Q1 (kvar), P2 (kW), Q2 (kvar), P3 (kW), Q3 (kvar), P4 (kW), Q4 (kvar)
1, 0.00000, -0.284927, -0.0936499, -0.284926, -0.0936513, -0.284924, -0.0936495, 1.08408E-009, -3.31444E-010
2, 0.00000, -0.241447, -0.0793593, -0.241447, -0.0793603, -0.241446, -0.0793594, 6.87331E-010, -2.11514E-010
3, 0.00000, -0.221081, -0.072666, -0.221081, -0.0726668, -0.221079, -0.0726656, 5.27757E-010, -1.61087E-010
4, 0.00000, -0.214039, -0.0703507, -0.214038, -0.0703515, -0.214038, -0.0703507, 4.86169E-010, -1.50156E-010
5, 0.00000, -0.222892, -0.0732604, -0.222892, -0.0732613, -0.222892, -0.0732607, 5.45648E-010, -1.69348E-010
6, 0.00000, -0.25715, -0.0845206, -0.25715, -0.0845218, -0.25715, -0.0845211, 7.9011E-010, -2.47829E-010
7, 0.00000, -0.325974, -0.107141, -0.325973, -0.107143, -0.325972, -0.107142, 1.60266E-009, -4.89857E-010
8, 0.00000, -0.33025, -0.119531, -0.33025, -0.119533, -0.33025, -0.119532, 1.7933E-009, -5.93396E-010
9, 0.00000, -0.029256, -0.122421, -0.0292557, -0.12242, -0.0292556, -0.12242, 1.07057E-010, -9.26135E-011
10, 0.00000, 0.0986018, -0.125964, 0.0986019, -0.125964, 0.098602, -0.125964, 8.65764E-011, -1.37349E-010
11, 0.00000, 0.635229, -0.126842, 0.635229, -0.126846, 0.635233, -0.126844, -3.6333E-009, -2.56912E-009
12, 0.00000, 0.663821, -0.125849, 0.663823, -0.125853, 0.663825, -0.125849, -4.20867E-009, -2.79008E-009
13, 0.00000, 0.457764, -0.126407, 0.457768, -0.126411, 0.457769, -0.126407, -1.17897E-009, -1.31914E-009
14, 0.00000, -0.0217766, -0.128896, -0.0217765, -0.128897, -0.0217763, -0.128896, 1.09415E-010, -1.02763E-010
15, 0.00000, -0.276256, -0.13427, -0.276253, -0.13427, -0.276251, -0.134268, 1.23597E-009, -5.28547E-010
16, 0.00000, -0.448854, -0.147528, -0.448852, -0.147532, -0.448851, -0.147529, 4.32764E-009, -1.2659E-009
17, 0.00000, -0.521879, -0.17153, -0.521877, -0.171535, -0.521875, -0.171531, 7.08774E-009, -1.99739E-009
18, 0.00000, -0.581184, -0.191022, -0.581181, -0.191028, -0.581178, -0.191023, 9.95412E-009, -2.74097E-009
19, 0.00000, -0.604526, -0.198694, -0.604523, -0.198701, -0.604519, -0.198695, 1.12798E-008, -3.07508E-009
20, 0.00000, -0.618002, -0.203124, -0.618, -0.203131, -0.617999, -0.203126, 1.20544E-008, -3.28068E-009
21, 0.00000, -0.602218, -0.197936, -0.602214, -0.197943, -0.60221, -0.197936, 1.08994E-008, -3.00121E-009
22, 0.00000, -0.551015, -0.181108, -0.551011, -0.181113, -0.551007, -0.181107, 8.15257E-009, -2.29699E-009
23, 0.00000, -0.467637, -0.153703, -0.467634, -0.153707, -0.467631, -0.153703, 4.86758E-009, -1.41448E-009
24, 0.00000, -0.368174, -0.121012, -0.368173, -0.121014, -0.368171, -0.121012, 2.40597E-009, -7.14531E-010
25, 0.00000, -0.284925, -0.0936496, -0.284924, -0.0936508, -0.284922, -0.0936493, 1.26552E-009, -3.70932E-010
26, 0.00000, -0.241449, -0.07936, -0.241447, -0.0793605, -0.241447, -0.0793596, 7.2257E-010, -2.20773E-010
27, 0.00000, -0.221075, -0.0726634, -0.221074, -0.0726642, -0.221074, -0.0726633, 5.72529E-010, -1.73595E-010
28, 0.00000, -0.214039, -0.0703507, -0.214038, -0.0703514, -0.214037, -0.0703506, 5.0346E-010, -1.54391E-010
29, 0.00000, -0.222894, -0.0732612, -0.222894, -0.0732622, -0.222894, -0.0732615, 5.85321E-010, -1.77111E-010
30, 0.00000, -0.257156, -0.0845222, -0.257157, -0.0845237, -0.257156, -0.0845229, 8.91816E-010, -2.67027E-010
31, 0.00000, -0.325973, -0.107141, -0.325973, -0.107143, -0.325972, -0.107142, 1.8665E-009, -5.41022E-010
32, 0.00000, -0.330708, -0.119534, -0.330708, -0.119536, -0.330707, -0.119534, 2.02605E-009, -6.37684E-010
33, 0.00000, -0.137758, -0.12242, -0.137757, -0.12242, -0.137757, -0.12242, 3.3073E-010, -1.98491E-010
34, 0.00000, 0.0234906, -0.125964, 0.0234912, -0.125964, 0.0234913, -0.125964, 1.15362E-010, -9.48783E-011
35, 0.00000, 0.257704, -0.126851, 0.257704, -0.126851, 0.257704, -0.126851, 3.36792E-011, -4.53047E-010
36, 0.00000, 0.293532, -0.125859, 0.293532, -0.12586, 0.293533, -0.125859, -6.48281E-011, -5.64068E-010
37, 0.00000, 0.154064, -0.126406, 0.154065, -0.126408, 0.154065, -0.126406, 1.30428E-010, -2.05619E-010
38, 0.00000, -0.0920303, -0.128896, -0.0920304, -0.128897, -0.0920301, -0.128896, 2.43883E-010, -1.61727E-010
39, 0.00000, -0.34318, -0.134265, -0.343178, -0.134267, -0.343178, -0.134265, 2.24238E-009, -7.69367E-010
40, 0.00000, -0.448853, -0.147528, -0.448851, -0.147532, -0.44885, -0.147529, 4.62063E-009, -1.3154E-009
41, 0.00000, -0.521878, -0.17153, -0.521876, -0.171535, -0.521874, -0.171531, 7.26894E-009, -2.02613E-009
42, 0.00000, -0.581182, -0.191021, -0.581179, -0.191028, -0.581177, -0.191022, 1.04426E-008, -2.81609E-009
43, 0.00000, -0.604526, -0.198694, -0.604522, -0.198701, -0.604519, -0.198694, 1.19897E-008, -3.18824E-009
44, 0.00000, -0.618025, -0.203131, -0.618021, -0.203138, -0.618016, -0.203131, 1.29184E-008, -3.42097E-009
45, 0.00000, -0.602218, -0.197936, -0.602214, -0.197943, -0.60221, -0.197936, 1.19283E-008, -3.16353E-009
46, 0.00000, -0.551016, -0.181108, -0.551013, -0.181113, -0.551008, -0.181107, 8.9782E-009, -2.42498E-009
47, 0.00000, -0.467638, -0.153704, -0.467636, -0.153707, -0.467632, -0.153703, 5.51296E-009, -1.52306E-009
48, 0.00000, -0.368175, -0.121012, -0.368172, -0.121014, -0.368171, -0.121012, 2.77669E-009, -7.87016E-010
49, 0.00000, -0.284923, -0.093649, -0.284922, -0.0936502, -0.284921, -0.0936488, 1.21973E-009, -3.62137E-010
50, 0.00000, -0.241451, -0.0793606, -0.241449, -0.0793612, -0.241448, -0.0793601, 7.55824E-010, -2.27015E-010
51, 0.00000, -0.221076, -0.0726636, -0.221075, -0.0726642, -0.221074, -0.0726634, 5.73344E-010, -1.74028E-010
52, 0.00000, -0.214039, -0.0703507, -0.214038, -0.0703514, -0.214037, -0.0703506, 4.98406E-010, -1.53339E-010
53, 0.00000, -0.222894, -0.0732613, -0.222894, -0.0732623, -0.222894, -0.0732615, 5.63774E-010, -1.72362E-010
54, 0.00000, -0.257152, -0.0845209, -0.257154, -0.084523, -0.257154, -0.0845223, 9.99441E-010, -2.90058E-010
55, 0.00000, -0.325979, -0.107142, -0.325977, -0.107144, -0.325975, -0.107142, 1.78467E-009, -5.24892E-010
56, 0.00000, -0.363669, -0.11953, -0.363672, -0.119534, -0.363672, -0.119533, 2.63594E-009, -7.49188E-010
57, 0.00000, -0.27484, -0.122423, -0.274836, -0.122423, -0.274834, -0.122421, 1.3025E-009, -4.9513E-010
58, 0.00000, -0.219679, -0.125965, -0.219676, -0.125965, -0.219676, -0.125964, 7.56132E-010, -3.60586E-010
59, 0.00000, -0.155504, -0.126855, -0.155502, -0.126854, -0.155501, -0.126854, 3.59963E-010, -2.28913E-010
60, 0.00000, -0.152545, -0.125858, -0.152547, -0.12586, -0.152547, -0.125859, 4.75202E-010, -2.48222E-010
61, 0.00000, -0.187711, -0.126405, -0.187712, -0.126406, -0.187711, -0.126405, 6.94958E-010, -3.26944E-010
62, 0.00000, -0.261715, -0.128894, -0.261716, -0.128896, -0.261715, -0.128895, 1.27813E-009, -5.0887E-010
63, 0.00000, -0.278024, -0.134263, -0.278025, -0.134265, -0.278025, -0.134264, 1.67382E-009, -6.28097E-010
64, 0.00000, -0.448853, -0.147528, -0.448852, -0.147533, -0.44885, -0.147529, 5.3692E-009, -1.44653E-009
65, 0.00000, -0.521876, -0.17153, -0.521875, -0.171535, -0.521874, -0.171531, 8.51172E-009, -2.23172E-009
66, 0.00000, -0.581178, -0.19102, -0.581175, -0.191027, -0.581173, -0.191021, 1.18551E-008, -3.05742E-009
67, 0.00000, -0.604526, -0.198694, -0.604521, -0.198701, -0.604517, -0.198694, 1.32208E-008, -3.41408E-009
68, 0.00000, -0.618022, -0.20313, -0.618019, -0.203138, -0.618013, -0.20313, 1.45379E-008, -3.74621E-009
69, 0.00000, -0.602221, -0.197937, -0.602216, -0.197944, -0.602214, -0.197937, 1.30163E-008, -3.37134E-009
70, 0.00000, -0.551035, -0.181114, -0.551025, -0.181118, -0.551023, -0.181113, 1.05341E-008, -2.71029E-009
71, 0.00000, -0.467639, -0.153704, -0.467635, -0.153707, -0.467631, -0.153703, 6.07982E-009, -1.6275E-009
72, 0.00000, -0.368175, -0.121012, -0.368173, -0.121014, -0.368171, -0.121012, 2.77501E-009, -7.87306E-010
73, 0.00000, -0.305453, -0.100397, -0.305449, -0.100398, -0.305447, -0.100396, 1.58749E-009, -4.61004E-010
74, 0.00000, -0.257914, -0.0847712, -0.25791, -0.0847713, -0.257908, -0.0847701, 8.96035E-010, -2.70545E-010
75, 0.00000, -0.232141, -0.0763006, -0.23214, -0.0763014, -0.232139, -0.0763004, 6.66698E-010, -2.01088E-010
76, 0.00000, -0.220298, -0.0724081, -0.220297, -0.0724087, -0.220296, -0.0724078, 5.40751E-010, -1.66285E-010
77, 0.00000, -0.220193, -0.0723736, -0.220193, -0.0723744, -0.220192, -0.0723737, 5.39231E-010, -1.65485E-010
78, 0.00000, -0.231797, -0.0761873, -0.231796, -0.0761884, -0.231796, -0.0761876, 6.30816E-010, -1.92498E-010
79, 0.00000, -0.258602, -0.0849976, -0.258602, -0.0849991, -0.258602, -0.0849982, 8.91228E-010, -2.67825E-010
80, 0.00000, -0.277054, -0.101667, -0.277055, -0.101669, -0.277055, -0.101668, 1.15408E-009, -3.78983E-010
81, 0.00000, -0.159785, -0.128076, -0.159783, -0.128076, -0.159782, -0.128075, 3.83518E-010, -2.3953E-010
82, 0.00000, -0.0653855, -0.152617, -0.0653854, -0.152618, -0.0653853, -0.152618, 3.08705E-010, -2.12882E-010
83, 0.00000, 0.128819, -0.165597, 0.12882, -0.165596, 0.12882, -0.165596, 2.85431E-010, -3.06199E-010
84, 0.00000, 0.112475, -0.170541, 0.112476, -0.170542, 0.112476, -0.170541, 3.19343E-010, -2.97087E-010
85, 0.00000, 0.00435166, -0.17284, 0.00435174, -0.172842, 0.00435204, -0.172842, 3.46689E-010, -2.42726E-010
86, 0.00000, -0.240005, -0.176164, -0.240004, -0.176166, -0.240003, -0.176165, 1.59567E-009, -7.80207E-010
87, 0.00000, -0.481472, -0.179459, -0.48147, -0.179464, -0.481469, -0.17946, 6.81286E-009, -2.04493E-009
88, 0.00000, -0.556785, -0.183003, -0.556783, -0.183009, -0.556781, -0.183004, 9.62686E-009, -2.56209E-009
89, 0.00000, -0.58473, -0.192188, -0.584727, -0.192194, -0.584724, -0.192189, 1.08946E-008, -2.90089E-009
90, 0.00000, -0.600263, -0.19729, -0.600259, -0.197297, -0.600253, -0.197291, 1.13849E-008, -3.0611E-009
91, 0.00000, -0.597129, -0.196263, -0.597122, -0.196269, -0.597115, -0.196261, 1.1087E-008, -2.99383E-009
92, 0.00000, -0.594813, -0.195504, -0.594814, -0.195511, -0.594814, -0.195506, 1.12078E-008, -3.01128E-009
93, 0.00000, -0.572268, -0.188092, -0.572264, -0.188098, -0.57226, -0.188092, 1.0347E-008, -2.74731E-009
94, 0.00000, -0.528163, -0.173596, -0.52816, -0.173601, -0.528155, -0.173596, 8.29294E-009, -2.21239E-009
95, 0.00000, -0.464729, -0.152747, -0.464726, -0.152751, -0.464724, -0.152747, 5.94992E-009, -1.59467E-009
96, 0.00000, -0.387214, -0.12727, -0.387212, -0.127272, -0.38721, -0.127269, 3.3632E-009, -9.35221E-010
97, 0.00000, -0.312284, -0.102642, -0.312283, -0.102643, -0.312282, -0.102642, 1.63066E-009, -4.77311E-010
98, 0.00000, -0.262676, -0.0863371, -0.262673, -0.0863375, -0.262672, -0.0863361, 9.46471E-010, -2.84462E-010
99, 0.00000, -0.233929, -0.0768883, -0.233928, -0.076889, -0.233927, -0.0768881, 6.83135E-010, -2.05876E-010
100, 0.00000, -0.219615, -0.0721834, -0.219613, -0.072184, -0.219613, -0.0721832, 5.36114E-010, -1.64914E-010
101, 0.00000, -0.215232, -0.0707429, -0.215233, -0.070744, -0.215233, -0.0707434, 5.23176E-010, -1.58816E-010
102, 0.00000, -0.222359, -0.0730856, -0.222359, -0.0730864, -0.222358, -0.0730856, 5.55188E-010, -1.70806E-010
103, 0.00000, -0.245577, -0.0807166, -0.245577, -0.080718, -0.245577, -0.0807171, 7.55348E-010, -2.28752E-010
104, 0.00000, -0.253633, -0.0939322, -0.253633, -0.0939336, -0.253632, -0.0939327, 8.76279E-010, -2.93727E-010
105, 0.00000, -0.132064, -0.118727, -0.132063, -0.118726, -0.132063, -0.118726, 2.44002E-010, -1.66723E-010
106, 0.00000, -0.0436479, -0.145102, -0.0436468, -0.145099, -0.043647, -0.1451, 1.6416E-010, -1.58414E-010
107, 0.00000, 0.50027, -0.161747, 0.500269, -0.161748, 0.500271, -0.161748, -1.47647E-009, -2.0249E-009
108, 0.00000, 1.08392, -0.168269, 1.08392, -0.168281, 1.08393, -0.168273, -1.80677E-008, -9.73697E-009
109, 0.00000, 1.03662, -0.172475, 1.03663, -0.172492, 1.03664, -0.172476, -1.57981E-008, -9.04813E-009
110, 0.00000, -0.07128, -0.175255, -0.0712801, -0.175257, -0.0712797, -0.175256, 2.94988E-010, -2.87338E-010
111, 0.00000, -0.368407, -0.174353, -0.368406, -0.174355, -0.368404, -0.174353, 2.77286E-009, -1.16502E-009
112, 0.00000, -0.525906, -0.172853, -0.525904, -0.172859, -0.525903, -0.172855, 6.74387E-009, -1.9649E-009
113, 0.00000, -0.547823, -0.180057, -0.54782, -0.180063, -0.547817, -0.180058, 7.7084E-009, -2.2175E-009
114, 0.00000, -0.576983, -0.189642, -0.57698, -0.189648, -0.576977, -0.189642, 9.12897E-009, -2.59253E-009
115, 0.00000, -0.591192, -0.194312, -0.591189, -0.194318, -0.591186, -0.194312, 9.91937E-009, -2.79291E-009
116, 0.00000, -0.608982, -0.200159, -0.608978, -0.200166, -0.608975, -0.200159, 1.09728E-008, -3.05949E-009
117, 0.00000, -0.595133, -0.19561, -0.595128, -0.195615, -0.595122, -0.195608, 1.03922E-008, -2.88004E-009
118, 0.00000, -0.540822, -0.177757, -0.540819, -0.177762, -0.540814, -0.177757, 7.71894E-009, -2.17793E-009
119, 0.00000, -0.455569, -0.149737, -0.455566, -0.14974, -0.455563, -0.149736, 4.61469E-009, -1.32974E-009
120, 0.00000, -0.35657, -0.117198, -0.356568, -0.1172, -0.356567, -0.117198, 2.49697E-009, -7.1243E-010
121, 0.00000, -0.284923, -0.0936489, -0.284922, -0.0936502, -0.284921, -0.0936488, 1.21624E-009, -3.61305E-010
122, 0.00000, -0.241451, -0.0793606, -0.241449, -0.0793612, -0.241448, -0.0793601, 7.55802E-010, -2.26993E-010
123, 0.00000, -0.221076, -0.0726638, -0.221075, -0.0726643, -0.221074, -0.0726635, 5.51318E-010, -1.69232E-010
124, 0.00000, -0.214039, -0.0703508, -0.214039, -0.0703516, -0.214038, -0.0703508, 5.17138E-010, -1.56873E-010
125, 0.00000, -0.222893, -0.0732608, -0.222892, -0.0732617, -0.222892, -0.073261, 5.57769E-010, -1.71738E-010
126, 0.00000, -0.257155, -0.084522, -0.257156, -0.0845237, -0.257156, -0.0845228, 8.71699E-010, -2.62367E-010
127, 0.00000, -0.325973, -0.107141, -0.325973, -0.107143, -0.325972, -0.107142, 1.92821E-009, -5.53513E-010
128, 0.00000, -0.331257, -0.119534, -0.331256, -0.119536, -0.331255, -0.119535, 2.03731E-009, -6.40303E-010
129, 0.00000, -0.141438, -0.12242, -0.141437, -0.12242, -0.141437, -0.12242, 2.85456E-010, -1.89388E-010
130, 0.00000, 0.0176711, -0.125965, 0.0176711, -0.125965, 0.0176712, -0.125964, 6.25177E-011, -9.06723E-011
131, 0.00000, 0.964276, -0.126823, 0.964276, -0.126832, 0.964287, -0.126829, -1.38292E-008, -5.98046E-009
132, 0.00000, 1.21359, -0.125844, 1.21359, -0.12586, 1.2136, -0.125846, -2.66312E-008, -9.58062E-009
133, 0.00000, 1.36099, -0.126391, 1.361, -0.126411, 1.36101, -0.126392, -3.66091E-008, -1.21837E-008
134, 0.00000, 0.137105, -0.128896, 0.137106, -0.128897, 0.137106, -0.128896, 2.83167E-011, -1.93815E-010
135, 0.00000, -0.179369, -0.134266, -0.179369, -0.134267, -0.179368, -0.134266, 4.34125E-010, -2.80221E-010
136, 0.00000, -0.448857, -0.147528, -0.448855, -0.147532, -0.448852, -0.147529, 3.86554E-009, -1.18971E-009
137, 0.00000, -0.521881, -0.17153, -0.521878, -0.171535, -0.521876, -0.171531, 6.33055E-009, -1.8784E-009
138, 0.00000, -0.581186, -0.191022, -0.581182, -0.191028, -0.581179, -0.191023, 8.95935E-009, -2.59341E-009
139, 0.00000, -0.604527, -0.198694, -0.604524, -0.198701, -0.60452, -0.198695, 1.02082E-008, -2.92013E-009
140, 0.00000, -0.618003, -0.203128, -0.618001, -0.203134, -0.618, -0.203128, 1.09794E-008, -3.1255E-009
141, 0.00000, -0.602236, -0.19794, -0.602231, -0.197947, -0.602224, -0.19794, 1.01806E-008, -2.89315E-009
142, 0.00000, -0.551013, -0.181107, -0.55101, -0.181113, -0.551007, -0.181107, 7.58651E-009, -2.21231E-009
143, 0.00000, -0.467635, -0.153703, -0.467633, -0.153707, -0.46763, -0.153703, 4.46051E-009, -1.34915E-009
144, 0.00000, -0.368173, -0.121012, -0.368172, -0.121014, -0.36817, -0.121012, 2.17154E-009, -6.72867E-010
145, 0.00000, -0.284924, -0.0936491, -0.284923, -0.0936504, -0.284921, -0.093649, 1.26329E-009, -3.70475E-010
146, 0.00000, -0.241449, -0.07936, -0.241447, -0.0793605, -0.241447, -0.0793596, 7.2241E-010, -2.20738E-010
147, 0.00000, -0.221075, -0.0726634, -0.221074, -0.0726642, -0.221074, -0.0726633, 5.72411E-010, -1.73568E-010
148, 0.00000, -0.214047, -0.0703536, -0.214045, -0.0703539, -0.214044, -0.0703528, 5.22569E-010, -1.58467E-010
149, 0.00000, -0.222894, -0.0732613, -0.222894, -0.0732623, -0.222894, -0.0732615, 5.85216E-010, -1.77208E-010
150, 0.00000, -0.257156, -0.0845222, -0.257157, -0.0845237, -0.257156, -0.0845229, 8.89753E-010, -2.66594E-010
151, 0.00000, -0.325973, -0.107141, -0.325973, -0.107143, -0.325972, -0.107142, 1.86427E-009, -5.40565E-010
152, 0.00000, -0.298594, -0.119535, -0.298589, -0.119535, -0.29859, -0.119534, 1.59477E-009, -5.54242E-010
153, 0.00000, -0.0394467, -0.122424, -0.0394459, -0.122422, -0.0394457, -0.122422, 1.43213E-010, -1.01853E-010
154, 0.00000, 0.0175484, -0.125964, 0.0175486, -0.125964, 0.0175487, -0.125964, 1.26924E-010, -9.29602E-011
155, 0.00000, 0.250463, -0.126853, 0.250463, -0.126852, 0.250463, -0.126852, 2.92013E-011, -4.33254E-010
156, 0.00000, 0.287349, -0.12586, 0.28735, -0.125861, 0.28735, -0.125859, -5.48531E-011, -5.43121E-010
157, 0.00000, 0.149958, -0.126405, 0.149959, -0.126407, 0.149959, -0.126406, 9.86721E-011, -2.02743E-010
158, 0.00000, -0.0944044, -0.128896, -0.0944043, -0.128897, -0.094404, -0.128896, 2.39274E-010, -1.62551E-010
159, 0.00000, -0.343701, -0.134265, -0.343699, -0.134267, -0.343698, -0.134266, 2.25645E-009, -7.71695E-010
160, 0.00000, -0.448853, -0.147528, -0.448851, -0.147532, -0.44885, -0.147529, 4.67721E-009, -1.32536E-009
161, 0.00000, -0.521877, -0.17153, -0.521876, -0.171535, -0.521874, -0.171531, 7.47902E-009, -2.06041E-009
162, 0.00000, -0.581182, -0.191021, -0.58118, -0.191028, -0.581177, -0.191023, 1.04602E-008, -2.81792E-009
163, 0.00000, -0.604518, -0.198686, -0.604516, -0.198694, -0.604513, -0.198688, 1.14119E-008, -3.09828E-009
164, 0.00000, -0.618024, -0.203131, -0.61802, -0.203138, -0.618016, -0.203131, 1.25835E-008, -3.36424E-009
165, 0.00000, -0.602218, -0.197936, -0.602214, -0.197943, -0.60221, -0.197936, 1.16315E-008, -3.11251E-009
166, 0.00000, -0.551016, -0.181107, -0.551012, -0.181113, -0.551008, -0.181107, 9.07183E-009, -2.44036E-009
167, 0.00000, -0.467638, -0.153704, -0.467636, -0.153707, -0.467632, -0.153703, 5.60879E-009, -1.53971E-009
168, 0.00000, -0.368175, -0.121012, -0.368172, -0.121014, -0.368171, -0.121012, 2.77663E-009, -7.8711E-010
169, 0.00000, -0.284923, -0.093649, -0.284922, -0.0936502, -0.284921, -0.0936488, 1.21662E-009, -3.61486E-010
170, 0.00000, -0.241451, -0.0793606, -0.241449, -0.0793612, -0.241448, -0.0793601, 7.55759E-010, -2.26985E-010
171, 0.00000, -0.221076, -0.0726638, -0.221075, -0.0726643, -0.221074, -0.0726635, 5.48371E-010, -1.68598E-010
172, 0.00000, -0.214037, -0.0703502, -0.214038, -0.0703511, -0.214037, -0.0703504, 5.17792E-010, -1.56947E-010
173, 0.00000, -0.222888, -0.073259, -0.222888, -0.0732602, -0.222889, -0.0732597, 5.70198E-010, -1.74274E-010
174, 0.00000, -0.257155, -0.0845219, -0.257156, -0.0845236, -0.257156, -0.0845227, 9.09114E-010, -2.70405E-010
175, 0.00000, -0.325965, -0.107137, -0.325967, -0.10714, -0.325967, -0.107139, 1.869E-009, -5.41651E-010
176, 0.00000, -0.331309, -0.119533, -0.331309, -0.119536, -0.331309, -0.119534, 2.1021E-009, -6.5292E-010
177, 0.00000, -0.0748337, -0.12242, -0.0748333, -0.12242, -0.0748331, -0.12242, 1.53203E-010, -1.20065E-010
178, 0.00000, 0.115984, -0.125964, 0.115984, -0.125963, 0.115984, -0.125963, 8.48322E-011, -1.57346E-010
179, 0.00000, 0.610779, -0.126841, 0.610779, -0.126844, 0.610782, -0.126844, -3.19116E-009, -2.36946E-009
180, 0.00000, 0.284962, -0.125862, 0.284964, -0.125865, 0.284965, -0.125862, -9.89605E-011, -5.34006E-010
181, 0.00000, 0.148676, -0.126406, 0.148677, -0.126407, 0.148677, -0.126406, 8.11798E-011, -2.01991E-010
182, 0.00000, -0.0946693, -0.128892, -0.0946702, -0.128895, -0.0946701, -0.128895, 1.97077E-010, -1.52576E-010
183, 0.00000, -0.278158, -0.134269, -0.278155, -0.13427, -0.278152, -0.134268, 1.27483E-009, -5.38216E-010
184, 0.00000, -0.448854, -0.147528, -0.448852, -0.147532, -0.448851, -0.147529, 4.44319E-009, -1.28575E-009
185, 0.00000, -0.521879, -0.17153, -0.521877, -0.171535, -0.521875, -0.171531, 7.16263E-009, -2.00913E-009
