hour, t(sec), P1 (kW), Q1 (kvar), P2 (kW), Q2 (kvar), P3 (kW), Q3 (kvar), P4 (kW), Q4 (kvar)
1, 0.00000, -0.159991, -0.0525822, -0.159992, -0.0525833, -0.159989, -0.0525822, -2.14262E-010, -3.09659E-011
2, 0.00000, -0.135579, -0.0445599, -0.135579, -0.0445599, -0.135579, -0.0445598, -1.5223E-010, -1.91534E-011
3, 0.00000, -0.124149, -0.0408041, -0.124148, -0.0408038, -0.124146, -0.0408028, -1.26056E-010, -1.45535E-011
4, 0.00000, -0.120189, -0.0395017, -0.120189, -0.0395017, -0.120189, -0.0395015, -1.18269E-010, -1.33172E-011
5, 0.00000, -0.125156, -0.0411339, -0.125157, -0.0411341, -0.125158, -0.0411344, -1.28737E-010, -1.50125E-011
6, 0.00000, -0.144384, -0.0474539, -0.144386, -0.0474547, -0.144389, -0.0474555, -1.71892E-010, -2.23198E-011
7, 0.00000, -0.183042, -0.0601595, -0.183042, -0.0601599, -0.183042, -0.0601598, -2.86083E-010, -4.7045E-011
8, 0.00000, -0.204191, -0.0671123, -0.204195, -0.0671135, -0.204198, -0.0671144, -3.6337E-010, -6.44991E-011
9, 0.00000, -0.209155, -0.0687422, -0.209149, -0.0687405, -0.209149, -0.0687401, -3.56145E-010, -4.21139E-011
10, 0.00000, -0.215213, -0.0707331, -0.215205, -0.0707311, -0.215205, -0.0707305, -3.66065E-010, -3.52587E-011
11, 0.00000, -0.216739, -0.0712351, -0.216723, -0.0712302, -0.216725, -0.0712302, -3.28711E-010, -3.53882E-012
12, 0.00000, -0.215048, -0.0706792, -0.215041, -0.0706771, -0.215039, -0.0706762, -3.20282E-010, -1.11223E-012
13, 0.00000, -0.215944, -0.0709733, -0.215951, -0.0709758, -0.21595, -0.0709757, -3.38153E-010, -1.08844E-011
14, 0.00000, -0.220205, -0.0723739, -0.22021, -0.0723757, -0.220209, -0.0723755, -3.93016E-010, -4.63898E-011
15, 0.00000, -0.22938, -0.0753864, -0.229381, -0.0753885, -0.229377, -0.075387, -4.55104E-010, -8.01044E-011
16, 0.00000, -0.252036, -0.0828348, -0.25204, -0.0828368, -0.252041, -0.0828372, -5.83956E-010, -1.33843E-010
17, 0.00000, -0.293043, -0.0963127, -0.293047, -0.0963147, -0.293049, -0.0963154, -8.30793E-010, -2.26133E-010
18, 0.00000, -0.326346, -0.107258, -0.326351, -0.10726, -0.326353, -0.107261, -1.06786E-009, -3.26827E-010
19, 0.00000, -0.339462, -0.111569, -0.339464, -0.11157, -0.339464, -0.11157, -1.172E-009, -3.75158E-010
20, 0.00000, -0.347, -0.114052, -0.346998, -0.114051, -0.347007, -0.114053, -1.23361E-009, -4.03623E-010
21, 0.00000, -0.338176, -0.111147, -0.338174, -0.111147, -0.338172, -0.111146, -1.15208E-009, -3.63631E-010
22, 0.00000, -0.309427, -0.101698, -0.309422, -0.101697, -0.309419, -0.101696, -9.32568E-010, -2.66304E-010
23, 0.00000, -0.262605, -0.0863092, -0.2626, -0.0863084, -0.262597, -0.0863071, -6.39158E-010, -1.53162E-010
24, 0.00000, -0.206747, -0.0679507, -0.206744, -0.0679502, -0.206743, -0.0679495, -3.77888E-010, -7.18479E-011
25, 0.00000, -0.160001, -0.0525868, -0.159997, -0.0525856, -0.159996, -0.052585, -2.24769E-010, -3.5508E-011
26, 0.00000, -0.135585, -0.0445621, -0.13558, -0.0445603, -0.135581, -0.0445604, -1.54479E-010, -2.01682E-011
27, 0.00000, -0.124142, -0.0408008, -0.12414, -0.0408004, -0.12414, -0.0408002, -1.29086E-010, -1.5576E-011
28, 0.00000, -0.12019, -0.0395019, -0.120189, -0.0395015, -0.120188, -0.0395014, -1.19421E-010, -1.37225E-011
29, 0.00000, -0.125158, -0.0411346, -0.125159, -0.0411352, -0.125159, -0.0411352, -1.31238E-010, -1.58083E-011
30, 0.00000, -0.144392, -0.0474562, -0.144396, -0.0474576, -0.144396, -0.047458, -1.77771E-010, -2.44622E-011
31, 0.00000, -0.183039, -0.0601586, -0.183043, -0.06016, -0.183042, -0.0601599, -2.99598E-010, -5.30352E-011
32, 0.00000, -0.204207, -0.0671157, -0.204211, -0.0671173, -0.204212, -0.0671177, -3.76307E-010, -7.08556E-011
33, 0.00000, -0.20915, -0.0687405, -0.209146, -0.0687395, -0.209146, -0.0687393, -3.69627E-010, -5.29191E-011
34, 0.00000, -0.21522, -0.0707358, -0.215209, -0.0707325, -0.215208, -0.0707317, -3.82428E-010, -4.53431E-011
35, 0.00000, -0.216744, -0.0712367, -0.21673, -0.0712325, -0.21673, -0.0712318, -3.69379E-010, -2.89888E-011
36, 0.00000, -0.215027, -0.0706722, -0.215024, -0.0706716, -0.215024, -0.0706713, -3.58136E-010, -2.4347E-011
37, 0.00000, -0.215937, -0.0709709, -0.215946, -0.0709742, -0.215946, -0.0709745, -3.73793E-010, -3.41383E-011
38, 0.00000, -0.220206, -0.0723742, -0.22021, -0.0723757, -0.220209, -0.0723755, -4.12441E-010, -5.84116E-011
39, 0.00000, -0.229355, -0.0753783, -0.229364, -0.0753827, -0.229366, -0.0753836, -4.74297E-010, -9.38393E-011
40, 0.00000, -0.252037, -0.0828355, -0.25204, -0.0828372, -0.252042, -0.0828377, -5.96976E-010, -1.41489E-010
41, 0.00000, -0.293041, -0.0963126, -0.293046, -0.0963146, -0.293049, -0.0963155, -8.38327E-010, -2.31095E-010
42, 0.00000, -0.32634, -0.107256, -0.326348, -0.107259, -0.32635, -0.10726, -1.08718E-009, -3.40815E-010
43, 0.00000, -0.339469, -0.111571, -0.339458, -0.111569, -0.339461, -0.111569, -1.19844E-009, -3.93813E-010
44, 0.00000, -0.347009, -0.114048, -0.347042, -0.114062, -0.347042, -0.114061, -1.25698E-009, -4.11769E-010
45, 0.00000, -0.338172, -0.111145, -0.338175, -0.111147, -0.338174, -0.111146, -1.18971E-009, -3.88725E-010
46, 0.00000, -0.309428, -0.101698, -0.309426, -0.101698, -0.309422, -0.101696, -9.65725E-010, -2.8937E-010
47, 0.00000, -0.262609, -0.0863104, -0.262603, -0.0863092, -0.262599, -0.0863075, -6.67108E-010, -1.70491E-010
48, 0.00000, -0.206749, -0.0679514, -0.206742, -0.0679496, -0.206742, -0.0679492, -3.96015E-010, -8.12513E-011
49, 0.00000, -0.159996, -0.0525851, -0.159992, -0.052584, -0.159992, -0.0525839, -2.22292E-010, -3.44223E-011
50, 0.00000, -0.13559, -0.0445637, -0.135585, -0.0445621, -0.135584, -0.0445615, -1.56483E-010, -2.08918E-011
51, 0.00000, -0.124144, -0.0408015, -0.124141, -0.0408007, -0.124141, -0.0408005, -1.2914E-010, -1.56368E-011
52, 0.00000, -0.120191, -0.039502, -0.120189, -0.0395016, -0.120189, -0.0395015, -1.19087E-010, -1.36271E-011
53, 0.00000, -0.125159, -0.0411349, -0.12516, -0.0411353, -0.12516, -0.0411353, -1.29854E-010, -1.53649E-011
54, 0.00000, -0.144381, -0.0474526, -0.144391, -0.0474558, -0.144391, -0.0474563, -1.84053E-010, -2.66196E-011
55, 0.00000, -0.18303, -0.060153, -0.183035, -0.0601559, -0.183033, -0.0601553, -2.94899E-010, -5.07913E-011
56, 0.00000, -0.204183, -0.0671076, -0.204198, -0.0671127, -0.2042, -0.0671139, -3.82927E-010, -7.54915E-011
57, 0.00000, -0.209176, -0.0687493, -0.209161, -0.0687449, -0.209159, -0.0687437, -3.88149E-010, -6.9644E-011
58, 0.00000, -0.215218, -0.0707351, -0.215208, -0.0707323, -0.215208, -0.0707316, -3.98257E-010, -6.48722E-011
59, 0.00000, -0.21674, -0.0712355, -0.216729, -0.0712324, -0.216729, -0.0712316, -3.89702E-010, -5.60105E-011
60, 0.00000, -0.215001, -0.0706632, -0.215011, -0.0706668, -0.215012, -0.0706673, -4.06351E-010, -6.37424E-011
61, 0.00000, -0.215943, -0.070973, -0.215949, -0.0709751, -0.215949, -0.0709754, -4.17253E-010, -7.02286E-011
62, 0.00000, -0.220194, -0.0723699, -0.220202, -0.0723727, -0.220202, -0.0723732, -4.36743E-010, -7.96869E-011
63, 0.00000, -0.22936, -0.0753825, -0.229372, -0.0753863, -0.229372, -0.0753873, -4.92993E-010, -9.88888E-011
64, 0.00000, -0.252036, -0.0828353, -0.252045, -0.0828386, -0.252044, -0.0828389, -6.29498E-010, -1.6087E-010
65, 0.00000, -0.29304, -0.0963126, -0.293048, -0.0963155, -0.293052, -0.0963167, -8.89611E-010, -2.65957E-010
66, 0.00000, -0.325779, -0.107072, -0.326324, -0.107253, -0.326338, -0.107255, -1.07385E-009, -2.70176E-010
67, 0.00000, -0.337157, -0.110811, -0.339454, -0.111568, -0.339457, -0.111568, -9.48881E-010, -2.47768E-012
68, 0.00000, -0.342376, -0.112524, -0.34705, -0.114064, -0.347024, -0.114057, -6.85472E-010, 3.00904E-010
69, 0.00000, -0.336196, -0.110497, -0.338179, -0.111148, -0.338189, -0.11115, -9.79097E-010, -4.88874E-011
70, 0.00000, -0.309404, -0.10169, -0.309467, -0.101711, -0.309457, -0.101711, -1.01763E-009, -3.17972E-010
71, 0.00000, -0.262612, -0.0863115, -0.2626, -0.0863086, -0.262598, -0.086307, -6.9185E-010, -1.86404E-010
72, 0.00000, -0.206752, -0.0679523, -0.206742, -0.0679498, -0.206743, -0.0679494, -3.96E-010, -8.13764E-011
73, 0.00000, -0.171545, -0.0563811, -0.171531, -0.0563771, -0.171529, -0.0563757, -2.63096E-010, -4.54052E-011
74, 0.00000, -0.144843, -0.0476047, -0.144833, -0.0476013, -0.144831, -0.047601, -1.78838E-010, -2.53532E-011
75, 0.00000, -0.130358, -0.0428438, -0.130355, -0.042843, -0.130354, -0.0428427, -1.43515E-010, -1.82581E-011
76, 0.00000, -0.123707, -0.0406577, -0.123704, -0.040657, -0.123704, -0.0406568, -1.26446E-010, -1.48753E-011
77, 0.00000, -0.123643, -0.0406369, -0.123643, -0.040637, -0.123643, -0.040637, -1.26267E-010, -1.47425E-011
78, 0.00000, -0.130157, -0.0427777, -0.130158, -0.0427782, -0.130158, -0.0427783, -1.40951E-010, -1.72783E-011
79, 0.00000, -0.145204, -0.0477232, -0.145208, -0.0477247, -0.145208, -0.0477249, -1.79012E-010, -2.45432E-011
80, 0.00000, -0.173679, -0.0570821, -0.173684, -0.0570841, -0.173686, -0.0570846, -2.60794E-010, -4.05885E-011
81, 0.00000, -0.218824, -0.0719202, -0.218812, -0.071917, -0.218813, -0.0719167, -3.98492E-010, -5.81659E-011
82, 0.00000, -0.260724, -0.0856913, -0.26073, -0.0856934, -0.260732, -0.0856942, -5.94824E-010, -9.58954E-011
83, 0.00000, -0.282941, -0.0929931, -0.282925, -0.0929888, -0.282923, -0.0929871, -6.77278E-010, -9.33788E-011
84, 0.00000, -0.291352, -0.0957576, -0.291356, -0.0957592, -0.291357, -0.0957595, -7.2699E-010, -1.04867E-010
85, 0.00000, -0.295262, -0.0970427, -0.295277, -0.0970474, -0.295279, -0.0970489, -7.72961E-010, -1.30099E-010
86, 0.00000, -0.300959, -0.0989148, -0.300968, -0.0989179, -0.300967, -0.0989181, -8.64793E-010, -1.97308E-010
87, 0.00000, -0.306591, -0.100766, -0.306596, -0.100768, -0.306599, -0.100769, -9.53627E-010, -2.7557E-010
88, 0.00000, -0.312643, -0.102755, -0.312649, -0.102757, -0.312651, -0.102758, -1.00344E-009, -3.08798E-010
89, 0.00000, -0.328342, -0.107915, -0.328345, -0.107916, -0.328346, -0.107916, -1.11287E-009, -3.56067E-010
90, 0.00000, -0.337057, -0.110774, -0.33706, -0.110777, -0.337057, -0.110777, -1.16558E-009, -3.75916E-010
91, 0.00000, -0.335343, -0.110212, -0.335333, -0.110211, -0.335327, -0.110208, -1.14757E-009, -3.67869E-010
92, 0.00000, -0.333983, -0.109773, -0.333991, -0.109775, -0.333997, -0.109777, -1.1484E-009, -3.69128E-010
93, 0.00000, -0.321358, -0.105619, -0.321354, -0.105619, -0.321352, -0.105617, -1.06477E-009, -3.36515E-010
94, 0.00000, -0.296599, -0.0974814, -0.296591, -0.09748, -0.296587, -0.0974782, -8.92947E-010, -2.63506E-010
95, 0.00000, -0.26097, -0.0857719, -0.260963, -0.0857704, -0.260962, -0.0857696, -6.81305E-010, -1.81711E-010
96, 0.00000, -0.217441, -0.0714657, -0.217434, -0.0714637, -0.217434, -0.0714632, -4.49E-010, -9.88709E-011
97, 0.00000, -0.175361, -0.0576353, -0.175357, -0.057634, -0.175357, -0.0576338, -2.72538E-010, -4.65737E-011
98, 0.00000, -0.147514, -0.0484829, -0.147506, -0.0484803, -0.147505, -0.0484796, -1.86004E-010, -2.6708E-011
99, 0.00000, -0.131362, -0.043174, -0.131359, -0.0431731, -0.131359, -0.0431728, -1.45949E-010, -1.87388E-011
100, 0.00000, -0.123323, -0.0405317, -0.123321, -0.0405309, -0.12332, -0.0405308, -1.2564E-010, -1.4754E-011
101, 0.00000, -0.120855, -0.0397203, -0.120857, -0.0397208, -0.120857, -0.0397208, -1.21664E-010, -1.41336E-011
102, 0.00000, -0.124858, -0.0410362, -0.124858, -0.0410363, -0.124858, -0.0410364, -1.28855E-010, -1.51706E-011
103, 0.00000, -0.137892, -0.0453199, -0.137895, -0.0453211, -0.137895, -0.0453212, -1.59761E-010, -2.07289E-011
104, 0.00000, -0.160469, -0.0527406, -0.160473, -0.0527417, -0.160473, -0.052742, -2.18724E-010, -3.12147E-011
105, 0.00000, -0.202849, -0.0666698, -0.202839, -0.0666669, -0.20284, -0.0666667, -3.34867E-010, -4.36333E-011
106, 0.00000, -0.247886, -0.0814752, -0.247877, -0.0814717, -0.247885, -0.0814739, -5.05256E-010, -6.87308E-011
107, 0.00000, -0.276386, -0.0908388, -0.276359, -0.0908316, -0.27636, -0.0908299, -5.6298E-010, -3.27534E-011
108, 0.00000, -0.287535, -0.094504, -0.287518, -0.0944997, -0.287521, -0.0944993, -5.34177E-010, 1.04286E-011
109, 0.00000, -0.294611, -0.0968293, -0.29462, -0.0968319, -0.294625, -0.0968339, -5.64937E-010, 8.593E-012
110, 0.00000, -0.299395, -0.098401, -0.299413, -0.0984066, -0.299411, -0.0984076, -7.55762E-010, -1.21382E-010
111, 0.00000, -0.297871, -0.0979002, -0.297873, -0.0979012, -0.297874, -0.0979013, -8.07866E-010, -1.83821E-010
112, 0.00000, -0.295298, -0.0970537, -0.295305, -0.0970569, -0.295309, -0.0970579, -8.24248E-010, -2.17493E-010
113, 0.00000, -0.307619, -0.101104, -0.30762, -0.101105, -0.307621, -0.101105, -9.0769E-010, -2.51794E-010
114, 0.00000, -0.323991, -0.106484, -0.323994, -0.106486, -0.323995, -0.106486, -1.02604E-009, -3.01777E-010
115, 0.00000, -0.331975, -0.109108, -0.331976, -0.10911, -0.331976, -0.109109, -1.08863E-009, -3.3011E-010
116, 0.00000, -0.341963, -0.112391, -0.341965, -0.112393, -0.341965, -0.112392, -1.17016E-009, -3.67768E-010
117, 0.00000, -0.334228, -0.109849, -0.334217, -0.109847, -0.334213, -0.109844, -1.11659E-009, -3.47188E-010
118, 0.00000, -0.303708, -0.0998178, -0.303701, -0.0998166, -0.303696, -0.0998147, -8.94372E-010, -2.5111E-010
119, 0.00000, -0.255833, -0.0840835, -0.255826, -0.0840819, -0.255822, -0.0840802, -6.07995E-010, -1.44028E-010
120, 0.00000, -0.20023, -0.0658088, -0.200225, -0.0658077, -0.200225, -0.0658073, -3.67707E-010, -7.2585E-011
121, 0.00000, -0.159995, -0.0525849, -0.159992, -0.052584, -0.159992, -0.0525839, -2.22083E-010, -3.4312E-011
122, 0.00000, -0.13559, -0.0445637, -0.135585, -0.044562, -0.135584, -0.0445615, -1.56482E-010, -2.08884E-011
123, 0.00000, -0.124145, -0.0408019, -0.124142, -0.0408009, -0.124141, -0.0408007, -1.27719E-010, -1.51906E-011
124, 0.00000, -0.120192, -0.0395023, -0.120191, -0.0395022, -0.12019, -0.0395019, -1.20347E-010, -1.40035E-011
125, 0.00000, -0.125154, -0.0411335, -0.125155, -0.0411338, -0.125156, -0.0411341, -1.29449E-010, -1.5227E-011
126, 0.00000, -0.14439, -0.0474555, -0.144395, -0.0474573, -0.144395, -0.0474577, -1.76582E-010, -2.39586E-011
127, 0.00000, -0.183038, -0.0601583, -0.183043, -0.06016, -0.183042, -0.0601598, -3.02747E-010, -5.44574E-011
128, 0.00000, -0.204211, -0.0671171, -0.204213, -0.067118, -0.204214, -0.0671183, -3.76553E-010, -7.1124E-011
129, 0.00000, -0.20915, -0.0687407, -0.209146, -0.0687395, -0.209146, -0.0687394, -3.58394E-010, -4.82635E-011
130, 0.00000, -0.215218, -0.0707349, -0.215208, -0.070732, -0.215207, -0.0707313, -3.61544E-010, -3.72179E-011
131, 0.00000, -0.216731, -0.0712321, -0.216714, -0.0712267, -0.216718, -0.071228, -2.98907E-010, 1.17384E-011
132, 0.00000, -0.215024, -0.0706709, -0.21502, -0.0706698, -0.215021, -0.0706702, -2.77932E-010, 2.04204E-011
133, 0.00000, -0.215956, -0.070977, -0.215953, -0.0709765, -0.215954, -0.0709767, -2.7157E-010, 2.45297E-011
134, 0.00000, -0.220203, -0.0723732, -0.22021, -0.0723757, -0.220208, -0.0723754, -3.673E-010, -2.90806E-011
135, 0.00000, -0.229383, -0.0753906, -0.229385, -0.0753913, -0.229385, -0.0753913, -4.32058E-010, -6.30075E-011
136, 0.00000, -0.252042, -0.0828354, -0.252043, -0.0828375, -0.252042, -0.0828368, -5.63429E-010, -1.22227E-010
137, 0.00000, -0.293049, -0.0963143, -0.293051, -0.0963159, -0.293052, -0.0963159, -7.9942E-010, -2.05738E-010
138, 0.00000, -0.326352, -0.10726, -0.326354, -0.107261, -0.326355, -0.107261, -1.02837E-009, -2.98509E-010
139, 0.00000, -0.339464, -0.111569, -0.339465, -0.111571, -0.339465, -0.11157, -1.13005E-009, -3.43791E-010
140, 0.00000, -0.346995, -0.114053, -0.347003, -0.114055, -0.34701, -0.114057, -1.19119E-009, -3.70597E-010
141, 0.00000, -0.338222, -0.111155, -0.338211, -0.111154, -0.338203, -0.111151, -1.12422E-009, -3.43893E-010
142, 0.00000, -0.309423, -0.101697, -0.309419, -0.101697, -0.309417, -0.101695, -9.09544E-010, -2.50258E-010
143, 0.00000, -0.2626, -0.086308, -0.262597, -0.0863075, -0.262595, -0.0863068, -6.21402E-010, -1.42373E-010
144, 0.00000, -0.206743, -0.0679495, -0.206742, -0.0679494, -0.206741, -0.0679491, -3.66443E-010, -6.61057E-011
145, 0.00000, -0.159998, -0.0525855, -0.159995, -0.0525849, -0.159994, -0.0525844, -2.24663E-010, -3.53731E-011
146, 0.00000, -0.135585, -0.0445621, -0.13558, -0.0445603, -0.135581, -0.0445604, -1.54469E-010, -2.01647E-011
147, 0.00000, -0.124142, -0.0408008, -0.12414, -0.0408004, -0.12414, -0.0408002, -1.29079E-010, -1.55734E-011
148, 0.00000, -0.120206, -0.0395074, -0.120202, -0.0395062, -0.120201, -0.0395055, -1.2057E-010, -1.42024E-011
149, 0.00000, -0.125159, -0.0411349, -0.12516, -0.0411353, -0.12516, -0.0411353, -1.31232E-010, -1.58265E-011
150, 0.00000, -0.144392, -0.0474562, -0.144396, -0.0474576, -0.144397, -0.0474581, -1.7765E-010, -2.44201E-011
151, 0.00000, -0.183039, -0.0601586, -0.183043, -0.06016, -0.183042, -0.0601599, -2.99483E-010, -5.29819E-011
152, 0.00000, -0.204205, -0.0671171, -0.204202, -0.067116, -0.204206, -0.067117, -3.73393E-010, -6.79198E-011
153, 0.00000, -0.209185, -0.068752, -0.209164, -0.068746, -0.209163, -0.0687446, -3.67482E-010, -4.81056E-011
154, 0.00000, -0.215204, -0.0707303, -0.215201, -0.0707297, -0.215201, -0.0707294, -3.86239E-010, -4.66842E-011
155, 0.00000, -0.216743, -0.0712362, -0.216729, -0.0712323, -0.216729, -0.0712315, -3.67725E-010, -2.86373E-011
156, 0.00000, -0.215026, -0.0706718, -0.215024, -0.0706714, -0.215024, -0.0706711, -3.57922E-010, -2.44701E-011
157, 0.00000, -0.215943, -0.070973, -0.215949, -0.0709753, -0.215949, -0.0709755, -3.68164E-010, -3.24061E-011
158, 0.00000, -0.220207, -0.0723744, -0.22021, -0.0723758, -0.220209, -0.0723756, -4.10018E-010, -5.75089E-011
159, 0.00000, -0.22936, -0.0753802, -0.229367, -0.075384, -0.229369, -0.0753847, -4.74805E-010, -9.42723E-011
160, 0.00000, -0.252036, -0.0828353, -0.25204, -0.0828371, -0.252042, -0.0828376, -5.99463E-010, -1.42948E-010
161, 0.00000, -0.293039, -0.096312, -0.293045, -0.0963142, -0.293048, -0.0963152, -8.46985E-010, -2.36863E-010
162, 0.00000, -0.326342, -0.107257, -0.326349, -0.10726, -0.326351, -0.107261, -1.08791E-009, -3.41454E-010
163, 0.00000, -0.33942, -0.11155, -0.339431, -0.111555, -0.339432, -0.111557, -1.17658E-009, -3.77607E-010
164, 0.00000, -0.347049, -0.114061, -0.34704, -0.114061, -0.34704, -0.11406, -1.25105E-009, -4.1437E-010
165, 0.00000, -0.338172, -0.111145, -0.338175, -0.111147, -0.338173, -0.111146, -1.17984E-009, -3.83416E-010
166, 0.00000, -0.309428, -0.101698, -0.309423, -0.101697, -0.30942, -0.101696, -9.69668E-010, -2.92448E-010
167, 0.00000, -0.262609, -0.0863104, -0.262603, -0.0863092, -0.262599, -0.0863075, -6.71243E-010, -1.73079E-010
168, 0.00000, -0.206749, -0.0679516, -0.206742, -0.0679496, -0.206742, -0.0679492, -3.96024E-010, -8.12785E-011
169, 0.00000, -0.159996, -0.0525851, -0.159992, -0.052584, -0.159992, -0.0525839, -2.2212E-010, -3.43522E-011
170, 0.00000, -0.13559, -0.0445637, -0.135585, -0.044562, -0.135584, -0.0445615, -1.56479E-010, -2.08876E-011
171, 0.00000, -0.124146, -0.040802, -0.124142, -0.0408009, -0.124142, -0.0408007, -1.27528E-010, -1.51309E-011
172, 0.00000, -0.120189, -0.0395013, -0.120189, -0.0395014, -0.120188, -0.0395012, -1.20419E-010, -1.39996E-011
173, 0.00000, -0.125145, -0.0411305, -0.125148, -0.0411314, -0.12515, -0.041132, -1.30327E-010, -1.54417E-011
174, 0.00000, -0.144388, -0.0474551, -0.144394, -0.0474571, -0.144395, -0.0474575, -1.78779E-010, -2.47607E-011
175, 0.00000, -0.183014, -0.0601495, -0.183028, -0.0601536, -0.183029, -0.0601556, -2.99591E-010, -5.2526E-011
176, 0.00000, -0.204203, -0.0671144, -0.204209, -0.0671166, -0.20421, -0.0671171, -3.80173E-010, -7.2693E-011
177, 0.00000, -0.20915, -0.0687406, -0.209146, -0.0687394, -0.209146, -0.0687393, -3.58523E-010, -4.51117E-011
178, 0.00000, -0.21522, -0.0707355, -0.215208, -0.0707322, -0.215208, -0.0707315, -3.651E-010, -3.43808E-011
179, 0.00000, -0.216741, -0.0712357, -0.216724, -0.0712305, -0.216726, -0.0712305, -3.30801E-010, -4.86645E-012
180, 0.00000, -0.214994, -0.0706609, -0.21501, -0.0706663, -0.21501, -0.0706667, -3.51945E-010, -2.14719E-011
181, 0.00000, -0.215942, -0.0709727, -0.215949, -0.0709752, -0.215949, -0.0709753, -3.64535E-010, -3.10885E-011
