hour, t(sec), V1.re, V1.im, V2.re, V2.im, V3.re, V3.im, V4.re, V4.im, I1.re, I1.im, I2.re, I2.im, I3.re, I3.im, I4.re, I4.im
1, 0.00000, 192.197, -112.243, -193.472, -110.349, 1.13563, 222.857, 9.78357E-006, -1.4664E-006, -0.0483078, 0.264803, 0.253287, -0.0906044, -0.204975, -0.173991, -0.00978788, 0.00125929
2, 0.00000, 192.555, -112.342, -193.716, -110.606, 1.03817, 223.18, 7.95415E-006, -5.19836E-006, -0.239817, 0.340139, 0.414233, 0.037492, -0.174502, -0.377317, -0.00786823, 0.00488406
3, 0.00000, 192.775, -112.377, -193.843, -110.778, 0.955974, 223.366, 7.23699E-006, -5.11215E-006, -0.239226, 0.322518, 0.398725, 0.0457944, -0.159578, -0.368073, -0.00715889, 0.0048726
4, 0.00000, 192.819, -112.396, -193.879, -110.806, 0.949539, 223.409, 6.90668E-006, -6.18493E-006, -0.293098, 0.348101, 0.447787, 0.0796368, -0.154797, -0.427443, -0.00679834, 0.0058899
5, 0.00000, 192.731, -112.379, -193.826, -110.738, 0.980201, 223.333, 7.23362E-006, -5.98239E-006, -0.280981, 0.348521, 0.442074, 0.0689351, -0.161205, -0.417133, -0.00712149, 0.00565856
6, 0.00000, 192.47, -112.296, -193.64, -110.556, 1.0429, 223.093, 8.69262E-006, -2.41125E-006, -0.0961196, 0.269428, 0.281174, -0.0515157, -0.185079, -0.217636, -0.00866742, 0.00213551
7, 0.00000, 191.81, -112.158, -193.229, -110.059, 1.25994, 222.518, 1.1398E-005, 4.89345E-007, 0.0541083, 0.239715, 0.18034, -0.166644, -0.234322, -0.0728497, -0.0115244, -0.000710546
8, 0.00000, 191.568, -112.062, -193.04, -109.896, 1.30553, 222.285, 1.15993E-005, -2.20762E-006, -0.0494038, 0.332014, 0.311896, -0.123239, -0.262459, -0.208368, -0.011633, 0.00180003
9, 0.00000, 193.219, -111.728, -193.488, -111.446, 0.233111, 223.381, 1.61656E-006, -2.00496E-005, -0.715754, 0.721667, 0.982521, 0.258565, -0.267256, -0.979757, -0.00112699, 0.019575
10, 0.00000, 193.894, -111.556, -193.642, -112.097, -0.23436, 223.814, -2.30969E-006, -2.69783E-005, -0.968891, 0.873038, 1.24034, 0.402024, -0.272073, -1.27476, 0.00293365, 0.0266804
11, 0.00000, 196.737, -110.944, -194.397, -114.793, -2.12239, 225.71, -1.76835E-005, -5.58887E-005, -2.12033, 1.50891, 2.36826, 1.08153, -0.248641, -2.5921, 0.0184011, 0.0575551
12, 0.00000, 196.91, -110.916, -194.45, -114.954, -2.23075, 225.831, -1.84696E-005, -5.68128E-005, -2.15601, 1.52492, 2.40012, 1.10449, -0.244722, -2.63123, 0.0190867, 0.0586318
13, 0.00000, 195.808, -111.155, -194.158, -113.906, -1.49548, 225.094, -1.29053E-005, -4.67187E-005, -1.75361, 1.30911, 2.01133, 0.863677, -0.258378, -2.17367, 0.0135676, 0.0476061
14, 0.00000, 193.224, -111.652, -193.425, -111.485, 0.170501, 223.347, 1.5296E-006, -1.94408E-005, -0.663273, 0.707338, 0.943927, 0.220312, -0.281069, -0.92722, -0.00111468, 0.0190115
15, 0.00000, 191.756, -111.859, -192.95, -110.148, 1.05407, 222.328, 1.0089E-005, -4.1765E-006, -0.0694617, 0.380463, 0.363906, -0.130163, -0.29446, -0.249936, -0.0100729, 0.0038123
16, 0.00000, 190.564, -111.911, -192.469, -109.115, 1.6803, 221.447, 1.62886E-005, 4.25676E-006, 0.249387, 0.229598, 0.0738967, -0.330445, -0.322861, 0.101057, -0.0167116, -0.0044668
17, 0.00000, 189.769, -111.767, -191.997, -108.507, 1.95821, 220.772, 1.92323E-005, 5.2563E-006, 0.301578, 0.261476, 0.0753269, -0.391427, -0.376288, 0.130224, -0.0198492, -0.00552955
18, 0.00000, 189.175, -111.635, -191.625, -108.066, 2.14513, 220.258, 2.17857E-005, 8.11515E-006, 0.441634, 0.229921, -0.0219791, -0.496656, -0.418719, 0.266888, -0.0227212, -0.00826809
19, 0.00000, 188.943, -111.582, -191.479, -107.895, 2.21617, 220.058, 2.28105E-005, 9.41072E-006, 0.503612, 0.213465, -0.0671743, -0.541961, -0.435336, 0.328565, -0.0239119, -0.00947999
20, 0.00000, 188.813, -111.55, -191.395, -107.799, 2.25544, 219.944, 2.33767E-005, 1.02258E-005, 0.544362, 0.201018, -0.0983065, -0.570934, -0.444855, 0.369969, -0.0245773, -0.0102791
21, 0.00000, 189.046, -111.571, -191.516, -107.987, 2.15698, 220.131, 2.28216E-005, 1.19417E-005, 0.624988, 0.139811, -0.191479, -0.610073, -0.432226, 0.470096, -0.0241046, -0.0117757
22, 0.00000, 189.584, -111.682, -191.844, -108.392, 1.98004, 220.592, 2.06385E-005, 1.0216E-005, 0.541307, 0.145225, -0.144964, -0.54054, -0.395311, 0.395214, -0.0216708, -0.0101152
23, 0.00000, 190.411, -111.864, -192.362, -109.008, 1.71771, 221.308, 1.71157E-005, 6.2436E-006, 0.345852, 0.188985, -0.00941821, -0.393531, -0.335822, 0.20462, -0.0177272, -0.00631751
24, 0.00000, 191.314, -112.089, -192.951, -109.668, 1.45188, 222.105, 1.29159E-005, -5.83217E-007, 0.00334732, 0.305338, 0.262463, -0.155517, -0.265669, -0.149493, -0.013057, 0.00025563
25, 0.00000, 191.888, -112.311, -193.393, -110.052, 1.34564, 222.65, 9.14621E-006, -1.17925E-005, -0.563318, 0.566801, 0.771979, 0.204051, -0.208991, -0.770129, -0.00881579, 0.0110694
26, 0.00000, 192.478, -112.36, -193.696, -110.532, 1.09064, 223.128, 7.82928E-006, -7.78205E-006, -0.368726, 0.41551, 0.543853, 0.111341, -0.175352, -0.526418, -0.00760451, 0.00734919
27, 0.00000, 192.641, -112.407, -193.809, -110.648, 1.0482, 223.276, 6.94789E-006, -9.64894E-006, -0.465811, 0.455037, 0.626636, 0.17563, -0.161054, -0.630212, -0.00671862, 0.00919479
28, 0.00000, 192.767, -112.408, -193.866, -110.756, 0.985015, 223.374, 6.8035E-006, -7.92457E-006, -0.38023, 0.399005, 0.535382, 0.129589, -0.155325, -0.528224, -0.00663004, 0.00755519
29, 0.00000, 192.617, -112.405, -193.797, -110.629, 1.05803, 223.257, 6.98955E-006, -9.75559E-006, -0.471855, 0.460148, 0.634102, 0.17831, -0.162448, -0.638017, -0.00678845, 0.00931319
30, 0.00000, 192.255, -112.345, -193.584, -110.349, 1.19013, 222.949, 8.23594E-006, -9.54858E-006, -0.457036, 0.480681, 0.644428, 0.155191, -0.187583, -0.635367, -0.00804442, 0.00904342
31, 0.00000, 191.475, -112.23, -193.141, -109.737, 1.48683, 222.294, 1.07305E-005, -1.06719E-005, -0.501744, 0.565938, 0.740403, 0.151172, -0.238941, -0.71633, -0.0104489, 0.00989213
32, 0.00000, 191.301, -112.119, -192.969, -109.64, 1.48588, 222.106, 1.11059E-005, -1.09547E-005, -0.4862, 0.588529, 0.752152, 0.126397, -0.266241, -0.714105, -0.0108165, 0.0101333
33, 0.00000, 192.526, -111.862, -193.293, -110.797, 0.679914, 222.915, 4.95585E-006, -1.6827E-005, -0.63042, 0.675184, 0.899464, 0.207908, -0.269485, -0.882455, -0.00451396, 0.0161899
34, 0.00000, 193.286, -111.683, -193.478, -111.52, 0.167863, 223.407, -3.48559E-007, -2.94463E-005, -1.14367, 0.977396, 1.41788, 0.501017, -0.275011, -1.47782, 0.00115436, 0.028849
35, 0.00000, 194.503, -111.434, -193.81, -112.666, -0.626675, 224.219, -7.56431E-006, -4.41327E-005, -1.73792, 1.31249, 2.0057, 0.848036, -0.268796, -2.16055, 0.00857275, 0.0441579
36, 0.00000, 194.735, -111.396, -193.882, -112.881, -0.77137, 224.381, -8.60732E-006, -4.50093E-005, -1.76584, 1.32411, 2.02989, 0.866481, -0.264965, -2.1908, 0.00951505, 0.0452226
37, 0.00000, 193.946, -111.551, -193.66, -112.14, -0.259515, 223.848, -4.53327E-006, -3.83856E-005, -1.51479, 1.18791, 1.78609, 0.717114, -0.272133, -1.90479, 0.00536904, 0.0381533
38, 0.00000, 192.588, -111.781, -193.252, -110.884, 0.589094, 222.921, 3.31349E-006, -2.37344E-005, -0.928057, 0.863804, 1.21158, 0.371147, -0.28416, -1.23419, -0.00267765, 0.0229731
39, 0.00000, 191.166, -111.97, -192.783, -109.595, 1.43347, 221.93, 1.20293E-005, -7.17681E-006, -0.266546, 0.497104, 0.563219, -0.0179767, -0.296884, -0.478426, -0.0118178, 0.00647587
40, 0.00000, 190.38, -111.949, -192.42, -108.94, 1.80254, 221.324, 1.59691E-005, -1.84208E-006, -0.0498409, 0.405743, 0.37577, -0.159701, -0.325816, -0.245423, -0.0160819, 0.00122296
41, 0.00000, 189.688, -111.783, -191.975, -108.431, 2.01146, 220.718, 1.91025E-005, 2.57517E-006, 0.171346, 0.338315, 0.206839, -0.317226, -0.377727, -0.0206063, -0.0195596, -0.00305837
42, 0.00000, 189.007, -111.667, -191.579, -107.908, 2.25458, 220.146, 2.15385E-005, 2.56552E-006, 0.174268, 0.388002, 0.24826, -0.344535, -0.421969, -0.0428294, -0.0220979, -0.00320359
43, 0.00000, 188.724, -111.625, -191.415, -107.685, 2.36277, 219.907, 2.23824E-005, 1.99908E-006, 0.149298, 0.42316, 0.291143, -0.340487, -0.439818, -0.0819551, -0.0230053, -0.00271727
44, 0.00000, 188.568, -111.602, -191.319, -107.56, 2.424, 219.771, 2.28178E-005, 1.73239E-006, 0.141403, 0.439633, 0.309317, -0.341899, -0.450093, -0.0969727, -0.0234441, -0.0024943
45, 0.00000, 188.722, -111.636, -191.422, -107.678, 2.3725, 219.91, 2.22544E-005, 1.00404E-006, 0.102463, 0.448925, 0.336783, -0.3129, -0.438728, -0.135216, -0.0227724, -0.00181293
46, 0.00000, 189.266, -111.744, -191.757, -108.091, 2.18883, 220.378, 2.01511E-005, -3.25146E-007, 0.0310038, 0.446582, 0.37055, -0.249974, -0.401192, -0.195845, -0.0205132, -0.000437419
47, 0.00000, 190.051, -111.937, -192.265, -108.665, 1.95675, 221.067, 1.65058E-005, -5.70731E-006, -0.23882, 0.533572, 0.580746, -0.0601638, -0.341961, -0.472495, -0.016471, 0.00479365
48, 0.00000, 190.966, -112.163, -192.859, -109.335, 1.68601, 221.872, 1.22865E-005, -1.22218E-005, -0.569784, 0.642497, 0.840489, 0.171681, -0.271145, -0.813124, -0.0118477, 0.0111683
49, 0.00000, 191.961, -112.295, -193.411, -110.121, 1.2964, 222.699, 9.30539E-006, -9.38293E-006, -0.442782, 0.496013, 0.650475, 0.135144, -0.207961, -0.630547, -0.00903748, 0.00877331
50, 0.00000, 192.402, -112.377, -193.677, -110.458, 1.1428, 223.077, 7.66021E-006, -1.03441E-005, -0.496575, 0.490378, 0.67254, 0.184551, -0.176262, -0.674372, -0.0073635, 0.00978778
51, 0.00000, 192.641, -112.407, -193.809, -110.648, 1.04797, 223.276, 6.95421E-006, -9.64262E-006, -0.465267, 0.454708, 0.626073, 0.17532, -0.161045, -0.629569, -0.00671521, 0.00918366
52, 0.00000, 192.784, -112.404, -193.87, -110.772, 0.973696, 223.385, 6.84E-006, -7.37449E-006, -0.352453, 0.382765, 0.507441, 0.113668, -0.155149, -0.496082, -0.00667926, 0.00702369
53, 0.00000, 192.68, -112.391, -193.812, -110.689, 1.01536, 223.299, 7.12422E-006, -7.67724E-006, -0.367186, 0.398906, 0.528782, 0.118348, -0.161742, -0.516889, -0.00697808, 0.00731172
54, 0.00000, 192.027, -112.395, -193.525, -110.128, 1.34625, 222.796, 7.74003E-006, -1.71819E-005, -0.839243, 0.705124, 1.02968, 0.373698, -0.190852, -1.07798, -0.00732595, 0.0163421
55, 0.00000, 191.587, -112.207, -193.171, -109.844, 1.41152, 222.369, 1.09928E-005, -6.97005E-006, -0.317263, 0.457249, 0.554168, 0.045855, -0.237139, -0.502539, -0.0107582, 0.00640505
56, 0.00000, 191.023, -112.17, -192.89, -109.38, 1.66367, 221.919, 1.20561E-005, -1.19165E-005, -0.559467, 0.632594, 0.826884, 0.16775, -0.267706, -0.799417, -0.0117671, 0.0109889
57, 0.00000, 191.657, -112.021, -193.044, -109.987, 1.23351, 222.33, 9.41341E-006, -1.20728E-005, -0.489608, 0.596416, 0.760665, 0.125386, -0.271467, -0.720979, -0.00900414, 0.0112492
58, 0.00000, 192.074, -111.901, -193.126, -110.396, 0.93233, 222.59, 7.85761E-006, -1.05589E-005, -0.365313, 0.531384, 0.642366, 0.0503837, -0.277332, -0.581159, -0.00757848, 0.009951
59, 0.00000, 192.589, -111.79, -193.261, -110.886, 0.589512, 222.931, 6.04801E-006, -8.80055E-006, -0.226901, 0.451649, 0.50424, -0.0295057, -0.277529, -0.421714, -0.00585813, 0.00837166
60, 0.00000, 192.118, -111.909, -193.151, -110.425, 0.922651, 222.622, 4.90236E-006, -2.57002E-005, -1.07677, 0.945525, 1.35653, 0.458921, -0.280493, -1.40343, -0.00416761, 0.0246865
61, 0.00000, 191.854, -111.952, -193.071, -110.181, 1.08745, 222.441, 5.98543E-006, -2.5705E-005, -1.09823, 0.960947, 1.38049, 0.469721, -0.283065, -1.4295, -0.00517934, 0.024535
62, 0.00000, 191.507, -111.98, -192.942, -109.876, 1.27778, 222.192, 8.72543E-006, -1.80307E-005, -0.761936, 0.772528, 1.04924, 0.272943, -0.287837, -1.04444, -0.00819455, 0.0169998
63, 0.00000, 191.092, -112.001, -192.775, -109.512, 1.50195, 221.883, 8.88897E-006, -2.5951E-005, -1.1491, 1.01488, 1.45233, 0.486631, -0.304145, -1.49994, -0.00796603, 0.0243812
64, 0.00000, 189.934, -112.039, -192.299, -108.516, 2.09849, 221.024, 1.51691E-005, -1.66203E-005, -0.772041, 0.832775, 1.10595, 0.251371, -0.334545, -1.08245, -0.0145293, 0.0149262
65, 0.00000, 189.162, -111.886, -191.831, -107.933, 2.35655, 220.365, 1.82635E-005, -1.48567E-005, -0.670223, 0.836952, 1.05838, 0.161111, -0.388808, -0.996077, -0.0176136, 0.0128714
66, 0.00000, 188.546, -111.761, -191.442, -107.463, 2.56646, 219.826, 2.05254E-005, -1.31924E-005, -0.575479, 0.833295, 1.00783, 0.0810079, -0.432766, -0.912216, -0.0201084, 0.0111054
67, 0.00000, 188.354, -111.706, -191.297, -107.319, 2.62221, 219.642, 2.13731E-005, -1.11277E-005, -0.465885, 0.788776, 0.914584, 0.00850176, -0.448962, -0.79534, -0.0211098, 0.00919016
68, 0.00000, 188.111, -111.707, -191.174, -107.108, 2.75021, 219.434, 2.13684E-005, -1.46253E-005, -0.628138, 0.897577, 1.08971, 0.0943334, -0.462111, -0.989657, -0.0208271, 0.0123715
69, 0.00000, 188.389, -111.708, -191.317, -107.35, 2.60516, 219.672, 2.13537E-005, -1.0798E-005, -0.449376, 0.776915, 0.89602, 0.000135326, -0.446948, -0.775108, -0.0210502, 0.00885597
70, 0.00000, 188.708, -111.854, -191.597, -107.558, 2.55951, 219.998, 1.90387E-005, -1.89429E-005, -0.864817, 0.978794, 1.27836, 0.258449, -0.414187, -1.23485, -0.0183944, 0.0165513
71, 0.00000, 189.753, -111.997, -192.184, -108.382, 2.15372, 220.867, 1.60315E-005, -1.56704E-005, -0.719502, 0.818161, 1.06692, 0.213184, -0.348113, -1.02957, -0.0153325, 0.0138922
72, 0.00000, 190.969, -112.163, -192.86, -109.339, 1.68349, 221.875, 1.2302E-005, -1.21025E-005, -0.563666, 0.638883, 0.834296, 0.168191, -0.271078, -0.806022, -0.0118545, 0.0110515
73, 0.00000, 191.644, -112.279, -193.257, -109.858, 1.44162, 222.447, 9.91408E-006, -1.25608E-005, -0.595101, 0.603079, 0.819137, 0.21336, -0.224505, -0.815543, -0.00944554, 0.0116653
74, 0.00000, 192.284, -112.335, -193.589, -110.378, 1.1672, 222.967, 8.40396E-006, -8.35964E-006, -0.393729, 0.444121, 0.581059, 0.118659, -0.187606, -0.562244, -0.00812789, 0.00782364
75, 0.00000, 192.511, -112.391, -193.737, -110.545, 1.09946, 223.168, 7.32931E-006, -1.00145E-005, -0.48224, 0.474066, 0.651292, 0.180319, -0.169308, -0.653882, -0.00707394, 0.00951281
76, 0.00000, 192.726, -112.391, -193.833, -110.729, 0.992344, 223.334, 7.08772E-006, -7.07752E-006, -0.336431, 0.378692, 0.495895, 0.101832, -0.159627, -0.480167, -0.00692544, 0.0067202
77, 0.00000, 192.723, -112.392, -193.833, -110.726, 0.994725, 223.333, 7.06248E-006, -7.2001E-006, -0.343259, 0.382623, 0.502727, 0.105782, -0.159609, -0.488057, -0.00692097, 0.00685249
78, 0.00000, 192.592, -112.374, -193.759, -110.622, 1.04536, 223.223, 7.46015E-006, -7.41442E-006, -0.352831, 0.398062, 0.520867, 0.106341, -0.168175, -0.504031, -0.00732147, 0.00704167
79, 0.00000, 192.272, -112.335, -193.583, -110.367, 1.17409, 222.957, 8.35503E-006, -8.4832E-006, -0.403408, 0.450486, 0.591492, 0.123881, -0.188243, -0.573904, -0.00819635, 0.00801977
80, 0.00000, 191.943, -112.205, -193.327, -110.147, 1.23537, 222.641, 9.19138E-006, -9.11918E-006, -0.404322, 0.493705, 0.629307, 0.103027, -0.225164, -0.596183, -0.0090126, 0.00857003
81, 0.00000, 192.541, -111.786, -193.236, -110.847, 0.609772, 222.892, 6.19252E-006, -8.93201E-006, -0.233772, 0.458824, 0.513882, -0.0271531, -0.280304, -0.431239, -0.00599766, 0.00850037
82, 0.00000, 192.292, -111.571, -192.941, -110.725, 0.574228, 222.587, 2.55354E-006, -3.20427E-005, -1.25938, 1.11629, 1.5957, 0.531446, -0.337352, -1.64668, -0.00152244, 0.0309853
83, 0.00000, 193.181, -111.258, -193.069, -111.62, -0.107207, 223.111, -3.33842E-006, -4.49839E-005, -1.74524, 1.42155, 2.10325, 0.799308, -0.3595, -2.22009, 0.00482568, 0.0442164
84, 0.00000, 192.961, -111.246, -192.961, -111.437, -0.00646252, 222.935, -2.91183E-006, -4.674E-005, -1.83173, 1.48539, 2.20175, 0.842166, -0.371566, -2.3267, 0.00445787, 0.0458812
85, 0.00000, 192.275, -111.35, -192.744, -110.808, 0.412987, 222.46, 3.78134E-007, -4.27356E-005, -1.69107, 1.41604, 2.07105, 0.754974, -0.381483, -2.16976, 0.00112664, 0.0414817
86, 0.00000, 190.807, -111.57, -192.282, -109.465, 1.30588, 221.451, 8.39292E-006, -3.02644E-005, -1.21695, 1.16011, 1.61181, 0.472498, -0.396075, -1.63073, -0.0071685, 0.0283892
87, 0.00000, 189.448, -111.746, -191.837, -108.239, 2.10595, 220.512, 1.71507E-005, -1.2938E-005, -0.528277, 0.771802, 0.931221, 0.0709628, -0.403403, -0.841096, -0.0166914, 0.0112693
88, 0.00000, 189.07, -111.758, -191.682, -107.918, 2.29701, 220.236, 2.01946E-005, -4.64269E-006, -0.174822, 0.573537, 0.583099, -0.135506, -0.408231, -0.436834, -0.020241, 0.003446
89, 0.00000, 188.892, -111.674, -191.535, -107.807, 2.31724, 220.062, 2.15737E-005, 1.41282E-007, 0.0570836, 0.460535, 0.369512, -0.279478, -0.426173, -0.180204, -0.0219966, -0.000994053
90, 0.00000, 188.88, -111.612, -191.477, -107.827, 2.27217, 220.024, 2.24808E-005, 5.6827E-006, 0.323836, 0.315999, 0.111289, -0.437818, -0.434302, 0.122196, -0.0233032, -0.00605976
91, 0.00000, 188.955, -111.61, -191.508, -107.891, 2.23386, 220.08, 2.23979E-005, 7.00629E-006, 0.385675, 0.276787, 0.0465273, -0.471663, -0.431249, 0.195099, -0.0233515, -0.00722882
92, 0.00000, 188.866, -111.637, -191.492, -107.802, 2.30012, 220.024, 2.21157E-005, 3.09032E-006, 0.200469, 0.384429, 0.232059, -0.365372, -0.43189, -0.0184132, -0.0227547, -0.00373387
93, 0.00000, 188.967, -111.712, -191.599, -107.852, 2.31128, 220.136, 2.09494E-005, -2.12729E-006, -0.0538943, 0.515421, 0.47244, -0.210981, -0.418278, -0.303441, -0.0212177, 0.00112893
94, 0.00000, 189.325, -111.828, -191.854, -108.1, 2.22813, 220.462, 1.88934E-005, -7.01453E-006, -0.29451, 0.619415, 0.682655, -0.0549488, -0.388229, -0.563211, -0.0188093, 0.00575999
95, 0.00000, 189.786, -112.003, -192.203, -108.408, 2.14188, 220.894, 1.59017E-005, -1.56453E-005, -0.719594, 0.815659, 1.06483, 0.214525, -0.345906, -1.02845, -0.0152298, 0.0139066
96, 0.00000, 190.66, -112.148, -192.711, -109.083, 1.82558, 221.631, 1.28504E-005, -1.53779E-005, -0.721228, 0.748504, 1.0078, 0.249639, -0.287181, -0.996796, -0.0122397, 0.0140312
97, 0.00000, 191.641, -112.251, -193.232, -109.869, 1.42082, 222.432, 1.02813E-005, -1.01412E-005, -0.476257, 0.539144, 0.70447, 0.142513, -0.228526, -0.680926, -0.00996802, 0.00940993
98, 0.00000, 192.228, -112.328, -193.558, -110.334, 1.18928, 222.921, 8.56124E-006, -8.50543E-006, -0.40068, 0.452268, 0.591585, 0.120599, -0.191174, -0.572321, -0.00829164, 0.00795955
99, 0.00000, 192.49, -112.388, -193.726, -110.529, 1.10778, 223.151, 7.39231E-006, -1.00772E-005, -0.484991, 0.477197, 0.655371, 0.181131, -0.170643, -0.657816, -0.00712992, 0.00956571
100, 0.00000, 192.733, -112.392, -193.838, -110.734, 0.989876, 223.34, 7.06391E-006, -7.09136E-006, -0.337133, 0.378521, 0.496097, 0.102525, -0.159129, -0.480687, -0.00689846, 0.00673307
101, 0.00000, 192.709, -112.416, -193.847, -110.703, 1.02075, 223.333, 6.73224E-006, -9.42583E-006, -0.456211, 0.444532, 0.612775, 0.172588, -0.156753, -0.616706, -0.00654326, 0.0090117
102, 0.00000, 192.702, -112.388, -193.82, -110.71, 1.00178, 223.315, 7.15114E-006, -7.11595E-006, -0.339046, 0.381955, 0.500043, 0.102466, -0.16114, -0.484079, -0.00700928, 0.00677417
103, 0.00000, 192.43, -112.353, -193.67, -110.494, 1.10983, 223.088, 7.92158E-006, -7.87819E-006, -0.374709, 0.422584, 0.553017, 0.113007, -0.178449, -0.535179, -0.00778026, 0.00746674
104, 0.00000, 192.221, -112.241, -193.481, -110.367, 1.12542, 222.872, 8.3871E-006, -8.308E-006, -0.3667, 0.451536, 0.574039, 0.0915731, -0.207499, -0.542646, -0.00822804, 0.00784424
105, 0.00000, 192.868, -111.829, -193.418, -111.105, 0.481669, 223.165, 5.25362E-006, -8.00996E-006, -0.191852, 0.410245, 0.450924, -0.0391254, -0.259232, -0.37078, -0.00509314, 0.00767086
106, 0.00000, 192.956, -111.516, -193.19, -111.32, 0.196172, 223.074, 2.63823E-006, -1.75607E-005, -0.538637, 0.676412, 0.854738, 0.127815, -0.316576, -0.803768, -0.00216308, 0.0171014
107, 0.00000, 195.632, -110.787, -193.766, -113.923, -1.69558, 224.774, -1.34044E-005, -5.09444E-005, -1.83664, 1.44175, 2.16764, 0.868955, -0.332154, -2.31153, 0.0145571, 0.0517699
108, 0.00000, 198.533, -110.044, -194.443, -116.733, -3.7202, 226.665, -2.83388E-005, -8.19305E-005, -3.12183, 2.14217, 3.41966, 1.63255, -0.29865, -3.77922, 0.0291555, 0.086439
