hour, t(sec), V1.re, V1.im, V2.re, V2.im, V3.re, V3.im, V4.re, V4.im, I1.re, I1.im, I2.re, I2.im, I3.re, I3.im, I4.re, I4.im
1, 0.00000, 189.814, -110.314, -190.89, -109.285, 0.698799, 220.24, -5.6067E-006, -1.05177E-005, -0.409472, 0.460528, 0.602524, 0.123642, -0.193662, -0.582965, 0.00621672, 0.00931248
2, 0.00000, 190.476, -110.69, -191.486, -109.664, 0.680434, 220.909, -4.72214E-006, -8.77938E-006, -0.345816, 0.38891, 0.508947, 0.104517, -0.163573, -0.49254, 0.00516441, 0.00789282
3, 0.00000, 190.869, -110.865, -191.801, -109.912, 0.630811, 221.284, -4.30902E-006, -7.97853E-006, -0.31613, 0.355378, 0.465185, 0.0956583, -0.149427, -0.450285, 0.00468007, 0.00722693
4, 0.00000, 190.954, -110.926, -191.887, -109.955, 0.638148, 221.376, -4.16597E-006, -7.70067E-006, -0.305883, 0.343887, 0.45015, 0.0925556, -0.144614, -0.435741, 0.00451307, 0.00699933
5, 0.00000, 190.795, -110.85, -191.756, -109.857, 0.654126, 221.222, -4.34322E-006, -8.04165E-006, -0.318749, 0.358397, 0.469104, 0.0964099, -0.150729, -0.454055, 0.00471778, 0.00729001
6, 0.00000, 190.308, -110.555, -191.301, -109.587, 0.653193, 220.721, -5.02843E-006, -9.3774E-006, -0.368683, 0.414503, 0.542476, 0.111466, -0.174284, -0.525005, 0.00552002, 0.00841409
7, 0.00000, 189.109, -109.955, -190.29, -108.862, 0.751128, 219.548, -6.46035E-006, -1.22316E-005, -0.470061, 0.528884, 0.691683, 0.141709, -0.222432, -0.669009, 0.00726951, 0.0106474
8, 0.00000, 188.699, -109.654, -189.864, -108.654, 0.713325, 219.102, -7.21038E-006, -1.37742E-005, -0.525728, 0.591228, 0.773252, 0.158535, -0.248522, -0.747887, 0.00820779, 0.0118985
9, 0.00000, 191.824, -109.853, -191.371, -111.15, -0.586971, 221.52, -6.87717E-006, -1.33822E-005, -0.535437, 0.594529, 0.781833, 0.165521, -0.247287, -0.75913, 0.00776866, 0.0124609
10, 0.00000, 193.102, -109.866, -191.934, -112.203, -1.17351, 222.484, -6.86298E-006, -1.34814E-005, -0.549879, 0.607127, 0.800305, 0.171795, -0.251299, -0.778378, 0.00773575, 0.0129374
11, 0.00000, 198.481, -110.145, -194.516, -116.547, -3.48004, 226.677, -6.13137E-006, -1.24074E-005, -0.548332, 0.592614, 0.788312, 0.178141, -0.240601, -0.771755, 0.00675305, 0.0134066
12, 0.00000, 198.802, -110.178, -194.684, -116.8, -3.60574, 226.936, -6.05133E-006, -1.22347E-005, -0.543663, 0.58691, 0.781119, 0.176987, -0.238038, -0.764976, 0.00663311, 0.0133137
13, 0.00000, 196.724, -110.075, -193.685, -115.118, -2.70844, 225.311, -6.35706E-006, -1.27008E-005, -0.548078, 0.596521, 0.791193, 0.175845, -0.243789, -0.772911, 0.00703151, 0.013246
14, 0.00000, 191.835, -109.706, -191.253, -111.225, -0.705221, 221.46, -7.21237E-006, -1.40967E-005, -0.56428, 0.625799, 0.823325, 0.174787, -0.260009, -0.799636, 0.00817653, 0.0131473
15, 0.00000, 189.067, -109.356, -189.774, -109.092, 0.313062, 219.236, -7.9617E-006, -1.54373E-005, -0.591453, 0.662425, 0.867707, 0.179659, -0.277459, -0.840112, 0.00916648, 0.0134653
16, 0.00000, 186.855, -108.856, -188.418, -107.488, 0.95588, 217.367, -9.11996E-006, -1.77207E-005, -0.654096, 0.737205, 0.962766, 0.196032, -0.310256, -0.930127, 0.0107067, 0.0146118
17, 0.00000, 185.423, -108.182, -187.256, -106.606, 1.10387, 215.999, -1.07888E-005, -2.1293E-005, -0.76554, 0.863937, 1.12712, 0.228461, -0.363792, -1.08804, 0.0129976, 0.0169325
18, 0.00000, 184.339, -107.628, -186.342, -105.96, 1.17913, 214.949, -1.21677E-005, -2.43311E-005, -0.857084, 0.967866, 1.26186, 0.255105, -0.40757, -1.21745, 0.0149634, 0.0188103
19, 0.00000, 183.915, -107.408, -185.982, -105.71, 1.20538, 214.537, -1.27213E-005, -2.55772E-005, -0.893412, 1.00911, 1.31528, 0.265649, -0.424924, -1.26873, 0.0157767, 0.0195431
20, 0.00000, 183.677, -107.281, -185.776, -105.569, 1.21895, 214.302, -1.30311E-005, -2.62781E-005, -0.914359, 1.03289, 1.3461, 0.271736, -0.434945, -1.29833, 0.0162323, 0.0199764
21, 0.00000, 184.084, -107.435, -186.076, -105.839, 1.14608, 214.674, -1.26363E-005, -2.54096E-005, -0.889648, 1.00427, 1.30931, 0.26486, -0.422683, -1.26321, 0.0156559, 0.0194853
22, 0.00000, 185.061, -107.917, -186.884, -106.428, 1.06465, 215.613, -1.1428E-005, -2.2731E-005, -0.810216, 0.913953, 1.19233, 0.241846, -0.384602, -1.15094, 0.0139139, 0.0178704
23, 0.00000, 186.57, -108.686, -188.157, -107.329, 0.956775, 217.078, -9.53446E-006, -1.86225E-005, -0.68258, 0.769286, 1.00452, 0.20449, -0.323689, -0.970364, 0.0112797, 0.0152106
24, 0.00000, 188.228, -109.579, -189.602, -108.299, 0.875009, 218.719, -7.37784E-006, -1.40964E-005, -0.532924, 0.600272, 0.784488, 0.160171, -0.252623, -0.758347, 0.00843672, 0.0120006
25, 0.00000, 189.324, -110.31, -190.676, -108.875, 0.932062, 219.871, -5.66073E-006, -1.0614E-005, -0.409779, 0.461906, 0.603752, 0.123176, -0.194616, -0.583752, 0.00630341, 0.00928371
26, 0.00000, 190.354, -110.69, -191.434, -109.562, 0.738842, 220.817, -4.73145E-006, -8.80317E-006, -0.345881, 0.389201, 0.509199, 0.104418, -0.163773, -0.492704, 0.00518587, 0.00788781
27, 0.00000, 190.656, -110.866, -191.709, -109.733, 0.733757, 221.124, -4.32231E-006, -7.99843E-006, -0.316191, 0.355792, 0.465546, 0.0954923, -0.149733, -0.450508, 0.00469968, 0.00722177
28, 0.00000, 190.872, -110.926, -191.852, -109.886, 0.677762, 221.314, -4.17182E-006, -7.71052E-006, -0.305913, 0.34405, 0.450294, 0.0924952, -0.144731, -0.435831, 0.00452225, 0.00699654
29, 0.00000, 190.616, -110.85, -191.678, -109.706, 0.741023, 221.086, -4.35981E-006, -8.0659E-006, -0.318836, 0.358791, 0.469462, 0.0962777, -0.151005, -0.454285, 0.00473965, 0.00728148
30, 0.00000, 189.967, -110.554, -191.153, -109.3, 0.817222, 220.463, -5.06601E-006, -9.43606E-006, -0.368896, 0.41539, 0.543284, 0.111182, -0.174895, -0.52553, 0.00557225, 0.00839424
31, 0.00000, 188.578, -109.949, -190.057, -108.418, 1.00263, 219.147, -6.52936E-006, -1.23349E-005, -0.470418, 0.530569, 0.693196, 0.141129, -0.223612, -0.669975, 0.0073633, 0.0106122
32, 0.00000, 188.274, -109.648, -189.677, -108.3, 0.913014, 218.781, -7.27557E-006, -1.38809E-005, -0.526113, 0.592798, 0.774678, 0.158037, -0.249592, -0.748818, 0.0083027, 0.0118639
33, 0.00000, 190.543, -109.763, -190.744, -110.128, -0.0568655, 220.521, -7.07337E-006, -1.36801E-005, -0.536724, 0.599011, 0.785996, 0.164281, -0.25023, -0.76197, 0.0080306, 0.0123584
34, 0.00000, 192.012, -109.813, -191.419, -111.32, -0.700508, 221.64, -7.02415E-006, -1.37371E-005, -0.550947, 0.611037, 0.803919, 0.170663, -0.253911, -0.780819, 0.00796293, 0.0128561
35, 0.00000, 194.329, -109.959, -192.545, -113.174, -1.66823, 223.447, -6.712E-006, -1.32955E-005, -0.552445, 0.607084, 0.801883, 0.174124, -0.250272, -0.781046, 0.00754531, 0.0131332
36, 0.00000, 194.758, -110.004, -192.768, -113.511, -1.83506, 223.791, -6.60313E-006, -1.30771E-005, -0.547587, 0.600816, 0.79416, 0.173106, -0.247357, -0.773902, 0.00738684, 0.0130576
37, 0.00000, 193.276, -109.901, -192.038, -112.327, -1.22085, 222.627, -6.85041E-006, -1.34542E-005, -0.551501, 0.608609, 0.802497, 0.172472, -0.251848, -0.780635, 0.00770202, 0.0130081
38, 0.00000, 190.708, -109.649, -190.72, -110.312, -0.217463, 220.589, -7.38718E-006, -1.43698E-005, -0.565402, 0.629972, 0.827171, 0.173561, -0.262801, -0.802221, 0.00841898, 0.0130578
39, 0.00000, 188.016, -109.285, -189.266, -108.251, 0.751645, 218.421, -8.1389E-006, -1.57009E-005, -0.59255, 0.666517, 0.871468, 0.178455, -0.280179, -0.842645, 0.00940002, 0.0133731
40, 0.00000, 186.563, -108.848, -188.288, -107.247, 1.09017, 217.146, -9.17446E-006, -1.78097E-005, -0.654393, 0.738509, 0.963933, 0.195596, -0.311152, -0.930878, 0.0107863, 0.0145823
41, 0.00000, 185.294, -108.178, -187.198, -106.5, 1.16205, 215.902, -1.08174E-005, -2.13388E-005, -0.765695, 0.86461, 1.12773, 0.228238, -0.364252, -1.08843, 0.0130385, 0.0169168
42, 0.00000, 184.072, -107.617, -186.221, -105.742, 1.29814, 214.746, -1.22346E-005, -2.44392E-005, -0.857453, 0.969429, 1.26326, 0.254592, -0.408632, -1.21836, 0.0150596, 0.0187734
43, 0.00000, 183.569, -107.397, -185.816, -105.42, 1.36663, 214.267, -1.28176E-005, -2.57194E-005, -0.893916, 1.01126, 1.31725, 0.264959, -0.426419, -1.26999, 0.0159027, 0.0194909
44, 0.00000, 183.291, -107.273, -185.58, -105.239, 1.40643, 213.992, -1.31656E-005, -2.64234E-005, -0.91502, 1.03546, 1.34858, 0.270992, -0.436754, -1.29993, 0.0163579, 0.0199049
45, 0.00000, 183.57, -107.417, -185.832, -105.412, 1.38233, 214.276, -1.27853E-005, -2.55972E-005, -0.890379, 1.00742, 1.31222, 0.263846, -0.424873, -1.26508, 0.0158222, 0.0194058
46, 0.00000, 184.554, -107.898, -186.655, -106.013, 1.29225, 215.229, -1.15513E-005, -2.29257E-005, -0.810887, 0.916775, 1.19487, 0.240926, -0.386516, -1.15258, 0.0140866, 0.017802
47, 0.00000, 185.997, -108.67, -187.901, -106.856, 1.21894, 216.645, -9.64662E-006, -1.88075E-005, -0.683197, 0.771962, 1.00692, 0.203601, -0.32552, -0.971906, 0.0114449, 0.0151494
48, 0.00000, 187.675, -109.57, -189.359, -107.839, 1.13347, 218.301, -7.45627E-006, -1.42264E-005, -0.533354, 0.602265, 0.786263, 0.159487, -0.254008, -0.759486, 0.00855452, 0.0119601
49, 0.00000, 189.439, -110.311, -190.727, -108.971, 0.877366, 219.958, -5.64611E-006, -1.0591E-005, -0.409703, 0.461579, 0.603457, 0.123284, -0.194391, -0.583563, 0.006283, 0.00929193
50, 0.00000, 190.233, -110.69, -191.381, -109.46, 0.796949, 220.726, -4.74463E-006, -8.82126E-006, -0.345945, 0.389489, 0.509461, 0.104322, -0.163973, -0.49287, 0.005202, 0.00788066
51, 0.00000, 190.656, -110.866, -191.709, -109.733, 0.733482, 221.124, -4.32224E-006, -8.00008E-006, -0.316193, 0.355794, 0.465547, 0.0954931, -0.149733, -0.450509, 0.00470104, 0.00722162
52, 0.00000, 190.898, -110.926, -191.863, -109.908, 0.665113, 221.334, -4.16972E-006, -7.70787E-006, -0.305903, 0.343998, 0.450247, 0.0925142, -0.144694, -0.435801, 0.00451976, 0.00699752
53, 0.00000, 190.714, -110.85, -191.721, -109.789, 0.693396, 221.16, -4.35159E-006, -8.05415E-006, -0.318795, 0.358583, 0.469275, 0.0963519, -0.150857, -0.454166, 0.00472879, 0.00728544
54, 0.00000, 189.604, -110.552, -190.996, -108.996, 0.990955, 220.19, -5.10158E-006, -9.48262E-006, -0.369066, 0.416272, 0.544078, 0.110866, -0.175525, -0.526033, 0.00561555, 0.00837732
55, 0.00000, 188.755, -109.952, -190.135, -108.565, 0.919362, 219.281, -6.5019E-006, -1.22834E-005, -0.470259, 0.52996, 0.692649, 0.141316, -0.223207, -0.669622, 0.00731861, 0.010629
56, 0.00000, 187.776, -109.611, -189.434, -107.904, 1.11873, 218.394, -7.35412E-006, -1.39845E-005, -0.526563, 0.59451, 0.776259, 0.157529, -0.250736, -0.749878, 0.00839449, 0.0118228
57, 0.00000, 188.929, -109.635, -189.948, -108.849, 0.596853, 219.262, -7.33276E-006, -1.40954E-005, -0.53843, 0.604774, 0.791328, 0.162722, -0.253957, -0.765616, 0.0083921, 0.0122156
58, 0.00000, 189.68, -109.605, -190.244, -109.486, 0.221654, 219.807, -7.40614E-006, -1.43184E-005, -0.55353, 0.619439, 0.811779, 0.16849, -0.25931, -0.786261, 0.00846795, 0.0126509
59, 0.00000, 190.606, -109.643, -190.673, -110.238, -0.184495, 220.515, -7.30691E-006, -1.41961E-005, -0.55658, 0.620402, 0.814405, 0.170726, -0.258847, -0.789753, 0.00832937, 0.0128216
60, 0.00000, 189.865, -109.667, -190.372, -109.603, 0.192986, 219.967, -7.35815E-006, -1.42135E-005, -0.552648, 0.618227, 0.810412, 0.168353, -0.258792, -0.785037, 0.00838668, 0.0126705
61, 0.00000, 189.385, -109.62, -190.128, -109.226, 0.381936, 219.588, -7.46595E-006, -1.44053E-005, -0.555603, 0.622678, 0.81558, 0.168629, -0.261047, -0.789587, 0.00853607, 0.0126847
62, 0.00000, 188.705, -109.491, -189.731, -108.724, 0.595672, 219.025, -7.72178E-006, -1.48803E-005, -0.567571, 0.637435, 0.834092, 0.171514, -0.267665, -0.806947, 0.00886524, 0.0128782
63, 0.00000, 188.01, -109.34, -189.308, -108.212, 0.809045, 218.436, -8.13327E-006, -1.57033E-005, -0.592379, 0.66664, 0.871498, 0.178231, -0.280393, -0.842544, 0.00940707, 0.0133771
64, 0.00000, 185.854, -108.829, -187.971, -106.661, 1.4147, 216.61, -9.31228E-006, -1.80249E-005, -0.655123, 0.741691, 0.966789, 0.19454, -0.313333, -0.932712, 0.0109781, 0.0145066
65, 0.00000, 184.456, -108.147, -186.82, -105.814, 1.53827, 215.269, -1.10059E-005, -2.16453E-005, -0.766734, 0.869021, 1.13168, 0.226791, -0.367247, -1.09098, 0.013311, 0.0168127
66, 0.00000, 183.343, -107.596, -185.865, -105.128, 1.64239, 214.173, -1.24243E-005, -2.47278E-005, -0.858454, 0.973784, 1.26725, 0.253183, -0.411693, -1.22091, 0.0153162, 0.018672
67, 0.00000, 182.991, -107.388, -185.51, -104.916, 1.65743, 213.791, -1.30082E-005, -2.58662E-005, -0.894683, 1.01487, 1.32077, 0.263811, -0.429112, -1.27221, 0.0160341, 0.0193978
68, 0.00000, 182.583, -107.276, -185.201, -104.62, 1.77385, 213.384, -1.34003E-005, -2.65549E-005, -0.915888, 1.04, 1.35306, 0.269565, -0.440247, -1.30281, 0.0164796, 0.0198009
69, 0.00000, 183.051, -107.409, -185.559, -104.959, 1.64299, 213.849, -1.29499E-005, -2.56897E-005, -0.891057, 1.01064, 1.31539, 0.262827, -0.427292, -1.26711, 0.0159084, 0.0193337
70, 0.00000, 183.668, -107.867, -186.238, -105.278, 1.69845, 214.547, -1.17909E-005, -2.31498E-005, -0.812001, 0.92169, 1.19948, 0.239333, -0.389981, -1.15556, 0.0142888, 0.0176839
71, 0.00000, 185.521, -108.655, -187.689, -106.466, 1.43436, 216.287, -9.73876E-006, -1.89625E-005, -0.683699, 0.774177, 1.00889, 0.202859, -0.327033, -0.973172, 0.0115834, 0.0150986
72, 0.00000, 187.681, -109.57, -189.361, -107.844, 1.13066, 218.306, -7.45486E-006, -1.42283E-005, -0.533353, 0.602249, 0.786245, 0.159494, -0.253993, -0.759475, 0.00855607, 0.0119605
73, 0.00000, 188.891, -110.129, -190.341, -108.596, 0.995347, 219.464, -6.10133E-006, -1.15E-005, -0.440115, 0.496384, 0.648572, 0.132086, -0.209211, -0.626912, 0.00685551, 0.00994136
74, 0.00000, 190.011, -110.547, -191.168, -109.341, 0.789851, 220.495, -5.07712E-006, -9.48283E-006, -0.370008, 0.416535, 0.544804, 0.111566, -0.175323, -0.527036, 0.00560333, 0.0084175
75, 0.00000, 190.427, -110.77, -191.531, -109.585, 0.768004, 220.908, -4.55097E-006, -8.4416E-006, -0.332335, 0.37407, 0.489372, 0.100287, -0.157456, -0.473495, 0.00496948, 0.00758012
76, 0.00000, 190.793, -110.872, -191.773, -109.845, 0.672999, 221.23, -4.29623E-006, -7.95338E-006, -0.315008, 0.354258, 0.463648, 0.0952453, -0.149011, -0.448751, 0.00466785, 0.00720144
77, 0.00000, 190.789, -110.873, -191.772, -109.841, 0.675918, 221.227, -4.29451E-006, -7.9462E-006, -0.314854, 0.354093, 0.463433, 0.0951949, -0.148948, -0.44854, 0.00466291, 0.00719838
78, 0.00000, 190.556, -110.773, -191.589, -109.692, 0.708464, 221.007, -4.5329E-006, -8.40502E-006, -0.331768, 0.37322, 0.488384, 0.100232, -0.157024, -0.472623, 0.00494082, 0.00757533
79, 0.00000, 189.99, -110.541, -191.153, -109.325, 0.796356, 220.475, -5.0912E-006, -9.48701E-006, -0.370989, 0.417663, 0.546298, 0.111855, -0.175819, -0.528474, 0.00560102, 0.00844355
80, 0.00000, 189.412, -110.129, -190.563, -109.03, 0.749758, 219.852, -6.10303E-006, -1.15126E-005, -0.445325, 0.501045, 0.655369, 0.134302, -0.210767, -0.633949, 0.00682528, 0.0101143
81, 0.00000, 190.52, -109.61, -190.609, -110.182, -0.169424, 220.436, -7.38329E-006, -1.43576E-005, -0.562123, 0.626662, 0.822562, 0.17237, -0.261486, -0.797619, 0.00843006, 0.0129444
82, 0.00000, 190.248, -109.109, -190.074, -110.167, -0.412004, 219.991, -8.69144E-006, -1.72472E-005, -0.672298, 0.74744, 0.982017, 0.206976, -0.311165, -0.95271, 0.0101373, 0.0155422
83, 0.00000, 191.964, -108.964, -190.694, -111.651, -1.3214, 221.204, -8.99535E-006, -1.82507E-005, -0.728409, 0.802629, 1.05839, 0.227945, -0.33156, -1.02944, 0.0105725, 0.0171175
84, 0.00000, 191.58, -108.835, -190.42, -111.389, -1.23916, 220.855, -9.30948E-006, -1.89101E-005, -0.75117, 0.828292, 1.09188, 0.234702, -0.342378, -1.06171, 0.0109825, 0.0176218
85, 0.00000, 190.307, -108.689, -189.751, -110.399, -0.756862, 219.836, -9.69295E-006, -1.95935E-005, -0.763435, 0.845699, 1.11257, 0.236416, -0.350947, -1.08025, 0.0115012, 0.0177322
86, 0.00000, 187.554, -108.369, -188.31, -108.267, 0.276285, 217.646, -1.04986E-005, -2.10194E-005, -0.7829, 0.876063, 1.14731, 0.237629, -0.366538, -1.11041, 0.0126229, 0.0177397
87, 0.00000, 184.968, -108.012, -186.923, -106.297, 1.19534, 215.581, -1.13287E-005, -2.24913E-005, -0.802376, 0.906211, 1.18177, 0.238947, -0.381844, -1.14038, 0.0137761, 0.0177137
88, 0.00000, 184.229, -107.836, -186.467, -105.771, 1.39747, 214.961, -1.17309E-005, -2.3284E-005, -0.820045, 0.928091, 1.20906, 0.2431, -0.39162, -1.16587, 0.0143364, 0.0179643
89, 0.00000, 183.88, -107.578, -186.108, -105.6, 1.3584, 214.588, -1.23542E-005, -2.4694E-005, -0.863169, 0.976475, 1.27207, 0.255946, -0.411783, -1.22659, 0.0152401, 0.0188627
90, 0.00000, 183.824, -107.441, -185.972, -105.618, 1.27561, 214.485, -1.26651E-005, -2.54211E-005, -0.886988, 1.00256, 1.30639, 0.263383, -0.422424, -1.2599, 0.0156915, 0.0193827
91, 0.00000, 183.95, -107.473, -186.051, -105.709, 1.24067, 214.593, -1.25799E-005, -2.52595E-005, -0.882102, 0.996698, 1.29893, 0.262124, -0.419829, -1.25285, 0.015584, 0.0192857
92, 0.00000, 183.814, -107.488, -186.006, -105.588, 1.31776, 214.498, -1.25575E-005, -2.51631E-005, -0.878652, 0.993581, 1.2945, 0.260705, -0.418825, -1.24833, 0.0155327, 0.0192032
93, 0.00000, 184.028, -107.693, -186.265, -105.67, 1.3791, 214.749, -1.20816E-005, -2.40875E-005, -0.843958, 0.954958, 1.244, 0.250199, -0.402818, -1.19952, 0.0148553, 0.0184553
94, 0.00000, 184.701, -108.102, -186.886, -106.04, 1.38467, 215.43, -1.10783E-005, -2.18713E-005, -0.776011, 0.878183, 1.14426, 0.230224, -0.370606, -1.10358, 0.0134311, 0.0170455
95, 0.00000, 185.581, -108.682, -187.736, -106.503, 1.42777, 216.343, -9.66902E-006, -1.88096E-005, -0.679253, 0.769094, 1.00232, 0.201582, -0.324882, -0.966876, 0.0114834, 0.0150099
96, 0.00000, 187.147, -109.395, -188.989, -107.479, 1.24681, 217.828, -7.90119E-006, -1.51282E-005, -0.562007, 0.635299, 0.828923, 0.167624, -0.268148, -0.80035, 0.00913346, 0.0125556
97, 0.00000, 188.871, -110.07, -190.283, -108.607, 0.95813, 219.422, -6.23077E-006, -1.17536E-005, -0.450125, 0.507482, 0.663172, 0.135181, -0.21382, -0.641082, 0.00700355, 0.0101728
98, 0.00000, 189.912, -110.506, -191.091, -109.277, 0.804554, 220.401, -5.17705E-006, -9.67422E-006, -0.376991, 0.424452, 0.55512, 0.113632, -0.178672, -0.536982, 0.00571985, 0.00857194
99, 0.00000, 190.39, -110.755, -191.503, -109.561, 0.773569, 220.873, -4.58809E-006, -8.51411E-006, -0.334947, 0.377028, 0.493228, 0.101062, -0.158707, -0.477214, 0.0050138, 0.00763789
100, 0.00000, 190.805, -110.878, -191.784, -109.853, 0.671649, 221.242, -4.28234E-006, -7.92704E-006, -0.314014, 0.353136, 0.462182, 0.0949478, -0.148538, -0.447335, 0.00465205, 0.00717912
101, 0.00000, 190.778, -110.916, -191.803, -109.812, 0.71523, 221.238, -4.20174E-006, -7.76237E-006, -0.307677, 0.346154, 0.452986, 0.0929628, -0.145663, -0.438388, 0.00455548, 0.00703321
102, 0.00000, 190.751, -110.855, -191.741, -109.818, 0.679337, 221.19, -4.33791E-006, -8.03028E-006, -0.318002, 0.357644, 0.46807, 0.0961377, -0.150444, -0.453021, 0.00471354, 0.00726937
103, 0.00000, 190.269, -110.654, -191.367, -109.507, 0.751827, 220.737, -4.81854E-006, -8.9568E-006, -0.351905, 0.396022, 0.51811, 0.10621, -0.166663, -0.501298, 0.00527655, 0.00802227
104, 0.00000, 189.905, -110.334, -190.945, -109.347, 0.676594, 220.315, -5.60583E-006, -1.05278E-005, -0.410605, 0.461686, 0.604118, 0.124045, -0.194125, -0.584555, 0.00621815, 0.00935257
105, 0.00000, 191.099, -109.855, -191.061, -110.554, -0.25331, 220.983, -6.79911E-006, -1.31439E-005, -0.519815, 0.579091, 0.760452, 0.159699, -0.241519, -0.737655, 0.00768103, 0.0120084
106, 0.00000, 191.348, -109.307, -190.713, -111, -0.785816, 220.91, -8.11177E-006, -1.60881E-005, -0.637333, 0.706147, 0.929156, 0.197593, -0.293083, -0.902487, 0.00937196, 0.0148354
107, 0.00000, 196.467, -109.283, -192.917, -115.255, -3.19482, 224.747, -7.97888E-006, -1.65139E-005, -0.705234, 0.763705, 1.01461, 0.227918, -0.310569, -0.992213, 0.00917057, 0.0171035
108, 0.00000, 201.987, -109.355, -195.408, -119.818, -5.73707, 228.98, -7.31064E-006, -1.5691E-005, -0.726968, 0.769444, 1.03216, 0.244378, -0.306085, -1.01638, 0.0082017, 0.0182519
