hour, t(sec), P1 (kW), Q1 (kvar), P2 (kW), Q2 (kvar), P3 (kW), Q3 (kvar), P4 (kW), Q4 (kvar)
1, 0.00000, -0.0530304, -0.0174302, -0.0530303, -0.0174302, -0.0530301, -0.0174301, 1.70748E-011, -4.79738E-012
2, 0.00000, -0.0449381, -0.0147704, -0.044938, -0.0147704, -0.044938, -0.0147704, 1.02767E-011, -2.91694E-012
3, 0.00000, -0.0411475, -0.0135245, -0.0411473, -0.0135245, -0.0411472, -0.0135244, 7.92668E-012, -2.26501E-012
4, 0.00000, -0.0398368, -0.0130937, -0.0398368, -0.0130937, -0.0398367, -0.0130937, 7.13472E-012, -2.04636E-012
5, 0.00000, -0.0414846, -0.0136353, -0.0414847, -0.0136354, -0.0414847, -0.0136354, 8.00826E-012, -2.2886E-012
6, 0.00000, -0.0478608, -0.0157311, -0.047861, -0.0157312, -0.0478611, -0.0157312, 1.22051E-011, -3.47873E-012
7, 0.00000, -0.0606701, -0.0199412, -0.0606701, -0.0199413, -0.06067, -0.0199413, 2.56789E-011, -7.12195E-012
8, 0.00000, -0.067686, -0.0222472, -0.0676861, -0.0222473, -0.0676863, -0.0222473, 3.35571E-011, -9.7905E-012
9, 0.00000, -0.0693215, -0.0227848, -0.0693214, -0.0227849, -0.0693213, -0.0227848, 1.39849E-011, -9.91226E-012
10, 0.00000, -0.0713281, -0.0234444, -0.0713279, -0.0234444, -0.0713278, -0.0234443, 5.89577E-012, -1.03602E-011
11, 0.00000, -0.0718314, -0.0236098, -0.0718311, -0.0236098, -0.0718312, -0.0236098, -2.9964E-011, -7.99561E-012
12, 0.00000, -0.0712695, -0.0234252, -0.0712693, -0.0234252, -0.0712693, -0.0234251, -3.13482E-011, -7.47498E-012
13, 0.00000, -0.0715784, -0.0235266, -0.0715784, -0.0235267, -0.0715784, -0.0235266, -1.86664E-011, -8.69623E-012
14, 0.00000, -0.0729886, -0.0239901, -0.0729886, -0.0239903, -0.0729886, -0.0239902, 1.54177E-011, -1.14907E-011
15, 0.00000, -0.0760316, -0.0249903, -0.0760311, -0.0249902, -0.076031, -0.0249901, 4.00194E-011, -1.39204E-011
16, 0.00000, -0.0835404, -0.0274583, -0.0835404, -0.0274584, -0.0835404, -0.0274584, 6.97798E-011, -1.82237E-011
17, 0.00000, -0.0971318, -0.0319255, -0.0971318, -0.0319257, -0.0971318, -0.0319256, 1.12837E-010, -2.81257E-011
18, 0.00000, -0.108169, -0.0355534, -0.108169, -0.0355536, -0.108169, -0.0355535, 1.59089E-010, -3.84076E-011
19, 0.00000, -0.112514, -0.0369813, -0.112514, -0.0369816, -0.112514, -0.0369814, 1.80671E-010, -4.30157E-011
20, 0.00000, -0.115023, -0.0378058, -0.115023, -0.0378061, -0.115023, -0.0378061, 1.93125E-010, -4.58335E-011
21, 0.00000, -0.112084, -0.0368402, -0.112084, -0.0368404, -0.112084, -0.0368402, 1.77922E-010, -4.27851E-011
22, 0.00000, -0.102554, -0.0337079, -0.102554, -0.0337081, -0.102554, -0.0337079, 1.33844E-010, -3.31641E-011
23, 0.00000, -0.0870361, -0.0286073, -0.0870359, -0.0286075, -0.0870358, -0.0286073, 7.95878E-011, -2.05778E-011
24, 0.00000, -0.0685243, -0.0225228, -0.0685242, -0.0225229, -0.0685241, -0.0225228, 3.78154E-011, -1.01557E-011
25, 0.00000, -0.0530298, -0.01743, -0.0530297, -0.0174301, -0.0530297, -0.01743, 1.74615E-011, -4.66538E-012
26, 0.00000, -0.0449382, -0.0147704, -0.0449381, -0.0147705, -0.044938, -0.0147704, 1.0393E-011, -2.90783E-012
27, 0.00000, -0.0411463, -0.0135241, -0.0411462, -0.0135241, -0.0411462, -0.0135241, 7.94486E-012, -2.22314E-012
28, 0.00000, -0.0398367, -0.0130937, -0.0398367, -0.0130937, -0.0398366, -0.0130937, 7.15824E-012, -2.02921E-012
29, 0.00000, -0.0414851, -0.0136355, -0.0414851, -0.0136355, -0.0414851, -0.0136355, 8.12252E-012, -2.27683E-012
30, 0.00000, -0.0478621, -0.0157315, -0.0478622, -0.0157315, -0.0478622, -0.0157315, 1.25712E-011, -3.47499E-012
31, 0.00000, -0.0606701, -0.0199412, -0.0606701, -0.0199413, -0.06067, -0.0199413, 2.63008E-011, -6.93074E-012
32, 0.00000, -0.0676878, -0.0222478, -0.0676878, -0.0222479, -0.0676878, -0.0222479, 3.44312E-011, -9.57861E-012
33, 0.00000, -0.0693214, -0.0227848, -0.0693213, -0.0227849, -0.0693212, -0.0227848, 2.18118E-011, -1.01365E-011
34, 0.00000, -0.0713282, -0.0234444, -0.071328, -0.0234445, -0.0713279, -0.0234444, 1.1734E-011, -1.05926E-011
35, 0.00000, -0.071832, -0.02361, -0.0718318, -0.0236101, -0.0718317, -0.02361, -4.72383E-012, -9.97938E-012
36, 0.00000, -0.0712694, -0.0234251, -0.0712693, -0.0234251, -0.0712692, -0.0234251, -7.34681E-012, -9.52316E-012
37, 0.00000, -0.0715781, -0.0235265, -0.0715782, -0.0235266, -0.0715782, -0.0235266, 2.2445E-012, -1.01718E-011
38, 0.00000, -0.0729886, -0.0239901, -0.0729886, -0.0239903, -0.0729886, -0.0239902, 2.14722E-011, -1.16085E-011
39, 0.00000, -0.0760305, -0.0249899, -0.07603, -0.0249898, -0.0760302, -0.0249899, 4.64924E-011, -1.38845E-011
40, 0.00000, -0.0835403, -0.0274583, -0.0835403, -0.0274584, -0.0835403, -0.0274583, 7.05518E-011, -1.79448E-011
41, 0.00000, -0.0971316, -0.0319255, -0.0971317, -0.0319257, -0.0971317, -0.0319256, 1.13307E-010, -2.79209E-011
42, 0.00000, -0.108169, -0.0355533, -0.108169, -0.0355535, -0.108169, -0.0355534, 1.60436E-010, -3.78682E-011
43, 0.00000, -0.112514, -0.0369814, -0.112514, -0.0369816, -0.112514, -0.0369814, 1.82344E-010, -4.2374E-011
44, 0.00000, -0.115026, -0.0378071, -0.115026, -0.0378073, -0.115026, -0.0378071, 1.95122E-010, -4.53052E-011
45, 0.00000, -0.112084, -0.0368401, -0.112084, -0.0368404, -0.112084, -0.0368402, 1.80162E-010, -4.17467E-011
46, 0.00000, -0.102554, -0.033708, -0.102554, -0.0337081, -0.102554, -0.0337079, 1.36119E-010, -3.22402E-011
47, 0.00000, -0.0870363, -0.0286074, -0.0870361, -0.0286075, -0.0870359, -0.0286073, 8.13658E-011, -1.99515E-011
48, 0.00000, -0.0685242, -0.0225228, -0.0685241, -0.0225228, -0.068524, -0.0225228, 3.87174E-011, -9.84222E-012
49, 0.00000, -0.0530296, -0.01743, -0.0530296, -0.01743, -0.0530295, -0.01743, 1.73337E-011, -4.69882E-012
50, 0.00000, -0.0449382, -0.0147705, -0.0449382, -0.0147705, -0.0449381, -0.0147704, 1.04628E-011, -2.87739E-012
51, 0.00000, -0.0411463, -0.0135241, -0.0411462, -0.0135241, -0.0411462, -0.0135241, 7.95393E-012, -2.22398E-012
52, 0.00000, -0.0398367, -0.0130937, -0.0398367, -0.0130937, -0.0398366, -0.0130937, 7.14911E-012, -2.03252E-012
53, 0.00000, -0.0414851, -0.0136355, -0.0414851, -0.0136355, -0.0414851, -0.0136355, 8.07899E-012, -2.28834E-012
54, 0.00000, -0.0478619, -0.0157314, -0.047862, -0.0157315, -0.0478621, -0.0157315, 1.2768E-011, -3.40369E-012
55, 0.00000, -0.0606715, -0.0199416, -0.0606711, -0.0199416, -0.0606711, -0.0199416, 2.62644E-011, -7.11718E-012
56, 0.00000, -0.0676873, -0.0222476, -0.0676874, -0.0222478, -0.0676875, -0.0222478, 3.68966E-011, -9.52096E-012
57, 0.00000, -0.0693219, -0.022785, -0.0693217, -0.022785, -0.0693215, -0.0227849, 3.23307E-011, -1.02897E-011
58, 0.00000, -0.0713282, -0.0234444, -0.071328, -0.0234445, -0.0713279, -0.0234444, 2.98121E-011, -1.12161E-011
59, 0.00000, -0.0718321, -0.0236101, -0.0718319, -0.0236101, -0.0718318, -0.02361, 2.49186E-011, -1.14069E-011
60, 0.00000, -0.0712688, -0.0234248, -0.0712689, -0.023425, -0.071269, -0.0234249, 2.50133E-011, -1.08629E-011
61, 0.00000, -0.0715781, -0.0235265, -0.0715782, -0.0235266, -0.0715782, -0.0235266, 2.82928E-011, -1.10009E-011
62, 0.00000, -0.0729884, -0.02399, -0.0729884, -0.0239902, -0.0729885, -0.0239901, 3.55713E-011, -1.18174E-011
63, 0.00000, -0.076029, -0.0249894, -0.076029, -0.0249895, -0.0760291, -0.0249895, 4.15692E-011, -1.31111E-011
64, 0.00000, -0.0835404, -0.0274583, -0.0835404, -0.0274584, -0.0835404, -0.0274584, 7.25197E-011, -1.71815E-011
65, 0.00000, -0.0971315, -0.0319255, -0.0971316, -0.0319257, -0.0971316, -0.0319256, 1.16738E-010, -2.6541E-011
66, 0.00000, -0.108169, -0.0355533, -0.108169, -0.0355534, -0.108169, -0.0355533, 1.63457E-010, -3.66484E-011
67, 0.00000, -0.112514, -0.0369814, -0.112514, -0.0369815, -0.112513, -0.0369813, 1.83427E-010, -4.16282E-011
68, 0.00000, -0.115026, -0.037807, -0.115026, -0.0378073, -0.115025, -0.037807, 1.96049E-010, -4.52498E-011
69, 0.00000, -0.112084, -0.0368402, -0.112084, -0.0368405, -0.112084, -0.0368403, 1.80751E-010, -4.12403E-011
70, 0.00000, -0.102555, -0.033708, -0.102555, -0.0337083, -0.102555, -0.0337083, 1.38964E-010, -3.06138E-011
71, 0.00000, -0.0870361, -0.0286073, -0.0870359, -0.0286074, -0.0870357, -0.0286073, 8.28751E-011, -1.93478E-011
72, 0.00000, -0.0685243, -0.0225228, -0.0685241, -0.0225229, -0.068524, -0.0225228, 3.87426E-011, -9.85027E-012
73, 0.00000, -0.0568496, -0.0186856, -0.0568494, -0.0186856, -0.0568492, -0.0186855, 2.17888E-011, -5.69858E-012
74, 0.00000, -0.0480018, -0.0157773, -0.0480017, -0.0157774, -0.0480015, -0.0157773, 1.27969E-011, -3.51893E-012
75, 0.00000, -0.0432058, -0.014201, -0.0432057, -0.0142011, -0.0432057, -0.014201, 9.24367E-012, -2.56527E-012
76, 0.00000, -0.0410016, -0.0134766, -0.0410015, -0.0134766, -0.0410015, -0.0134765, 7.80814E-012, -2.21436E-012
77, 0.00000, -0.0409823, -0.0134702, -0.0409823, -0.0134703, -0.0409823, -0.0134702, 7.77932E-012, -2.21084E-012
78, 0.00000, -0.043142, -0.0141801, -0.043142, -0.0141801, -0.043142, -0.0141801, 9.10145E-012, -2.57028E-012
79, 0.00000, -0.0481312, -0.0158199, -0.0481313, -0.01582, -0.0481313, -0.01582, 1.2754E-011, -3.53951E-012
80, 0.00000, -0.0575705, -0.0189225, -0.0575705, -0.0189225, -0.0575705, -0.0189225, 2.04706E-011, -5.9874E-012
81, 0.00000, -0.0725234, -0.0238373, -0.0725232, -0.0238373, -0.0725231, -0.0238372, 2.58988E-011, -1.17644E-011
82, 0.00000, -0.0864215, -0.0284053, -0.0864215, -0.0284054, -0.0864215, -0.0284054, 3.14893E-011, -1.90404E-011
83, 0.00000, -0.0937705, -0.0308209, -0.0937702, -0.0308209, -0.09377, -0.0308208, 1.5026E-011, -2.33482E-011
84, 0.00000, -0.0965706, -0.0317411, -0.0965705, -0.0317413, -0.0965705, -0.0317411, 1.89389E-011, -2.54793E-011
85, 0.00000, -0.0978734, -0.0321692, -0.0978735, -0.0321695, -0.0978735, -0.0321694, 3.52255E-011, -2.70183E-011
86, 0.00000, -0.099755, -0.0327877, -0.099755, -0.032788, -0.0997549, -0.0327878, 7.59579E-011, -2.92486E-011
87, 0.00000, -0.101621, -0.0334011, -0.101621, -0.0334014, -0.101621, -0.0334012, 1.21715E-010, -3.09274E-011
88, 0.00000, -0.103629, -0.034061, -0.103629, -0.0340612, -0.103629, -0.0340611, 1.4133E-010, -3.28249E-011
89, 0.00000, -0.108829, -0.0357703, -0.108829, -0.0357706, -0.108829, -0.0357704, 1.64469E-010, -3.81701E-011
90, 0.00000, -0.111719, -0.03672, -0.111719, -0.0367204, -0.111719, -0.0367201, 1.77277E-010, -4.13914E-011
91, 0.00000, -0.111135, -0.0365283, -0.111135, -0.0365284, -0.111134, -0.0365281, 1.74925E-010, -4.1242E-011
92, 0.00000, -0.110709, -0.0363881, -0.110709, -0.0363884, -0.110709, -0.0363883, 1.72727E-010, -4.05782E-011
93, 0.00000, -0.10651, -0.035008, -0.10651, -0.0350082, -0.10651, -0.035008, 1.5427E-010, -3.57363E-011
94, 0.00000, -0.098301, -0.0323099, -0.0983008, -0.03231, -0.0983005, -0.0323098, 1.20287E-010, -2.8099E-011
95, 0.00000, -0.0864948, -0.0284294, -0.0864947, -0.0284295, -0.0864946, -0.0284294, 8.11055E-011, -1.90196E-011
96, 0.00000, -0.0720678, -0.0236875, -0.0720677, -0.0236876, -0.0720676, -0.0236875, 4.56448E-011, -1.12818E-011
97, 0.00000, -0.0581221, -0.0191038, -0.058122, -0.0191038, -0.0581219, -0.0191037, 2.30741E-011, -6.13325E-012
98, 0.00000, -0.0488884, -0.0160688, -0.0488883, -0.0160689, -0.0488882, -0.0160688, 1.35175E-011, -3.70376E-012
99, 0.00000, -0.0435385, -0.0143104, -0.0435385, -0.0143104, -0.0435384, -0.0143104, 9.46896E-012, -2.62344E-012
100, 0.00000, -0.0408743, -0.0134347, -0.0408743, -0.0134348, -0.0408743, -0.0134347, 7.73701E-012, -2.19429E-012
101, 0.00000, -0.0400596, -0.0131669, -0.0400596, -0.0131669, -0.0400596, -0.0131669, 7.29742E-012, -2.06675E-012
102, 0.00000, -0.0413853, -0.0136027, -0.0413853, -0.0136027, -0.0413853, -0.0136027, 7.9997E-012, -2.26191E-012
103, 0.00000, -0.045707, -0.0150231, -0.045707, -0.0150232, -0.045707, -0.0150232, 1.08666E-011, -3.04424E-012
104, 0.00000, -0.0531904, -0.0174828, -0.0531904, -0.0174829, -0.0531904, -0.0174828, 1.59128E-011, -4.75075E-012
105, 0.00000, -0.0672294, -0.0220972, -0.0672292, -0.0220972, -0.0672291, -0.0220972, 1.93204E-011, -9.36879E-012
106, 0.00000, -0.0821624, -0.0270055, -0.0821617, -0.0270054, -0.0821623, -0.0270055, 2.39672E-011, -1.70832E-011
107, 0.00000, -0.0915946, -0.0301057, -0.0915941, -0.0301057, -0.0915941, -0.0301056, -2.94834E-011, -1.91154E-011
108, 0.00000, -0.0952973, -0.0313227, -0.0952969, -0.0313228, -0.0952971, -0.0313227, -9.39093E-011, -1.48351E-011
109, 0.00000, -0.0976601, -0.0320991, -0.0976602, -0.0320993, -0.0976601, -0.0320992, -9.32546E-011, -1.63944E-011
110, 0.00000, -0.0992401, -0.0326185, -0.0992403, -0.0326188, -0.0992403, -0.0326186, 4.5179E-011, -2.90509E-011
111, 0.00000, -0.0987291, -0.0324506, -0.0987291, -0.0324508, -0.098729, -0.0324506, 9.06169E-011, -2.98127E-011
112, 0.00000, -0.0978815, -0.032172, -0.0978816, -0.0321722, -0.0978816, -0.0321721, 1.14082E-010, -2.92645E-011
113, 0.00000, -0.10196, -0.0335126, -0.10196, -0.0335128, -0.10196, -0.0335127, 1.30258E-010, -3.29285E-011
114, 0.00000, -0.107388, -0.0352964, -0.107388, -0.0352967, -0.107387, -0.0352965, 1.53782E-010, -3.82494E-011
115, 0.00000, -0.110032, -0.0361657, -0.110032, -0.0361659, -0.110032, -0.0361657, 1.66493E-010, -4.099E-011
116, 0.00000, -0.113343, -0.0372539, -0.113343, -0.0372542, -0.113343, -0.037254, 1.83278E-010, -4.45914E-011
117, 0.00000, -0.110765, -0.0364068, -0.110765, -0.0364069, -0.110764, -0.0364066, 1.71643E-010, -4.17022E-011
118, 0.00000, -0.100657, -0.0330843, -0.100657, -0.0330845, -0.100657, -0.0330843, 1.26308E-010, -3.14019E-011
119, 0.00000, -0.08479, -0.027869, -0.0847898, -0.0278691, -0.0847896, -0.027869, 7.37313E-011, -1.8969E-011
120, 0.00000, -0.0663645, -0.0218129, -0.0663644, -0.021813, -0.0663643, -0.0218129, 3.49603E-011, -8.97989E-012
121, 0.00000, -0.0530296, -0.01743, -0.0530296, -0.01743, -0.0530295, -0.01743, 1.73217E-011, -4.70023E-012
122, 0.00000, -0.0449382, -0.0147705, -0.0449382, -0.0147705, -0.0449381, -0.0147704, 1.04622E-011, -2.87737E-012
123, 0.00000, -0.0411463, -0.0135241, -0.0411463, -0.0135241, -0.0411462, -0.0135241, 7.91068E-012, -2.23629E-012
124, 0.00000, -0.0398369, -0.0130937, -0.0398368, -0.0130937, -0.0398368, -0.0130937, 7.19834E-012, -2.03228E-012
125, 0.00000, -0.0414848, -0.0136354, -0.0414848, -0.0136354, -0.0414848, -0.0136354, 8.04519E-012, -2.27776E-012
126, 0.00000, -0.0478621, -0.0157315, -0.0478621, -0.0157315, -0.0478621, -0.0157315, 1.25165E-011, -3.48392E-012
127, 0.00000, -0.06067, -0.0199412, -0.06067, -0.0199413, -0.06067, -0.0199413, 2.64409E-011, -6.88105E-012
128, 0.00000, -0.0676878, -0.0222479, -0.0676878, -0.022248, -0.0676878, -0.0222479, 3.45062E-011, -9.57546E-012
129, 0.00000, -0.0693214, -0.0227848, -0.0693213, -0.0227849, -0.0693212, -0.0227848, 2.1562E-011, -1.02495E-011
130, 0.00000, -0.0713282, -0.0234444, -0.071328, -0.0234445, -0.0713279, -0.0234444, 1.12867E-011, -1.06909E-011
131, 0.00000, -0.0718304, -0.0236095, -0.0718299, -0.0236094, -0.0718302, -0.0236095, -4.98962E-011, -5.70677E-012
132, 0.00000, -0.0712688, -0.0234249, -0.0712687, -0.0234249, -0.0712687, -0.0234249, -6.29103E-011, -3.41302E-012
133, 0.00000, -0.071578, -0.0235265, -0.0715779, -0.0235266, -0.0715779, -0.0235265, -7.12264E-011, -2.2545E-012
134, 0.00000, -0.0729886, -0.0239901, -0.0729887, -0.0239903, -0.0729886, -0.0239902, 3.00662E-012, -1.08514E-011
135, 0.00000, -0.0760292, -0.0249895, -0.0760293, -0.0249897, -0.0760293, -0.0249896, 3.02636E-011, -1.35294E-011
136, 0.00000, -0.0835409, -0.0274584, -0.0835408, -0.0274586, -0.0835408, -0.0274585, 6.86322E-011, -1.86204E-011
137, 0.00000, -0.097132, -0.0319256, -0.0971319, -0.0319258, -0.0971319, -0.0319257, 1.10811E-010, -2.88625E-011
138, 0.00000, -0.10817, -0.0355534, -0.10817, -0.0355537, -0.10817, -0.0355535, 1.56295E-010, -3.94781E-011
139, 0.00000, -0.112514, -0.0369814, -0.112514, -0.0369816, -0.112514, -0.0369814, 1.77564E-010, -4.4216E-011
140, 0.00000, -0.115023, -0.0378058, -0.115023, -0.0378061, -0.115023, -0.0378061, 1.89891E-010, -4.70404E-011
141, 0.00000, -0.112087, -0.0368414, -0.112087, -0.0368415, -0.112086, -0.0368411, 1.7661E-010, -4.37088E-011
142, 0.00000, -0.102554, -0.0337079, -0.102554, -0.033708, -0.102554, -0.0337078, 1.32183E-010, -3.375E-011
143, 0.00000, -0.0870359, -0.0286073, -0.0870358, -0.0286074, -0.0870356, -0.0286072, 7.84346E-011, -2.09418E-011
144, 0.00000, -0.0685242, -0.0225228, -0.0685241, -0.0225228, -0.068524, -0.0225227, 3.71941E-011, -1.03317E-011
145, 0.00000, -0.0530297, -0.01743, -0.0530296, -0.01743, -0.0530296, -0.01743, 1.74349E-011, -4.66899E-012
146, 0.00000, -0.0449382, -0.0147704, -0.0449381, -0.0147705, -0.044938, -0.0147704, 1.03927E-011, -2.90793E-012
147, 0.00000, -0.0411463, -0.0135241, -0.0411462, -0.0135241, -0.0411462, -0.0135241, 7.9446E-012, -2.2232E-012
148, 0.00000, -0.0398372, -0.0130938, -0.0398371, -0.0130938, -0.039837, -0.0130938, 7.23399E-012, -2.02343E-012
149, 0.00000, -0.0414851, -0.0136355, -0.0414851, -0.0136355, -0.0414851, -0.0136355, 8.12597E-012, -2.27718E-012
150, 0.00000, -0.0478621, -0.0157315, -0.0478622, -0.0157315, -0.0478622, -0.0157315, 1.25671E-011, -3.47639E-012
151, 0.00000, -0.0606701, -0.0199412, -0.0606701, -0.0199413, -0.06067, -0.0199413, 2.62954E-011, -6.93243E-012
152, 0.00000, -0.0676863, -0.0222474, -0.0676861, -0.0222474, -0.0676863, -0.0222474, 3.20835E-011, -9.6729E-012
153, 0.00000, -0.0693221, -0.0227851, -0.0693218, -0.0227851, -0.0693216, -0.0227849, 1.52923E-011, -9.89967E-012
154, 0.00000, -0.0713279, -0.0234443, -0.0713278, -0.0234444, -0.0713278, -0.0234443, 1.22226E-011, -1.05592E-011
155, 0.00000, -0.0718321, -0.0236101, -0.0718319, -0.0236101, -0.0718318, -0.02361, -4.29346E-012, -9.99906E-012
156, 0.00000, -0.0712693, -0.0234251, -0.0712693, -0.0234251, -0.0712692, -0.0234251, -6.95733E-012, -9.54487E-012
157, 0.00000, -0.0715782, -0.0235265, -0.0715782, -0.0235267, -0.0715782, -0.0235266, 2.33776E-012, -1.02047E-011
158, 0.00000, -0.0729886, -0.0239901, -0.0729886, -0.0239903, -0.0729886, -0.0239902, 2.15438E-011, -1.16427E-011
159, 0.00000, -0.0760305, -0.0249899, -0.07603, -0.0249899, -0.0760302, -0.0249899, 4.65954E-011, -1.38735E-011
160, 0.00000, -0.0835403, -0.0274583, -0.0835403, -0.0274584, -0.0835403, -0.0274583, 7.06986E-011, -1.78937E-011
161, 0.00000, -0.0971316, -0.0319254, -0.0971316, -0.0319257, -0.0971317, -0.0319256, 1.13878E-010, -2.77058E-011
162, 0.00000, -0.108169, -0.0355533, -0.108169, -0.0355536, -0.108169, -0.0355534, 1.60503E-010, -3.78266E-011
163, 0.00000, -0.112512, -0.0369803, -0.112513, -0.0369808, -0.112513, -0.0369807, 1.80313E-010, -4.2592E-011
164, 0.00000, -0.115026, -0.0378071, -0.115026, -0.0378073, -0.115026, -0.0378071, 1.94723E-010, -4.55776E-011
165, 0.00000, -0.112084, -0.0368401, -0.112084, -0.0368404, -0.112084, -0.0368402, 1.79776E-010, -4.19746E-011
166, 0.00000, -0.102554, -0.0337079, -0.102554, -0.0337081, -0.102554, -0.0337079, 1.36456E-010, -3.2168E-011
167, 0.00000, -0.0870363, -0.0286074, -0.0870361, -0.0286075, -0.0870359, -0.0286073, 8.16246E-011, -1.98543E-011
168, 0.00000, -0.0685242, -0.0225228, -0.0685241, -0.0225228, -0.068524, -0.0225228, 3.87223E-011, -9.84336E-012
169, 0.00000, -0.0530296, -0.01743, -0.0530296, -0.01743, -0.0530295, -0.01743, 1.73266E-011, -4.70098E-012
170, 0.00000, -0.0449382, -0.0147705, -0.0449382, -0.0147705, -0.0449381, -0.0147704, 1.04621E-011, -2.87741E-012
171, 0.00000, -0.0411463, -0.0135241, -0.0411463, -0.0135241, -0.0411462, -0.0135241, 7.90485E-012, -2.23791E-012
172, 0.00000, -0.0398368, -0.0130937, -0.0398368, -0.0130937, -0.0398367, -0.0130937, 7.19471E-012, -2.0334E-012
173, 0.00000, -0.0414846, -0.0136353, -0.0414847, -0.0136353, -0.0414847, -0.0136353, 8.05855E-012, -2.27638E-012
174, 0.00000, -0.0478621, -0.0157315, -0.0478621, -0.0157315, -0.0478621, -0.0157315, 1.2596E-011, -3.46125E-012
175, 0.00000, -0.0606696, -0.0199409, -0.0606697, -0.019941, -0.0606698, -0.019941, 2.61923E-011, -6.94921E-012
176, 0.00000, -0.0676877, -0.0222478, -0.0676877, -0.0222479, -0.0676877, -0.0222479, 3.46426E-011, -9.5155E-012
177, 0.00000, -0.0693214, -0.0227848, -0.0693213, -0.0227849, -0.0693212, -0.0227848, 1.70854E-011, -1.00372E-011
