hour, t(sec), P1 (kW), Q1 (kvar), P2 (kW), Q2 (kvar)
0, 60.00000, 0.25802, 0.0848071, 7.43861E-008, 6.00462E-008
0, 120.00000, 0.25802, 0.084807, 7.43972E-008, 6.00486E-008
0, 180.00000, 0.25802, 0.084807, 7.43973E-008, 6.00487E-008
0, 240.00000, 0.25802, 0.084807, 7.43973E-008, 6.00487E-008
0, 300.00000, 0.25802, 0.084807, 7.43973E-008, 6.00487E-008
0, 360.00000, 0.258015, 0.084805, -2.2125E-008, -1.99028E-008
0, 420.00000, 0.25802, 0.0848071, -2.22403E-008, -1.98279E-008
0, 480.00000, 0.25802, 0.0848071, -2.22415E-008, -1.98278E-008
0, 540.00000, 0.25802, 0.0848071, -2.22415E-008, -1.98278E-008
0, 600.00000, 0.25802, 0.0848071, -2.22415E-008, -1.98278E-008
0, 660.00000, 0.258025, 0.0848079, 3.55411E-009, 4.45736E-008
0, 720.00000, 0.25802, 0.084807, 3.63977E-009, 4.44468E-008
0, 780.00000, 0.25802, 0.084807, 3.64087E-009, 4.44461E-008
0, 840.00000, 0.25802, 0.084807, 3.64088E-009, 4.44461E-008
0, 900.00000, 0.25802, 0.084807, 3.64088E-009, 4.44461E-008
0, 960.00000, 0.25802, 0.0848063, 2.97054E-008, 1.09736E-007
0, 1020.00000, 0.25802, 0.084807, 2.96528E-008, 1.09692E-007
0, 1080.00000, 0.25802, 0.084807, 2.96528E-008, 1.09691E-007
0, 1140.00000, 0.25802, 0.084807, 2.96528E-008, 1.09691E-007
0, 1200.00000, 0.25802, 0.084807, 2.96528E-008, 1.09691E-007
0, 1260.00000, 0.258016, 0.0848089, 1.45742E-007, 7.60281E-008
0, 1320.00000, 0.25802, 0.084807, 1.45754E-007, 7.62314E-008
0, 1380.00000, 0.25802, 0.084807, 1.45753E-007, 7.6233E-008
0, 1440.00000, 0.25802, 0.084807, 1.45753E-007, 7.6233E-008
0, 1500.00000, 0.25802, 0.084807, 1.45753E-007, 7.6233E-008
0, 1560.00000, 0.1843, 0.0605783, 1.85723E-007, 2.18321E-008
0, 1620.00000, 0.1843, 0.0605765, 1.85785E-007, 2.18938E-008
0, 1680.00000, 0.1843, 0.0605765, 1.85786E-007, 2.18945E-008
0, 1740.00000, 0.1843, 0.0605765, 1.85786E-007, 2.18945E-008
0, 1800.00000, 0.1843, 0.0605765, 1.85786E-007, 2.18945E-008
0, 1860.00000, 0.331739, 0.109034, 4.15676E-008, 1.57443E-007
0, 1920.00000, 0.33174, 0.109037, 4.14534E-008, 1.57317E-007
0, 1980.00000, 0.33174, 0.109038, 4.14529E-008, 1.57315E-007
0, 2040.00000, 0.33174, 0.109038, 4.14529E-008, 1.57315E-007
0, 2100.00000, 0.33174, 0.109038, 4.14529E-008, 1.57315E-007
0, 2160.00000, 0.294885, 0.0969222, 5.48396E-009, 5.75557E-008
0, 2220.00000, 0.29488, 0.0969223, 5.5143E-009, 5.7421E-008
0, 2280.00000, 0.29488, 0.0969223, 5.51501E-009, 5.74201E-008
0, 2340.00000, 0.29488, 0.0969223, 5.51502E-009, 5.74201E-008
0, 2400.00000, 0.29488, 0.0969223, 5.51502E-009, 5.74201E-008
0, 2460.00000, 0.221161, 0.072689, 5.55749E-008, -1.08307E-007
0, 2520.00000, 0.22116, 0.0726919, 5.55047E-008, -1.08464E-007
0, 2580.00000, 0.22116, 0.0726919, 5.55047E-008, -1.08465E-007
0, 2640.00000, 0.22116, 0.0726919, 5.55047E-008, -1.08465E-007
0, 2700.00000, 0.22116, 0.0726919, 5.55047E-008, -1.08465E-007
0, 2760.00000, 0.331737, 0.109034, -1.09921E-007, 2.00709E-007
0, 2820.00000, 0.33174, 0.109037, -1.10077E-007, 2.00705E-007
0, 2880.00000, 0.33174, 0.109037, -1.10078E-007, 2.00705E-007
0, 2940.00000, 0.33174, 0.109037, -1.10078E-007, 2.00705E-007
0, 3000.00000, 0.33174, 0.109037, -1.10078E-007, 2.00705E-007
0, 3060.00000, 0.221164, 0.0726975, 1.60939E-007, 1.6993E-008
0, 3120.00000, 0.22116, 0.0726918, 1.61178E-007, 1.70617E-008
0, 3180.00000, 0.22116, 0.0726918, 1.6118E-007, 1.70631E-008
0, 3240.00000, 0.22116, 0.0726918, 1.6118E-007, 1.70631E-008
0, 3300.00000, 0.22116, 0.0726918, 1.6118E-007, 1.70631E-008
0, 3360.00000, 0.221158, 0.072695, 2.2314E-007, 3.04528E-008
0, 3420.00000, 0.22116, 0.0726918, 2.23233E-007, 3.06205E-008
0, 3480.00000, 0.22116, 0.0726917, 2.23233E-007, 3.06222E-008
0, 3540.00000, 0.22116, 0.0726917, 2.23233E-007, 3.06222E-008
1, 0.00000, 0.22116, 0.0726917, 2.23233E-007, 3.06222E-008
1, 60.00000, 0.221168, 0.0726951, 4.09247E-008, -1.19842E-008
1, 120.00000, 0.22116, 0.0726918, 4.09333E-008, -1.20131E-008
1, 180.00000, 0.22116, 0.0726918, 4.09336E-008, -1.20133E-008
1, 240.00000, 0.22116, 0.0726918, 4.09336E-008, -1.20133E-008
1, 300.00000, 0.22116, 0.0726918, 4.09336E-008, -1.20133E-008
1, 360.00000, 0.221153, 0.072691, 1.23733E-007, 5.69981E-008
1, 420.00000, 0.22116, 0.0726917, 1.23615E-007, 5.71888E-008
1, 480.00000, 0.22116, 0.0726917, 1.23612E-007, 5.71899E-008
1, 540.00000, 0.22116, 0.0726917, 1.23612E-007, 5.71899E-008
1, 600.00000, 0.22116, 0.0726917, 1.23612E-007, 5.71899E-008
1, 660.00000, 0.221163, 0.0726918, 3.47386E-009, 3.06942E-008
1, 720.00000, 0.22116, 0.0726918, 3.52337E-009, 3.0597E-008
1, 780.00000, 0.22116, 0.0726917, 3.52456E-009, 3.05964E-008
1, 840.00000, 0.22116, 0.0726917, 3.52458E-009, 3.05964E-008
1, 900.00000, 0.22116, 0.0726917, 3.52458E-009, 3.05964E-008
1, 960.00000, 0.294871, 0.0969163, 6.54899E-008, 2.02979E-007
1, 1020.00000, 0.29488, 0.0969221, 6.52143E-008, 2.03067E-007
1, 1080.00000, 0.29488, 0.0969222, 6.52106E-008, 2.03066E-007
1, 1140.00000, 0.29488, 0.0969222, 6.52106E-008, 2.03066E-007
1, 1200.00000, 0.29488, 0.0969222, 6.52106E-008, 2.03066E-007
1, 1260.00000, 0.25803, 0.0848098, -5.78718E-008, 2.04326E-007
1, 1320.00000, 0.25802, 0.0848069, -5.7663E-008, 2.04123E-007
1, 1380.00000, 0.25802, 0.0848069, -5.76594E-008, 2.04122E-007
1, 1440.00000, 0.25802, 0.0848069, -5.76594E-008, 2.04122E-007
1, 1500.00000, 0.25802, 0.0848069, -5.76594E-008, 2.04122E-007
1, 1560.00000, 0.294876, 0.0969174, -6.58519E-008, 2.4105E-007
1, 1620.00000, 0.29488, 0.0969221, -6.60453E-008, 2.41031E-007
1, 1680.00000, 0.29488, 0.0969221, -6.60472E-008, 2.41029E-007
1, 1740.00000, 0.29488, 0.0969221, -6.60472E-008, 2.41029E-007
1, 1800.00000, 0.29488, 0.0969221, -6.60472E-008, 2.41029E-007
1, 1860.00000, 0.331734, 0.109036, -1.63221E-007, 2.59571E-007
1, 1920.00000, 0.33174, 0.109037, -1.63344E-007, 2.59755E-007
1, 1980.00000, 0.33174, 0.109037, -1.63347E-007, 2.59756E-007
1, 2040.00000, 0.33174, 0.109037, -1.63347E-007, 2.59756E-007
1, 2100.00000, 0.33174, 0.109037, -1.63347E-007, 2.59756E-007
1, 2160.00000, 0.258025, 0.0848084, -6.5834E-008, 2.61822E-008
1, 2220.00000, 0.25802, 0.0848071, -6.5722E-008, 2.60612E-008
1, 2280.00000, 0.25802, 0.084807, -6.572E-008, 2.60607E-008
1, 2340.00000, 0.25802, 0.084807, -6.57199E-008, 2.60607E-008
1, 2400.00000, 0.25802, 0.084807, -6.57199E-008, 2.60607E-008
1, 2460.00000, 0.25805, 0.0848018, -1.09912E-007, 7.59844E-008
1, 2520.00000, 0.258021, 0.0848071, -1.09816E-007, 7.49953E-008
1, 2580.00000, 0.25802, 0.084807, -1.09807E-007, 7.49851E-008
1, 2640.00000, 0.25802, 0.084807, -1.09807E-007, 7.49851E-008
1, 2700.00000, 0.25802, 0.084807, -1.09807E-007, 7.49851E-008
1, 2760.00000, 0.258018, 0.0848082, -9.15676E-008, -3.91538E-008
1, 2820.00000, 0.25802, 0.0848071, -9.15442E-008, -3.90692E-008
1, 2880.00000, 0.25802, 0.0848071, -9.15445E-008, -3.90681E-008
1, 2940.00000, 0.25802, 0.0848071, -9.15445E-008, -3.90681E-008
1, 3000.00000, 0.25802, 0.0848071, -9.15445E-008, -3.90681E-008
1, 3060.00000, 0.258017, 0.0848053, -3.98555E-008, 9.12404E-008
1, 3120.00000, 0.25802, 0.0848069, -3.99629E-008, 9.13016E-008
1, 3180.00000, 0.25802, 0.084807, -3.99645E-008, 9.13015E-008
1, 3240.00000, 0.25802, 0.084807, -3.99645E-008, 9.13015E-008
1, 3300.00000, 0.25802, 0.084807, -3.99645E-008, 9.13015E-008
1, 3360.00000, 0.221165, 0.0726989, -1.87898E-008, -2.52167E-008
1, 3420.00000, 0.22116, 0.0726919, -1.85124E-008, -2.51633E-008
1, 3480.00000, 0.22116, 0.0726918, -1.85098E-008, -2.51606E-008
1, 3540.00000, 0.22116, 0.0726918, -1.85098E-008, -2.51606E-008
2, 0.00000, 0.22116, 0.0726918, -1.85098E-008, -2.51606E-008
2, 60.00000, 0.1843, 0.0605753, -3.41837E-008, -7.11946E-008
2, 120.00000, 0.1843, 0.0605765, -3.42498E-008, -7.1215E-008
2, 180.00000, 0.1843, 0.0605766, -3.42503E-008, -7.12157E-008
2, 240.00000, 0.1843, 0.0605766, -3.42503E-008, -7.12157E-008
2, 300.00000, 0.1843, 0.0605766, -3.42503E-008, -7.12157E-008
2, 360.00000, 0.221159, 0.072689, 3.28422E-009, 2.98372E-008
2, 420.00000, 0.22116, 0.0726917, 3.19325E-009, 2.97767E-008
2, 480.00000, 0.22116, 0.0726917, 3.19275E-009, 2.97754E-008
2, 540.00000, 0.22116, 0.0726917, 3.19275E-009, 2.97754E-008
2, 600.00000, 0.22116, 0.0726917, 3.19275E-009, 2.97754E-008
2, 660.00000, 0.221182, 0.0726798, -1.15714E-007, 3.94898E-009
2, 720.00000, 0.22116, 0.0726918, -1.15866E-007, 3.02856E-009
2, 780.00000, 0.22116, 0.0726918, -1.15861E-007, 3.01823E-009
2, 840.00000, 0.22116, 0.0726918, -1.15861E-007, 3.01816E-009
2, 900.00000, 0.22116, 0.0726918, -1.15861E-007, 3.01816E-009
2, 960.00000, 0.258018, 0.0848119, -1.34074E-007, 9.08659E-009
2, 1020.00000, 0.25802, 0.0848071, -1.33967E-007, 9.30536E-009
2, 1080.00000, 0.25802, 0.0848071, -1.33967E-007, 9.30845E-009
2, 1140.00000, 0.25802, 0.0848071, -1.33967E-007, 9.30848E-009
2, 1200.00000, 0.25802, 0.0848071, -1.33967E-007, 9.30848E-009
2, 1260.00000, 0.184318, 0.0605801, 6.45924E-008, -4.89836E-008
2, 1320.00000, 0.1843, 0.0605766, 6.48004E-008, -4.9325E-008
2, 1380.00000, 0.1843, 0.0605765, 6.4805E-008, -4.93268E-008
2, 1440.00000, 0.1843, 0.0605765, 6.4805E-008, -4.93268E-008
2, 1500.00000, 0.1843, 0.0605765, 6.4805E-008, -4.93268E-008
2, 1560.00000, 0.221159, 0.0726885, -5.60782E-008, 1.65699E-008
2, 1620.00000, 0.22116, 0.0726917, -5.61988E-008, 1.65228E-008
2, 1680.00000, 0.22116, 0.0726918, -5.61996E-008, 1.65215E-008
2, 1740.00000, 0.22116, 0.0726918, -5.61996E-008, 1.65215E-008
2, 1800.00000, 0.22116, 0.0726918, -5.61996E-008, 1.65215E-008
2, 1860.00000, 0.147438, 0.0484668, 9.08359E-008, -3.38513E-008
2, 1920.00000, 0.14744, 0.0484613, 9.10941E-008, -3.37722E-008
2, 1980.00000, 0.14744, 0.0484612, 9.10957E-008, -3.377E-008
2, 2040.00000, 0.14744, 0.0484612, 9.10957E-008, -3.37699E-008
2, 2100.00000, 0.14744, 0.0484612, 9.10957E-008, -3.37699E-008
2, 2160.00000, 0.221153, 0.0726834, 2.56549E-008, 8.48616E-008
2, 2220.00000, 0.22116, 0.0726916, 2.52751E-008, 8.49176E-008
2, 2280.00000, 0.22116, 0.0726917, 2.52712E-008, 8.49162E-008
2, 2340.00000, 0.22116, 0.0726917, 2.52712E-008, 8.49161E-008
2, 2400.00000, 0.22116, 0.0726917, 2.52712E-008, 8.49161E-008
2, 2460.00000, 0.258017, 0.0848049, -1.08859E-007, 7.43792E-008
2, 2520.00000, 0.25802, 0.084807, -1.08964E-007, 7.44069E-008
2, 2580.00000, 0.25802, 0.084807, -1.08966E-007, 7.44064E-008
2, 2640.00000, 0.25802, 0.084807, -1.08966E-007, 7.44064E-008
2, 2700.00000, 0.25802, 0.084807, -1.08966E-007, 7.44064E-008
2, 2760.00000, 0.184301, 0.0605786, -1.60214E-008, -2.51239E-008
2, 2820.00000, 0.1843, 0.0605765, -1.59453E-008, -2.51025E-008
2, 2880.00000, 0.1843, 0.0605765, -1.59446E-008, -2.51017E-008
2, 2940.00000, 0.1843, 0.0605765, -1.59446E-008, -2.51017E-008
2, 3000.00000, 0.1843, 0.0605765, -1.59446E-008, -2.51017E-008
2, 3060.00000, 0.147445, 0.0484613, 3.6275E-008, -7.94772E-008
2, 3120.00000, 0.14744, 0.0484613, 3.63439E-008, -7.96213E-008
2, 3180.00000, 0.14744, 0.0484613, 3.63456E-008, -7.96223E-008
2, 3240.00000, 0.14744, 0.0484613, 3.63456E-008, -7.96222E-008
2, 3300.00000, 0.14744, 0.0484613, 3.63456E-008, -7.96222E-008
2, 3360.00000, 0.184293, 0.0605767, 8.35459E-008, -3.33978E-009
2, 3420.00000, 0.1843, 0.0605764, 8.34555E-008, -3.12103E-009
2, 3480.00000, 0.1843, 0.0605765, 8.3453E-008, -3.11951E-009
2, 3540.00000, 0.1843, 0.0605765, 8.3453E-008, -3.11952E-009
3, 0.00000, 0.1843, 0.0605765, 8.3453E-008, -3.11952E-009
3, 60.00000, 0.184298, 0.0605763, 1.01242E-007, 4.26193E-008
3, 120.00000, 0.1843, 0.0605764, 1.0124E-007, 4.26363E-008
3, 180.00000, 0.1843, 0.0605764, 1.0124E-007, 4.26364E-008
3, 240.00000, 0.1843, 0.0605764, 1.0124E-007, 4.26364E-008
3, 300.00000, 0.1843, 0.0605764, 1.0124E-007, 4.26364E-008
3, 360.00000, 0.221155, 0.0726886, 2.54922E-008, 8.51722E-008
3, 420.00000, 0.22116, 0.0726916, 2.53296E-008, 8.52373E-008
3, 480.00000, 0.22116, 0.0726917, 2.53276E-008, 8.52368E-008
3, 540.00000, 0.22116, 0.0726917, 2.53276E-008, 8.52368E-008
3, 600.00000, 0.22116, 0.0726917, 2.53276E-008, 8.52368E-008
3, 660.00000, 0.184316, 0.060573, -4.72989E-008, 1.05244E-008
3, 720.00000, 0.1843, 0.0605765, -4.72849E-008, 1.00031E-008
3, 780.00000, 0.1843, 0.0605765, -4.72814E-008, 9.9983E-009
3, 840.00000, 0.1843, 0.0605765, -4.72814E-008, 9.99828E-009
3, 900.00000, 0.1843, 0.0605765, -4.72814E-008, 9.99828E-009
3, 960.00000, 0.147441, 0.0484628, 2.63004E-008, -1.439E-008
3, 1020.00000, 0.14744, 0.0484612, 2.63544E-008, -1.43632E-008
3, 1080.00000, 0.14744, 0.0484612, 2.63547E-008, -1.43626E-008
3, 1140.00000, 0.14744, 0.0484612, 2.63547E-008, -1.43626E-008
3, 1200.00000, 0.14744, 0.0484612, 2.63547E-008, -1.43626E-008
3, 1260.00000, 0.221155, 0.0726893, 3.58235E-009, 3.02587E-008
3, 1320.00000, 0.22116, 0.0726917, 3.45252E-009, 3.03273E-008
3, 1380.00000, 0.22116, 0.0726917, 3.45088E-009, 3.0327E-008
3, 1440.00000, 0.22116, 0.0726917, 3.45086E-009, 3.0327E-008
3, 1500.00000, 0.22116, 0.0726917, 3.45086E-009, 3.0327E-008
3, 1560.00000, 0.221168, 0.0726884, 3.18211E-009, 3.07047E-008
3, 1620.00000, 0.22116, 0.0726918, 3.30715E-009, 3.02227E-008
3, 1680.00000, 0.22116, 0.0726917, 3.31149E-009, 3.02187E-008
3, 1740.00000, 0.22116, 0.0726917, 3.31156E-009, 3.02187E-008
3, 1800.00000, 0.22116, 0.0726917, 3.31156E-009, 3.02187E-008
3, 1860.00000, 0.221164, 0.0726944, -1.15265E-007, 3.23941E-009
3, 1920.00000, 0.22116, 0.0726918, -1.15145E-007, 3.2076E-009
3, 1980.00000, 0.22116, 0.0726918, -1.15143E-007, 3.20814E-009
3, 2040.00000, 0.22116, 0.0726918, -1.15143E-007, 3.20815E-009
3, 2100.00000, 0.22116, 0.0726918, -1.15143E-007, 3.20815E-009
3, 2160.00000, 0.221162, 0.0726901, -5.62172E-008, 1.63388E-008
3, 2220.00000, 0.22116, 0.0726918, -5.62285E-008, 1.62263E-008
3, 2280.00000, 0.22116, 0.0726918, -5.62278E-008, 1.62251E-008
3, 2340.00000, 0.22116, 0.0726918, -5.62278E-008, 1.62251E-008
3, 2400.00000, 0.22116, 0.0726918, -5.62278E-008, 1.62251E-008
3, 2460.00000, 0.184296, 0.0605787, -1.57288E-008, -2.50236E-008
3, 2520.00000, 0.1843, 0.0605765, -1.5722E-008, -2.48355E-008
3, 2580.00000, 0.1843, 0.0605765, -1.57232E-008, -2.48338E-008
3, 2640.00000, 0.1843, 0.0605765, -1.57232E-008, -2.48337E-008
3, 2700.00000, 0.1843, 0.0605765, -1.57232E-008, -2.48337E-008
3, 2760.00000, 0.258015, 0.0848016, -3.88797E-008, 9.04103E-008
3, 2820.00000, 0.25802, 0.0848069, -3.91119E-008, 9.04146E-008
3, 2880.00000, 0.25802, 0.084807, -3.9114E-008, 9.04131E-008
3, 2940.00000, 0.25802, 0.084807, -3.91141E-008, 9.0413E-008
3, 3000.00000, 0.25802, 0.084807, -3.91141E-008, 9.0413E-008
3, 3060.00000, 0.184305, 0.060575, 5.12176E-008, 3.22216E-008
3, 3120.00000, 0.1843, 0.0605765, 5.12367E-008, 3.20416E-008
3, 3180.00000, 0.1843, 0.0605765, 5.12381E-008, 3.20401E-008
3, 3240.00000, 0.1843, 0.0605765, 5.12381E-008, 3.20401E-008
3, 3300.00000, 0.1843, 0.0605765, 5.12381E-008, 3.20401E-008
3, 3360.00000, 0.221155, 0.072691, -1.88991E-008, -2.46559E-008
3, 3420.00000, 0.22116, 0.0726918, -1.89861E-008, -2.45308E-008
3, 3480.00000, 0.22116, 0.0726918, -1.89877E-008, -2.45303E-008
3, 3540.00000, 0.22116, 0.0726918, -1.89877E-008, -2.45303E-008
4, 0.00000, 0.22116, 0.0726918, -1.89877E-008, -2.45303E-008
4, 60.00000, 0.184301, 0.0605792, 3.3247E-008, -1.49346E-008
4, 120.00000, 0.1843, 0.0605765, 3.33191E-008, -1.48965E-008
4, 180.00000, 0.1843, 0.0605765, 3.33196E-008, -1.48957E-008
4, 240.00000, 0.1843, 0.0605765, 3.33196E-008, -1.48957E-008
4, 300.00000, 0.1843, 0.0605765, 3.33196E-008, -1.48957E-008
4, 360.00000, 0.258014, 0.0848098, 5.38017E-009, 3.94283E-008
4, 420.00000, 0.25802, 0.084807, 5.38542E-009, 3.96779E-008
4, 480.00000, 0.25802, 0.084807, 5.38387E-009, 3.96802E-008
4, 540.00000, 0.25802, 0.084807, 5.38384E-009, 3.96802E-008
4, 600.00000, 0.25802, 0.084807, 5.38384E-009, 3.96802E-008
4, 660.00000, 0.22116, 0.072689, 3.60482E-009, 2.94276E-008
4, 720.00000, 0.22116, 0.0726917, 3.52403E-009, 2.93553E-008
4, 780.00000, 0.22116, 0.0726917, 3.52375E-009, 2.93541E-008
4, 840.00000, 0.22116, 0.0726917, 3.52376E-009, 2.93541E-008
4, 900.00000, 0.22116, 0.0726917, 3.52376E-009, 2.93541E-008
4, 960.00000, 0.221166, 0.0726901, 6.30352E-008, 4.26363E-008
4, 1020.00000, 0.22116, 0.0726917, 6.28962E-008, 4.25217E-008
4, 1080.00000, 0.22116, 0.0726917, 6.28957E-008, 4.25195E-008
4, 1140.00000, 0.22116, 0.0726917, 6.28957E-008, 4.25195E-008
4, 1200.00000, 0.22116, 0.0726917, 6.28957E-008, 4.25195E-008
4, 1260.00000, 0.184311, 0.0605825, 8.27386E-008, -3.43376E-009
4, 1320.00000, 0.1843, 0.0605766, 8.31395E-008, -3.64535E-009
4, 1380.00000, 0.1843, 0.0605765, 8.31446E-008, -3.64452E-009
4, 1440.00000, 0.1843, 0.0605765, 8.31446E-008, -3.64448E-009
4, 1500.00000, 0.1843, 0.0605765, 8.31446E-008, -3.64448E-009
4, 1560.00000, 0.184298, 0.0605746, 3.36603E-008, -1.44774E-008
4, 1620.00000, 0.1843, 0.0605765, 3.35855E-008, -1.44821E-008
4, 1680.00000, 0.1843, 0.0605765, 3.35848E-008, -1.44826E-008
4, 1740.00000, 0.1843, 0.0605765, 3.35848E-008, -1.44826E-008
4, 1800.00000, 0.1843, 0.0605765, 3.35848E-008, -1.44826E-008
4, 1860.00000, 0.221162, 0.072691, 3.06429E-009, 2.9299E-008
4, 1920.00000, 0.22116, 0.0726918, 3.06686E-009, 2.92168E-008
4, 1980.00000, 0.221161, 0.0726922, 3.08489E-009, 2.91149E-008
4, 2040.00000, 0.221159, 0.0726913, 3.07063E-009, 2.92134E-008
4, 2100.00000, 0.221161, 0.0726921, 3.08208E-009, 2.91316E-008
4, 2160.00000, 0.184299, 0.0605768, -1.60864E-008, -2.56602E-008
4, 2220.00000, 0.184301, 0.060577, -1.60638E-008, -2.57502E-008
4, 2280.00000, 0.1843, 0.0605767, -1.6052E-008, -2.57922E-008
4, 2340.00000, 0.1843, 0.0605766, -1.60451E-008, -2.58195E-008
4, 2400.00000, 0.184302, 0.0605778, -1.59847E-008, -2.61085E-008
4, 2460.00000, 0.22116, 0.0726937, 6.29819E-008, 4.12466E-008
4, 2520.00000, 0.221163, 0.0726938, 6.3097E-008, 4.07793E-008
4, 2580.00000, 0.22116, 0.0726917, 6.31091E-008, 4.07672E-008
4, 2640.00000, 0.22116, 0.0726917, 6.31093E-008, 4.0767E-008
4, 2700.00000, 0.22116, 0.0726917, 6.31093E-008, 4.0767E-008
4, 2760.00000, 0.221161, 0.0726951, 4.81576E-008, 1.36896E-007
4, 2820.00000, 0.221162, 0.0726927, 4.83034E-008, 1.36659E-007
4, 2880.00000, 0.22116, 0.0726919, 4.8316E-008, 1.36577E-007
4, 2940.00000, 0.221161, 0.0726923, 4.83349E-008, 1.36387E-007
4, 3000.00000, 0.221161, 0.0726923, 4.83555E-008, 1.36195E-007
4, 3060.00000, 0.258014, 0.0848035, 3.17021E-008, 1.00925E-007
4, 3120.00000, 0.258025, 0.0848098, 3.16017E-008, 1.00213E-007
4, 3180.00000, 0.258019, 0.0848064, 3.15947E-008, 1.00357E-007
4, 3240.00000, 0.258023, 0.0848089, 3.16588E-008, 9.98109E-008
4, 3300.00000, 0.25802, 0.0848073, 3.168E-008, 9.97093E-008
4, 3360.00000, 0.221164, 0.0726873, 1.45146E-007, 1.06897E-007
4, 3420.00000, 0.221162, 0.0726931, 1.4513E-007, 1.06168E-007
4, 3480.00000, 0.221164, 0.0726942, 1.4514E-007, 1.05416E-007
4, 3540.00000, 0.221162, 0.0726927, 1.45151E-007, 1.05099E-007
5, 0.00000, 0.22116, 0.0726916, 1.45155E-007, 1.05109E-007
5, 60.00000, 0.258022, 0.0848094, -2.10945E-008, -2.77863E-008
5, 120.00000, 0.258022, 0.0848084, -2.10118E-008, -2.79635E-008
5, 180.00000, 0.258024, 0.0848103, -2.09098E-008, -2.84447E-008
5, 240.00000, 0.258023, 0.0848095, -2.08205E-008, -2.88036E-008
5, 300.00000, 0.258028, 0.0848139, -2.06082E-008, -2.98192E-008
5, 360.00000, 0.18429, 0.0605757, 1.83292E-007, 1.47676E-008
5, 420.00000, 0.184302, 0.060578, 1.83114E-007, 1.47472E-008
5, 480.00000, 0.184302, 0.0605778, 1.83095E-007, 1.45185E-008
5, 540.00000, 0.184306, 0.0605811, 1.8304E-007, 1.37588E-008
5, 600.00000, 0.184306, 0.0605811, 1.82995E-007, 1.29839E-008
5, 660.00000, 0.294874, 0.0969238, -1.22261E-008, 1.72007E-007
5, 720.00000, 0.294891, 0.0969308, -1.20189E-008, 1.70568E-007
5, 780.00000, 0.294885, 0.0969262, -1.18577E-008, 1.6975E-007
5, 840.00000, 0.294888, 0.0969282, -1.16647E-008, 1.6859E-007
5, 900.00000, 0.294891, 0.0969306, -1.13934E-008, 1.66961E-007
5, 960.00000, 0.22117, 0.0726989, 1.01588E-007, -1.07676E-008
5, 1020.00000, 0.221168, 0.0726987, 1.01952E-007, -1.1961E-008
5, 1080.00000, 0.221167, 0.0726974, 1.02012E-007, -1.2889E-008
5, 1140.00000, 0.221166, 0.0726972, 1.02061E-007, -1.37813E-008
5, 1200.00000, 0.221166, 0.0726967, 1.02107E-007, -1.45889E-008
5, 1260.00000, 0.221156, 0.0726865, 2.85157E-008, 6.70626E-008
