hour, t(sec), P1 (kW), Q1 (kvar), P2 (kW), Q2 (kvar), P3 (kW), Q3 (kvar), P4 (kW), Q4 (kvar)
0, 60.00000, -0.0651713, -0.0214204, -0.0931027, -0.0306011, -0.0651694, -0.02142, 2.0259E-009, -6.24669E-009
0, 120.00000, -0.06517, -0.0214203, -0.0931, -0.0306005, -0.06517, -0.0214204, 2.02562E-009, -6.24561E-009
0, 180.00000, -0.06517, -0.0214203, -0.0931, -0.0306005, -0.06517, -0.0214204, 2.02562E-009, -6.24562E-009
0, 240.00000, -0.06517, -0.0214203, -0.0931, -0.0306005, -0.06517, -0.0214204, 2.02562E-009, -6.24562E-009
0, 300.00000, -0.06517, -0.0214203, -0.0931, -0.0306005, -0.06517, -0.0214204, 2.02562E-009, -6.24562E-009
0, 360.00000, -0.0931, -0.0306002, -0.0744807, -0.0244806, -0.0744795, -0.0244803, 2.28879E-010, -3.73649E-009
0, 420.00000, -0.0931, -0.0306005, -0.07448, -0.0244804, -0.07448, -0.0244804, 2.28892E-010, -3.73657E-009
0, 480.00000, -0.0931, -0.0306005, -0.07448, -0.0244804, -0.07448, -0.0244804, 2.28892E-010, -3.73657E-009
0, 540.00000, -0.0931, -0.0306005, -0.07448, -0.0244804, -0.07448, -0.0244804, 2.28892E-010, -3.73657E-009
0, 600.00000, -0.0931, -0.0306005, -0.07448, -0.0244804, -0.07448, -0.0244804, 2.28892E-010, -3.73657E-009
0, 660.00000, -0.074473, -0.0244774, -0.0744914, -0.024485, -0.0744779, -0.0244814, -3.22074E-011, -2.82021E-012
0, 720.00000, -0.07448, -0.0244804, -0.0744801, -0.0244804, -0.0744799, -0.0244804, -3.24712E-011, -3.22453E-012
0, 780.00000, -0.07448, -0.0244804, -0.07448, -0.0244804, -0.07448, -0.0244804, -3.24708E-011, -3.2246E-012
0, 840.00000, -0.07448, -0.0244804, -0.07448, -0.0244804, -0.07448, -0.0244804, -3.24708E-011, -3.22459E-012
0, 900.00000, -0.07448, -0.0244804, -0.07448, -0.0244804, -0.07448, -0.0244804, -3.24708E-011, -3.22459E-012
0, 960.00000, -0.0651699, -0.0214203, -0.0744802, -0.0244804, -0.05586, -0.0183603, 4.98799E-010, -2.228E-009
0, 1020.00000, -0.06517, -0.0214203, -0.07448, -0.0244804, -0.05586, -0.0183603, 4.98787E-010, -2.22797E-009
0, 1080.00000, -0.06517, -0.0214203, -0.07448, -0.0244804, -0.05586, -0.0183603, 4.98787E-010, -2.22797E-009
0, 1140.00000, -0.06517, -0.0214203, -0.07448, -0.0244804, -0.05586, -0.0183603, 4.98787E-010, -2.22797E-009
0, 1200.00000, -0.06517, -0.0214203, -0.07448, -0.0244804, -0.05586, -0.0183603, 4.98787E-010, -2.22797E-009
0, 1260.00000, -0.0744794, -0.0244801, -0.0651707, -0.0214207, -0.07448, -0.0244805, 9.62196E-012, -9.71159E-010
0, 1320.00000, -0.07448, -0.0244804, -0.06517, -0.0214203, -0.07448, -0.0244804, 9.63182E-012, -9.71351E-010
0, 1380.00000, -0.07448, -0.0244804, -0.06517, -0.0214204, -0.07448, -0.0244804, 9.63198E-012, -9.71351E-010
0, 1440.00000, -0.07448, -0.0244804, -0.06517, -0.0214204, -0.07448, -0.0244804, 9.63197E-012, -9.71351E-010
0, 1500.00000, -0.07448, -0.0244804, -0.06517, -0.0214204, -0.07448, -0.0244804, 9.63197E-012, -9.71351E-010
0, 1560.00000, -0.0837895, -0.0275404, -0.06517, -0.0214205, -0.0744804, -0.0244805, 3.14614E-010, -2.60328E-009
0, 1620.00000, -0.08379, -0.0275404, -0.06517, -0.0214204, -0.07448, -0.0244804, 3.14632E-010, -2.60343E-009
0, 1680.00000, -0.08379, -0.0275404, -0.06517, -0.0214204, -0.07448, -0.0244804, 3.14633E-010, -2.60343E-009
0, 1740.00000, -0.08379, -0.0275404, -0.06517, -0.0214204, -0.07448, -0.0244804, 3.14633E-010, -2.60343E-009
0, 1800.00000, -0.08379, -0.0275404, -0.06517, -0.0214204, -0.07448, -0.0244804, 3.14633E-010, -2.60343E-009
0, 1860.00000, -0.0651628, -0.0214185, -0.0744807, -0.0244812, -0.0931034, -0.0306029, 1.59866E-009, -4.94046E-009
0, 1920.00000, -0.06517, -0.0214204, -0.07448, -0.0244804, -0.0931, -0.0306005, 1.59755E-009, -4.93684E-009
0, 1980.00000, -0.06517, -0.0214204, -0.07448, -0.0244804, -0.0931, -0.0306005, 1.59755E-009, -4.93685E-009
0, 2040.00000, -0.06517, -0.0214204, -0.07448, -0.0244804, -0.0931, -0.0306005, 1.59755E-009, -4.93685E-009
0, 2100.00000, -0.06517, -0.0214204, -0.07448, -0.0244804, -0.0931, -0.0306005, 1.59755E-009, -4.93685E-009
0, 2160.00000, -0.0651676, -0.0214195, -0.0651746, -0.0214234, -0.0651701, -0.0214205, -4.74807E-011, -2.29938E-012
0, 2220.00000, -0.06517, -0.0214203, -0.06517, -0.0214204, -0.06517, -0.0214203, -4.76459E-011, -2.53043E-012
0, 2280.00000, -0.06517, -0.0214203, -0.06517, -0.0214203, -0.06517, -0.0214203, -4.76462E-011, -2.53111E-012
0, 2340.00000, -0.06517, -0.0214203, -0.06517, -0.0214203, -0.06517, -0.0214203, -4.76462E-011, -2.5311E-012
0, 2400.00000, -0.06517, -0.0214203, -0.06517, -0.0214203, -0.06517, -0.0214203, -4.76462E-011, -2.5311E-012
0, 2460.00000, -0.0744807, -0.0244806, -0.0651695, -0.02142, -0.0651697, -0.0214202, -3.22266E-011, -1.0212E-009
0, 2520.00000, -0.07448, -0.0244804, -0.06517, -0.0214204, -0.06517, -0.0214203, -3.2249E-011, -1.02096E-009
0, 2580.00000, -0.07448, -0.0244804, -0.06517, -0.0214204, -0.06517, -0.0214203, -3.22489E-011, -1.02096E-009
0, 2640.00000, -0.07448, -0.0244804, -0.06517, -0.0214204, -0.06517, -0.0214203, -3.22489E-011, -1.02096E-009
0, 2700.00000, -0.07448, -0.0244804, -0.06517, -0.0214204, -0.06517, -0.0214203, -3.22489E-011, -1.02096E-009
0, 2760.00000, -0.0837903, -0.0275404, -0.0651703, -0.0214204, -0.0837895, -0.0275403, 4.23122E-010, -3.57097E-009
0, 2820.00000, -0.08379, -0.0275405, -0.06517, -0.0214204, -0.08379, -0.0275404, 4.23151E-010, -3.57106E-009
0, 2880.00000, -0.08379, -0.0275405, -0.06517, -0.0214204, -0.08379, -0.0275404, 4.2315E-010, -3.57106E-009
0, 2940.00000, -0.08379, -0.0275405, -0.06517, -0.0214204, -0.08379, -0.0275404, 4.2315E-010, -3.57106E-009
0, 3000.00000, -0.08379, -0.0275405, -0.06517, -0.0214204, -0.08379, -0.0275404, 4.2315E-010, -3.57106E-009
0, 3060.00000, -0.0837893, -0.0275405, -0.0651694, -0.0214204, -0.0837912, -0.0275408, 4.72271E-010, -3.47051E-009
0, 3120.00000, -0.08379, -0.0275404, -0.06517, -0.0214204, -0.08379, -0.0275404, 4.72198E-010, -3.47035E-009
0, 3180.00000, -0.08379, -0.0275404, -0.06517, -0.0214204, -0.08379, -0.0275404, 4.72198E-010, -3.47035E-009
0, 3240.00000, -0.08379, -0.0275404, -0.06517, -0.0214204, -0.08379, -0.0275404, 4.72198E-010, -3.47035E-009
0, 3300.00000, -0.08379, -0.0275404, -0.06517, -0.0214204, -0.08379, -0.0275404, 4.72198E-010, -3.47035E-009
0, 3360.00000, -0.074479, -0.0244801, -0.0837906, -0.0275406, -0.0837905, -0.0275408, 3.60463E-010, -5.19057E-010
0, 3420.00000, -0.07448, -0.0244804, -0.08379, -0.0275404, -0.08379, -0.0275404, 3.60372E-010, -5.18852E-010
0, 3480.00000, -0.07448, -0.0244804, -0.08379, -0.0275404, -0.08379, -0.0275404, 3.60372E-010, -5.18852E-010
0, 3540.00000, -0.07448, -0.0244804, -0.08379, -0.0275404, -0.08379, -0.0275404, 3.60372E-010, -5.18852E-010
1, 0.00000, -0.07448, -0.0244804, -0.08379, -0.0275404, -0.08379, -0.0275404, 3.60372E-010, -5.18852E-010
1, 60.00000, -0.0744798, -0.0244802, -0.0744818, -0.024481, -0.0558594, -0.0183601, 4.74079E-010, -3.24741E-009
1, 120.00000, -0.07448, -0.0244804, -0.07448, -0.0244804, -0.05586, -0.0183603, 4.73965E-010, -3.247E-009
1, 180.00000, -0.07448, -0.0244804, -0.07448, -0.0244804, -0.05586, -0.0183603, 4.73965E-010, -3.247E-009
1, 240.00000, -0.07448, -0.0244804, -0.07448, -0.0244804, -0.05586, -0.0183603, 4.73965E-010, -3.247E-009
1, 300.00000, -0.07448, -0.0244804, -0.07448, -0.0244804, -0.05586, -0.0183603, 4.73965E-010, -3.247E-009
1, 360.00000, -0.0372394, -0.01224, -0.06517, -0.0214203, -0.0465509, -0.0153006, 1.69524E-009, -4.76451E-009
1, 420.00000, -0.03724, -0.0122402, -0.06517, -0.0214203, -0.04655, -0.0153003, 1.69521E-009, -4.76443E-009
1, 480.00000, -0.03724, -0.0122402, -0.06517, -0.0214203, -0.04655, -0.0153003, 1.6952E-009, -4.76443E-009
1, 540.00000, -0.03724, -0.0122402, -0.06517, -0.0214203, -0.04655, -0.0153003, 1.6952E-009, -4.76443E-009
1, 600.00000, -0.03724, -0.0122402, -0.06517, -0.0214203, -0.04655, -0.0153003, 1.6952E-009, -4.76443E-009
1, 660.00000, -0.0465531, -0.0153012, -0.0558607, -0.0183607, -0.0558524, -0.0183577, 2.71858E-010, -6.37504E-010
1, 720.00000, -0.04655, -0.0153003, -0.05586, -0.0183603, -0.05586, -0.0183603, 2.72131E-010, -6.38539E-010
1, 780.00000, -0.04655, -0.0153002, -0.05586, -0.0183603, -0.05586, -0.0183603, 2.72133E-010, -6.38546E-010
1, 840.00000, -0.04655, -0.0153002, -0.05586, -0.0183603, -0.05586, -0.0183603, 2.72133E-010, -6.38546E-010
1, 900.00000, -0.04655, -0.0153002, -0.05586, -0.0183603, -0.05586, -0.0183603, 2.72133E-010, -6.38546E-010
1, 960.00000, -0.0744782, -0.0244798, -0.0558607, -0.0183605, -0.0651703, -0.0214205, 2.58038E-010, -2.72409E-009
1, 1020.00000, -0.07448, -0.0244804, -0.05586, -0.0183603, -0.06517, -0.0214203, 2.58144E-010, -2.7248E-009
1, 1080.00000, -0.07448, -0.0244804, -0.05586, -0.0183603, -0.06517, -0.0214203, 2.58145E-010, -2.7248E-009
1, 1140.00000, -0.07448, -0.0244804, -0.05586, -0.0183603, -0.06517, -0.0214203, 2.58145E-010, -2.7248E-009
1, 1200.00000, -0.07448, -0.0244804, -0.05586, -0.0183603, -0.06517, -0.0214203, 2.58145E-010, -2.7248E-009
1, 1260.00000, -0.0651716, -0.0214208, -0.0651698, -0.0214203, -0.0465492, -0.0153, 6.09325E-010, -3.16032E-009
1, 1320.00000, -0.06517, -0.0214203, -0.06517, -0.0214204, -0.04655, -0.0153003, 6.09249E-010, -3.15981E-009
1, 1380.00000, -0.06517, -0.0214203, -0.06517, -0.0214204, -0.04655, -0.0153003, 6.09249E-010, -3.15981E-009
1, 1440.00000, -0.06517, -0.0214203, -0.06517, -0.0214204, -0.04655, -0.0153003, 6.09249E-010, -3.15981E-009
1, 1500.00000, -0.06517, -0.0214203, -0.06517, -0.0214204, -0.04655, -0.0153003, 6.09249E-010, -3.15981E-009
1, 1560.00000, -0.0558593, -0.0183601, -0.0558607, -0.0183605, -0.0651699, -0.0214203, 2.21097E-010, -7.11606E-010
1, 1620.00000, -0.05586, -0.0183603, -0.05586, -0.0183603, -0.06517, -0.0214203, 2.21082E-010, -7.11654E-010
1, 1680.00000, -0.05586, -0.0183603, -0.05586, -0.0183603, -0.06517, -0.0214203, 2.21082E-010, -7.11655E-010
1, 1740.00000, -0.05586, -0.0183603, -0.05586, -0.0183603, -0.06517, -0.0214203, 2.21082E-010, -7.11655E-010
1, 1800.00000, -0.05586, -0.0183603, -0.05586, -0.0183603, -0.06517, -0.0214203, 2.21082E-010, -7.11655E-010
1, 1860.00000, -0.0651691, -0.0214201, -0.0558599, -0.0183603, -0.0651709, -0.0214207, 2.14617E-011, -9.77198E-010
1, 1920.00000, -0.06517, -0.0214203, -0.05586, -0.0183603, -0.06517, -0.0214203, 2.14363E-011, -9.77211E-010
1, 1980.00000, -0.06517, -0.0214203, -0.05586, -0.0183603, -0.06517, -0.0214203, 2.14362E-011, -9.77212E-010
1, 2040.00000, -0.06517, -0.0214203, -0.05586, -0.0183603, -0.06517, -0.0214203, 2.14362E-011, -9.77212E-010
1, 2100.00000, -0.06517, -0.0214203, -0.05586, -0.0183603, -0.06517, -0.0214203, 2.14362E-011, -9.77212E-010
1, 2160.00000, -0.0465505, -0.0153004, -0.05586, -0.0183603, -0.0651692, -0.0214201, 7.09049E-010, -2.08474E-009
1, 2220.00000, -0.04655, -0.0153003, -0.05586, -0.0183603, -0.06517, -0.0214203, 7.09134E-010, -2.08506E-009
1, 2280.00000, -0.04655, -0.0153003, -0.05586, -0.0183603, -0.06517, -0.0214203, 7.09134E-010, -2.08506E-009
1, 2340.00000, -0.04655, -0.0153003, -0.05586, -0.0183603, -0.06517, -0.0214203, 7.09134E-010, -2.08506E-009
1, 2400.00000, -0.04655, -0.0153003, -0.05586, -0.0183603, -0.06517, -0.0214203, 7.09134E-010, -2.08506E-009
1, 2460.00000, -0.0744893, -0.0244832, -0.0651739, -0.0214219, -0.0558537, -0.0183582, 2.51214E-010, -2.63485E-009
1, 2520.00000, -0.0744801, -0.0244804, -0.06517, -0.0214204, -0.0558599, -0.0183603, 2.50575E-010, -2.63075E-009
1, 2580.00000, -0.07448, -0.0244804, -0.06517, -0.0214204, -0.05586, -0.0183603, 2.50571E-010, -2.63073E-009
1, 2640.00000, -0.07448, -0.0244804, -0.06517, -0.0214204, -0.05586, -0.0183603, 2.50571E-010, -2.63073E-009
1, 2700.00000, -0.07448, -0.0244804, -0.06517, -0.0214204, -0.05586, -0.0183603, 2.50571E-010, -2.63073E-009
1, 2760.00000, -0.0465464, -0.0152992, -0.065161, -0.0214173, -0.0651713, -0.0214208, 1.11449E-009, -2.52886E-009
1, 2820.00000, -0.04655, -0.0153002, -0.06517, -0.0214203, -0.06517, -0.0214204, 1.11464E-009, -2.52878E-009
1, 2880.00000, -0.04655, -0.0153003, -0.06517, -0.0214203, -0.06517, -0.0214204, 1.11463E-009, -2.52877E-009
1, 2940.00000, -0.04655, -0.0153003, -0.06517, -0.0214203, -0.06517, -0.0214204, 1.11463E-009, -2.52877E-009
1, 3000.00000, -0.04655, -0.0153003, -0.06517, -0.0214203, -0.06517, -0.0214204, 1.11463E-009, -2.52877E-009
1, 3060.00000, -0.0558556, -0.0183589, -0.0558633, -0.0183613, -0.0558659, -0.0183623, -2.80126E-011, -3.76789E-012
1, 3120.00000, -0.05586, -0.0183603, -0.05586, -0.0183603, -0.05586, -0.0183603, -2.81714E-011, -3.97804E-012
1, 3180.00000, -0.05586, -0.0183603, -0.05586, -0.0183603, -0.05586, -0.0183603, -2.81723E-011, -3.9794E-012
1, 3240.00000, -0.05586, -0.0183603, -0.05586, -0.0183603, -0.05586, -0.0183603, -2.81723E-011, -3.97941E-012
1, 3300.00000, -0.05586, -0.0183603, -0.05586, -0.0183603, -0.05586, -0.0183603, -2.81723E-011, -3.97941E-012
1, 3360.00000, -0.0558613, -0.0183607, -0.0651682, -0.0214197, -0.0651702, -0.0214204, 3.54376E-010, -5.09741E-010
1, 3420.00000, -0.05586, -0.0183603, -0.06517, -0.0214203, -0.06517, -0.0214204, 3.54509E-010, -5.1001E-010
1, 3480.00000, -0.05586, -0.0183603, -0.06517, -0.0214203, -0.06517, -0.0214203, 3.54509E-010, -5.10011E-010
1, 3540.00000, -0.05586, -0.0183603, -0.06517, -0.0214203, -0.06517, -0.0214203, 3.54509E-010, -5.10011E-010
2, 0.00000, -0.05586, -0.0183603, -0.06517, -0.0214203, -0.06517, -0.0214203, 3.54509E-010, -5.10011E-010
2, 60.00000, -0.0558596, -0.0183601, -0.0558614, -0.0183608, -0.0465501, -0.0153003, 7.45677E-011, -8.37773E-010
2, 120.00000, -0.05586, -0.0183603, -0.05586, -0.0183603, -0.04655, -0.0153002, 7.45326E-011, -8.37748E-010
2, 180.00000, -0.05586, -0.0183603, -0.05586, -0.0183603, -0.04655, -0.0153002, 7.4532E-011, -8.37747E-010
2, 240.00000, -0.05586, -0.0183603, -0.05586, -0.0183603, -0.04655, -0.0153002, 7.4532E-011, -8.37747E-010
2, 300.00000, -0.05586, -0.0183603, -0.05586, -0.0183603, -0.04655, -0.0153002, 7.4532E-011, -8.37747E-010
2, 360.00000, -0.0372396, -0.01224, -0.0558613, -0.0183607, -0.0558592, -0.0183601, 1.00765E-009, -2.68535E-009
2, 420.00000, -0.03724, -0.0122402, -0.05586, -0.0183603, -0.05586, -0.0183603, 1.00757E-009, -2.68517E-009
2, 480.00000, -0.03724, -0.0122402, -0.05586, -0.0183603, -0.05586, -0.0183603, 1.00757E-009, -2.68517E-009
2, 540.00000, -0.03724, -0.0122402, -0.05586, -0.0183603, -0.05586, -0.0183603, 1.00757E-009, -2.68517E-009
2, 600.00000, -0.03724, -0.0122402, -0.05586, -0.0183603, -0.05586, -0.0183603, 1.00757E-009, -2.68517E-009
2, 660.00000, -0.0744886, -0.0244828, -0.0465571, -0.0153029, -0.0558514, -0.0183575, 8.90791E-010, -5.91035E-009
2, 720.00000, -0.0744802, -0.0244804, -0.04655, -0.0153003, -0.0558599, -0.0183602, 8.90553E-010, -5.90817E-009
2, 780.00000, -0.07448, -0.0244804, -0.04655, -0.0153003, -0.05586, -0.0183603, 8.9054E-010, -5.9081E-009
2, 840.00000, -0.07448, -0.0244804, -0.04655, -0.0153003, -0.05586, -0.0183603, 8.90539E-010, -5.90809E-009
2, 900.00000, -0.07448, -0.0244804, -0.04655, -0.0153003, -0.05586, -0.0183603, 8.90539E-010, -5.90809E-009
2, 960.00000, -0.0465497, -0.0153002, -0.0651674, -0.0214194, -0.0465517, -0.0153008, 8.73451E-010, -2.8215E-009
2, 1020.00000, -0.04655, -0.0153002, -0.06517, -0.0214203, -0.04655, -0.0153003, 8.73719E-010, -2.82257E-009
2, 1080.00000, -0.04655, -0.0153002, -0.06517, -0.0214203, -0.04655, -0.0153003, 8.7372E-010, -2.82258E-009
2, 1140.00000, -0.04655, -0.0153002, -0.06517, -0.0214203, -0.04655, -0.0153003, 8.7372E-010, -2.82258E-009
2, 1200.00000, -0.04655, -0.0153002, -0.06517, -0.0214203, -0.04655, -0.0153003, 8.7372E-010, -2.82258E-009
2, 1260.00000, -0.0558679, -0.0183628, -0.0465512, -0.0153008, -0.0651666, -0.0214191, 4.30892E-010, -2.47151E-009
2, 1320.00000, -0.0558601, -0.0183603, -0.04655, -0.0153002, -0.06517, -0.0214203, 4.31274E-010, -2.47259E-009
2, 1380.00000, -0.05586, -0.0183603, -0.04655, -0.0153002, -0.06517, -0.0214203, 4.31275E-010, -2.47259E-009
2, 1440.00000, -0.05586, -0.0183603, -0.04655, -0.0153002, -0.06517, -0.0214203, 4.31275E-010, -2.47259E-009
2, 1500.00000, -0.05586, -0.0183603, -0.04655, -0.0153002, -0.06517, -0.0214203, 4.31275E-010, -2.47259E-009
2, 1560.00000, -0.0558592, -0.01836, -0.0465514, -0.0153007, -0.0372397, -0.0122401, 3.21058E-010, -2.54737E-009
2, 1620.00000, -0.05586, -0.0183603, -0.04655, -0.0153003, -0.03724, -0.0122402, 3.21077E-010, -2.54755E-009
2, 1680.00000, -0.05586, -0.0183603, -0.04655, -0.0153003, -0.03724, -0.0122402, 3.21076E-010, -2.54755E-009
2, 1740.00000, -0.05586, -0.0183603, -0.04655, -0.0153003, -0.03724, -0.0122402, 3.21076E-010, -2.54755E-009
2, 1800.00000, -0.05586, -0.0183603, -0.04655, -0.0153003, -0.03724, -0.0122402, 3.21076E-010, -2.54755E-009
2, 1860.00000, -0.0558592, -0.0183602, -0.0558529, -0.018358, -0.0465482, -0.0152996, 9.65904E-011, -8.21674E-010
2, 1920.00000, -0.05586, -0.0183603, -0.05586, -0.0183603, -0.04655, -0.0153003, 9.67164E-011, -8.21906E-010
2, 1980.00000, -0.05586, -0.0183603, -0.05586, -0.0183603, -0.04655, -0.0153002, 9.67184E-011, -8.21914E-010
2, 2040.00000, -0.05586, -0.0183603, -0.05586, -0.0183603, -0.04655, -0.0153002, 9.67185E-011, -8.21915E-010
2, 2100.00000, -0.05586, -0.0183603, -0.05586, -0.0183603, -0.04655, -0.0153002, 9.67185E-011, -8.21915E-010
2, 2160.00000, -0.055857, -0.0183592, -0.0651747, -0.0214218, -0.0558622, -0.0183612, 2.88066E-010, -5.42358E-010
2, 2220.00000, -0.05586, -0.0183603, -0.0651701, -0.0214204, -0.05586, -0.0183603, 2.87723E-010, -5.41741E-010
2, 2280.00000, -0.05586, -0.0183603, -0.06517, -0.0214203, -0.05586, -0.0183603, 2.87719E-010, -5.4173E-010
2, 2340.00000, -0.05586, -0.0183603, -0.06517, -0.0214203, -0.05586, -0.0183603, 2.87718E-010, -5.4173E-010
2, 2400.00000, -0.05586, -0.0183603, -0.06517, -0.0214203, -0.05586, -0.0183603, 2.87718E-010, -5.4173E-010
2, 2460.00000, -0.0558589, -0.0183599, -0.0465507, -0.0153005, -0.0558603, -0.0183604, 3.71124E-011, -9.5656E-010
2, 2520.00000, -0.05586, -0.0183603, -0.04655, -0.0153003, -0.05586, -0.0183603, 3.7122E-011, -9.56785E-010
2, 2580.00000, -0.05586, -0.0183603, -0.04655, -0.0153002, -0.05586, -0.0183603, 3.71224E-011, -9.56788E-010
2, 2640.00000, -0.05586, -0.0183603, -0.04655, -0.0153002, -0.05586, -0.0183603, 3.71224E-011, -9.56788E-010
2, 2700.00000, -0.05586, -0.0183603, -0.04655, -0.0153002, -0.05586, -0.0183603, 3.71224E-011, -9.56788E-010
2, 2760.00000, -0.0465507, -0.0153005, -0.0558589, -0.0183599, -0.0558604, -0.0183604, 3.08733E-010, -5.72045E-010
2, 2820.00000, -0.04655, -0.0153002, -0.05586, -0.0183603, -0.05586, -0.0183603, 3.08796E-010, -5.72192E-010
2, 2880.00000, -0.04655, -0.0153002, -0.05586, -0.0183603, -0.05586, -0.0183603, 3.08797E-010, -5.72192E-010
2, 2940.00000, -0.04655, -0.0153002, -0.05586, -0.0183603, -0.05586, -0.0183603, 3.08797E-010, -5.72192E-010
2, 3000.00000, -0.04655, -0.0153002, -0.05586, -0.0183603, -0.05586, -0.0183603, 3.08797E-010, -5.72192E-010
2, 3060.00000, -0.0558624, -0.0183611, -0.0558599, -0.0183604, -0.0558573, -0.0183593, -2.40433E-011, -2.06141E-012
2, 3120.00000, -0.05586, -0.0183603, -0.05586, -0.0183603, -0.05586, -0.0183603, -2.39803E-011, -1.99605E-012
2, 3180.00000, -0.05586, -0.0183603, -0.05586, -0.0183603, -0.05586, -0.0183603, -2.39794E-011, -1.9949E-012
2, 3240.00000, -0.05586, -0.0183603, -0.05586, -0.0183603, -0.05586, -0.0183603, -2.39794E-011, -1.99488E-012
2, 3300.00000, -0.05586, -0.0183603, -0.05586, -0.0183603, -0.05586, -0.0183603, -2.39794E-011, -1.99488E-012
2, 3360.00000, -0.0465476, -0.0152995, -0.0558598, -0.0183601, -0.0465526, -0.0153012, 2.80485E-010, -5.72488E-010
2, 3420.00000, -0.04655, -0.0153002, -0.05586, -0.0183603, -0.04655, -0.0153003, 2.80441E-010, -5.72603E-010
2, 3480.00000, -0.04655, -0.0153002, -0.05586, -0.0183603, -0.04655, -0.0153003, 2.80439E-010, -5.72599E-010
2, 3540.00000, -0.04655, -0.0153002, -0.05586, -0.0183603, -0.04655, -0.0153003, 2.80439E-010, -5.72599E-010
3, 0.00000, -0.04655, -0.0153002, -0.05586, -0.0183603, -0.04655, -0.0153003, 2.80439E-010, -5.72599E-010
3, 60.00000, -0.0558623, -0.018361, -0.055859, -0.01836, -0.0558584, -0.0183597, -2.19349E-011, -7.25406E-013
