hour, t(sec), P1 (kW), Q1 (kvar), P2 (kW), Q2 (kvar), P3 (kW), Q3 (kvar), P4 (kW), Q4 (kvar)
0, 60.00000, -0.188481, -0.0619453, -0.21206, -0.0696996, -0.188456, -0.0619445, 3.5408E-007, 9.32901E-008
0, 120.00000, -0.18848, -0.0619477, -0.212043, -0.069695, -0.188478, -0.0619524, 3.53281E-007, 9.31459E-008
0, 180.00000, -0.188479, -0.0619476, -0.212043, -0.069695, -0.188478, -0.0619524, 3.53289E-007, 9.31482E-008
0, 240.00000, -0.188479, -0.0619476, -0.212043, -0.069695, -0.188478, -0.0619524, 3.53289E-007, 9.31483E-008
0, 300.00000, -0.188479, -0.0619476, -0.212043, -0.069695, -0.188478, -0.0619524, 3.53289E-007, 9.31483E-008
0, 360.00000, -0.188476, -0.0619509, -0.164919, -0.0542081, -0.188485, -0.0619493, 3.47111E-007, -2.6114E-008
0, 420.00000, -0.188482, -0.0619527, -0.164918, -0.0542068, -0.188481, -0.0619478, 3.47222E-007, -2.61041E-008
0, 480.00000, -0.188482, -0.0619527, -0.164918, -0.0542068, -0.188481, -0.0619478, 3.47225E-007, -2.6104E-008
0, 540.00000, -0.188482, -0.0619527, -0.164918, -0.0542068, -0.188481, -0.0619478, 3.47225E-007, -2.6104E-008
0, 600.00000, -0.188482, -0.0619527, -0.164918, -0.0542068, -0.188481, -0.0619478, 3.47225E-007, -2.6104E-008
0, 660.00000, -0.188457, -0.0619403, -0.188465, -0.0619493, -0.164944, -0.0542148, 4.27706E-007, 5.76287E-008
0, 720.00000, -0.188482, -0.0619475, -0.188482, -0.0619538, -0.164917, -0.0542061, 4.29257E-007, 5.78065E-008
0, 780.00000, -0.188482, -0.0619477, -0.188481, -0.0619536, -0.164917, -0.0542062, 4.29255E-007, 5.78025E-008
0, 840.00000, -0.188482, -0.0619477, -0.188481, -0.0619536, -0.164917, -0.0542062, 4.29255E-007, 5.78025E-008
0, 900.00000, -0.188482, -0.0619477, -0.188481, -0.0619536, -0.164917, -0.0542062, 4.29255E-007, 5.78025E-008
0, 960.00000, -0.212041, -0.0696968, -0.164912, -0.0542084, -0.188488, -0.0619476, 1.15015E-006, -1.41193E-008
0, 1020.00000, -0.212045, -0.069697, -0.164916, -0.054209, -0.18848, -0.0619451, 1.1502E-006, -1.40735E-008
0, 1080.00000, -0.212045, -0.0696971, -0.164916, -0.054209, -0.18848, -0.061945, 1.15021E-006, -1.40727E-008
0, 1140.00000, -0.212045, -0.0696971, -0.164916, -0.054209, -0.18848, -0.0619451, 1.15021E-006, -1.40727E-008
0, 1200.00000, -0.212045, -0.0696971, -0.164916, -0.054209, -0.18848, -0.0619451, 1.15021E-006, -1.40727E-008
0, 1260.00000, -0.18848, -0.0619472, -0.212053, -0.0696985, -0.188467, -0.0619494, 3.91421E-007, 8.1588E-008
0, 1320.00000, -0.188479, -0.0619474, -0.212043, -0.0696949, -0.188478, -0.0619527, 3.90964E-007, 8.15316E-008
0, 1380.00000, -0.188479, -0.0619474, -0.212043, -0.069695, -0.188478, -0.0619527, 3.90969E-007, 8.15331E-008
0, 1440.00000, -0.188479, -0.0619474, -0.212043, -0.069695, -0.188478, -0.0619527, 3.90969E-007, 8.15331E-008
0, 1500.00000, -0.188479, -0.0619474, -0.212043, -0.069695, -0.188478, -0.0619527, 3.90969E-007, 8.15331E-008
0, 1560.00000, -0.188491, -0.0619505, -0.188476, -0.0619514, -0.164914, -0.0542056, 4.22743E-007, 4.72267E-008
0, 1620.00000, -0.188482, -0.0619477, -0.188481, -0.0619535, -0.164917, -0.0542063, 4.22599E-007, 4.72566E-008
0, 1680.00000, -0.188482, -0.0619477, -0.188481, -0.0619535, -0.164917, -0.0542062, 4.22605E-007, 4.72576E-008
0, 1740.00000, -0.188482, -0.0619477, -0.188481, -0.0619535, -0.164917, -0.0542062, 4.22605E-007, 4.72576E-008
0, 1800.00000, -0.188482, -0.0619477, -0.188481, -0.0619535, -0.164917, -0.0542062, 4.22605E-007, 4.72576E-008
0, 1860.00000, -0.212029, -0.069691, -0.164938, -0.0542162, -0.188482, -0.0619468, 1.13569E-006, -4.38748E-009
0, 1920.00000, -0.212045, -0.0696971, -0.164916, -0.0542089, -0.18848, -0.0619451, 1.13737E-006, -4.29432E-009
0, 1980.00000, -0.212045, -0.0696971, -0.164916, -0.0542089, -0.18848, -0.0619452, 1.13737E-006, -4.29594E-009
0, 2040.00000, -0.212045, -0.0696971, -0.164916, -0.0542089, -0.18848, -0.0619452, 1.13737E-006, -4.29597E-009
0, 2100.00000, -0.212045, -0.0696971, -0.164916, -0.0542089, -0.18848, -0.0619452, 1.13737E-006, -4.29597E-009
0, 2160.00000, -0.16493, -0.0542108, -0.188482, -0.0619482, -0.188468, -0.0619482, 3.27681E-007, 4.6337E-008
0, 2220.00000, -0.164918, -0.0542063, -0.188481, -0.0619482, -0.188481, -0.0619529, 3.28211E-007, 4.64058E-008
0, 2280.00000, -0.164918, -0.0542063, -0.188482, -0.0619483, -0.188481, -0.0619529, 3.28216E-007, 4.64065E-008
0, 2340.00000, -0.164918, -0.0542063, -0.188482, -0.0619483, -0.188481, -0.0619529, 3.28216E-007, 4.64065E-008
0, 2400.00000, -0.164918, -0.0542063, -0.188482, -0.0619483, -0.188481, -0.0619529, 3.28216E-007, 4.64065E-008
0, 2460.00000, -0.188474, -0.0619483, -0.188479, -0.0619508, -0.188487, -0.0619527, 1.99204E-010, 4.91874E-010
0, 2520.00000, -0.18848, -0.0619501, -0.18848, -0.0619509, -0.18848, -0.0619501, 2.3228E-010, 4.9799E-010
0, 2580.00000, -0.18848, -0.0619501, -0.18848, -0.0619509, -0.18848, -0.0619501, 2.32412E-010, 4.97448E-010
0, 2640.00000, -0.18848, -0.0619501, -0.18848, -0.0619509, -0.18848, -0.0619501, 2.32404E-010, 4.97445E-010
0, 2700.00000, -0.18848, -0.0619501, -0.18848, -0.0619509, -0.18848, -0.0619501, 2.32403E-010, 4.97445E-010
0, 2760.00000, -0.212039, -0.0696987, -0.188481, -0.0619497, -0.235601, -0.0774344, 1.02931E-006, -2.15218E-008
0, 2820.00000, -0.21204, -0.0696996, -0.188476, -0.0619481, -0.235605, -0.0774348, 1.02966E-006, -2.14977E-008
0, 2880.00000, -0.21204, -0.0696996, -0.188476, -0.0619481, -0.235605, -0.0774349, 1.02966E-006, -2.14978E-008
0, 2940.00000, -0.21204, -0.0696996, -0.188476, -0.0619481, -0.235605, -0.0774349, 1.02966E-006, -2.14978E-008
0, 3000.00000, -0.21204, -0.0696996, -0.188476, -0.0619481, -0.235605, -0.0774349, 1.02966E-006, -2.14978E-008
0, 3060.00000, -0.212055, -0.0696915, -0.212038, -0.0696996, -0.164908, -0.0542043, 1.59966E-006, 1.13724E-007
0, 3120.00000, -0.212044, -0.0696883, -0.212043, -0.0697006, -0.164915, -0.0542062, 1.59911E-006, 1.13741E-007
0, 3180.00000, -0.212044, -0.0696882, -0.212043, -0.0697007, -0.164914, -0.0542061, 1.59912E-006, 1.13743E-007
0, 3240.00000, -0.212044, -0.0696882, -0.212043, -0.0697007, -0.164914, -0.0542061, 1.59912E-006, 1.13743E-007
0, 3300.00000, -0.212044, -0.0696882, -0.212043, -0.0697007, -0.164914, -0.0542061, 1.59912E-006, 1.13743E-007
0, 3360.00000, -0.16491, -0.05421, -0.141359, -0.046462, -0.212054, -0.0696944, 2.45091E-006, 4.06764E-008
0, 3420.00000, -0.164919, -0.054213, -0.141356, -0.0464591, -0.212048, -0.0696915, 2.4505E-006, 4.06789E-008
0, 3480.00000, -0.164919, -0.054213, -0.141356, -0.0464591, -0.212048, -0.0696916, 2.45052E-006, 4.06804E-008
0, 3540.00000, -0.164919, -0.054213, -0.141356, -0.0464591, -0.212048, -0.0696916, 2.45052E-006, 4.06804E-008
1, 0.00000, -0.164919, -0.054213, -0.141356, -0.0464591, -0.212048, -0.0696916, 2.45052E-006, 4.06804E-008
1, 60.00000, -0.16492, -0.0542133, -0.141356, -0.0464591, -0.212047, -0.0696913, 2.48075E-006, 4.06758E-008
1, 120.00000, -0.164919, -0.054213, -0.141356, -0.046459, -0.212048, -0.0696916, 2.4808E-006, 4.06864E-008
1, 180.00000, -0.164919, -0.054213, -0.141356, -0.046459, -0.212048, -0.0696916, 2.4808E-006, 4.06864E-008
1, 240.00000, -0.164919, -0.054213, -0.141356, -0.046459, -0.212048, -0.0696916, 2.4808E-006, 4.06864E-008
1, 300.00000, -0.164919, -0.054213, -0.141356, -0.046459, -0.212048, -0.0696916, 2.4808E-006, 4.06864E-008
1, 360.00000, -0.141357, -0.0464622, -0.164922, -0.0542049, -0.164921, -0.0542089, 3.26624E-007, 3.23135E-008
1, 420.00000, -0.141358, -0.0464626, -0.164921, -0.0542047, -0.164921, -0.0542087, 3.26576E-007, 3.23113E-008
1, 480.00000, -0.141358, -0.0464626, -0.164921, -0.0542047, -0.164921, -0.0542087, 3.26576E-007, 3.23113E-008
1, 540.00000, -0.141358, -0.0464626, -0.164921, -0.0542047, -0.164921, -0.0542087, 3.26576E-007, 3.23113E-008
1, 600.00000, -0.141358, -0.0464626, -0.164921, -0.0542047, -0.164921, -0.0542087, 3.26576E-007, 3.23113E-008
1, 660.00000, -0.188479, -0.0619519, -0.164926, -0.0542089, -0.188474, -0.0619458, 3.60585E-007, -1.98239E-008
1, 720.00000, -0.188482, -0.0619528, -0.164918, -0.0542067, -0.188481, -0.0619478, 3.60989E-007, -1.98456E-008
1, 780.00000, -0.188482, -0.0619528, -0.164917, -0.0542067, -0.188481, -0.0619478, 3.60991E-007, -1.98456E-008
1, 840.00000, -0.188482, -0.0619528, -0.164917, -0.0542067, -0.188481, -0.0619478, 3.60991E-007, -1.98456E-008
1, 900.00000, -0.188482, -0.0619528, -0.164917, -0.0542067, -0.188481, -0.0619478, 3.60991E-007, -1.98456E-008
1, 960.00000, -0.16492, -0.0542063, -0.164919, -0.0542068, -0.164921, -0.0542066, 3.59917E-010, -1.21112E-010
1, 1020.00000, -0.16492, -0.0542064, -0.16492, -0.054207, -0.16492, -0.0542064, 3.62724E-010, -1.19436E-010
1, 1080.00000, -0.16492, -0.0542064, -0.16492, -0.054207, -0.16492, -0.0542063, 3.62732E-010, -1.1944E-010
1, 1140.00000, -0.16492, -0.0542064, -0.16492, -0.054207, -0.16492, -0.0542063, 3.62732E-010, -1.1944E-010
1, 1200.00000, -0.16492, -0.0542064, -0.16492, -0.054207, -0.16492, -0.0542063, 3.62732E-010, -1.1944E-010
1, 1260.00000, -0.14136, -0.0464626, -0.141361, -0.0464632, -0.14136, -0.0464626, 3.23926E-010, -1.58267E-010
1, 1320.00000, -0.14136, -0.0464627, -0.14136, -0.046463, -0.14136, -0.0464627, 3.23995E-010, -1.59185E-010
1, 1380.00000, -0.14136, -0.0464627, -0.14136, -0.046463, -0.14136, -0.0464627, 3.23991E-010, -1.59185E-010
1, 1440.00000, -0.14136, -0.0464627, -0.14136, -0.046463, -0.14136, -0.0464627, 3.23991E-010, -1.59185E-010
1, 1500.00000, -0.14136, -0.0464627, -0.14136, -0.046463, -0.14136, -0.0464627, 3.23991E-010, -1.59185E-010
1, 1560.00000, -0.141359, -0.0464684, -0.117797, -0.0387159, -0.188487, -0.0619479, 2.46929E-006, 7.0181E-008
1, 1620.00000, -0.141359, -0.0464683, -0.117797, -0.0387158, -0.188487, -0.0619481, 2.46934E-006, 7.01855E-008
1, 1680.00000, -0.141359, -0.0464683, -0.117797, -0.0387158, -0.188487, -0.0619481, 2.46934E-006, 7.01855E-008
1, 1740.00000, -0.141359, -0.0464683, -0.117797, -0.0387158, -0.188487, -0.0619481, 2.46934E-006, 7.01855E-008
1, 1800.00000, -0.141359, -0.0464683, -0.117797, -0.0387158, -0.188487, -0.0619481, 2.46934E-006, 7.01855E-008
1, 1860.00000, -0.188483, -0.0619553, -0.141356, -0.0464628, -0.188483, -0.0619454, 1.4596E-006, -2.4844E-008
1, 1920.00000, -0.188483, -0.0619554, -0.141356, -0.0464629, -0.188483, -0.0619453, 1.45959E-006, -2.48467E-008
1, 1980.00000, -0.188483, -0.0619554, -0.141356, -0.0464629, -0.188483, -0.0619453, 1.45959E-006, -2.48467E-008
1, 2040.00000, -0.188483, -0.0619554, -0.141356, -0.0464629, -0.188483, -0.0619453, 1.45959E-006, -2.48467E-008
1, 2100.00000, -0.188483, -0.0619554, -0.141356, -0.0464629, -0.188483, -0.0619453, 1.45959E-006, -2.48467E-008
1, 2160.00000, -0.14136, -0.0464588, -0.164924, -0.0542093, -0.117797, -0.0387203, 1.12429E-006, 1.28976E-007
1, 2220.00000, -0.14136, -0.0464589, -0.164924, -0.0542093, -0.117797, -0.0387203, 1.1243E-006, 1.28977E-007
1, 2280.00000, -0.14136, -0.0464589, -0.164924, -0.0542093, -0.117797, -0.0387203, 1.1243E-006, 1.28977E-007
1, 2340.00000, -0.14136, -0.0464589, -0.164924, -0.0542093, -0.117797, -0.0387203, 1.1243E-006, 1.28977E-007
1, 2400.00000, -0.14136, -0.0464589, -0.164924, -0.0542093, -0.117797, -0.0387203, 1.1243E-006, 1.28977E-007
1, 2460.00000, -0.188484, -0.0619429, -0.188469, -0.0619534, -0.117803, -0.0387213, 3.3951E-006, 2.09305E-007
1, 2520.00000, -0.188485, -0.0619428, -0.188484, -0.0619585, -0.117794, -0.0387186, 3.3967E-006, 2.0928E-007
1, 2580.00000, -0.188485, -0.0619428, -0.188484, -0.0619585, -0.117794, -0.0387186, 3.3967E-006, 2.0928E-007
1, 2640.00000, -0.188485, -0.0619428, -0.188484, -0.0619585, -0.117794, -0.0387186, 3.3967E-006, 2.0928E-007
1, 2700.00000, -0.188485, -0.0619428, -0.188484, -0.0619585, -0.117794, -0.0387186, 3.3967E-006, 2.0928E-007
1, 2760.00000, -0.141359, -0.0464603, -0.164933, -0.0542104, -0.141348, -0.0464613, 3.78149E-007, 4.69474E-008
1, 2820.00000, -0.141359, -0.0464607, -0.164923, -0.0542069, -0.141359, -0.0464646, 3.77592E-007, 4.6911E-008
1, 2880.00000, -0.141359, -0.0464607, -0.164923, -0.0542069, -0.141359, -0.0464646, 3.77591E-007, 4.6911E-008
1, 2940.00000, -0.141359, -0.0464607, -0.164923, -0.0542069, -0.141359, -0.0464646, 3.77591E-007, 4.6911E-008
1, 3000.00000, -0.141359, -0.0464607, -0.164923, -0.0542069, -0.141359, -0.0464646, 3.77591E-007, 4.6911E-008
1, 3060.00000, -0.164918, -0.0542093, -0.117799, -0.0387196, -0.164921, -0.0542022, 1.42818E-006, 1.6133E-008
1, 3120.00000, -0.164922, -0.0542109, -0.117796, -0.038719, -0.164923, -0.0542023, 1.42852E-006, 1.61099E-008
1, 3180.00000, -0.164922, -0.0542109, -0.117796, -0.038719, -0.164923, -0.0542023, 1.42852E-006, 1.611E-008
1, 3240.00000, -0.164922, -0.0542109, -0.117796, -0.038719, -0.164923, -0.0542023, 1.42852E-006, 1.611E-008
1, 3300.00000, -0.164922, -0.0542109, -0.117796, -0.038719, -0.164923, -0.0542023, 1.42852E-006, 1.611E-008
1, 3360.00000, -0.141358, -0.0464663, -0.141358, -0.046459, -0.188486, -0.0619507, 1.36291E-006, 5.0671E-008
1, 3420.00000, -0.141358, -0.0464663, -0.141358, -0.0464592, -0.188485, -0.0619506, 1.36287E-006, 5.06735E-008
1, 3480.00000, -0.141358, -0.0464663, -0.141358, -0.0464592, -0.188485, -0.0619506, 1.36287E-006, 5.06735E-008
1, 3540.00000, -0.141358, -0.0464663, -0.141358, -0.0464592, -0.188485, -0.0619506, 1.36287E-006, 5.06735E-008
2, 0.00000, -0.141358, -0.0464663, -0.141358, -0.0464592, -0.188485, -0.0619506, 1.36287E-006, 5.06735E-008
2, 60.00000, -0.117801, -0.0387205, -0.094239, -0.0309754, -0.1178, -0.0387171, 3.63879E-007, -6.93157E-009
2, 120.00000, -0.117801, -0.0387205, -0.0942386, -0.0309752, -0.117801, -0.0387174, 3.63907E-007, -6.92875E-009
2, 180.00000, -0.117801, -0.0387205, -0.0942386, -0.0309752, -0.117801, -0.0387174, 3.63907E-007, -6.92875E-009
2, 240.00000, -0.117801, -0.0387205, -0.0942386, -0.0309752, -0.117801, -0.0387174, 3.63907E-007, -6.92875E-009
2, 300.00000, -0.117801, -0.0387205, -0.0942386, -0.0309752, -0.117801, -0.0387174, 3.63907E-007, -6.92875E-009
2, 360.00000, -0.14136, -0.0464625, -0.14136, -0.0464628, -0.141361, -0.046463, 1.20211E-010, 1.68205E-010
2, 420.00000, -0.14136, -0.0464627, -0.14136, -0.046463, -0.14136, -0.0464627, 1.22501E-010, 1.69484E-010
2, 480.00000, -0.14136, -0.0464627, -0.14136, -0.046463, -0.14136, -0.0464627, 1.22503E-010, 1.69477E-010
2, 540.00000, -0.14136, -0.0464627, -0.14136, -0.046463, -0.14136, -0.0464627, 1.22503E-010, 1.69477E-010
2, 600.00000, -0.14136, -0.0464627, -0.14136, -0.046463, -0.14136, -0.0464627, 1.22503E-010, 1.69477E-010
2, 660.00000, -0.164922, -0.0542085, -0.117799, -0.038721, -0.141361, -0.0464591, 1.1243E-006, 1.49403E-008
2, 720.00000, -0.164924, -0.0542089, -0.117797, -0.0387206, -0.14136, -0.0464589, 1.12446E-006, 1.49326E-008
2, 780.00000, -0.164924, -0.0542089, -0.117797, -0.0387206, -0.14136, -0.0464589, 1.12446E-006, 1.49326E-008
2, 840.00000, -0.164924, -0.0542089, -0.117797, -0.0387206, -0.14136, -0.0464589, 1.12446E-006, 1.49326E-008
2, 900.00000, -0.164924, -0.0542089, -0.117797, -0.0387206, -0.14136, -0.0464589, 1.12446E-006, 1.49326E-008
2, 960.00000, -0.141361, -0.0464589, -0.164923, -0.0542092, -0.117797, -0.0387203, 1.1249E-006, 1.34894E-007
2, 1020.00000, -0.14136, -0.0464589, -0.164924, -0.0542093, -0.117797, -0.0387203, 1.12492E-006, 1.34894E-007
2, 1080.00000, -0.14136, -0.0464589, -0.164924, -0.0542093, -0.117797, -0.0387203, 1.12492E-006, 1.34894E-007
2, 1140.00000, -0.14136, -0.0464589, -0.164924, -0.0542093, -0.117797, -0.0387203, 1.12492E-006, 1.34894E-007
2, 1200.00000, -0.14136, -0.0464589, -0.164924, -0.0542093, -0.117797, -0.0387203, 1.12492E-006, 1.34894E-007
2, 1260.00000, -0.188483, -0.0619495, -0.141362, -0.0464682, -0.141356, -0.0464581, 1.55268E-006, 2.23057E-008
2, 1320.00000, -0.188486, -0.0619505, -0.141358, -0.0464668, -0.141358, -0.0464587, 1.55296E-006, 2.23156E-008
2, 1380.00000, -0.188486, -0.0619505, -0.141358, -0.0464668, -0.141358, -0.0464587, 1.55296E-006, 2.23155E-008
2, 1440.00000, -0.188486, -0.0619505, -0.141358, -0.0464668, -0.141358, -0.0464587, 1.55296E-006, 2.23155E-008
2, 1500.00000, -0.188486, -0.0619505, -0.141358, -0.0464668, -0.141358, -0.0464587, 1.55296E-006, 2.23155E-008
2, 1560.00000, -0.0942399, -0.030974, -0.117801, -0.0387192, -0.094239, -0.0309763, 3.65043E-007, 5.25321E-008
2, 1620.00000, -0.0942395, -0.0309738, -0.117802, -0.0387193, -0.0942391, -0.0309764, 3.65057E-007, 5.25298E-008
2, 1680.00000, -0.0942395, -0.0309738, -0.117802, -0.0387193, -0.0942391, -0.0309764, 3.65057E-007, 5.25298E-008
2, 1740.00000, -0.0942395, -0.0309738, -0.117802, -0.0387193, -0.0942391, -0.0309764, 3.65057E-007, 5.25298E-008
2, 1800.00000, -0.0942395, -0.0309738, -0.117802, -0.0387193, -0.0942391, -0.0309764, 3.65057E-007, 5.25298E-008
2, 1860.00000, -0.141353, -0.0464603, -0.141363, -0.0464639, -0.141362, -0.0464635, 1.51207E-010, -1.25203E-010
2, 1920.00000, -0.14136, -0.0464627, -0.14136, -0.046463, -0.14136, -0.0464627, 1.64515E-010, -1.34595E-010
2, 1980.00000, -0.14136, -0.0464627, -0.14136, -0.046463, -0.14136, -0.0464627, 1.64499E-010, -1.34598E-010
2, 2040.00000, -0.14136, -0.0464627, -0.14136, -0.046463, -0.14136, -0.0464627, 1.64499E-010, -1.34598E-010
2, 2100.00000, -0.14136, -0.0464627, -0.14136, -0.046463, -0.14136, -0.0464627, 1.64499E-010, -1.34598E-010
2, 2160.00000, -0.0942449, -0.0309799, -0.117797, -0.0387141, -0.164914, -0.0542047, 2.44284E-006, 1.17533E-007
2, 2220.00000, -0.0942371, -0.0309775, -0.117799, -0.0387144, -0.164926, -0.054209, 2.44436E-006, 1.17586E-007
2, 2280.00000, -0.0942371, -0.0309775, -0.117799, -0.0387144, -0.164926, -0.054209, 2.44436E-006, 1.17587E-007
2, 2340.00000, -0.0942371, -0.0309775, -0.117799, -0.0387144, -0.164926, -0.054209, 2.44436E-006, 1.17587E-007
2, 2400.00000, -0.0942371, -0.0309775, -0.117799, -0.0387144, -0.164926, -0.054209, 2.44436E-006, 1.17587E-007
2, 2460.00000, -0.141363, -0.046459, -0.141362, -0.046467, -0.0942368, -0.0309749, 1.53282E-006, 1.17293E-007
2, 2520.00000, -0.141363, -0.046459, -0.141362, -0.0464669, -0.0942369, -0.0309749, 1.53281E-006, 1.17293E-007
2, 2580.00000, -0.141363, -0.046459, -0.141362, -0.0464669, -0.0942369, -0.0309749, 1.53281E-006, 1.17293E-007
2, 2640.00000, -0.141363, -0.046459, -0.141362, -0.0464669, -0.0942369, -0.0309749, 1.53281E-006, 1.17293E-007
2, 2700.00000, -0.141363, -0.046459, -0.141362, -0.0464669, -0.0942369, -0.0309749, 1.53281E-006, 1.17293E-007
2, 2760.00000, -0.0942368, -0.0309774, -0.1178, -0.0387144, -0.164926, -0.0542091, 2.47141E-006, 1.50275E-007
2, 2820.00000, -0.094237, -0.0309775, -0.117799, -0.0387143, -0.164926, -0.0542091, 2.4714E-006, 1.50268E-007
2, 2880.00000, -0.094237, -0.0309775, -0.117799, -0.0387143, -0.164926, -0.0542091, 2.4714E-006, 1.50268E-007
2, 2940.00000, -0.094237, -0.0309775, -0.117799, -0.0387143, -0.164926, -0.0542091, 2.4714E-006, 1.50268E-007
2, 3000.00000, -0.094237, -0.0309775, -0.117799, -0.0387143, -0.164926, -0.0542091, 2.4714E-006, 1.50268E-007
2, 3060.00000, -0.164922, -0.0542088, -0.141357, -0.0464628, -0.164921, -0.0542044, 3.59579E-007, -2.85879E-008
2, 3120.00000, -0.164921, -0.0542087, -0.141358, -0.046463, -0.164921, -0.0542043, 3.59552E-007, -2.85869E-008
2, 3180.00000, -0.164921, -0.0542087, -0.141358, -0.046463, -0.164921, -0.0542043, 3.59552E-007, -2.85869E-008
2, 3240.00000, -0.164921, -0.0542087, -0.141358, -0.046463, -0.164921, -0.0542043, 3.59552E-007, -2.85869E-008
2, 3300.00000, -0.164921, -0.0542087, -0.141358, -0.046463, -0.164921, -0.0542043, 3.59552E-007, -2.85869E-008
2, 3360.00000, -0.14136, -0.0464588, -0.164924, -0.0542094, -0.117797, -0.0387203, 1.13891E-006, 1.45406E-007
2, 3420.00000, -0.14136, -0.0464589, -0.164924, -0.0542094, -0.117797, -0.0387203, 1.13892E-006, 1.45409E-007
2, 3480.00000, -0.14136, -0.0464589, -0.164924, -0.0542094, -0.117797, -0.0387203, 1.13892E-006, 1.45409E-007
2, 3540.00000, -0.14136, -0.0464589, -0.164924, -0.0542094, -0.117797, -0.0387203, 1.13892E-006, 1.45409E-007
3, 0.00000, -0.14136, -0.0464589, -0.164924, -0.0542094, -0.117797, -0.0387203, 1.13892E-006, 1.45409E-007
3, 60.00000, -0.164923, -0.0542065, -0.141359, -0.0464648, -0.141359, -0.0464607, 4.00202E-007, -4.1448E-009
