hour, t(sec), V1, VAngle1, V2, VAngle2, V3, VAngle3, V4, VAngle4, I1, IAngle1, I2, IAngle2, I3, IAngle3, I4, IAngle4
0, 60.00000, 222.728, -29.8588, 222.427, -149.923, 222.954, 90.0546, 7.02983E-005, 127.603, 0.25457, 131.947, 0.364187, 11.8828, 0.326939, -108.14, 0.042569, -167.333
0, 120.00000, 222.727, -29.8582, 222.427, -149.923, 222.955, 90.0549, 7.02874E-005, 127.574, 0.254572, 131.947, 0.364164, 11.8824, 0.326972, -108.14, 0.0425662, -167.364
0, 180.00000, 222.727, -29.8582, 222.427, -149.923, 222.955, 90.0549, 7.0288E-005, 127.573, 0.254571, 131.947, 0.364164, 11.8824, 0.326972, -108.14, 0.0425665, -167.364
0, 240.00000, 222.727, -29.8582, 222.427, -149.923, 222.955, 90.0549, 7.0288E-005, 127.573, 0.254571, 131.947, 0.364164, 11.8824, 0.326972, -108.14, 0.0425665, -167.364
0, 300.00000, 222.727, -29.8582, 222.427, -149.923, 222.955, 90.0549, 7.0288E-005, 127.573, 0.254571, 131.947, 0.364164, 11.8824, 0.326972, -108.14, 0.0425665, -167.364
0, 360.00000, 222.8, -29.8378, 222.113, -149.925, 222.945, 90.0193, 4.61136E-005, 141.475, 0.254482, 131.967, 0.328215, 11.8801, 0.29066, -108.176, 0.0260059, -158.94
0, 420.00000, 222.8, -29.8377, 222.113, -149.925, 222.945, 90.0192, 4.61073E-005, 141.484, 0.254488, 131.967, 0.328212, 11.8802, 0.290655, -108.176, 0.0260011, -158.933
0, 480.00000, 222.8, -29.8377, 222.113, -149.925, 222.945, 90.0192, 4.61072E-005, 141.483, 0.254488, 131.967, 0.328212, 11.8802, 0.290655, -108.176, 0.026001, -158.934
0, 540.00000, 222.8, -29.8377, 222.113, -149.925, 222.945, 90.0192, 4.61072E-005, 141.483, 0.254488, 131.967, 0.328212, 11.8802, 0.290655, -108.176, 0.026001, -158.934
0, 600.00000, 222.8, -29.8377, 222.113, -149.925, 222.945, 90.0192, 4.61072E-005, 141.483, 0.254488, 131.967, 0.328212, 11.8802, 0.290655, -108.176, 0.026001, -158.934
0, 660.00000, 222.632, -29.8572, 222.475, -149.94, 223.089, 90.0578, 2.38778E-005, 40.0529, 0.291041, 131.947, 0.291231, 11.8642, 0.326818, -108.137, 0.0201337, 110.367
0, 720.00000, 222.634, -29.8574, 222.474, -149.939, 223.088, 90.0574, 2.38203E-005, 40.0576, 0.291059, 131.948, 0.29127, 11.8659, 0.326777, -108.138, 0.0200986, 110.362
0, 780.00000, 222.634, -29.8573, 222.474, -149.939, 223.088, 90.0574, 2.38205E-005, 40.0554, 0.29106, 131.948, 0.291269, 11.8659, 0.326777, -108.138, 0.0200987, 110.36
0, 840.00000, 222.634, -29.8573, 222.474, -149.939, 223.088, 90.0574, 2.38205E-005, 40.0554, 0.29106, 131.948, 0.291269, 11.8659, 0.326777, -108.138, 0.0200987, 110.36
0, 900.00000, 222.634, -29.8573, 222.474, -149.939, 223.088, 90.0574, 2.38205E-005, 40.0554, 0.29106, 131.948, 0.291269, 11.8659, 0.326777, -108.138, 0.0200987, 110.36
0, 960.00000, 223.277, -29.8426, 222.062, -149.885, 222.771, 89.9799, 2.72894E-005, -23.3146, 0.290217, 131.962, 0.255328, 11.9197, 0.290893, -108.215, 0.0211459, 61.4812
0, 1020.00000, 223.278, -29.8427, 222.062, -149.885, 222.771, 89.9799, 2.72841E-005, -23.3413, 0.290221, 131.962, 0.255334, 11.9203, 0.290882, -108.215, 0.0211414, 61.4619
0, 1080.00000, 223.278, -29.8427, 222.062, -149.885, 222.771, 89.9799, 2.72844E-005, -23.3416, 0.290221, 131.962, 0.255334, 11.9203, 0.290882, -108.215, 0.0211415, 61.4617
0, 1140.00000, 223.278, -29.8427, 222.062, -149.885, 222.771, 89.9799, 2.72844E-005, -23.3415, 0.290221, 131.962, 0.255334, 11.9203, 0.290882, -108.215, 0.0211415, 61.4617
0, 1200.00000, 223.278, -29.8427, 222.062, -149.885, 222.771, 89.9799, 2.72844E-005, -23.3415, 0.290221, 131.962, 0.255334, 11.9203, 0.290882, -108.215, 0.0211415, 61.4617
0, 1260.00000, 222.228, -29.8427, 222.319, -149.963, 223.004, 90.0837, 2.89826E-005, 175.029, 0.291595, 131.963, 0.327921, 11.8422, 0.290561, -108.111, 0.0124629, -122.9
0, 1320.00000, 222.227, -29.8425, 222.319, -149.963, 223.005, 90.0838, 2.89652E-005, 175.012, 0.291594, 131.963, 0.327907, 11.842, 0.290577, -108.111, 0.0124537, -122.935
0, 1380.00000, 222.227, -29.8425, 222.319, -149.963, 223.005, 90.0838, 2.89653E-005, 175.011, 0.291593, 131.963, 0.327907, 11.842, 0.290577, -108.111, 0.0124539, -122.935
0, 1440.00000, 222.227, -29.8425, 222.319, -149.963, 223.005, 90.0838, 2.89653E-005, 175.011, 0.291593, 131.963, 0.327907, 11.842, 0.290577, -108.111, 0.0124539, -122.935
0, 1500.00000, 222.227, -29.8425, 222.319, -149.963, 223.005, 90.0838, 2.89653E-005, 175.011, 0.291593, 131.963, 0.327907, 11.842, 0.290577, -108.111, 0.0124539, -122.935
0, 1560.00000, 222.531, -29.8909, 222.801, -149.927, 222.907, 90.0954, 5.99217E-005, -76.1449, 0.364006, 131.914, 0.290834, 11.8787, 0.290701, -108.1, 0.0347225, 6.20942
0, 1620.00000, 222.531, -29.891, 222.801, -149.927, 222.907, 90.0955, 5.99069E-005, -76.1479, 0.363994, 131.914, 0.290842, 11.8785, 0.290705, -108.099, 0.0347131, 6.20851
0, 1680.00000, 222.531, -29.891, 222.801, -149.927, 222.907, 90.0955, 5.99069E-005, -76.1481, 0.363994, 131.914, 0.290842, 11.8785, 0.290705, -108.099, 0.0347131, 6.2083
0, 1740.00000, 222.531, -29.891, 222.801, -149.927, 222.907, 90.0955, 5.99069E-005, -76.1481, 0.363994, 131.914, 0.290842, 11.8785, 0.290705, -108.099, 0.0347131, 6.2083
0, 1800.00000, 222.531, -29.891, 222.801, -149.927, 222.907, 90.0955, 5.99069E-005, -76.1481, 0.363994, 131.914, 0.290842, 11.8785, 0.290705, -108.099, 0.0347131, 6.2083
0, 1860.00000, 222.565, -29.9012, 222.67, -149.915, 222.692, 90.0728, 5.17217E-005, -105.838, 0.327522, 131.904, 0.291048, 11.8902, 0.254615, -108.121, 0.0297719, -23.7366
0, 1920.00000, 222.565, -29.9009, 222.669, -149.915, 222.693, 90.0725, 5.17407E-005, -105.8, 0.327544, 131.904, 0.291016, 11.8901, 0.25461, -108.122, 0.0297867, -23.6989
0, 1980.00000, 222.565, -29.9008, 222.669, -149.915, 222.693, 90.0725, 5.17402E-005, -105.799, 0.327544, 131.904, 0.291016, 11.89, 0.25461, -108.122, 0.0297865, -23.6986
0, 2040.00000, 222.565, -29.9008, 222.669, -149.915, 222.693, 90.0725, 5.17402E-005, -105.799, 0.327544, 131.904, 0.291016, 11.89, 0.25461, -108.122, 0.0297865, -23.6986
0, 2100.00000, 222.565, -29.9008, 222.669, -149.915, 222.693, 90.0725, 5.17402E-005, -105.799, 0.327544, 131.904, 0.291016, 11.89, 0.25461, -108.122, 0.0297865, -23.6986
0, 2160.00000, 222.633, -29.8816, 222.751, -149.935, 222.973, 90.0762, 7.55425E-005, -152.363, 0.254698, 131.924, 0.290899, 11.8702, 0.181618, -108.12, 0.0426293, -77.943
0, 2220.00000, 222.632, -29.8817, 222.752, -149.935, 222.973, 90.0765, 7.55312E-005, -152.384, 0.25468, 131.923, 0.290907, 11.8697, 0.181636, -108.118, 0.0426222, -77.9658
0, 2280.00000, 222.632, -29.8817, 222.752, -149.935, 222.973, 90.0765, 7.55315E-005, -152.384, 0.25468, 131.923, 0.290907, 11.8697, 0.181636, -108.118, 0.0426224, -77.966
0, 2340.00000, 222.632, -29.8817, 222.752, -149.935, 222.973, 90.0765, 7.55315E-005, -152.384, 0.25468, 131.923, 0.290907, 11.8697, 0.181636, -108.118, 0.0426224, -77.966
0, 2400.00000, 222.632, -29.8817, 222.752, -149.935, 222.973, 90.0765, 7.55315E-005, -152.384, 0.25468, 131.923, 0.290907, 11.8697, 0.181636, -108.118, 0.0426224, -77.966
0, 2460.00000, 222.823, -29.839, 222.157, -149.915, 222.934, 90.0135, 8.5728E-005, -75.8687, 0.363507, 131.966, 0.255224, 11.8894, 0.254345, -108.181, 0.0517908, 2.11888
0, 2520.00000, 222.824, -29.839, 222.157, -149.915, 222.934, 90.0134, 8.57405E-005, -75.8732, 0.363516, 131.966, 0.255226, 11.89, 0.254335, -108.181, 0.0517983, 2.11374
0, 2580.00000, 222.824, -29.839, 222.157, -149.915, 222.934, 90.0134, 8.57407E-005, -75.8731, 0.363516, 131.966, 0.255225, 11.89, 0.254335, -108.181, 0.0517984, 2.11384
0, 2640.00000, 222.824, -29.839, 222.157, -149.915, 222.934, 90.0134, 8.57407E-005, -75.8731, 0.363516, 131.966, 0.255225, 11.89, 0.254335, -108.181, 0.0517984, 2.11384
0, 2700.00000, 222.824, -29.839, 222.157, -149.915, 222.934, 90.0134, 8.57407E-005, -75.8731, 0.363516, 131.966, 0.255225, 11.89, 0.254335, -108.181, 0.0517984, 2.11384
0, 2760.00000, 222.568, -29.8178, 222.358, -149.979, 223.541, 90.0478, 5.85824E-005, -133.206, 0.291146, 131.988, 0.29143, 11.8264, 0.217405, -108.147, 0.0319571, -57.134
0, 2820.00000, 222.568, -29.8177, 222.358, -149.979, 223.542, 90.0478, 5.85766E-005, -133.199, 0.291148, 131.987, 0.291422, 11.8263, 0.217409, -108.147, 0.0319537, -57.1266
0, 2880.00000, 222.568, -29.8177, 222.358, -149.979, 223.542, 90.0478, 5.85765E-005, -133.199, 0.291147, 131.987, 0.291422, 11.8263, 0.217409, -108.147, 0.0319537, -57.1267
0, 2940.00000, 222.568, -29.8177, 222.358, -149.979, 223.542, 90.0478, 5.85765E-005, -133.199, 0.291147, 131.987, 0.291422, 11.8263, 0.217409, -108.147, 0.0319537, -57.1267
0, 3000.00000, 222.568, -29.8177, 222.358, -149.979, 223.542, 90.0478, 5.85765E-005, -133.199, 0.291147, 131.987, 0.291422, 11.8263, 0.217409, -108.147, 0.0319537, -57.1267
0, 3060.00000, 222.366, -29.8776, 222.643, -149.945, 222.946, 90.0821, 3.2378E-005, -130.271, 0.327852, 131.928, 0.327422, 11.8604, 0.290644, -108.113, 0.0142785, -45.9759
0, 3120.00000, 222.366, -29.8777, 222.644, -149.945, 222.946, 90.0823, 3.2367E-005, -130.296, 0.327838, 131.927, 0.327429, 11.8602, 0.290654, -108.113, 0.0142701, -46.0069
0, 3180.00000, 222.366, -29.8777, 222.644, -149.945, 222.946, 90.0823, 3.23672E-005, -130.297, 0.327838, 131.927, 0.327429, 11.8603, 0.290653, -108.113, 0.0142702, -46.0075
0, 3240.00000, 222.366, -29.8777, 222.644, -149.945, 222.946, 90.0823, 3.23672E-005, -130.297, 0.327838, 131.927, 0.327429, 11.8603, 0.290653, -108.113, 0.0142702, -46.0075
0, 3300.00000, 222.366, -29.8777, 222.644, -149.945, 222.946, 90.0823, 3.23672E-005, -130.297, 0.327838, 131.927, 0.327429, 11.8603, 0.290653, -108.113, 0.0142702, -46.0075
0, 3360.00000, 222.639, -29.8542, 222.436, -149.944, 223.014, 90.052, 5.19876E-005, 106.871, 0.21828, 131.951, 0.291326, 11.8605, 0.290573, -108.143, 0.0338755, 172.943
0, 3420.00000, 222.639, -29.8542, 222.436, -149.944, 223.014, 90.0518, 5.19733E-005, 106.873, 0.21829, 131.951, 0.29132, 11.8608, 0.290565, -108.143, 0.0338665, 172.943
0, 3480.00000, 222.639, -29.8542, 222.436, -149.944, 223.014, 90.0518, 5.19732E-005, 106.873, 0.21829, 131.951, 0.29132, 11.8608, 0.290565, -108.143, 0.0338665, 172.943
0, 3540.00000, 222.639, -29.8542, 222.436, -149.944, 223.014, 90.0518, 5.19732E-005, 106.873, 0.21829, 131.951, 0.29132, 11.8608, 0.290565, -108.143, 0.0338665, 172.943
1, 0.00000, 222.639, -29.8542, 222.436, -149.944, 223.014, 90.0518, 5.19732E-005, 106.873, 0.21829, 131.951, 0.29132, 11.8608, 0.290565, -108.143, 0.0338665, 172.943
1, 60.00000, 223.467, -29.9535, 223.307, -149.909, 223.033, 90.0207, 2.53079E-005, 43.6003, 0.217483, 131.852, 0.217636, 11.8963, 0.254223, -108.174, 0.0185519, 111.801
1, 120.00000, 223.467, -29.9535, 223.307, -149.909, 223.033, 90.0207, 2.53078E-005, 43.6048, 0.217482, 131.852, 0.217638, 11.8963, 0.254222, -108.174, 0.0185517, 111.804
1, 180.00000, 223.467, -29.9535, 223.307, -149.909, 223.033, 90.0207, 2.53078E-005, 43.6048, 0.217482, 131.852, 0.217638, 11.8963, 0.254222, -108.174, 0.0185517, 111.804
1, 240.00000, 223.467, -29.9535, 223.307, -149.909, 223.033, 90.0207, 2.53078E-005, 43.6048, 0.217482, 131.852, 0.217638, 11.8963, 0.254222, -108.174, 0.0185517, 111.804
1, 300.00000, 223.467, -29.9535, 223.307, -149.909, 223.033, 90.0207, 2.53078E-005, 43.6048, 0.217482, 131.852, 0.217638, 11.8963, 0.254222, -108.174, 0.0185517, 111.804
1, 360.00000, 222.83, -29.88, 222.846, -149.994, 223.548, 90.0494, 4.35268E-005, 77.0722, 0.218101, 131.925, 0.254438, 11.8108, 0.289871, -108.145, 0.0294664, 140.655
1, 420.00000, 222.83, -29.88, 222.846, -149.994, 223.548, 90.0494, 4.35257E-005, 77.0691, 0.218103, 131.925, 0.254435, 11.8108, 0.289871, -108.145, 0.0294661, 140.652
1, 480.00000, 222.83, -29.88, 222.846, -149.994, 223.548, 90.0494, 4.35258E-005, 77.0691, 0.218103, 131.925, 0.254435, 11.8108, 0.289871, -108.145, 0.0294661, 140.652
1, 540.00000, 222.83, -29.88, 222.846, -149.994, 223.548, 90.0494, 4.35258E-005, 77.0691, 0.218103, 131.925, 0.254435, 11.8108, 0.289871, -108.145, 0.0294661, 140.652
1, 600.00000, 222.83, -29.88, 222.846, -149.994, 223.548, 90.0494, 4.35258E-005, 77.0691, 0.218103, 131.925, 0.254435, 11.8108, 0.289871, -108.145, 0.0294661, 140.652
1, 660.00000, 222.905, -29.9743, 223.704, -149.969, 223.338, 90.0869, 2.61957E-005, 41.4379, 0.181669, 131.831, 0.181029, 11.8365, 0.217634, -108.108, 0.0188126, 115.215
1, 720.00000, 222.906, -29.9743, 223.704, -149.969, 223.337, 90.0867, 2.61637E-005, 41.4226, 0.181691, 131.831, 0.181043, 11.8364, 0.217609, -108.108, 0.0187929, 115.2
1, 780.00000, 222.906, -29.9743, 223.704, -149.969, 223.337, 90.0867, 2.61637E-005, 41.4223, 0.181691, 131.831, 0.181043, 11.8364, 0.217609, -108.108, 0.0187929, 115.2
1, 840.00000, 222.906, -29.9743, 223.704, -149.969, 223.337, 90.0867, 2.61637E-005, 41.4223, 0.181691, 131.831, 0.181043, 11.8364, 0.217609, -108.108, 0.0187929, 115.2
1, 900.00000, 222.906, -29.9743, 223.704, -149.969, 223.337, 90.0867, 2.61637E-005, 41.4223, 0.181691, 131.831, 0.181043, 11.8364, 0.217609, -108.108, 0.0187929, 115.2
1, 960.00000, 223.088, -29.9542, 223.045, -149.924, 222.835, 90.0354, 2.44689E-005, 108.886, 0.217851, 131.851, 0.254207, 11.8813, 0.25445, -108.159, 0.0166791, 166.073
1, 1020.00000, 223.088, -29.9542, 223.045, -149.924, 222.835, 90.0354, 2.44683E-005, 108.891, 0.217852, 131.851, 0.254208, 11.8813, 0.254448, -108.159, 0.0166783, 166.077
1, 1080.00000, 223.088, -29.9542, 223.045, -149.924, 222.835, 90.0354, 2.44683E-005, 108.891, 0.217852, 131.851, 0.254208, 11.8813, 0.254448, -108.159, 0.0166783, 166.077
1, 1140.00000, 223.088, -29.9542, 223.045, -149.924, 222.835, 90.0354, 2.44683E-005, 108.891, 0.217852, 131.851, 0.254208, 11.8813, 0.254448, -108.159, 0.0166783, 166.077
1, 1200.00000, 223.088, -29.9542, 223.045, -149.924, 222.835, 90.0354, 2.44683E-005, 108.891, 0.217852, 131.851, 0.254208, 11.8813, 0.254448, -108.159, 0.0166783, 166.077
1, 1260.00000, 222.933, -29.9203, 223.133, -149.973, 223.377, 90.0523, 4.41208E-005, 75.2272, 0.181668, 131.885, 0.217809, 11.8317, 0.25383, -108.143, 0.0304718, 142.287
1, 1320.00000, 222.933, -29.9203, 223.132, -149.973, 223.377, 90.0523, 4.41208E-005, 75.2253, 0.181669, 131.885, 0.217808, 11.8317, 0.253831, -108.143, 0.0304719, 142.285
1, 1380.00000, 222.933, -29.9203, 223.132, -149.973, 223.377, 90.0523, 4.41208E-005, 75.2253, 0.181669, 131.885, 0.217808, 11.8317, 0.253831, -108.143, 0.0304719, 142.285
1, 1440.00000, 222.933, -29.9203, 223.132, -149.973, 223.377, 90.0523, 4.41208E-005, 75.2253, 0.181669, 131.885, 0.217808, 11.8317, 0.253831, -108.143, 0.0304719, 142.285
1, 1500.00000, 222.933, -29.9203, 223.132, -149.973, 223.377, 90.0523, 4.41208E-005, 75.2253, 0.181669, 131.885, 0.217808, 11.8317, 0.253831, -108.143, 0.0304719, 142.285
1, 1560.00000, 222.598, -29.9498, 223.322, -149.954, 223.052, 90.0899, 2.78688E-005, 173.017, 0.218331, 131.855, 0.253893, 11.8513, 0.217885, -108.105, 0.0133174, -123.899
1, 1620.00000, 222.598, -29.9498, 223.322, -149.954, 223.052, 90.0899, 2.78686E-005, 173.015, 0.218331, 131.855, 0.253894, 11.8513, 0.217886, -108.105, 0.0133174, -123.901
1, 1680.00000, 222.598, -29.9498, 223.322, -149.954, 223.052, 90.0899, 2.78686E-005, 173.015, 0.218331, 131.855, 0.253894, 11.8513, 0.217886, -108.105, 0.0133174, -123.901
1, 1740.00000, 222.598, -29.9498, 223.322, -149.954, 223.052, 90.0899, 2.78686E-005, 173.015, 0.218331, 131.855, 0.253894, 11.8513, 0.217886, -108.105, 0.0133174, -123.901
1, 1800.00000, 222.598, -29.9498, 223.322, -149.954, 223.052, 90.0899, 2.78686E-005, 173.015, 0.218331, 131.855, 0.253894, 11.8513, 0.217886, -108.105, 0.0133174, -123.901
1, 1860.00000, 222.904, -29.928, 223.145, -149.965, 223.345, 90.0555, 5.50384E-005, 169.941, 0.21803, 131.877, 0.290395, 11.84, 0.217601, -108.139, 0.0298766, -124.066
1, 1920.00000, 222.904, -29.928, 223.145, -149.965, 223.345, 90.0555, 5.50384E-005, 169.942, 0.218031, 131.877, 0.290394, 11.84, 0.2176, -108.139, 0.0298766, -124.065
1, 1980.00000, 222.904, -29.928, 223.145, -149.965, 223.345, 90.0555, 5.50384E-005, 169.942, 0.218031, 131.877, 0.290394, 11.84, 0.2176, -108.139, 0.0298766, -124.065
1, 2040.00000, 222.904, -29.928, 223.145, -149.965, 223.345, 90.0555, 5.50384E-005, 169.942, 0.218031, 131.877, 0.290394, 11.84, 0.2176, -108.139, 0.0298766, -124.065
1, 2100.00000, 222.904, -29.928, 223.145, -149.965, 223.345, 90.0555, 5.50384E-005, 169.942, 0.218031, 131.877, 0.290394, 11.84, 0.2176, -108.139, 0.0298766, -124.065
1, 2160.00000, 223.056, -29.9019, 222.911, -149.968, 223.414, 90.031, 2.52678E-005, 110.327, 0.181568, 131.903, 0.218024, 11.8367, 0.217534, -108.164, 0.0158472, 168.567
1, 2220.00000, 223.056, -29.9019, 222.911, -149.968, 223.414, 90.031, 2.52671E-005, 110.328, 0.181569, 131.903, 0.218024, 11.8367, 0.217533, -108.164, 0.0158467, 168.568
1, 2280.00000, 223.056, -29.9019, 222.911, -149.968, 223.414, 90.031, 2.52671E-005, 110.328, 0.181569, 131.903, 0.218024, 11.8367, 0.217533, -108.164, 0.0158467, 168.568
1, 2340.00000, 223.056, -29.9019, 222.911, -149.968, 223.414, 90.031, 2.52671E-005, 110.328, 0.181569, 131.903, 0.218024, 11.8367, 0.217533, -108.164, 0.0158467, 168.568
1, 2400.00000, 223.056, -29.9019, 222.911, -149.968, 223.414, 90.031, 2.52671E-005, 110.328, 0.181569, 131.903, 0.218024, 11.8367, 0.217533, -108.164, 0.0158467, 168.568
1, 2460.00000, 223.228, -29.9072, 223.133, -149.967, 223.544, 90.0261, 2.47572E-005, 109.398, 0.217706, 131.898, 0.254088, 11.8381, 0.253655, -108.169, 0.0163577, 167.702
1, 2520.00000, 223.229, -29.9072, 223.133, -149.967, 223.543, 90.026, 2.47557E-005, 109.448, 0.217714, 131.898, 0.254108, 11.8381, 0.253642, -108.169, 0.016353, 167.746
1, 2580.00000, 223.229, -29.9072, 223.133, -149.967, 223.543, 90.026, 2.47557E-005, 109.448, 0.217714, 131.898, 0.254108, 11.8381, 0.253642, -108.169, 0.016353, 167.746
1, 2640.00000, 223.229, -29.9072, 223.133, -149.967, 223.543, 90.026, 2.47557E-005, 109.448, 0.217714, 131.898, 0.254108, 11.8381, 0.253642, -108.169, 0.016353, 167.746
1, 2700.00000, 223.229, -29.9072, 223.133, -149.967, 223.543, 90.026, 2.47557E-005, 109.448, 0.217714, 131.898, 0.254108, 11.8381, 0.253642, -108.169, 0.016353, 167.746
1, 2760.00000, 222.878, -29.9316, 223.248, -149.969, 223.326, 90.0625, 2.67849E-006, -91.457, 0.21806, 131.873, 0.217696, 11.8362, 0.217622, -108.132, 0.00248332, 83.5236
1, 2820.00000, 222.878, -29.9317, 223.248, -149.969, 223.326, 90.0625, 2.67762E-006, -91.486, 0.218057, 131.873, 0.217695, 11.8362, 0.217619, -108.132, 0.00248257, 83.5391
1, 2880.00000, 222.878, -29.9317, 223.248, -149.969, 223.326, 90.0625, 2.67765E-006, -91.4857, 0.218057, 131.873, 0.217695, 11.8362, 0.217619, -108.132, 0.00248258, 83.5387
1, 2940.00000, 222.878, -29.9317, 223.248, -149.969, 223.326, 90.0625, 2.67765E-006, -91.4857, 0.218057, 131.873, 0.217695, 11.8362, 0.217619, -108.132, 0.00248258, 83.5387
1, 3000.00000, 222.878, -29.9317, 223.248, -149.969, 223.326, 90.0625, 2.67765E-006, -91.4857, 0.218057, 131.873, 0.217695, 11.8362, 0.217619, -108.132, 0.00248258, 83.5387
1, 3060.00000, 222.921, -29.9416, 223.165, -149.94, 223.088, 90.0523, 5.13553E-005, -106.01, 0.327003, 131.864, 0.290384, 11.865, 0.254165, -108.143, 0.030012, -24.2868
1, 3120.00000, 222.921, -29.9415, 223.165, -149.94, 223.088, 90.0522, 5.13704E-005, -105.991, 0.327022, 131.864, 0.290369, 11.8649, 0.25416, -108.143, 0.0300227, -24.2688
1, 3180.00000, 222.921, -29.9415, 223.165, -149.94, 223.088, 90.0522, 5.13703E-005, -105.991, 0.327022, 131.864, 0.290369, 11.8649, 0.25416, -108.143, 0.0300227, -24.2687
1, 3240.00000, 222.921, -29.9415, 223.165, -149.94, 223.088, 90.0522, 5.13703E-005, -105.991, 0.327022, 131.864, 0.290369, 11.8649, 0.25416, -108.143, 0.0300227, -24.2687
1, 3300.00000, 222.921, -29.9415, 223.165, -149.94, 223.088, 90.0522, 5.13703E-005, -105.991, 0.327022, 131.864, 0.290369, 11.8649, 0.25416, -108.143, 0.0300227, -24.2687
1, 3360.00000, 223.197, -29.9131, 222.977, -149.947, 223.238, 90.0187, 2.85572E-005, 172.412, 0.217745, 131.892, 0.254286, 11.8584, 0.217705, -108.176, 0.0134014, -122.732
