hour, t(sec), P1 (kW), Q1 (kvar), P2 (kW), Q2 (kvar), P3 (kW), Q3 (kvar), P4 (kW), Q4 (kvar)
0, 60.00000, -0.139835, -0.0459997, -0.104866, -0.0344556, -0.157345, -0.0516884, 1.17716E-005, 4.74512E-006
0, 120.00000, -0.139833, -0.0460011, -0.104858, -0.0344535, -0.157361, -0.0516944, 1.17852E-005, 4.75125E-006
0, 180.00000, -0.139833, -0.046001, -0.104858, -0.0344535, -0.157361, -0.0516944, 1.17851E-005, 4.75131E-006
0, 240.00000, -0.139833, -0.046001, -0.104858, -0.0344535, -0.157361, -0.0516944, 1.17851E-005, 4.75131E-006
0, 300.00000, -0.139833, -0.046001, -0.104858, -0.0344535, -0.157361, -0.0516944, 1.17851E-005, 4.75131E-006
0, 360.00000, -0.122356, -0.0401908, -0.139867, -0.0459773, -0.0873867, -0.0287364, 9.58323E-006, -1.93894E-006
0, 420.00000, -0.12236, -0.040192, -0.139866, -0.0459777, -0.0873842, -0.0287363, 9.58338E-006, -1.93745E-006
0, 480.00000, -0.12236, -0.040192, -0.139866, -0.0459777, -0.0873842, -0.0287363, 9.58332E-006, -1.93744E-006
0, 540.00000, -0.12236, -0.040192, -0.139866, -0.0459777, -0.0873842, -0.0287363, 9.58332E-006, -1.93745E-006
0, 600.00000, -0.12236, -0.040192, -0.139866, -0.0459777, -0.0873842, -0.0287363, 9.58332E-006, -1.93745E-006
0, 660.00000, -0.139815, -0.0459403, -0.157335, -0.0517022, -0.139848, -0.0459847, 2.39327E-006, 3.3019E-007
0, 720.00000, -0.139833, -0.0459452, -0.157342, -0.0517118, -0.139828, -0.0459782, 2.39547E-006, 3.32103E-007
0, 780.00000, -0.139833, -0.0459454, -0.157341, -0.0517117, -0.139828, -0.0459782, 2.3953E-006, 3.32078E-007
0, 840.00000, -0.139833, -0.0459454, -0.157341, -0.0517117, -0.139828, -0.0459782, 2.3953E-006, 3.32077E-007
0, 900.00000, -0.139833, -0.0459454, -0.157341, -0.0517117, -0.139828, -0.0459782, 2.3953E-006, 3.32077E-007
0, 960.00000, -0.139817, -0.0459711, -0.157321, -0.051682, -0.174828, -0.0574725, 4.69583E-006, 5.50237E-007
0, 1020.00000, -0.13982, -0.0459717, -0.157323, -0.0516841, -0.174822, -0.0574705, 4.69265E-006, 5.50197E-007
0, 1080.00000, -0.13982, -0.0459717, -0.157323, -0.0516841, -0.174822, -0.0574705, 4.69262E-006, 5.50174E-007
0, 1140.00000, -0.13982, -0.0459717, -0.157323, -0.0516841, -0.174822, -0.0574705, 4.69262E-006, 5.50174E-007
0, 1200.00000, -0.13982, -0.0459717, -0.157323, -0.0516841, -0.174822, -0.0574705, 4.69262E-006, 5.50174E-007
0, 1260.00000, -0.139854, -0.0459517, -0.139848, -0.0459825, -0.139816, -0.0459553, 3.32521E-008, 7.40764E-009
0, 1320.00000, -0.139853, -0.0459518, -0.139843, -0.0459799, -0.139824, -0.0459579, 3.22324E-008, 6.5665E-009
0, 1380.00000, -0.139853, -0.0459517, -0.139844, -0.0459799, -0.139824, -0.0459579, 3.22167E-008, 6.5832E-009
0, 1440.00000, -0.139853, -0.0459517, -0.139844, -0.0459799, -0.139824, -0.0459579, 3.2217E-008, 6.58347E-009
0, 1500.00000, -0.139853, -0.0459517, -0.139844, -0.0459799, -0.139824, -0.0459579, 3.2217E-008, 6.58347E-009
0, 1560.00000, -0.122354, -0.040209, -0.139853, -0.0459573, -0.139834, -0.0459803, 1.66684E-006, 1.482E-006
0, 1620.00000, -0.122348, -0.0402073, -0.139857, -0.0459575, -0.139836, -0.0459808, 1.66896E-006, 1.48316E-006
0, 1680.00000, -0.122348, -0.0402073, -0.139857, -0.0459576, -0.139836, -0.0459808, 1.66896E-006, 1.48317E-006
0, 1740.00000, -0.122348, -0.0402073, -0.139857, -0.0459576, -0.139836, -0.0459808, 1.66896E-006, 1.48317E-006
0, 1800.00000, -0.122348, -0.0402073, -0.139857, -0.0459576, -0.139836, -0.0459808, 1.66896E-006, 1.48317E-006
0, 1860.00000, -0.139832, -0.0459561, -0.139855, -0.0459718, -0.139837, -0.045962, 3.5369E-009, -2.78827E-009
0, 1920.00000, -0.139843, -0.0459599, -0.139841, -0.0459676, -0.139835, -0.0459621, 3.71379E-009, -3.44127E-009
0, 1980.00000, -0.139843, -0.0459599, -0.139841, -0.0459675, -0.139836, -0.0459621, 3.70412E-009, -3.44256E-009
0, 2040.00000, -0.139843, -0.0459599, -0.139841, -0.0459675, -0.139836, -0.0459621, 3.70408E-009, -3.44241E-009
0, 2100.00000, -0.139843, -0.0459599, -0.139841, -0.0459675, -0.139836, -0.0459621, 3.70408E-009, -3.44241E-009
0, 2160.00000, -0.13983, -0.0459701, -0.157327, -0.0516882, -0.174806, -0.0574694, 4.26946E-006, 1.50852E-006
0, 2220.00000, -0.139819, -0.0459671, -0.157328, -0.0516862, -0.174817, -0.0574739, 4.27634E-006, 1.51048E-006
0, 2280.00000, -0.139819, -0.0459671, -0.157328, -0.0516863, -0.174817, -0.0574739, 4.27633E-006, 1.51052E-006
0, 2340.00000, -0.139819, -0.0459671, -0.157328, -0.0516863, -0.174817, -0.0574739, 4.27633E-006, 1.51052E-006
0, 2400.00000, -0.139819, -0.0459671, -0.157328, -0.0516863, -0.174817, -0.0574739, 4.27633E-006, 1.51052E-006
0, 2460.00000, -0.15733, -0.0517024, -0.139837, -0.0459761, -0.139835, -0.0459553, 1.7123E-006, -5.52847E-007
0, 2520.00000, -0.157335, -0.0517034, -0.139837, -0.0459774, -0.139829, -0.0459536, 1.71433E-006, -5.53089E-007
0, 2580.00000, -0.157335, -0.0517035, -0.139837, -0.0459773, -0.139829, -0.0459536, 1.71434E-006, -5.5308E-007
0, 2640.00000, -0.157335, -0.0517035, -0.139837, -0.0459773, -0.139829, -0.0459536, 1.71434E-006, -5.5308E-007
0, 2700.00000, -0.157335, -0.0517035, -0.139837, -0.0459773, -0.139829, -0.0459536, 1.71434E-006, -5.5308E-007
0, 2760.00000, -0.104876, -0.0344728, -0.104884, -0.03447, -0.10488, -0.0344741, -2.67615E-009, -5.04007E-009
0, 2820.00000, -0.104876, -0.0344726, -0.104882, -0.0344692, -0.104882, -0.0344754, -2.71106E-009, -4.87483E-009
0, 2880.00000, -0.104876, -0.0344726, -0.104882, -0.0344692, -0.104882, -0.0344754, -2.70843E-009, -4.87447E-009
0, 2940.00000, -0.104876, -0.0344726, -0.104882, -0.0344692, -0.104882, -0.0344754, -2.70841E-009, -4.87451E-009
0, 3000.00000, -0.104876, -0.0344726, -0.104882, -0.0344692, -0.104882, -0.0344754, -2.70841E-009, -4.87451E-009
0, 3060.00000, -0.157353, -0.051731, -0.104858, -0.0344795, -0.13984, -0.0459337, 9.44926E-006, -3.05289E-007
0, 3120.00000, -0.157345, -0.0517287, -0.10486, -0.03448, -0.139844, -0.0459351, 9.44341E-006, -3.04154E-007
0, 3180.00000, -0.157345, -0.0517287, -0.10486, -0.0344801, -0.139844, -0.0459351, 9.44333E-006, -3.04197E-007
0, 3240.00000, -0.157345, -0.0517287, -0.10486, -0.0344801, -0.139844, -0.0459351, 9.44333E-006, -3.04197E-007
0, 3300.00000, -0.157345, -0.0517287, -0.10486, -0.0344801, -0.139844, -0.0459351, 9.44333E-006, -3.04197E-007
0, 3360.00000, -0.13984, -0.0459427, -0.139856, -0.0459775, -0.10487, -0.0344755, 4.7749E-006, -9.50121E-007
0, 3420.00000, -0.139846, -0.0459448, -0.139853, -0.0459779, -0.104866, -0.0344752, 4.77628E-006, -9.48199E-007
0, 3480.00000, -0.139846, -0.0459448, -0.139853, -0.0459778, -0.104866, -0.0344752, 4.77621E-006, -9.48185E-007
0, 3540.00000, -0.139846, -0.0459448, -0.139853, -0.0459778, -0.104866, -0.0344752, 4.77621E-006, -9.48185E-007
1, 0.00000, -0.139846, -0.0459448, -0.139853, -0.0459778, -0.104866, -0.0344752, 4.77621E-006, -9.48185E-007
1, 60.00000, -0.104892, -0.0344798, -0.0873902, -0.0287321, -0.10488, -0.034459, 1.96898E-006, -1.02458E-006
1, 120.00000, -0.104891, -0.0344796, -0.0873902, -0.0287321, -0.104881, -0.0344591, 1.96889E-006, -1.02455E-006
1, 180.00000, -0.104891, -0.0344796, -0.0873902, -0.0287321, -0.104881, -0.0344591, 1.96889E-006, -1.02455E-006
1, 240.00000, -0.104891, -0.0344796, -0.0873902, -0.0287321, -0.104881, -0.0344591, 1.96889E-006, -1.02455E-006
1, 300.00000, -0.104891, -0.0344796, -0.0873902, -0.0287321, -0.104881, -0.0344591, 1.96889E-006, -1.02455E-006
1, 360.00000, -0.0873948, -0.0287238, -0.122367, -0.0402143, -0.12236, -0.0402256, 1.84538E-006, 1.16364E-006
1, 420.00000, -0.0873954, -0.0287241, -0.122367, -0.0402143, -0.12236, -0.0402254, 1.84507E-006, 1.16361E-006
1, 480.00000, -0.0873954, -0.0287241, -0.122367, -0.0402143, -0.12236, -0.0402254, 1.84507E-006, 1.16361E-006
1, 540.00000, -0.0873954, -0.0287241, -0.122367, -0.0402143, -0.12236, -0.0402254, 1.84507E-006, 1.16361E-006
1, 600.00000, -0.0873954, -0.0287241, -0.122367, -0.0402143, -0.12236, -0.0402254, 1.84507E-006, 1.16361E-006
1, 660.00000, -0.122371, -0.0402106, -0.122366, -0.0402348, -0.104865, -0.0344639, 1.78372E-006, 1.19538E-006
1, 720.00000, -0.122374, -0.0402113, -0.122359, -0.0402327, -0.104869, -0.0344651, 1.78267E-006, 1.19512E-006
1, 780.00000, -0.122374, -0.0402113, -0.122359, -0.0402327, -0.104869, -0.0344651, 1.78267E-006, 1.19511E-006
1, 840.00000, -0.122374, -0.0402113, -0.122359, -0.0402327, -0.104869, -0.0344651, 1.78267E-006, 1.19511E-006
1, 900.00000, -0.122374, -0.0402113, -0.122359, -0.0402327, -0.104869, -0.0344651, 1.78267E-006, 1.19511E-006
1, 960.00000, -0.122361, -0.0402332, -0.104868, -0.0344663, -0.122374, -0.0402095, 1.98113E-006, 1.0072E-006
1, 1020.00000, -0.122361, -0.0402333, -0.104868, -0.0344664, -0.122373, -0.0402093, 1.98099E-006, 1.00716E-006
1, 1080.00000, -0.122361, -0.0402333, -0.104868, -0.0344664, -0.122373, -0.0402093, 1.98099E-006, 1.00716E-006
1, 1140.00000, -0.122361, -0.0402333, -0.104868, -0.0344664, -0.122373, -0.0402093, 1.98099E-006, 1.00716E-006
1, 1200.00000, -0.122361, -0.0402333, -0.104868, -0.0344664, -0.122373, -0.0402093, 1.98099E-006, 1.00716E-006
1, 1260.00000, -0.122363, -0.0402043, -0.139852, -0.0459743, -0.122347, -0.0402215, 1.42423E-006, 1.345E-006
1, 1320.00000, -0.122363, -0.0402044, -0.139851, -0.0459741, -0.122347, -0.0402216, 1.42408E-006, 1.34494E-006
1, 1380.00000, -0.122363, -0.0402044, -0.139851, -0.0459741, -0.122347, -0.0402216, 1.42408E-006, 1.34494E-006
1, 1440.00000, -0.122363, -0.0402044, -0.139851, -0.0459741, -0.122347, -0.0402216, 1.42408E-006, 1.34494E-006
1, 1500.00000, -0.122363, -0.0402044, -0.139851, -0.0459741, -0.122347, -0.0402216, 1.42408E-006, 1.34494E-006
1, 1560.00000, -0.139871, -0.0459334, -0.13985, -0.0460051, -0.0873739, -0.0287194, 1.55643E-005, 4.44433E-006
1, 1620.00000, -0.139871, -0.0459333, -0.13985, -0.046005, -0.0873741, -0.0287195, 1.5564E-005, 4.44427E-006
1, 1680.00000, -0.139871, -0.0459333, -0.13985, -0.046005, -0.0873741, -0.0287195, 1.5564E-005, 4.44427E-006
1, 1740.00000, -0.139871, -0.0459333, -0.13985, -0.046005, -0.0873741, -0.0287195, 1.5564E-005, 4.44427E-006
1, 1800.00000, -0.139871, -0.0459333, -0.13985, -0.046005, -0.0873741, -0.0287195, 1.5564E-005, 4.44427E-006
1, 1860.00000, -0.122373, -0.0402246, -0.104869, -0.0344791, -0.10488, -0.0344598, 1.88501E-006, 9.91566E-007
1, 1920.00000, -0.122373, -0.0402247, -0.104869, -0.0344791, -0.10488, -0.0344597, 1.88504E-006, 9.91569E-007
1, 1980.00000, -0.122373, -0.0402247, -0.104869, -0.0344791, -0.10488, -0.0344597, 1.88504E-006, 9.91569E-007
1, 2040.00000, -0.122373, -0.0402247, -0.104869, -0.0344791, -0.10488, -0.0344597, 1.88504E-006, 9.91569E-007
1, 2100.00000, -0.122373, -0.0402247, -0.104869, -0.0344791, -0.10488, -0.0344597, 1.88504E-006, 9.91569E-007
1, 2160.00000, -0.104875, -0.0344845, -0.104872, -0.034462, -0.139858, -0.045961, 4.32667E-006, -5.52228E-007
1, 2220.00000, -0.104875, -0.0344845, -0.104872, -0.034462, -0.139857, -0.0459609, 4.32658E-006, -5.52265E-007
1, 2280.00000, -0.104875, -0.0344845, -0.104872, -0.034462, -0.139857, -0.0459609, 4.32658E-006, -5.52265E-007
1, 2340.00000, -0.104875, -0.0344845, -0.104872, -0.034462, -0.139857, -0.0459609, 4.32658E-006, -5.52265E-007
1, 2400.00000, -0.104875, -0.0344845, -0.104872, -0.034462, -0.139857, -0.0459609, 4.32658E-006, -5.52265E-007
1, 2460.00000, -0.104879, -0.0344646, -0.104878, -0.0344731, -0.104881, -0.0344791, 6.48592E-009, -1.03235E-008
1, 2520.00000, -0.10488, -0.0344645, -0.104887, -0.034476, -0.104873, -0.0344766, 7.54164E-009, -1.0384E-008
1, 2580.00000, -0.10488, -0.0344645, -0.104887, -0.034476, -0.104873, -0.0344766, 7.54188E-009, -1.03846E-008
1, 2640.00000, -0.10488, -0.0344645, -0.104887, -0.034476, -0.104873, -0.0344766, 7.54188E-009, -1.03846E-008
1, 2700.00000, -0.10488, -0.0344645, -0.104887, -0.034476, -0.104873, -0.0344766, 7.54188E-009, -1.03846E-008
1, 2760.00000, -0.104864, -0.0344605, -0.122389, -0.0402117, -0.122348, -0.0402371, 2.55798E-006, 1.9015E-006
1, 2820.00000, -0.104864, -0.0344609, -0.122381, -0.0402089, -0.122357, -0.0402401, 2.55626E-006, 1.90167E-006
1, 2880.00000, -0.104864, -0.0344609, -0.122381, -0.0402089, -0.122357, -0.0402401, 2.55625E-006, 1.90167E-006
1, 2940.00000, -0.104864, -0.0344609, -0.122381, -0.0402089, -0.122357, -0.0402401, 2.55625E-006, 1.90167E-006
1, 3000.00000, -0.104864, -0.0344609, -0.122381, -0.0402089, -0.122357, -0.0402401, 2.55625E-006, 1.90167E-006
1, 3060.00000, -0.104891, -0.0344584, -0.104886, -0.0344917, -0.0873841, -0.0287221, 3.05713E-006, 9.39878E-007
1, 3120.00000, -0.104894, -0.0344595, -0.104884, -0.0344911, -0.0873848, -0.0287222, 3.05732E-006, 9.39804E-007
1, 3180.00000, -0.104894, -0.0344595, -0.104884, -0.0344911, -0.0873848, -0.0287222, 3.05732E-006, 9.39804E-007
1, 3240.00000, -0.104894, -0.0344595, -0.104884, -0.0344911, -0.0873848, -0.0287222, 3.05732E-006, 9.39804E-007
1, 3300.00000, -0.104894, -0.0344595, -0.104884, -0.0344911, -0.0873848, -0.0287222, 3.05732E-006, 9.39804E-007
1, 3360.00000, -0.122356, -0.0401976, -0.157344, -0.0517174, -0.104867, -0.0344838, 7.80707E-006, 9.45545E-008
1, 3420.00000, -0.122356, -0.0401975, -0.157345, -0.0517176, -0.104867, -0.0344838, 7.8074E-006, 9.45495E-008
1, 3480.00000, -0.122356, -0.0401975, -0.157345, -0.0517176, -0.104867, -0.0344838, 7.8074E-006, 9.45493E-008
1, 3540.00000, -0.122356, -0.0401975, -0.157345, -0.0517176, -0.104867, -0.0344838, 7.8074E-006, 9.45493E-008
2, 0.00000, -0.122356, -0.0401975, -0.157345, -0.0517176, -0.104867, -0.0344838, 7.8074E-006, 9.45493E-008
2, 60.00000, -0.122364, -0.0402241, -0.104874, -0.0344727, -0.122363, -0.0402111, 1.06731E-006, -4.9047E-009
2, 120.00000, -0.122364, -0.0402241, -0.104874, -0.0344725, -0.122364, -0.0402113, 1.06747E-006, -4.85227E-009
2, 180.00000, -0.122364, -0.0402241, -0.104874, -0.0344725, -0.122364, -0.0402113, 1.06747E-006, -4.85225E-009
2, 240.00000, -0.122364, -0.0402241, -0.104874, -0.0344725, -0.122364, -0.0402113, 1.06747E-006, -4.85225E-009
2, 300.00000, -0.122364, -0.0402241, -0.104874, -0.0344725, -0.122364, -0.0402113, 1.06747E-006, -4.85225E-009
2, 360.00000, -0.0873925, -0.0287169, -0.122377, -0.040216, -0.104875, -0.0344861, 3.89132E-006, 1.75245E-006
2, 420.00000, -0.0873929, -0.028717, -0.122377, -0.0402161, -0.104874, -0.0344858, 3.89138E-006, 1.75256E-006
2, 480.00000, -0.0873929, -0.028717, -0.122377, -0.0402161, -0.104874, -0.0344858, 3.89138E-006, 1.75256E-006
2, 540.00000, -0.0873929, -0.028717, -0.122377, -0.0402161, -0.104874, -0.0344858, 3.89138E-006, 1.75256E-006
2, 600.00000, -0.0873929, -0.028717, -0.122377, -0.0402161, -0.104874, -0.0344858, 3.89138E-006, 1.75256E-006
2, 660.00000, -0.104888, -0.0344709, -0.0873986, -0.0287343, -0.0699169, -0.022977, 2.39828E-006, 1.00457E-006
2, 720.00000, -0.104889, -0.0344712, -0.0873971, -0.0287339, -0.0699164, -0.0229768, 2.39881E-006, 1.00489E-006
2, 780.00000, -0.104889, -0.0344712, -0.0873971, -0.0287339, -0.0699164, -0.0229768, 2.39881E-006, 1.00489E-006
2, 840.00000, -0.104889, -0.0344712, -0.0873971, -0.0287339, -0.0699164, -0.0229768, 2.39881E-006, 1.00489E-006
2, 900.00000, -0.104889, -0.0344712, -0.0873971, -0.0287339, -0.0699164, -0.0229768, 2.39881E-006, 1.00489E-006
2, 960.00000, -0.10487, -0.0344794, -0.104879, -0.0344597, -0.122373, -0.0402244, 1.87342E-006, 9.35863E-007
2, 1020.00000, -0.104869, -0.0344793, -0.104879, -0.0344598, -0.122373, -0.0402244, 1.87341E-006, 9.35863E-007
2, 1080.00000, -0.104869, -0.0344793, -0.104879, -0.0344598, -0.122373, -0.0402244, 1.87341E-006, 9.35863E-007
2, 1140.00000, -0.104869, -0.0344793, -0.104879, -0.0344598, -0.122373, -0.0402244, 1.87341E-006, 9.35863E-007
2, 1200.00000, -0.104869, -0.0344793, -0.104879, -0.0344598, -0.122373, -0.0402244, 1.87341E-006, 9.35863E-007
2, 1260.00000, -0.0873958, -0.0287235, -0.0874064, -0.028727, -0.087398, -0.0287306, -1.13398E-009, -3.83596E-009
2, 1320.00000, -0.0873973, -0.0287239, -0.087404, -0.0287262, -0.0873987, -0.0287308, -1.3036E-009, -3.83298E-009
2, 1380.00000, -0.0873973, -0.0287239, -0.087404, -0.0287262, -0.0873987, -0.0287308, -1.30357E-009, -3.83318E-009
2, 1440.00000, -0.0873973, -0.0287239, -0.087404, -0.0287262, -0.0873987, -0.0287308, -1.30357E-009, -3.83318E-009
2, 1500.00000, -0.0873973, -0.0287239, -0.087404, -0.0287262, -0.0873987, -0.0287308, -1.30357E-009, -3.83318E-009
2, 1560.00000, -0.104882, -0.0344631, -0.122368, -0.0402246, -0.0873925, -0.0287299, 2.72879E-006, 4.02014E-007
2, 1620.00000, -0.104881, -0.0344629, -0.122369, -0.0402247, -0.0873926, -0.0287299, 2.72884E-006, 4.01936E-007
2, 1680.00000, -0.104881, -0.0344629, -0.122369, -0.0402247, -0.0873926, -0.0287299, 2.72884E-006, 4.01936E-007
2, 1740.00000, -0.104881, -0.0344629, -0.122369, -0.0402247, -0.0873926, -0.0287299, 2.72884E-006, 4.01936E-007
2, 1800.00000, -0.104881, -0.0344629, -0.122369, -0.0402247, -0.0873926, -0.0287299, 2.72884E-006, 4.01936E-007
2, 1860.00000, -0.122364, -0.0402205, -0.104874, -0.0344786, -0.104881, -0.0344633, 1.47704E-006, 6.9418E-007
2, 1920.00000, -0.12237, -0.0402226, -0.104872, -0.0344779, -0.104879, -0.0344627, 1.47875E-006, 6.94535E-007
2, 1980.00000, -0.12237, -0.0402226, -0.104872, -0.0344779, -0.104879, -0.0344627, 1.47874E-006, 6.94535E-007
2, 2040.00000, -0.12237, -0.0402226, -0.104872, -0.0344779, -0.104879, -0.0344627, 1.47874E-006, 6.94535E-007
2, 2100.00000, -0.12237, -0.0402226, -0.104872, -0.0344779, -0.104879, -0.0344627, 1.47874E-006, 6.94535E-007
2, 2160.00000, -0.104892, -0.0344764, -0.104875, -0.0344738, -0.12235, -0.040211, -5.5413E-008, -5.06991E-007
2, 2220.00000, -0.104883, -0.0344736, -0.104878, -0.0344742, -0.12236, -0.0402142, -5.43194E-008, -5.06013E-007
2, 2280.00000, -0.104883, -0.0344736, -0.104878, -0.0344742, -0.12236, -0.0402142, -5.43219E-008, -5.06009E-007
2, 2340.00000, -0.104883, -0.0344736, -0.104878, -0.0344742, -0.12236, -0.0402142, -5.43219E-008, -5.06009E-007
2, 2400.00000, -0.104883, -0.0344736, -0.104878, -0.0344742, -0.12236, -0.0402142, -5.43219E-008, -5.06009E-007
2, 2460.00000, -0.104891, -0.0344642, -0.104881, -0.0344863, -0.0873893, -0.0287222, 2.13201E-006, 9.35774E-007
2, 2520.00000, -0.104891, -0.0344642, -0.104881, -0.0344862, -0.0873894, -0.0287222, 2.13198E-006, 9.35765E-007
2, 2580.00000, -0.104891, -0.0344642, -0.104881, -0.0344862, -0.0873894, -0.0287222, 2.13198E-006, 9.35765E-007
2, 2640.00000, -0.104891, -0.0344642, -0.104881, -0.0344862, -0.0873894, -0.0287222, 2.13198E-006, 9.35765E-007
2, 2700.00000, -0.104891, -0.0344642, -0.104881, -0.0344862, -0.0873894, -0.0287222, 2.13198E-006, 9.35765E-007
2, 2760.00000, -0.104884, -0.0344669, -0.104883, -0.0344786, -0.0873945, -0.0287264, 1.11381E-006, 1.10452E-007
2, 2820.00000, -0.104884, -0.034467, -0.104883, -0.0344785, -0.0873945, -0.0287264, 1.1138E-006, 1.10482E-007
2, 2880.00000, -0.104884, -0.034467, -0.104883, -0.0344785, -0.0873945, -0.0287264, 1.1138E-006, 1.10481E-007
2, 2940.00000, -0.104884, -0.034467, -0.104883, -0.0344785, -0.0873945, -0.0287264, 1.1138E-006, 1.10481E-007
2, 3000.00000, -0.104884, -0.034467, -0.104883, -0.0344785, -0.0873945, -0.0287264, 1.1138E-006, 1.10481E-007
2, 3060.00000, -0.104897, -0.0344676, -0.0873963, -0.0287409, -0.0699118, -0.0229737, 4.84543E-006, 1.17847E-006
2, 3120.00000, -0.104897, -0.0344675, -0.0873966, -0.028741, -0.0699117, -0.0229736, 4.84539E-006, 1.17843E-006
2, 3180.00000, -0.104897, -0.0344675, -0.0873966, -0.028741, -0.0699117, -0.0229736, 4.84539E-006, 1.17843E-006
2, 3240.00000, -0.104897, -0.0344675, -0.0873966, -0.028741, -0.0699117, -0.0229736, 4.84539E-006, 1.17843E-006
2, 3300.00000, -0.104897, -0.0344675, -0.0873966, -0.028741, -0.0699117, -0.0229736, 4.84539E-006, 1.17843E-006
2, 3360.00000, -0.104884, -0.0344845, -0.0873894, -0.028725, -0.104888, -0.0344626, 2.11172E-006, 3.96301E-007
2, 3420.00000, -0.104884, -0.0344846, -0.0873894, -0.028725, -0.104888, -0.0344626, 2.11172E-006, 3.96301E-007
2, 3480.00000, -0.104884, -0.0344846, -0.0873894, -0.028725, -0.104888, -0.0344626, 2.11171E-006, 3.963E-007
2, 3540.00000, -0.104884, -0.0344846, -0.0873894, -0.028725, -0.104888, -0.0344626, 2.11171E-006, 3.963E-007
