hour, t(sec), P1 (kW), Q1 (kvar), P2 (kW), Q2 (kvar), P3 (kW), Q3 (kvar), P4 (kW), Q4 (kvar)
0, 60.00000, 0.0660237, -0.0873586, 0.0280312, -0.0998911, 0.0280025, -0.0998887, 6.94004E-009, -6.39521E-009
0, 120.00000, 0.0660102, -0.0874299, 0.0280099, -0.0999201, 0.02801, -0.0999198, 6.93008E-009, -6.3866E-009
0, 180.00000, 0.06601, -0.0874299, 0.02801, -0.09992, 0.02801, -0.09992, 6.92993E-009, -6.38645E-009
0, 240.00000, 0.06601, -0.0874299, 0.02801, -0.09992, 0.02801, -0.09992, 6.92993E-009, -6.38645E-009
0, 300.00000, 0.06601, -0.0874299, 0.02801, -0.09992, 0.02801, -0.09992, 6.92993E-009, -6.38645E-009
0, 360.00000, 0.0280084, -0.09991, 0.0660169, -0.0874332, 0.142004, -0.0624551, 4.53666E-008, -5.00265E-008
0, 420.00000, 0.02801, -0.09992, 0.0660101, -0.0874301, 0.14201, -0.0624498, 4.53839E-008, -5.00449E-008
0, 480.00000, 0.0280099, -0.09992, 0.0660101, -0.08743, 0.14201, -0.0624499, 4.5384E-008, -5.0045E-008
0, 540.00000, 0.0280099, -0.09992, 0.0660101, -0.08743, 0.14201, -0.0624499, 4.5384E-008, -5.0045E-008
0, 600.00000, 0.0280099, -0.09992, 0.0660101, -0.08743, 0.14201, -0.0624499, 4.5384E-008, -5.0045E-008
0, 660.00000, 0.027917, -0.0998546, 0.104119, -0.0748557, -0.00999084, -0.112553, 4.75652E-008, -4.57356E-008
0, 720.00000, 0.0280103, -0.0999192, 0.10401, -0.0749403, -0.00999072, -0.11241, 4.72697E-008, -4.54448E-008
0, 780.00000, 0.0280101, -0.09992, 0.10401, -0.0749399, -0.00999011, -0.11241, 4.72681E-008, -4.54433E-008
0, 840.00000, 0.0280101, -0.09992, 0.10401, -0.0749399, -0.0099901, -0.11241, 4.72681E-008, -4.54433E-008
0, 900.00000, 0.0280101, -0.09992, 0.10401, -0.0749399, -0.0099901, -0.11241, 4.72681E-008, -4.54433E-008
0, 960.00000, -0.00999118, -0.11241, 0.104011, -0.074939, 0.0280098, -0.0999212, 4.68709E-008, -4.62423E-008
0, 1020.00000, -0.00999001, -0.11241, 0.10401, -0.0749398, 0.0280099, -0.09992, 4.68672E-008, -4.62387E-008
0, 1080.00000, -0.00999, -0.11241, 0.10401, -0.0749398, 0.0280099, -0.0999199, 4.68672E-008, -4.62387E-008
0, 1140.00000, -0.00999, -0.11241, 0.10401, -0.0749398, 0.0280099, -0.0999199, 4.68672E-008, -4.62387E-008
0, 1200.00000, -0.00999, -0.11241, 0.10401, -0.0749398, 0.0280099, -0.0999199, 4.68672E-008, -4.62387E-008
0, 1260.00000, 0.0660026, -0.0874245, 0.0660178, -0.0874243, 0.0660099, -0.0874417, -2.52585E-011, -1.16459E-012
0, 1320.00000, 0.0660101, -0.0874299, 0.06601, -0.08743, 0.06601, -0.08743, -2.52724E-011, -1.6012E-012
0, 1380.00000, 0.06601, -0.08743, 0.06601, -0.08743, 0.06601, -0.08743, -2.52742E-011, -1.60398E-012
0, 1440.00000, 0.06601, -0.08743, 0.06601, -0.08743, 0.06601, -0.08743, -2.52742E-011, -1.60395E-012
0, 1500.00000, 0.06601, -0.08743, 0.06601, -0.08743, 0.06601, -0.08743, -2.52742E-011, -1.60395E-012
0, 1560.00000, 0.0280052, -0.0999234, -0.00998996, -0.112403, 0.0280143, -0.0999237, 6.80597E-009, -7.11438E-009
0, 1620.00000, 0.02801, -0.0999199, -0.00999, -0.11241, 0.0280101, -0.09992, 6.80829E-009, -7.11618E-009
0, 1680.00000, 0.02801, -0.0999199, -0.00999002, -0.11241, 0.0280101, -0.09992, 6.80832E-009, -7.1162E-009
0, 1740.00000, 0.02801, -0.0999199, -0.00999002, -0.11241, 0.0280101, -0.09992, 6.80832E-009, -7.1162E-009
0, 1800.00000, 0.02801, -0.0999199, -0.00999002, -0.11241, 0.0280101, -0.09992, 6.80832E-009, -7.1162E-009
0, 1860.00000, 0.0279401, -0.100013, 0.0280118, -0.0998441, -0.00994262, -0.112464, 6.80719E-009, -6.00685E-009
0, 1920.00000, 0.0280097, -0.0999197, 0.0280104, -0.0999197, -0.00999011, -0.112411, 6.87029E-009, -6.06523E-009
0, 1980.00000, 0.0280101, -0.09992, 0.02801, -0.0999199, -0.00999002, -0.11241, 6.87011E-009, -6.06505E-009
0, 2040.00000, 0.0280101, -0.09992, 0.02801, -0.0999199, -0.00999002, -0.11241, 6.87011E-009, -6.06505E-009
0, 2100.00000, 0.0280101, -0.09992, 0.02801, -0.0999199, -0.00999002, -0.11241, 6.87011E-009, -6.06505E-009
0, 2160.00000, 0.027968, -0.0998994, 0.0660464, -0.087342, 0.0280184, -0.0999622, 6.8094E-009, -6.24509E-009
0, 2220.00000, 0.02801, -0.0999196, 0.0660103, -0.08743, 0.0280097, -0.0999203, 6.76077E-009, -6.1965E-009
0, 2280.00000, 0.02801, -0.09992, 0.06601, -0.0874299, 0.02801, -0.09992, 6.76045E-009, -6.1962E-009
0, 2340.00000, 0.02801, -0.09992, 0.06601, -0.0874299, 0.02801, -0.09992, 6.76045E-009, -6.1962E-009
0, 2400.00000, 0.02801, -0.09992, 0.06601, -0.0874299, 0.02801, -0.09992, 6.76045E-009, -6.1962E-009
0, 2460.00000, 0.0660188, -0.0874304, 0.0660044, -0.087439, 0.0660067, -0.0874189, -3.51469E-011, -8.79483E-012
0, 2520.00000, 0.06601, -0.08743, 0.06601, -0.0874299, 0.0660101, -0.0874299, -3.5173E-011, -8.53991E-012
0, 2580.00000, 0.06601, -0.08743, 0.06601, -0.08743, 0.06601, -0.08743, -3.51718E-011, -8.53589E-012
0, 2640.00000, 0.06601, -0.08743, 0.06601, -0.08743, 0.06601, -0.08743, -3.51718E-011, -8.53589E-012
0, 2700.00000, 0.06601, -0.08743, 0.06601, -0.08743, 0.06601, -0.08743, -3.51718E-011, -8.53589E-012
0, 2760.00000, 0.0280122, -0.0999137, 0.0660125, -0.0874356, 0.0280048, -0.0999211, 6.65473E-009, -6.19123E-009
0, 2820.00000, 0.0280101, -0.09992, 0.06601, -0.08743, 0.02801, -0.0999199, 6.65282E-009, -6.18979E-009
0, 2880.00000, 0.02801, -0.09992, 0.06601, -0.0874299, 0.02801, -0.09992, 6.65285E-009, -6.18982E-009
0, 2940.00000, 0.02801, -0.09992, 0.06601, -0.0874299, 0.02801, -0.09992, 6.65285E-009, -6.18982E-009
0, 3000.00000, 0.02801, -0.09992, 0.06601, -0.0874299, 0.02801, -0.09992, 6.65285E-009, -6.18982E-009
0, 3060.00000, 0.0280031, -0.0999341, 0.0280052, -0.0999038, 0.0660226, -0.0874308, 6.26381E-009, -7.92468E-009
0, 3120.00000, 0.0280099, -0.0999199, 0.0280101, -0.09992, 0.06601, -0.08743, 6.25043E-009, -7.90951E-009
0, 3180.00000, 0.02801, -0.09992, 0.02801, -0.09992, 0.06601, -0.0874299, 6.25044E-009, -7.90952E-009
0, 3240.00000, 0.02801, -0.09992, 0.02801, -0.09992, 0.06601, -0.0874299, 6.25044E-009, -7.90952E-009
0, 3300.00000, 0.02801, -0.09992, 0.02801, -0.09992, 0.06601, -0.0874299, 6.25044E-009, -7.90952E-009
0, 3360.00000, 0.141998, -0.062451, 0.0660158, -0.0874177, 0.0280151, -0.0999314, 4.71804E-008, -4.67398E-008
0, 3420.00000, 0.14201, -0.0624497, 0.06601, -0.08743, 0.02801, -0.0999201, 4.72078E-008, -4.67676E-008
0, 3480.00000, 0.14201, -0.0624498, 0.0660099, -0.08743, 0.02801, -0.0999201, 4.72077E-008, -4.67675E-008
0, 3540.00000, 0.14201, -0.0624498, 0.0660099, -0.08743, 0.02801, -0.0999201, 4.72077E-008, -4.67675E-008
1, 0.00000, 0.14201, -0.0624498, 0.0660099, -0.08743, 0.02801, -0.0999201, 4.72077E-008, -4.67675E-008
1, 60.00000, -0.203748, -0.0624593, -0.241777, -0.0749379, -0.279739, -0.0874235, 1.98666E-008, -1.89596E-008
1, 120.00000, -0.203751, -0.0624501, -0.241751, -0.0749398, -0.279752, -0.08743, 1.98803E-008, -1.8976E-008
1, 180.00000, -0.203751, -0.0624501, -0.241751, -0.0749398, -0.279752, -0.08743, 1.98804E-008, -1.89762E-008
1, 240.00000, -0.203751, -0.0624501, -0.241751, -0.0749398, -0.279752, -0.08743, 1.98804E-008, -1.89762E-008
1, 300.00000, -0.203751, -0.0624501, -0.241751, -0.0749398, -0.279752, -0.08743, 1.98804E-008, -1.89762E-008
1, 360.00000, -0.317733, -0.099914, -0.241751, -0.0749495, -0.241772, -0.0749364, 2.55126E-008, -3.16443E-008
1, 420.00000, -0.317752, -0.0999198, -0.241751, -0.0749402, -0.241751, -0.0749398, 2.55434E-008, -3.16784E-008
1, 480.00000, -0.317752, -0.0999198, -0.241751, -0.0749402, -0.241751, -0.0749399, 2.55436E-008, -3.16786E-008
1, 540.00000, -0.317752, -0.0999198, -0.241751, -0.0749402, -0.241751, -0.0749399, 2.55436E-008, -3.16786E-008
1, 600.00000, -0.317752, -0.0999198, -0.241751, -0.0749402, -0.241751, -0.0749399, 2.55436E-008, -3.16786E-008
1, 660.00000, -0.241825, -0.0749706, -0.317765, -0.0998759, -0.241604, -0.0749512, 2.88131E-008, -2.27132E-008
1, 720.00000, -0.241752, -0.07494, -0.317752, -0.0999196, -0.241751, -0.0749403, 2.88239E-008, -2.27135E-008
1, 780.00000, -0.241751, -0.0749398, -0.317752, -0.0999199, -0.241751, -0.0749402, 2.88243E-008, -2.27138E-008
1, 840.00000, -0.241751, -0.0749398, -0.317752, -0.0999199, -0.241751, -0.0749402, 2.88243E-008, -2.27138E-008
1, 900.00000, -0.241751, -0.0749398, -0.317752, -0.0999199, -0.241751, -0.0749402, 2.88243E-008, -2.27138E-008
1, 960.00000, -0.317723, -0.0999202, -0.241766, -0.0749474, -0.241757, -0.0749307, 2.59392E-008, -3.19839E-008
1, 1020.00000, -0.317752, -0.0999199, -0.241752, -0.0749402, -0.241751, -0.0749398, 2.59703E-008, -3.202E-008
1, 1080.00000, -0.317752, -0.0999198, -0.241751, -0.0749402, -0.241751, -0.0749399, 2.59704E-008, -3.20202E-008
1, 1140.00000, -0.317752, -0.0999198, -0.241751, -0.0749402, -0.241751, -0.0749399, 2.59704E-008, -3.20202E-008
1, 1200.00000, -0.317752, -0.0999198, -0.241751, -0.0749402, -0.241751, -0.0749399, 2.59704E-008, -3.20202E-008
1, 1260.00000, -0.203777, -0.0624538, -0.241747, -0.0749298, -0.279734, -0.0874362, 1.98119E-008, -1.87468E-008
1, 1320.00000, -0.203752, -0.0624501, -0.241751, -0.0749398, -0.279752, -0.08743, 1.98397E-008, -1.87722E-008
1, 1380.00000, -0.203751, -0.0624501, -0.241751, -0.0749398, -0.279752, -0.08743, 1.98398E-008, -1.87723E-008
1, 1440.00000, -0.203751, -0.0624501, -0.241751, -0.0749398, -0.279752, -0.08743, 1.98398E-008, -1.87723E-008
1, 1500.00000, -0.203751, -0.0624501, -0.241751, -0.0749398, -0.279752, -0.08743, 1.98398E-008, -1.87723E-008
1, 1560.00000, -0.317737, -0.0999228, -0.317767, -0.0999229, -0.279749, -0.0874239, 6.98501E-009, -6.96414E-009
1, 1620.00000, -0.317751, -0.0999198, -0.317752, -0.0999201, -0.279751, -0.08743, 6.97985E-009, -6.96216E-009
1, 1680.00000, -0.317751, -0.0999198, -0.317752, -0.0999201, -0.279751, -0.08743, 6.97981E-009, -6.96213E-009
1, 1740.00000, -0.317751, -0.0999198, -0.317752, -0.0999201, -0.279751, -0.08743, 6.97981E-009, -6.96213E-009
1, 1800.00000, -0.317751, -0.0999198, -0.317752, -0.0999201, -0.279751, -0.08743, 6.97981E-009, -6.96213E-009
1, 1860.00000, -0.317736, -0.0999153, -0.20375, -0.0624572, -0.241767, -0.0749371, 4.56026E-008, -5.38459E-008
1, 1920.00000, -0.317752, -0.0999199, -0.203751, -0.0624502, -0.241751, -0.0749397, 4.56298E-008, -5.38755E-008
1, 1980.00000, -0.317752, -0.0999199, -0.203751, -0.0624502, -0.241751, -0.0749398, 4.563E-008, -5.38757E-008
1, 2040.00000, -0.317752, -0.0999199, -0.203751, -0.0624502, -0.241751, -0.0749398, 4.563E-008, -5.38757E-008
1, 2100.00000, -0.317752, -0.0999199, -0.203751, -0.0624502, -0.241751, -0.0749398, 4.563E-008, -5.38757E-008
1, 2160.00000, -0.241763, -0.0749433, -0.279751, -0.0874239, -0.279737, -0.0874322, 6.91869E-009, -4.5626E-009
1, 2220.00000, -0.241751, -0.07494, -0.279751, -0.0874298, -0.279751, -0.0874301, 6.92889E-009, -4.57143E-009
1, 2280.00000, -0.241751, -0.07494, -0.279751, -0.0874299, -0.279752, -0.08743, 6.92894E-009, -4.57148E-009
1, 2340.00000, -0.241751, -0.07494, -0.279751, -0.0874299, -0.279752, -0.08743, 6.92894E-009, -4.57148E-009
1, 2400.00000, -0.241751, -0.07494, -0.279751, -0.0874299, -0.279752, -0.08743, 6.92894E-009, -4.57148E-009
1, 2460.00000, -0.241885, -0.0749876, -0.279821, -0.0873786, -0.279626, -0.0874431, 6.82027E-009, -4.54544E-009
1, 2520.00000, -0.241752, -0.0749402, -0.279751, -0.0874295, -0.279751, -0.0874302, 6.91313E-009, -4.63076E-009
1, 2580.00000, -0.241751, -0.07494, -0.279751, -0.0874299, -0.279752, -0.08743, 6.91374E-009, -4.63128E-009
1, 2640.00000, -0.241751, -0.07494, -0.279751, -0.0874299, -0.279752, -0.08743, 6.91375E-009, -4.63128E-009
1, 2700.00000, -0.241751, -0.07494, -0.279751, -0.0874299, -0.279752, -0.08743, 6.91375E-009, -4.63128E-009
1, 2760.00000, -0.317661, -0.0998691, -0.317589, -0.0999315, -0.279775, -0.0874365, 6.91774E-009, -6.75908E-009
1, 2820.00000, -0.317751, -0.0999196, -0.317751, -0.0999203, -0.279752, -0.08743, 6.99488E-009, -6.83248E-009
1, 2880.00000, -0.317751, -0.0999198, -0.317752, -0.0999201, -0.279751, -0.08743, 6.99528E-009, -6.83291E-009
1, 2940.00000, -0.317751, -0.0999198, -0.317752, -0.0999201, -0.279751, -0.08743, 6.99528E-009, -6.83291E-009
1, 3000.00000, -0.317751, -0.0999198, -0.317752, -0.0999201, -0.279751, -0.08743, 6.99528E-009, -6.83291E-009
1, 3060.00000, -0.317657, -0.0999065, -0.27982, -0.0874749, -0.241867, -0.0749208, 1.99068E-008, -2.29544E-008
1, 3120.00000, -0.317751, -0.0999198, -0.279752, -0.0874304, -0.241752, -0.0749397, 2.00263E-008, -2.30945E-008
1, 3180.00000, -0.317752, -0.0999198, -0.279752, -0.0874302, -0.241751, -0.07494, 2.00268E-008, -2.30951E-008
1, 3240.00000, -0.317752, -0.0999198, -0.279752, -0.0874302, -0.241751, -0.07494, 2.00268E-008, -2.30951E-008
1, 3300.00000, -0.317752, -0.0999198, -0.279752, -0.0874302, -0.241751, -0.07494, 2.00268E-008, -2.30951E-008
1, 3360.00000, -0.279777, -0.0874229, -0.27972, -0.0874247, -0.317755, -0.0999322, 6.00593E-009, -6.96939E-009
1, 3420.00000, -0.279752, -0.08743, -0.279751, -0.0874299, -0.317752, -0.09992, 5.99793E-009, -6.95552E-009
1, 3480.00000, -0.279751, -0.0874301, -0.279751, -0.0874299, -0.317752, -0.0999199, 5.99784E-009, -6.9554E-009
1, 3540.00000, -0.279751, -0.0874301, -0.279751, -0.0874299, -0.317752, -0.0999199, 5.99784E-009, -6.9554E-009
2, 0.00000, -0.279751, -0.0874301, -0.279751, -0.0874299, -0.317752, -0.0999199, 5.99784E-009, -6.9554E-009
2, 60.00000, -0.286666, -0.0874381, -0.248703, -0.0749426, -0.248677, -0.07493, 6.0085E-009, -8.84081E-009
2, 120.00000, -0.286675, -0.08743, -0.248675, -0.07494, -0.248675, -0.0749398, 6.01495E-009, -8.85078E-009
2, 180.00000, -0.286675, -0.0874299, -0.248675, -0.0749401, -0.248675, -0.0749399, 6.01491E-009, -8.85076E-009
2, 240.00000, -0.286675, -0.0874299, -0.248675, -0.0749401, -0.248675, -0.0749399, 6.01491E-009, -8.85076E-009
2, 300.00000, -0.286675, -0.0874299, -0.248675, -0.0749401, -0.248675, -0.0749399, 6.01491E-009, -8.85076E-009
2, 360.00000, -0.248663, -0.0749515, -0.286702, -0.0874283, -0.248659, -0.0749298, 7.41792E-009, -4.65242E-009
2, 420.00000, -0.248675, -0.0749401, -0.286675, -0.0874298, -0.248675, -0.07494, 7.39847E-009, -4.63621E-009
2, 480.00000, -0.248675, -0.0749399, -0.286675, -0.0874299, -0.248675, -0.0749401, 7.39834E-009, -4.63609E-009
2, 540.00000, -0.248675, -0.0749399, -0.286675, -0.0874299, -0.248675, -0.0749401, 7.39835E-009, -4.63609E-009
2, 600.00000, -0.248675, -0.0749399, -0.286675, -0.0874299, -0.248675, -0.0749401, 7.39835E-009, -4.63609E-009
2, 660.00000, -0.210798, -0.062552, -0.210838, -0.0623574, -0.286498, -0.0874137, 2.54163E-008, -2.74191E-008
2, 720.00000, -0.210677, -0.0624508, -0.210675, -0.0624486, -0.286673, -0.0874305, 2.57317E-008, -2.77424E-008
2, 780.00000, -0.210675, -0.0624501, -0.210675, -0.0624499, -0.286675, -0.0874299, 2.57343E-008, -2.77448E-008
2, 840.00000, -0.210675, -0.0624501, -0.210675, -0.0624499, -0.286675, -0.0874299, 2.57343E-008, -2.77448E-008
2, 900.00000, -0.210675, -0.0624501, -0.210675, -0.0624499, -0.286675, -0.0874299, 2.57343E-008, -2.77448E-008
2, 960.00000, -0.210669, -0.0624253, -0.28663, -0.0874446, -0.286718, -0.0874407, 2.75315E-008, -2.3222E-008
2, 1020.00000, -0.210674, -0.0624498, -0.286675, -0.08743, -0.286676, -0.0874301, 2.75052E-008, -2.31913E-008
2, 1080.00000, -0.210675, -0.06245, -0.286675, -0.0874298, -0.286675, -0.0874301, 2.75045E-008, -2.31906E-008
2, 1140.00000, -0.210675, -0.06245, -0.286675, -0.0874298, -0.286675, -0.0874301, 2.75044E-008, -2.31906E-008
2, 1200.00000, -0.210675, -0.06245, -0.286675, -0.0874298, -0.286675, -0.0874301, 2.75044E-008, -2.31906E-008
2, 1260.00000, -0.210824, -0.0624741, -0.210705, -0.0623935, -0.248616, -0.0749724, 6.13549E-009, -6.87034E-009
2, 1320.00000, -0.210676, -0.0624499, -0.210674, -0.0624494, -0.248675, -0.0749406, 6.19107E-009, -6.91528E-009
2, 1380.00000, -0.210675, -0.0624501, -0.210675, -0.0624499, -0.248675, -0.0749399, 6.19114E-009, -6.91516E-009
2, 1440.00000, -0.210675, -0.0624501, -0.210675, -0.0624499, -0.248675, -0.0749399, 6.19113E-009, -6.91515E-009
2, 1500.00000, -0.210675, -0.0624501, -0.210675, -0.0624499, -0.248675, -0.0749399, 6.19113E-009, -6.91515E-009
2, 1560.00000, -0.210659, -0.0624628, -0.210706, -0.0624503, -0.248665, -0.0749263, 6.11792E-009, -6.90537E-009
2, 1620.00000, -0.210675, -0.0624502, -0.210675, -0.0624498, -0.248675, -0.0749398, 6.13158E-009, -6.92303E-009
2, 1680.00000, -0.210675, -0.0624501, -0.210675, -0.0624499, -0.248675, -0.0749399, 6.13182E-009, -6.92329E-009
2, 1740.00000, -0.210675, -0.0624501, -0.210675, -0.0624499, -0.248675, -0.0749399, 6.13182E-009, -6.92329E-009
2, 1800.00000, -0.210675, -0.0624501, -0.210675, -0.0624499, -0.248675, -0.0749399, 6.13182E-009, -6.92329E-009
2, 1860.00000, -0.248662, -0.0748989, -0.286527, -0.0874204, -0.210637, -0.0624856, 2.10293E-008, -1.82773E-008
2, 1920.00000, -0.248675, -0.0749393, -0.286674, -0.0874302, -0.210675, -0.0624503, 2.11364E-008, -1.83717E-008
2, 1980.00000, -0.248675, -0.0749398, -0.286675, -0.08743, -0.210675, -0.0624501, 2.11376E-008, -1.83729E-008
2, 2040.00000, -0.248675, -0.0749398, -0.286675, -0.08743, -0.210675, -0.0624501, 2.11376E-008, -1.83729E-008
2, 2100.00000, -0.248675, -0.0749398, -0.286675, -0.08743, -0.210675, -0.0624501, 2.11376E-008, -1.83729E-008
2, 2160.00000, -0.248614, -0.0749613, -0.28676, -0.0874549, -0.248717, -0.0748993, 7.48901E-009, -4.7079E-009
2, 2220.00000, -0.248674, -0.0749403, -0.286676, -0.08743, -0.248675, -0.0749397, 7.42516E-009, -4.65971E-009
2, 2280.00000, -0.248675, -0.0749399, -0.286675, -0.0874299, -0.248675, -0.0749401, 7.4244E-009, -4.65909E-009
2, 2340.00000, -0.248675, -0.0749399, -0.286675, -0.0874299, -0.248675, -0.0749401, 7.42439E-009, -4.65909E-009
2, 2400.00000, -0.248675, -0.0749399, -0.286675, -0.0874299, -0.248675, -0.0749401, 7.42439E-009, -4.65909E-009
2, 2460.00000, -0.286653, -0.0874333, -0.248692, -0.0749467, -0.24868, -0.0749294, 6.13609E-009, -9.00824E-009
2, 2520.00000, -0.286675, -0.08743, -0.248675, -0.0749401, -0.248675, -0.0749398, 6.14867E-009, -9.02503E-009
2, 2580.00000, -0.286675, -0.0874299, -0.248675, -0.0749401, -0.248675, -0.0749399, 6.14873E-009, -9.02512E-009
2, 2640.00000, -0.286675, -0.0874299, -0.248675, -0.0749401, -0.248675, -0.0749399, 6.14873E-009, -9.02512E-009
2, 2700.00000, -0.286675, -0.0874299, -0.248675, -0.0749401, -0.248675, -0.0749399, 6.14873E-009, -9.02512E-009
2, 2760.00000, -0.210691, -0.0624415, -0.248654, -0.0749382, -0.210682, -0.0624605, 7.36602E-009, -4.94755E-009
2, 2820.00000, -0.210675, -0.0624498, -0.248675, -0.07494, -0.210675, -0.0624501, 7.38377E-009, -4.9623E-009
2, 2880.00000, -0.210675, -0.0624499, -0.248675, -0.0749399, -0.210675, -0.0624501, 7.38392E-009, -4.96244E-009
2, 2940.00000, -0.210675, -0.0624499, -0.248675, -0.0749399, -0.210675, -0.0624501, 7.38392E-009, -4.96244E-009
2, 3000.00000, -0.210675, -0.0624499, -0.248675, -0.0749399, -0.210675, -0.0624501, 7.38392E-009, -4.96244E-009
2, 3060.00000, -0.248723, -0.0749545, -0.210673, -0.0624202, -0.28662, -0.0874435, 1.88242E-008, -2.2611E-008
2, 3120.00000, -0.248676, -0.0749401, -0.210674, -0.0624497, -0.286675, -0.0874301, 1.88428E-008, -2.26245E-008
2, 3180.00000, -0.248675, -0.0749401, -0.210675, -0.06245, -0.286675, -0.0874298, 1.88425E-008, -2.26242E-008
2, 3240.00000, -0.248675, -0.0749401, -0.210675, -0.06245, -0.286675, -0.0874298, 1.88425E-008, -2.26242E-008
2, 3300.00000, -0.248675, -0.0749401, -0.210675, -0.06245, -0.286675, -0.0874298, 1.88425E-008, -2.26242E-008
2, 3360.00000, -0.21062, -0.0624319, -0.248671, -0.0749747, -0.324741, -0.099906, 4.57884E-008, -4.60011E-008
2, 3420.00000, -0.210674, -0.0624502, -0.248675, -0.0749401, -0.324676, -0.0999196, 4.56622E-008, -4.58783E-008
2, 3480.00000, -0.210675, -0.0624502, -0.248675, -0.0749398, -0.324675, -0.0999199, 4.56614E-008, -4.58776E-008
2, 3540.00000, -0.210675, -0.0624502, -0.248675, -0.0749398, -0.324675, -0.0999199, 4.56614E-008, -4.58776E-008
3, 0.00000, -0.210675, -0.0624502, -0.248675, -0.0749398, -0.324675, -0.0999199, 4.56614E-008, -4.58776E-008
3, 60.00000, -0.218179, -0.0624527, -0.218115, -0.0624294, -0.294103, -0.0874478, 2.57548E-008, -2.77804E-008
3, 120.00000, -0.218136, -0.06245, -0.218135, -0.0624498, -0.294135, -0.0874301, 2.57804E-008, -2.78007E-008
