hour, t(sec), P1 (kW), Q1 (kvar), P2 (kW), Q2 (kvar), P3 (kW), Q3 (kvar), P4 (kW), Q4 (kvar)
0, 60.00000, -0.0361002, -0.0118655, -0.0577626, -0.0189845, -0.0577597, -0.0189853, 3.5896E-007, 4.80272E-008
0, 120.00000, -0.0360994, -0.0118654, -0.0577606, -0.018984, -0.0577604, -0.0189857, 3.58963E-007, 4.80236E-008
0, 180.00000, -0.0360994, -0.0118654, -0.0577606, -0.018984, -0.0577604, -0.0189857, 3.58964E-007, 4.80236E-008
0, 240.00000, -0.0360994, -0.0118654, -0.0577606, -0.018984, -0.0577604, -0.0189857, 3.58964E-007, 4.80236E-008
0, 300.00000, -0.0360994, -0.0118654, -0.0577606, -0.018984, -0.0577604, -0.0189857, 3.58964E-007, 4.80236E-008
0, 360.00000, -0.0577602, -0.0189842, -0.0577608, -0.0189854, -0.0505392, -0.0166115, 4.96967E-008, 7.38143E-009
0, 420.00000, -0.0577603, -0.0189845, -0.0577601, -0.0189852, -0.0505397, -0.0166116, 4.96897E-008, 7.38026E-009
0, 480.00000, -0.0577602, -0.0189845, -0.0577601, -0.0189852, -0.0505397, -0.0166116, 4.96896E-008, 7.38026E-009
0, 540.00000, -0.0577602, -0.0189845, -0.0577601, -0.0189852, -0.0505397, -0.0166116, 4.96896E-008, 7.38026E-009
0, 600.00000, -0.0577602, -0.0189845, -0.0577601, -0.0189852, -0.0505397, -0.0166116, 4.96896E-008, 7.38026E-009
0, 660.00000, -0.0433134, -0.0142365, -0.0505486, -0.016614, -0.0649807, -0.0213599, 2.86884E-007, 2.09646E-008
0, 720.00000, -0.0433195, -0.014239, -0.05054, -0.016611, -0.0649808, -0.0213583, 2.86778E-007, 2.0945E-008
0, 780.00000, -0.0433195, -0.014239, -0.0505399, -0.0166109, -0.0649809, -0.0213583, 2.8678E-007, 2.09451E-008
0, 840.00000, -0.0433195, -0.014239, -0.0505399, -0.0166109, -0.0649809, -0.0213583, 2.8678E-007, 2.09451E-008
0, 900.00000, -0.0433195, -0.014239, -0.0505399, -0.0166109, -0.0649809, -0.0213583, 2.8678E-007, 2.09451E-008
0, 960.00000, -0.0505398, -0.0166113, -0.0577605, -0.0189849, -0.0505398, -0.0166119, 4.39099E-008, 1.37233E-008
0, 1020.00000, -0.0505399, -0.0166114, -0.0577604, -0.0189849, -0.0505398, -0.0166119, 4.3908E-008, 1.37229E-008
0, 1080.00000, -0.0505399, -0.0166114, -0.0577604, -0.0189849, -0.0505398, -0.0166119, 4.3908E-008, 1.37229E-008
0, 1140.00000, -0.0505399, -0.0166114, -0.0577604, -0.0189849, -0.0505398, -0.0166119, 4.3908E-008, 1.37229E-008
0, 1200.00000, -0.0505399, -0.0166114, -0.0577604, -0.0189849, -0.0505398, -0.0166119, 4.3908E-008, 1.37229E-008
0, 1260.00000, -0.0577598, -0.0189842, -0.0577609, -0.0189854, -0.0505396, -0.0166116, 5.35381E-008, 8.28243E-009
0, 1320.00000, -0.0577603, -0.0189845, -0.0577602, -0.0189852, -0.0505396, -0.0166116, 5.35383E-008, 8.28111E-009
0, 1380.00000, -0.0577603, -0.0189845, -0.0577602, -0.0189852, -0.0505396, -0.0166116, 5.35382E-008, 8.2811E-009
0, 1440.00000, -0.0577603, -0.0189845, -0.0577602, -0.0189852, -0.0505396, -0.0166116, 5.35382E-008, 8.2811E-009
0, 1500.00000, -0.0577603, -0.0189845, -0.0577602, -0.0189852, -0.0505396, -0.0166116, 5.35382E-008, 8.2811E-009
0, 1560.00000, -0.0505397, -0.0166111, -0.0577605, -0.0189852, -0.0433199, -0.0142389, 1.43806E-007, 2.50883E-008
0, 1620.00000, -0.0505401, -0.0166111, -0.0577605, -0.0189852, -0.0433195, -0.0142388, 1.43811E-007, 2.50884E-008
0, 1680.00000, -0.0505401, -0.0166111, -0.0577605, -0.0189852, -0.0433195, -0.0142388, 1.43811E-007, 2.50884E-008
0, 1740.00000, -0.0505401, -0.0166111, -0.0577605, -0.0189852, -0.0433195, -0.0142388, 1.43811E-007, 2.50884E-008
0, 1800.00000, -0.0505401, -0.0166111, -0.0577605, -0.0189852, -0.0433195, -0.0142388, 1.43811E-007, 2.50884E-008
0, 1860.00000, -0.0505344, -0.0166117, -0.0649807, -0.0213565, -0.0649854, -0.0213608, 1.54399E-007, 2.1765E-008
0, 1920.00000, -0.0505394, -0.0166116, -0.0649805, -0.0213574, -0.0649802, -0.0213586, 1.54258E-007, 2.17548E-008
0, 1980.00000, -0.0505395, -0.0166116, -0.0649804, -0.0213573, -0.0649803, -0.0213585, 1.54257E-007, 2.17547E-008
0, 2040.00000, -0.0505395, -0.0166116, -0.0649804, -0.0213573, -0.0649803, -0.0213585, 1.54257E-007, 2.17547E-008
0, 2100.00000, -0.0505395, -0.0166116, -0.0649804, -0.0213573, -0.0649803, -0.0213585, 1.54257E-007, 2.17547E-008
0, 2160.00000, -0.0505364, -0.0166096, -0.0722049, -0.0237305, -0.0505405, -0.0166126, 3.87127E-007, 6.56031E-008
0, 2220.00000, -0.0505397, -0.0166108, -0.0722013, -0.0237312, -0.0505394, -0.0166124, 3.86984E-007, 6.55856E-008
0, 2280.00000, -0.0505397, -0.0166108, -0.0722013, -0.0237312, -0.0505394, -0.0166124, 3.86983E-007, 6.55854E-008
0, 2340.00000, -0.0505397, -0.0166108, -0.0722013, -0.0237312, -0.0505394, -0.0166124, 3.86983E-007, 6.55854E-008
0, 2400.00000, -0.0505397, -0.0166108, -0.0722013, -0.0237312, -0.0505394, -0.0166124, 3.86983E-007, 6.55854E-008
0, 2460.00000, -0.0722024, -0.0237309, -0.0505391, -0.0166126, -0.0433191, -0.0142378, 5.99346E-007, 4.24048E-008
0, 2520.00000, -0.0722016, -0.0237307, -0.0505396, -0.0166128, -0.0433194, -0.0142378, 5.99295E-007, 4.24016E-008
0, 2580.00000, -0.0722016, -0.0237307, -0.0505396, -0.0166128, -0.0433194, -0.0142378, 5.99295E-007, 4.24016E-008
0, 2640.00000, -0.0722016, -0.0237307, -0.0505396, -0.0166128, -0.0433194, -0.0142378, 5.99295E-007, 4.24016E-008
0, 2700.00000, -0.0722016, -0.0237307, -0.0505396, -0.0166128, -0.0433194, -0.0142378, 5.99295E-007, 4.24016E-008
0, 2760.00000, -0.0649809, -0.0213581, -0.0505397, -0.016612, -0.0577595, -0.018984, 1.41349E-007, 1.91283E-009
0, 2820.00000, -0.0649806, -0.0213583, -0.0505395, -0.016612, -0.05776, -0.0189842, 1.41347E-007, 1.91263E-009
0, 2880.00000, -0.0649806, -0.0213583, -0.0505395, -0.016612, -0.05776, -0.0189842, 1.41347E-007, 1.91262E-009
0, 2940.00000, -0.0649806, -0.0213583, -0.0505395, -0.016612, -0.05776, -0.0189842, 1.41347E-007, 1.91262E-009
0, 3000.00000, -0.0649806, -0.0213583, -0.0505395, -0.016612, -0.05776, -0.0189842, 1.41347E-007, 1.91262E-009
0, 3060.00000, -0.0505393, -0.016612, -0.0505394, -0.0166114, -0.0577615, -0.0189852, 3.96623E-008, -1.28401E-009
0, 3120.00000, -0.0505399, -0.0166119, -0.0505399, -0.0166115, -0.0577603, -0.0189848, 3.96453E-008, -1.28454E-009
0, 3180.00000, -0.0505399, -0.0166119, -0.0505399, -0.0166115, -0.0577603, -0.0189848, 3.96453E-008, -1.28455E-009
0, 3240.00000, -0.0505399, -0.0166119, -0.0505399, -0.0166115, -0.0577603, -0.0189848, 3.96453E-008, -1.28455E-009
0, 3300.00000, -0.0505399, -0.0166119, -0.0505399, -0.0166115, -0.0577603, -0.0189848, 3.96453E-008, -1.28455E-009
0, 3360.00000, -0.0649792, -0.0213593, -0.0433194, -0.0142383, -0.0794222, -0.0261034, 8.11369E-007, 5.0591E-008
0, 3420.00000, -0.0649801, -0.0213596, -0.043319, -0.0142381, -0.0794217, -0.026103, 8.11369E-007, 5.05902E-008
0, 3480.00000, -0.0649801, -0.0213596, -0.043319, -0.0142381, -0.0794217, -0.026103, 8.11369E-007, 5.05902E-008
0, 3540.00000, -0.0649801, -0.0213596, -0.043319, -0.0142381, -0.0794217, -0.026103, 8.11369E-007, 5.05902E-008
1, 0.00000, -0.0649801, -0.0213596, -0.043319, -0.0142381, -0.0794217, -0.026103, 8.11369E-007, 5.05902E-008
1, 60.00000, -0.0505399, -0.016611, -0.0577619, -0.0189857, -0.0433191, -0.0142386, 1.39104E-007, 2.4878E-008
1, 120.00000, -0.0505401, -0.0166111, -0.0577605, -0.0189852, -0.0433195, -0.0142388, 1.39071E-007, 2.4873E-008
1, 180.00000, -0.0505401, -0.0166111, -0.0577605, -0.0189852, -0.0433195, -0.0142388, 1.3907E-007, 2.4873E-008
1, 240.00000, -0.0505401, -0.0166111, -0.0577605, -0.0189852, -0.0433195, -0.0142388, 1.3907E-007, 2.4873E-008
1, 300.00000, -0.0505401, -0.0166111, -0.0577605, -0.0189852, -0.0433195, -0.0142388, 1.3907E-007, 2.4873E-008
1, 360.00000, -0.0433191, -0.0142383, -0.0505401, -0.0166115, -0.050541, -0.0166123, 3.61241E-008, 9.68584E-009
1, 420.00000, -0.0433198, -0.0142385, -0.0505402, -0.0166115, -0.0505401, -0.016612, 3.61125E-008, 9.68471E-009
1, 480.00000, -0.0433198, -0.0142385, -0.0505402, -0.0166115, -0.0505401, -0.016612, 3.61124E-008, 9.6847E-009
1, 540.00000, -0.0433198, -0.0142385, -0.0505402, -0.0166115, -0.0505401, -0.016612, 3.61124E-008, 9.6847E-009
1, 600.00000, -0.0433198, -0.0142385, -0.0505402, -0.0166115, -0.0505401, -0.016612, 3.61124E-008, 9.6847E-009
1, 660.00000, -0.0361021, -0.0118661, -0.0433208, -0.0142387, -0.0433142, -0.0142369, 3.99593E-008, 8.28512E-009
1, 720.00000, -0.0360998, -0.0118655, -0.0433202, -0.0142384, -0.0433201, -0.0142388, 4.00103E-008, 8.29007E-009
1, 780.00000, -0.0360998, -0.0118655, -0.0433202, -0.0142384, -0.0433201, -0.0142388, 4.00107E-008, 8.29012E-009
1, 840.00000, -0.0360998, -0.0118655, -0.0433202, -0.0142384, -0.0433201, -0.0142388, 4.00107E-008, 8.29012E-009
1, 900.00000, -0.0360998, -0.0118655, -0.0433202, -0.0142384, -0.0433201, -0.0142388, 4.00107E-008, 8.29012E-009
1, 960.00000, -0.050539, -0.016611, -0.0505408, -0.0166122, -0.0433199, -0.0142386, 5.09584E-008, 7.8375E-009
1, 1020.00000, -0.0505402, -0.0166114, -0.0505401, -0.016612, -0.0433197, -0.0142385, 5.09668E-008, 7.83704E-009
1, 1080.00000, -0.0505402, -0.0166114, -0.0505401, -0.016612, -0.0433197, -0.0142385, 5.09668E-008, 7.83703E-009
1, 1140.00000, -0.0505402, -0.0166114, -0.0505401, -0.016612, -0.0433197, -0.0142385, 5.09668E-008, 7.83703E-009
1, 1200.00000, -0.0505402, -0.0166114, -0.0505401, -0.016612, -0.0433197, -0.0142385, 5.09668E-008, 7.83703E-009
1, 1260.00000, -0.0433206, -0.0142389, -0.0577602, -0.0189843, -0.0577593, -0.018985, 1.53731E-007, 1.72059E-008
1, 1320.00000, -0.0433195, -0.0142385, -0.0577604, -0.0189843, -0.0577602, -0.0189854, 1.53766E-007, 1.72081E-008
1, 1380.00000, -0.0433195, -0.0142385, -0.0577604, -0.0189843, -0.0577602, -0.0189854, 1.53767E-007, 1.72082E-008
1, 1440.00000, -0.0433195, -0.0142385, -0.0577604, -0.0189843, -0.0577602, -0.0189854, 1.53767E-007, 1.72082E-008
1, 1500.00000, -0.0433195, -0.0142385, -0.0577604, -0.0189843, -0.0577602, -0.0189854, 1.53767E-007, 1.72082E-008
1, 1560.00000, -0.0505396, -0.0166112, -0.0505408, -0.0166122, -0.0433196, -0.0142386, 5.09128E-008, 4.80847E-009
1, 1620.00000, -0.0505402, -0.0166114, -0.0505401, -0.016612, -0.0433197, -0.0142386, 5.09124E-008, 4.80747E-009
1, 1680.00000, -0.0505402, -0.0166114, -0.0505401, -0.016612, -0.0433197, -0.0142386, 5.09124E-008, 4.80747E-009
1, 1740.00000, -0.0505402, -0.0166114, -0.0505401, -0.016612, -0.0433197, -0.0142386, 5.09124E-008, 4.80747E-009
1, 1800.00000, -0.0505402, -0.0166114, -0.0505401, -0.016612, -0.0433197, -0.0142386, 5.09124E-008, 4.80747E-009
1, 1860.00000, -0.0360993, -0.0118657, -0.0360998, -0.0118651, -0.0505413, -0.016612, 1.58014E-007, 7.06591E-009
1, 1920.00000, -0.0360998, -0.0118658, -0.0360998, -0.0118651, -0.0505406, -0.0166117, 1.57991E-007, 7.0642E-009
1, 1980.00000, -0.0360998, -0.0118658, -0.0360998, -0.0118651, -0.0505406, -0.0166117, 1.57991E-007, 7.06419E-009
1, 2040.00000, -0.0360998, -0.0118658, -0.0360998, -0.0118651, -0.0505406, -0.0166117, 1.57991E-007, 7.06419E-009
1, 2100.00000, -0.0360998, -0.0118658, -0.0360998, -0.0118651, -0.0505406, -0.0166117, 1.57991E-007, 7.06419E-009
1, 2160.00000, -0.0433203, -0.0142389, -0.0433199, -0.0142384, -0.0505396, -0.0166115, 3.87349E-008, 2.10734E-009
1, 2220.00000, -0.0433199, -0.0142388, -0.0433199, -0.0142384, -0.0505403, -0.0166117, 3.87448E-008, 2.10819E-009
1, 2280.00000, -0.0433199, -0.0142388, -0.0433199, -0.0142384, -0.0505403, -0.0166117, 3.87448E-008, 2.10819E-009
1, 2340.00000, -0.0433199, -0.0142388, -0.0433199, -0.0142384, -0.0505403, -0.0166117, 3.87448E-008, 2.10819E-009
1, 2400.00000, -0.0433199, -0.0142388, -0.0433199, -0.0142384, -0.0505403, -0.0166117, 3.87448E-008, 2.10819E-009
1, 2460.00000, -0.0361039, -0.011867, -0.0505433, -0.0166122, -0.0577541, -0.0189832, 2.77227E-007, 2.85543E-008
1, 2520.00000, -0.0360995, -0.0118656, -0.0505402, -0.016611, -0.0577605, -0.0189854, 2.77484E-007, 2.85676E-008
1, 2580.00000, -0.0360995, -0.0118656, -0.0505402, -0.016611, -0.0577606, -0.0189854, 2.77485E-007, 2.85677E-008
1, 2640.00000, -0.0360995, -0.0118656, -0.0505402, -0.016611, -0.0577606, -0.0189854, 2.77485E-007, 2.85677E-008
1, 2700.00000, -0.0360995, -0.0118656, -0.0505402, -0.016611, -0.0577606, -0.0189854, 2.77485E-007, 2.85677E-008
1, 2760.00000, -0.0577561, -0.0189835, -0.0505328, -0.0166096, -0.0505408, -0.0166117, 4.97344E-008, -5.48703E-010
1, 2820.00000, -0.0577604, -0.0189848, -0.0505398, -0.016612, -0.0505398, -0.0166114, 4.9754E-008, -5.45177E-010
1, 2880.00000, -0.0577604, -0.0189848, -0.0505398, -0.016612, -0.0505398, -0.0166114, 4.97544E-008, -5.45152E-010
1, 2940.00000, -0.0577604, -0.0189848, -0.0505398, -0.016612, -0.0505398, -0.0166114, 4.97544E-008, -5.45151E-010
1, 3000.00000, -0.0577604, -0.0189848, -0.0505398, -0.016612, -0.0505398, -0.0166114, 4.97544E-008, -5.45151E-010
1, 3060.00000, -0.0433165, -0.0142372, -0.0505432, -0.0166126, -0.0433244, -0.0142404, 4.39497E-008, 1.0517E-008
1, 3120.00000, -0.0433199, -0.0142383, -0.0505403, -0.0166118, -0.0433198, -0.0142388, 4.39308E-008, 1.0512E-008
1, 3180.00000, -0.0433199, -0.0142383, -0.0505403, -0.0166118, -0.0433198, -0.0142388, 4.39305E-008, 1.0512E-008
1, 3240.00000, -0.0433199, -0.0142383, -0.0505403, -0.0166118, -0.0433198, -0.0142388, 4.39305E-008, 1.0512E-008
1, 3300.00000, -0.0433199, -0.0142383, -0.0505403, -0.0166118, -0.0433198, -0.0142388, 4.39305E-008, 1.0512E-008
1, 3360.00000, -0.0505417, -0.0166119, -0.0433188, -0.0142387, -0.0360998, -0.0118653, 1.3821E-007, 1.01676E-008
1, 3420.00000, -0.0505405, -0.0166115, -0.04332, -0.0142391, -0.0360997, -0.0118653, 1.3819E-007, 1.01669E-008
1, 3480.00000, -0.0505405, -0.0166115, -0.04332, -0.0142391, -0.0360997, -0.0118653, 1.3819E-007, 1.01669E-008
1, 3540.00000, -0.0505405, -0.0166115, -0.04332, -0.0142391, -0.0360997, -0.0118653, 1.3819E-007, 1.01669E-008
2, 0.00000, -0.0505405, -0.0166115, -0.04332, -0.0142391, -0.0360997, -0.0118653, 1.3819E-007, 1.01669E-008
2, 60.00000, -0.0433194, -0.0142384, -0.0505415, -0.0166119, -0.0505402, -0.016612, 3.5916E-008, 7.4277E-009
2, 120.00000, -0.0433198, -0.0142385, -0.0505402, -0.0166115, -0.0505401, -0.0166119, 3.59036E-008, 7.42501E-009
2, 180.00000, -0.0433198, -0.0142385, -0.0505402, -0.0166115, -0.0505401, -0.0166119, 3.59036E-008, 7.42499E-009
2, 240.00000, -0.0433198, -0.0142385, -0.0505402, -0.0166115, -0.0505401, -0.0166119, 3.59036E-008, 7.42499E-009
2, 300.00000, -0.0433198, -0.0142385, -0.0505402, -0.0166115, -0.0505401, -0.0166119, 3.59036E-008, 7.42499E-009
2, 360.00000, -0.0433194, -0.0142386, -0.0433209, -0.0142388, -0.0505395, -0.0166115, 3.57314E-008, -3.64504E-010
2, 420.00000, -0.0433199, -0.0142388, -0.0433199, -0.0142384, -0.0505402, -0.0166117, 3.57429E-008, -3.65423E-010
2, 480.00000, -0.0433199, -0.0142388, -0.0433199, -0.0142384, -0.0505403, -0.0166117, 3.57431E-008, -3.65421E-010
2, 540.00000, -0.0433199, -0.0142388, -0.0433199, -0.0142384, -0.0505403, -0.0166117, 3.57431E-008, -3.65421E-010
2, 600.00000, -0.0433199, -0.0142388, -0.0433199, -0.0142384, -0.0505403, -0.0166117, 3.57431E-008, -3.65421E-010
2, 660.00000, -0.0288831, -0.00949345, -0.0361057, -0.0118672, -0.0433135, -0.0142366, 1.16905E-007, 1.05554E-008
2, 720.00000, -0.0288798, -0.00949253, -0.0361, -0.0118652, -0.0433202, -0.0142388, 1.17078E-007, 1.05607E-008
2, 780.00000, -0.0288798, -0.00949251, -0.0361, -0.0118652, -0.0433203, -0.0142388, 1.17081E-007, 1.05608E-008
2, 840.00000, -0.0288798, -0.00949251, -0.0361, -0.0118652, -0.0433203, -0.0142388, 1.17081E-007, 1.05608E-008
2, 900.00000, -0.0288798, -0.00949251, -0.0361, -0.0118652, -0.0433203, -0.0142388, 1.17081E-007, 1.05608E-008
2, 960.00000, -0.0433197, -0.0142383, -0.0505383, -0.016611, -0.0433215, -0.0142393, 4.25485E-008, 1.0693E-008
2, 1020.00000, -0.0433199, -0.0142383, -0.0505403, -0.0166118, -0.0433198, -0.0142388, 4.25832E-008, 1.06989E-008
2, 1080.00000, -0.0433199, -0.0142383, -0.0505403, -0.0166118, -0.0433198, -0.0142388, 4.25834E-008, 1.0699E-008
2, 1140.00000, -0.0433199, -0.0142383, -0.0505403, -0.0166118, -0.0433198, -0.0142388, 4.25834E-008, 1.0699E-008
2, 1200.00000, -0.0433199, -0.0142383, -0.0505403, -0.0166118, -0.0433198, -0.0142388, 4.25834E-008, 1.0699E-008
2, 1260.00000, -0.043326, -0.0142406, -0.0505416, -0.0166121, -0.0505374, -0.0166109, 3.70076E-008, 7.90376E-009
2, 1320.00000, -0.0433198, -0.0142386, -0.0505401, -0.0166115, -0.0505401, -0.0166119, 3.70803E-008, 7.9106E-009
2, 1380.00000, -0.0433198, -0.0142385, -0.0505402, -0.0166115, -0.0505401, -0.0166119, 3.70812E-008, 7.91075E-009
2, 1440.00000, -0.0433198, -0.0142385, -0.0505402, -0.0166115, -0.0505401, -0.0166119, 3.70813E-008, 7.91075E-009
2, 1500.00000, -0.0433198, -0.0142385, -0.0505402, -0.0166115, -0.0505401, -0.0166119, 3.70813E-008, 7.91075E-009
2, 1560.00000, -0.0433192, -0.0142385, -0.0433212, -0.0142388, -0.0505398, -0.0166116, 3.57547E-008, 7.80218E-010
2, 1620.00000, -0.0433199, -0.0142388, -0.0433199, -0.0142384, -0.0505402, -0.0166117, 3.57633E-008, 7.78923E-010
2, 1680.00000, -0.0433199, -0.0142388, -0.0433199, -0.0142384, -0.0505403, -0.0166117, 3.57635E-008, 7.78922E-010
2, 1740.00000, -0.0433199, -0.0142388, -0.0433199, -0.0142384, -0.0505403, -0.0166117, 3.57635E-008, 7.78922E-010
2, 1800.00000, -0.0433199, -0.0142388, -0.0433199, -0.0142384, -0.0505403, -0.0166117, 3.57635E-008, 7.78922E-010
2, 1860.00000, -0.0360995, -0.0118656, -0.0360952, -0.0118638, -0.0433186, -0.014238, 3.59783E-008, 1.91387E-009
2, 1920.00000, -0.0360999, -0.0118656, -0.0360999, -0.0118653, -0.0433202, -0.0142386, 3.59674E-008, 1.91683E-009
2, 1980.00000, -0.0360999, -0.0118656, -0.0360999, -0.0118653, -0.0433202, -0.0142386, 3.59669E-008, 1.91682E-009
2, 2040.00000, -0.0360999, -0.0118656, -0.0360999, -0.0118653, -0.0433202, -0.0142386, 3.59669E-008, 1.91682E-009
2, 2100.00000, -0.0360999, -0.0118656, -0.0360999, -0.0118653, -0.0433202, -0.0142386, 3.59669E-008, 1.91682E-009
2, 2160.00000, -0.0505372, -0.0166114, -0.0361022, -0.0118662, -0.057763, -0.0189851, 2.94192E-007, 9.50093E-009
2, 2220.00000, -0.0505401, -0.0166125, -0.0360995, -0.0118653, -0.0577607, -0.0189842, 2.94231E-007, 9.50081E-009
2, 2280.00000, -0.0505401, -0.0166125, -0.0360995, -0.0118653, -0.0577607, -0.0189842, 2.94233E-007, 9.50089E-009
2, 2340.00000, -0.0505401, -0.0166125, -0.0360995, -0.0118653, -0.0577607, -0.0189842, 2.94233E-007, 9.50089E-009
2, 2400.00000, -0.0505401, -0.0166125, -0.0360995, -0.0118653, -0.0577607, -0.0189842, 2.94233E-007, 9.50089E-009
2, 2460.00000, -0.0433193, -0.0142385, -0.0361004, -0.0118657, -0.0433203, -0.0142385, 4.26419E-008, -4.69536E-010
2, 2520.00000, -0.0433201, -0.0142388, -0.0360998, -0.0118655, -0.0433201, -0.0142384, 4.26529E-008, -4.69329E-010
2, 2580.00000, -0.0433201, -0.0142388, -0.0360998, -0.0118655, -0.0433201, -0.0142384, 4.26531E-008, -4.69323E-010
2, 2640.00000, -0.0433201, -0.0142388, -0.0360998, -0.0118655, -0.0433201, -0.0142384, 4.26531E-008, -4.69323E-010
2, 2700.00000, -0.0433201, -0.0142388, -0.0360998, -0.0118655, -0.0433201, -0.0142384, 4.26531E-008, -4.69323E-010
2, 2760.00000, -0.0505412, -0.016612, -0.043319, -0.0142386, -0.0433201, -0.0142384, 5.01253E-008, -1.07034E-010
2, 2820.00000, -0.0505404, -0.0166117, -0.0433198, -0.0142389, -0.0433199, -0.0142383, 5.01114E-008, -1.06909E-010
2, 2880.00000, -0.0505403, -0.0166117, -0.0433199, -0.0142389, -0.0433199, -0.0142383, 5.01114E-008, -1.06901E-010
2, 2940.00000, -0.0505403, -0.0166117, -0.0433199, -0.0142389, -0.0433199, -0.0142383, 5.01114E-008, -1.06901E-010
2, 3000.00000, -0.0505403, -0.0166117, -0.0433199, -0.0142389, -0.0433199, -0.0142383, 5.01114E-008, -1.06901E-010
2, 3060.00000, -0.0505425, -0.0166129, -0.0360995, -0.0118655, -0.0505378, -0.0166103, 1.75539E-007, -9.46969E-010
2, 3120.00000, -0.0505403, -0.0166122, -0.0360995, -0.0118655, -0.0505403, -0.0166112, 1.75539E-007, -9.46646E-010
2, 3180.00000, -0.0505403, -0.0166122, -0.0360996, -0.0118655, -0.0505403, -0.0166112, 1.75539E-007, -9.46663E-010
2, 3240.00000, -0.0505403, -0.0166122, -0.0360996, -0.0118655, -0.0505403, -0.0166112, 1.75539E-007, -9.46664E-010
2, 3300.00000, -0.0505403, -0.0166122, -0.0360996, -0.0118655, -0.0505403, -0.0166112, 1.75539E-007, -9.46664E-010
