hour, t(sec), V1, VAngle1, V2, VAngle2, V3, VAngle3, V4, VAngle4, I1, IAngle1, I2, IAngle2, I3, IAngle3, I4, IAngle4
0, 60.00000, 223.179, -30.1479, 223.376, -150.176, 223.525, 89.8552, 0.00481379, 72.7387, 0.612965, 131.656, 0.612419, 11.6304, 0.765038, -108.339, 0.152584, 71.5533
0, 120.00000, 223.179, -30.1479, 223.376, -150.176, 223.525, 89.8552, 0.00481381, 72.7389, 0.612957, 131.656, 0.612411, 11.6304, 0.765031, -108.339, 0.152584, 71.5535
0, 180.00000, 223.179, -30.1479, 223.376, -150.176, 223.525, 89.8552, 0.00481381, 72.7389, 0.612957, 131.656, 0.612411, 11.6304, 0.765031, -108.339, 0.152584, 71.5535
0, 240.00000, 223.179, -30.1479, 223.376, -150.176, 223.525, 89.8552, 0.00481381, 72.7389, 0.612957, 131.656, 0.612411, 11.6304, 0.765031, -108.339, 0.152584, 71.5535
0, 300.00000, 223.179, -30.1479, 223.376, -150.176, 223.525, 89.8552, 0.00481381, 72.7389, 0.612957, 131.656, 0.612411, 11.6304, 0.765031, -108.339, 0.152584, 71.5535
0, 360.00000, 223.09, -30.1741, 223.472, -150.173, 223.373, 89.8581, 0.00477604, -129.573, 0.613204, 131.632, 0.688692, 11.6315, 0.535866, -108.338, 0.132489, -138.077
0, 420.00000, 223.09, -30.1741, 223.472, -150.173, 223.373, 89.8581, 0.00477602, -129.573, 0.613204, 131.632, 0.688691, 11.6315, 0.535866, -108.338, 0.132488, -138.077
0, 480.00000, 223.09, -30.1741, 223.472, -150.173, 223.373, 89.8581, 0.00477602, -129.573, 0.613204, 131.632, 0.688691, 11.6315, 0.535866, -108.338, 0.132488, -138.077
0, 540.00000, 223.09, -30.1741, 223.472, -150.173, 223.373, 89.8581, 0.00477602, -129.573, 0.613204, 131.632, 0.688691, 11.6315, 0.535866, -108.338, 0.132488, -138.077
0, 600.00000, 223.09, -30.1741, 223.472, -150.173, 223.373, 89.8581, 0.00477602, -129.573, 0.613204, 131.632, 0.688691, 11.6315, 0.535866, -108.338, 0.132488, -138.077
0, 660.00000, 222.953, -30.1644, 223.539, -150.19, 223.536, 89.8784, 0.00270241, -155.803, 0.61357, 131.641, 0.688484, 11.615, 0.611992, -108.317, 0.0760922, -167.734
0, 720.00000, 222.953, -30.1644, 223.539, -150.19, 223.536, 89.8784, 0.00270239, -155.791, 0.613578, 131.641, 0.688478, 11.615, 0.611979, -108.317, 0.0760889, -167.721
0, 780.00000, 222.953, -30.1644, 223.539, -150.19, 223.536, 89.8784, 0.00270239, -155.791, 0.613578, 131.641, 0.688478, 11.615, 0.611979, -108.317, 0.0760888, -167.721
0, 840.00000, 222.953, -30.1644, 223.539, -150.19, 223.536, 89.8784, 0.00270239, -155.791, 0.613578, 131.641, 0.688478, 11.615, 0.611979, -108.317, 0.0760888, -167.721
0, 900.00000, 222.953, -30.1644, 223.539, -150.19, 223.536, 89.8784, 0.00270239, -155.791, 0.613578, 131.641, 0.688478, 11.615, 0.611979, -108.317, 0.0760888, -167.721
0, 960.00000, 223.17, -30.1333, 223.166, -150.18, 223.471, 89.8328, 0.000486607, -77.8007, 0.68961, 131.672, 0.68962, 11.6248, 0.68868, -108.362, 0.000458159, -93.6473
0, 1020.00000, 223.17, -30.1333, 223.166, -150.18, 223.471, 89.8328, 0.000486629, -77.804, 0.68961, 131.672, 0.689621, 11.6248, 0.688679, -108.362, 0.000458956, -93.7306
0, 1080.00000, 223.17, -30.1333, 223.166, -150.18, 223.471, 89.8328, 0.000486629, -77.8039, 0.68961, 131.672, 0.689621, 11.6248, 0.688679, -108.362, 0.000458954, -93.7289
0, 1140.00000, 223.17, -30.1333, 223.166, -150.18, 223.471, 89.8328, 0.000486629, -77.8039, 0.68961, 131.672, 0.689621, 11.6248, 0.688679, -108.362, 0.000458954, -93.7289
0, 1200.00000, 223.17, -30.1333, 223.166, -150.18, 223.471, 89.8328, 0.000486629, -77.8039, 0.68961, 131.672, 0.689621, 11.6248, 0.688679, -108.362, 0.000458954, -93.7289
0, 1260.00000, 223.196, -30.1267, 223.103, -150.189, 223.57, 89.8312, 0.00683862, 179.583, 0.459674, 131.679, 0.689833, 11.6174, 0.535402, -108.365, 0.203003, 172.671
0, 1320.00000, 223.196, -30.1267, 223.103, -150.189, 223.57, 89.8312, 0.00683862, 179.583, 0.459674, 131.679, 0.689833, 11.6174, 0.535402, -108.365, 0.203003, 172.671
0, 1380.00000, 223.196, -30.1267, 223.103, -150.189, 223.57, 89.8312, 0.00683862, 179.583, 0.459674, 131.679, 0.689833, 11.6174, 0.535402, -108.365, 0.203003, 172.671
0, 1440.00000, 223.196, -30.1267, 223.103, -150.189, 223.57, 89.8312, 0.00683862, 179.583, 0.459674, 131.679, 0.689833, 11.6174, 0.535402, -108.365, 0.203003, 172.671
0, 1500.00000, 223.196, -30.1267, 223.103, -150.189, 223.57, 89.8312, 0.00683862, 179.583, 0.459674, 131.679, 0.689833, 11.6174, 0.535402, -108.365, 0.203003, 172.671
0, 1560.00000, 223.015, -30.1523, 223.516, -150.194, 223.646, 89.8773, 0.0141831, -85.4516, 0.766791, 131.656, 0.612053, 11.6078, 0.305821, -108.317, 0.405783, -89.1205
0, 1620.00000, 223.015, -30.1523, 223.516, -150.194, 223.646, 89.8773, 0.0141831, -85.4516, 0.766791, 131.656, 0.612053, 11.6078, 0.305821, -108.317, 0.405782, -89.1205
0, 1680.00000, 223.015, -30.1523, 223.516, -150.194, 223.646, 89.8773, 0.0141831, -85.4516, 0.766791, 131.656, 0.612053, 11.6078, 0.305821, -108.317, 0.405782, -89.1205
0, 1740.00000, 223.015, -30.1523, 223.516, -150.194, 223.646, 89.8773, 0.0141831, -85.4516, 0.766791, 131.656, 0.612053, 11.6078, 0.305821, -108.317, 0.405782, -89.1205
0, 1800.00000, 223.015, -30.1523, 223.516, -150.194, 223.646, 89.8773, 0.0141831, -85.4516, 0.766791, 131.656, 0.612053, 11.6078, 0.305821, -108.317, 0.405782, -89.1205
0, 1860.00000, 223.132, -30.1748, 223.427, -150.166, 223.317, 89.8496, 0.00645608, 94.0385, 0.536447, 131.629, 0.612272, 11.6402, 0.765719, -108.345, 0.202306, 90.6544
0, 1920.00000, 223.132, -30.1748, 223.426, -150.166, 223.317, 89.8496, 0.00645711, 94.0363, 0.536445, 131.629, 0.612274, 11.6402, 0.765751, -108.345, 0.202336, 90.6524
0, 1980.00000, 223.132, -30.1748, 223.426, -150.166, 223.317, 89.8496, 0.00645712, 94.0362, 0.536445, 131.629, 0.612274, 11.6402, 0.765751, -108.345, 0.202337, 90.6524
0, 2040.00000, 223.132, -30.1748, 223.426, -150.166, 223.317, 89.8496, 0.00645712, 94.0362, 0.536445, 131.629, 0.612274, 11.6402, 0.765751, -108.345, 0.202337, 90.6524
0, 2100.00000, 223.132, -30.1748, 223.426, -150.166, 223.317, 89.8496, 0.00645712, 94.0362, 0.536445, 131.629, 0.612274, 11.6402, 0.765751, -108.345, 0.202337, 90.6524
0, 2160.00000, 223.137, -30.135, 223.377, -150.195, 223.635, 89.8534, 0.0066038, 54.3384, 0.536452, 131.668, 0.459296, 11.6109, 0.688213, -108.34, 0.202063, 52.3952
0, 2220.00000, 223.137, -30.135, 223.377, -150.195, 223.635, 89.8534, 0.00660296, 54.3393, 0.536444, 131.668, 0.459302, 11.611, 0.68819, -108.34, 0.202038, 52.3962
0, 2280.00000, 223.137, -30.135, 223.377, -150.195, 223.635, 89.8534, 0.00660296, 54.3393, 0.536444, 131.668, 0.459302, 11.611, 0.68819, -108.34, 0.202038, 52.3962
0, 2340.00000, 223.137, -30.135, 223.377, -150.195, 223.635, 89.8534, 0.00660296, 54.3393, 0.536444, 131.668, 0.459302, 11.611, 0.68819, -108.34, 0.202038, 52.3962
0, 2400.00000, 223.137, -30.135, 223.377, -150.195, 223.635, 89.8534, 0.00660296, 54.3393, 0.536444, 131.668, 0.459302, 11.611, 0.68819, -108.34, 0.202038, 52.3962
0, 2460.00000, 223.049, -30.1679, 223.48, -150.173, 223.388, 89.8569, 0.00266633, -153.763, 0.689979, 131.638, 0.765178, 11.6324, 0.688931, -108.339, 0.0759724, -167.839
0, 2520.00000, 223.049, -30.1679, 223.48, -150.173, 223.388, 89.8569, 0.0026663, -153.763, 0.68998, 131.638, 0.765177, 11.6324, 0.688931, -108.339, 0.0759715, -167.838
0, 2580.00000, 223.049, -30.1679, 223.48, -150.173, 223.388, 89.8569, 0.0026663, -153.763, 0.68998, 131.638, 0.765177, 11.6324, 0.688931, -108.339, 0.0759715, -167.838
0, 2640.00000, 223.049, -30.1679, 223.48, -150.173, 223.388, 89.8569, 0.0026663, -153.763, 0.68998, 131.638, 0.765177, 11.6324, 0.688931, -108.339, 0.0759715, -167.838
0, 2700.00000, 223.049, -30.1679, 223.48, -150.173, 223.388, 89.8569, 0.0026663, -153.763, 0.68998, 131.638, 0.765177, 11.6324, 0.688931, -108.339, 0.0759715, -167.838
0, 2760.00000, 223.111, -30.1649, 223.437, -150.16, 223.362, 89.8552, 0.00554718, -47.2052, 0.766451, 131.641, 0.61225, 11.6434, 0.612446, -108.339, 0.153938, -48.3427
0, 2820.00000, 223.111, -30.1649, 223.437, -150.16, 223.362, 89.8552, 0.00554716, -47.2051, 0.766451, 131.641, 0.61225, 11.6434, 0.612447, -108.339, 0.153937, -48.3426
0, 2880.00000, 223.111, -30.1649, 223.437, -150.16, 223.362, 89.8552, 0.00554716, -47.2051, 0.766451, 131.641, 0.61225, 11.6434, 0.612447, -108.339, 0.153937, -48.3426
0, 2940.00000, 223.111, -30.1649, 223.437, -150.16, 223.362, 89.8552, 0.00554716, -47.2051, 0.766451, 131.641, 0.61225, 11.6434, 0.612447, -108.339, 0.153937, -48.3426
0, 3000.00000, 223.111, -30.1649, 223.437, -150.16, 223.362, 89.8552, 0.00554716, -47.2051, 0.766451, 131.641, 0.61225, 11.6434, 0.612447, -108.339, 0.153937, -48.3426
0, 3060.00000, 223.055, -30.1572, 223.429, -150.183, 223.477, 89.8525, 0.00293169, -101.733, 0.613304, 131.649, 0.612279, 11.6212, 0.535619, -108.343, 0.0769212, -107.86
0, 3120.00000, 223.055, -30.1572, 223.429, -150.183, 223.477, 89.8525, 0.00293169, -101.734, 0.613304, 131.649, 0.612279, 11.6212, 0.535619, -108.343, 0.0769213, -107.861
0, 3180.00000, 223.055, -30.1572, 223.429, -150.183, 223.477, 89.8525, 0.0029317, -101.734, 0.613304, 131.649, 0.612279, 11.6212, 0.535619, -108.343, 0.0769213, -107.861
0, 3240.00000, 223.055, -30.1572, 223.429, -150.183, 223.477, 89.8525, 0.0029317, -101.734, 0.613304, 131.649, 0.612279, 11.6212, 0.535619, -108.343, 0.0769213, -107.861
0, 3300.00000, 223.055, -30.1572, 223.429, -150.183, 223.477, 89.8525, 0.0029317, -101.734, 0.613304, 131.649, 0.612279, 11.6212, 0.535619, -108.343, 0.0769213, -107.861
0, 3360.00000, 223.357, -30.1463, 223.263, -150.166, 223.417, 89.8235, 0.00259628, 7.37758, 0.612478, 131.658, 0.536135, 11.6391, 0.612308, -108.371, 0.0765278, 11.5671
0, 3420.00000, 223.357, -30.1463, 223.263, -150.166, 223.417, 89.8235, 0.0025963, 7.37738, 0.612478, 131.658, 0.536134, 11.6391, 0.612308, -108.371, 0.0765283, 11.5668
0, 3480.00000, 223.357, -30.1463, 223.263, -150.166, 223.417, 89.8235, 0.0025963, 7.37739, 0.612478, 131.658, 0.536134, 11.6391, 0.612308, -108.371, 0.0765284, 11.5668
0, 3540.00000, 223.357, -30.1463, 223.263, -150.166, 223.417, 89.8235, 0.0025963, 7.37739, 0.612478, 131.658, 0.536134, 11.6391, 0.612308, -108.371, 0.0765284, 11.5668
1, 0.00000, 223.357, -30.1463, 223.263, -150.166, 223.417, 89.8235, 0.0025963, 7.37739, 0.612478, 131.658, 0.536134, 11.6391, 0.612308, -108.371, 0.0765284, 11.5668
1, 60.00000, 223.53, -30.1328, 223.775, -150.159, 223.849, 89.8663, 0.00551113, -103.026, 0.535503, 131.674, 0.534922, 11.6449, 0.381946, -108.329, 0.153035, -108.182
1, 120.00000, 223.53, -30.1328, 223.775, -150.159, 223.849, 89.8663, 0.00551112, -103.026, 0.535503, 131.674, 0.534921, 11.6449, 0.381945, -108.329, 0.153035, -108.182
1, 180.00000, 223.53, -30.1328, 223.775, -150.159, 223.849, 89.8663, 0.00551112, -103.026, 0.535503, 131.674, 0.534921, 11.6449, 0.381945, -108.329, 0.153035, -108.182
1, 240.00000, 223.53, -30.1328, 223.775, -150.159, 223.849, 89.8663, 0.00551112, -103.026, 0.535503, 131.674, 0.534921, 11.6449, 0.381945, -108.329, 0.153035, -108.182
1, 300.00000, 223.53, -30.1328, 223.775, -150.159, 223.849, 89.8663, 0.00551112, -103.026, 0.535503, 131.674, 0.534921, 11.6449, 0.381945, -108.329, 0.153035, -108.182
1, 360.00000, 223.571, -30.1369, 223.774, -150.166, 223.894, 89.8689, 0.00412818, 105.623, 0.458909, 131.667, 0.534912, 11.6398, 0.611016, -108.326, 0.13202, 101.671
1, 420.00000, 223.571, -30.1369, 223.774, -150.166, 223.894, 89.8689, 0.00412817, 105.623, 0.458909, 131.667, 0.534912, 11.6398, 0.611015, -108.326, 0.13202, 101.671
1, 480.00000, 223.571, -30.1369, 223.774, -150.166, 223.894, 89.8689, 0.00412817, 105.623, 0.458909, 131.667, 0.534912, 11.6398, 0.611015, -108.326, 0.13202, 101.671
1, 540.00000, 223.571, -30.1369, 223.774, -150.166, 223.894, 89.8689, 0.00412817, 105.623, 0.458909, 131.667, 0.534912, 11.6398, 0.611015, -108.326, 0.13202, 101.671
1, 600.00000, 223.571, -30.1369, 223.774, -150.166, 223.894, 89.8689, 0.00412817, 105.623, 0.458909, 131.667, 0.534912, 11.6398, 0.611015, -108.326, 0.13202, 101.671
1, 660.00000, 223.324, -30.1446, 223.839, -150.173, 223.873, 89.8885, 0.00463519, -18.0309, 0.53599, 131.66, 0.381971, 11.6308, 0.458294, -108.305, 0.133011, -18.5622
1, 720.00000, 223.324, -30.1446, 223.839, -150.173, 223.873, 89.8885, 0.0046358, -18.0327, 0.536004, 131.66, 0.381965, 11.6308, 0.458293, -108.305, 0.133029, -18.5644
1, 780.00000, 223.324, -30.1446, 223.839, -150.173, 223.873, 89.8885, 0.0046358, -18.0327, 0.536004, 131.66, 0.381965, 11.6308, 0.458293, -108.305, 0.133029, -18.5644
1, 840.00000, 223.324, -30.1446, 223.839, -150.173, 223.873, 89.8885, 0.0046358, -18.0327, 0.536004, 131.66, 0.381965, 11.6308, 0.458293, -108.305, 0.133029, -18.5644
1, 900.00000, 223.324, -30.1446, 223.839, -150.173, 223.873, 89.8885, 0.0046358, -18.0327, 0.536004, 131.66, 0.381965, 11.6308, 0.458293, -108.305, 0.133029, -18.5644
1, 960.00000, 223.439, -30.1432, 223.696, -150.177, 223.866, 89.8642, 0.00287191, -49.0716, 0.535723, 131.662, 0.458657, 11.627, 0.458307, -108.33, 0.0769441, -48.4817
1, 1020.00000, 223.439, -30.1432, 223.696, -150.177, 223.866, 89.8642, 0.00287193, -49.0719, 0.535723, 131.662, 0.458657, 11.627, 0.458306, -108.33, 0.0769446, -48.4821
1, 1080.00000, 223.439, -30.1432, 223.696, -150.177, 223.866, 89.8642, 0.00287193, -49.0719, 0.535723, 131.662, 0.458657, 11.627, 0.458306, -108.33, 0.0769446, -48.4821
1, 1140.00000, 223.439, -30.1432, 223.696, -150.177, 223.866, 89.8642, 0.00287193, -49.0719, 0.535723, 131.662, 0.458657, 11.627, 0.458306, -108.33, 0.0769446, -48.4821
1, 1200.00000, 223.439, -30.1432, 223.696, -150.177, 223.866, 89.8642, 0.00287193, -49.0719, 0.535723, 131.662, 0.458657, 11.627, 0.458306, -108.33, 0.0769446, -48.4821
1, 1260.00000, 223.469, -30.1222, 223.626, -150.174, 223.93, 89.8607, 0.00549016, -103.231, 0.53565, 131.684, 0.535277, 11.63, 0.381806, -108.334, 0.153219, -108.243
1, 1320.00000, 223.469, -30.1222, 223.626, -150.174, 223.93, 89.8607, 0.00549014, -103.231, 0.535649, 131.684, 0.535277, 11.63, 0.381806, -108.334, 0.153219, -108.243
1, 1380.00000, 223.469, -30.1222, 223.626, -150.174, 223.93, 89.8607, 0.00549014, -103.231, 0.535649, 131.684, 0.535277, 11.63, 0.381806, -108.334, 0.153219, -108.243
1, 1440.00000, 223.469, -30.1222, 223.626, -150.174, 223.93, 89.8607, 0.00549014, -103.231, 0.535649, 131.684, 0.535277, 11.63, 0.381806, -108.334, 0.153219, -108.243
1, 1500.00000, 223.469, -30.1222, 223.626, -150.174, 223.93, 89.8607, 0.00549014, -103.231, 0.535649, 131.684, 0.535277, 11.63, 0.381806, -108.334, 0.153219, -108.243
1, 1560.00000, 223.545, -30.1549, 223.862, -150.146, 223.748, 89.8665, 0.00436629, 41.521, 0.535466, 131.649, 0.458309, 11.6591, 0.611409, -108.328, 0.132425, 41.4496
1, 1620.00000, 223.545, -30.1549, 223.862, -150.146, 223.748, 89.8665, 0.00436629, 41.5208, 0.535467, 131.649, 0.458309, 11.6592, 0.611409, -108.328, 0.132425, 41.4494
1, 1680.00000, 223.545, -30.1549, 223.862, -150.146, 223.748, 89.8665, 0.00436629, 41.5208, 0.535467, 131.649, 0.458309, 11.6592, 0.611409, -108.328, 0.132425, 41.4494
1, 1740.00000, 223.545, -30.1549, 223.862, -150.146, 223.748, 89.8665, 0.00436629, 41.5208, 0.535467, 131.649, 0.458309, 11.6592, 0.611409, -108.328, 0.132425, 41.4494
1, 1800.00000, 223.545, -30.1549, 223.862, -150.146, 223.748, 89.8665, 0.00436629, 41.5208, 0.535467, 131.649, 0.458309, 11.6592, 0.611409, -108.328, 0.132425, 41.4494
1, 1860.00000, 223.472, -30.1456, 223.726, -150.156, 223.793, 89.8682, 0.00233168, 140.123, 0.459113, 131.659, 0.535031, 11.6493, 0.534874, -108.327, 0.0760307, 131.773
1, 1920.00000, 223.472, -30.1456, 223.726, -150.156, 223.793, 89.8682, 0.00233167, 140.123, 0.459113, 131.659, 0.535031, 11.6493, 0.534873, -108.327, 0.0760304, 131.774
1, 1980.00000, 223.472, -30.1456, 223.726, -150.156, 223.793, 89.8682, 0.00233167, 140.123, 0.459113, 131.659, 0.535031, 11.6493, 0.534873, -108.327, 0.0760304, 131.774
1, 2040.00000, 223.472, -30.1456, 223.726, -150.156, 223.793, 89.8682, 0.00233167, 140.123, 0.459113, 131.659, 0.535031, 11.6493, 0.534873, -108.327, 0.0760304, 131.774
1, 2100.00000, 223.472, -30.1456, 223.726, -150.156, 223.793, 89.8682, 0.00233167, 140.123, 0.459113, 131.659, 0.535031, 11.6493, 0.534873, -108.327, 0.0760304, 131.774
1, 2160.00000, 223.553, -30.1334, 223.637, -150.159, 223.821, 89.8553, 0.000314545, -83.1497, 0.458951, 131.672, 0.458779, 11.6464, 0.458402, -108.34, 0.00031939, -82.6255
1, 2220.00000, 223.553, -30.1334, 223.637, -150.159, 223.821, 89.8553, 0.000314537, -83.1494, 0.458951, 131.672, 0.458779, 11.6464, 0.458402, -108.34, 0.000319138, -82.6128
1, 2280.00000, 223.553, -30.1334, 223.637, -150.159, 223.821, 89.8553, 0.000314537, -83.1493, 0.458951, 131.672, 0.458779, 11.6464, 0.458402, -108.34, 0.000319136, -82.6127
1, 2340.00000, 223.553, -30.1334, 223.637, -150.159, 223.821, 89.8553, 0.000314537, -83.1493, 0.458951, 131.672, 0.458779, 11.6464, 0.458402, -108.34, 0.000319136, -82.6127
1, 2400.00000, 223.553, -30.1334, 223.637, -150.159, 223.821, 89.8553, 0.000314537, -83.1493, 0.458951, 131.672, 0.458779, 11.6464, 0.458402, -108.34, 0.000319136, -82.6127
1, 2460.00000, 223.625, -30.1461, 223.763, -150.136, 223.701, 89.8595, 0.00224804, 70.8746, 0.611742, 131.658, 0.61137, 11.6699, 0.687968, -108.335, 0.0763062, 71.4285
1, 2520.00000, 223.625, -30.1461, 223.763, -150.136, 223.701, 89.8595, 0.00224874, 70.8687, 0.611738, 131.658, 0.611357, 11.67, 0.68798, -108.335, 0.0763262, 71.4224
1, 2580.00000, 223.625, -30.1461, 223.763, -150.136, 223.701, 89.8595, 0.00224874, 70.8687, 0.611738, 131.658, 0.611357, 11.67, 0.68798, -108.335, 0.0763262, 71.4224
1, 2640.00000, 223.625, -30.1461, 223.763, -150.136, 223.701, 89.8595, 0.00224874, 70.8687, 0.611738, 131.658, 0.611357, 11.67, 0.68798, -108.335, 0.0763262, 71.4224
1, 2700.00000, 223.625, -30.1461, 223.763, -150.136, 223.701, 89.8595, 0.00224874, 70.8687, 0.611738, 131.658, 0.611357, 11.67, 0.68798, -108.335, 0.0763262, 71.4224
1, 2760.00000, 223.612, -30.1358, 223.719, -150.156, 223.845, 89.8536, 0.00433269, 42.9282, 0.458832, 131.668, 0.382163, 11.6497, 0.534758, -108.34, 0.132254, 41.5236
1, 2820.00000, 223.612, -30.1358, 223.719, -150.156, 223.845, 89.8536, 0.00433232, 42.9267, 0.458834, 131.668, 0.382169, 11.6497, 0.534752, -108.34, 0.132243, 41.5224
1, 2880.00000, 223.612, -30.1358, 223.719, -150.156, 223.845, 89.8536, 0.00433232, 42.9267, 0.458834, 131.668, 0.382169, 11.6497, 0.534752, -108.34, 0.132243, 41.5224
1, 2940.00000, 223.612, -30.1358, 223.719, -150.156, 223.845, 89.8536, 0.00433232, 42.9267, 0.458834, 131.668, 0.382169, 11.6497, 0.534752, -108.34, 0.132243, 41.5224
1, 3000.00000, 223.612, -30.1358, 223.719, -150.156, 223.845, 89.8536, 0.00433232, 42.9267, 0.458834, 131.668, 0.382169, 11.6497, 0.534752, -108.34, 0.132243, 41.5224
1, 3060.00000, 223.47, -30.1498, 223.845, -150.159, 223.836, 89.8708, 0.00293338, -101.648, 0.535636, 131.656, 0.534758, 11.6451, 0.458366, -108.324, 0.0767453, -107.932
1, 3120.00000, 223.47, -30.1498, 223.845, -150.159, 223.836, 89.8708, 0.00293343, -101.637, 0.535646, 131.656, 0.534749, 11.6451, 0.458365, -108.324, 0.0767461, -107.92
1, 3180.00000, 223.47, -30.1498, 223.845, -150.159, 223.836, 89.8708, 0.00293343, -101.637, 0.535646, 131.656, 0.534749, 11.6451, 0.458365, -108.324, 0.0767461, -107.92
1, 3240.00000, 223.47, -30.1498, 223.845, -150.159, 223.836, 89.8708, 0.00293343, -101.637, 0.535646, 131.656, 0.534749, 11.6451, 0.458365, -108.324, 0.0767461, -107.92
1, 3300.00000, 223.47, -30.1498, 223.845, -150.159, 223.836, 89.8708, 0.00293343, -101.637, 0.535646, 131.656, 0.534749, 11.6451, 0.458365, -108.324, 0.0767461, -107.92
1, 3360.00000, 223.601, -30.1422, 223.723, -150.15, 223.735, 89.8558, 0.00495837, 73.6769, 0.458852, 131.662, 0.458594, 11.6556, 0.611449, -108.339, 0.152769, 71.5853
1, 3420.00000, 223.601, -30.1422, 223.723, -150.15, 223.735, 89.8558, 0.00495839, 73.6773, 0.458851, 131.662, 0.458595, 11.6556, 0.61145, -108.339, 0.15277, 71.5856
1, 3480.00000, 223.601, -30.1422, 223.723, -150.15, 223.735, 89.8558, 0.00495839, 73.6773, 0.458851, 131.662, 0.458595, 11.6556, 0.61145, -108.339, 0.15277, 71.5857
