hour, t(sec), P1 (kW), Q1 (kvar), P2 (kW), Q2 (kvar), P3 (kW), Q3 (kvar), P4 (kW), Q4 (kvar)
0, 60.00000, -0.0532013, -0.0174865, -0.0465507, -0.0153005, -0.0532007, -0.017486, 2.70457E-008, -1.97922E-009
0, 120.00000, -0.0532001, -0.0174862, -0.0465498, -0.0153003, -0.0532001, -0.0174858, 2.70457E-008, -1.97912E-009
0, 180.00000, -0.0532001, -0.0174862, -0.0465498, -0.0153003, -0.0532001, -0.0174858, 2.70457E-008, -1.97912E-009
0, 240.00000, -0.0532001, -0.0174862, -0.0465498, -0.0153003, -0.0532001, -0.0174858, 2.70457E-008, -1.97912E-009
0, 300.00000, -0.0532001, -0.0174862, -0.0465498, -0.0153003, -0.0532001, -0.0174858, 2.70457E-008, -1.97912E-009
0, 360.00000, -0.0532002, -0.0174863, -0.0398997, -0.0131145, -0.0532003, -0.0174857, 9.82362E-008, 3.10031E-011
0, 420.00000, -0.0532002, -0.0174863, -0.0398997, -0.0131145, -0.0532002, -0.0174857, 9.82349E-008, 3.09021E-011
0, 480.00000, -0.0532002, -0.0174863, -0.0398997, -0.0131145, -0.0532002, -0.0174857, 9.82349E-008, 3.09024E-011
0, 540.00000, -0.0532002, -0.0174863, -0.0398997, -0.0131145, -0.0532002, -0.0174857, 9.82349E-008, 3.09024E-011
0, 600.00000, -0.0532002, -0.0174863, -0.0398997, -0.0131145, -0.0532002, -0.0174857, 9.82349E-008, 3.09024E-011
0, 660.00000, -0.0665025, -0.0218579, -0.0598491, -0.0196722, -0.0531991, -0.0174855, 8.54936E-008, 8.33447E-009
0, 720.00000, -0.0665004, -0.0218573, -0.05985, -0.0196722, -0.0531997, -0.0174858, 8.54647E-008, 8.33354E-009
0, 780.00000, -0.0665004, -0.0218573, -0.05985, -0.0196722, -0.0531997, -0.0174858, 8.54647E-008, 8.33354E-009
0, 840.00000, -0.0665004, -0.0218573, -0.05985, -0.0196722, -0.0531997, -0.0174858, 8.54647E-008, 8.33354E-009
0, 900.00000, -0.0665004, -0.0218573, -0.05985, -0.0196722, -0.0531997, -0.0174858, 8.54647E-008, 8.33354E-009
0, 960.00000, -0.0465497, -0.0153005, -0.0531999, -0.0174855, -0.0665006, -0.0218577, 1.66749E-007, 1.05599E-008
0, 1020.00000, -0.0465496, -0.0153005, -0.0531999, -0.0174855, -0.0665006, -0.0218577, 1.66748E-007, 1.05599E-008
0, 1080.00000, -0.0465496, -0.0153005, -0.0531999, -0.0174855, -0.0665006, -0.0218577, 1.66748E-007, 1.05599E-008
0, 1140.00000, -0.0465496, -0.0153005, -0.0531999, -0.0174855, -0.0665006, -0.0218577, 1.66748E-007, 1.05599E-008
0, 1200.00000, -0.0465496, -0.0153005, -0.0531999, -0.0174855, -0.0665006, -0.0218577, 1.66748E-007, 1.05599E-008
0, 1260.00000, -0.0465499, -0.0153003, -0.0532001, -0.0174858, -0.0532001, -0.0174861, 2.17474E-008, 1.42067E-009
0, 1320.00000, -0.0465498, -0.0153002, -0.0532001, -0.0174858, -0.0532001, -0.0174862, 2.17481E-008, 1.4207E-009
0, 1380.00000, -0.0465498, -0.0153002, -0.0532001, -0.0174858, -0.0532001, -0.0174862, 2.17482E-008, 1.4207E-009
0, 1440.00000, -0.0465498, -0.0153002, -0.0532001, -0.0174858, -0.0532001, -0.0174862, 2.17482E-008, 1.4207E-009
0, 1500.00000, -0.0465498, -0.0153002, -0.0532001, -0.0174858, -0.0532001, -0.0174862, 2.17482E-008, 1.4207E-009
0, 1560.00000, -0.05985, -0.0196715, -0.0665003, -0.0218576, -0.0598497, -0.0196719, 2.66079E-008, 9.71641E-009
0, 1620.00000, -0.05985, -0.0196715, -0.0665003, -0.0218576, -0.0598498, -0.0196719, 2.66073E-008, 9.71632E-009
0, 1680.00000, -0.05985, -0.0196715, -0.0665003, -0.0218576, -0.0598498, -0.0196719, 2.66073E-008, 9.71632E-009
0, 1740.00000, -0.05985, -0.0196715, -0.0665003, -0.0218576, -0.0598498, -0.0196719, 2.66073E-008, 9.71632E-009
0, 1800.00000, -0.05985, -0.0196715, -0.0665003, -0.0218576, -0.0598498, -0.0196719, 2.66073E-008, 9.71632E-009
0, 1860.00000, -0.0531995, -0.0174857, -0.0465503, -0.0153006, -0.0465492, -0.0152998, 3.27715E-008, -6.11552E-011
0, 1920.00000, -0.0532003, -0.017486, -0.0465499, -0.0153004, -0.0465499, -0.0153, 3.2778E-008, -6.17562E-011
0, 1980.00000, -0.0532003, -0.017486, -0.0465499, -0.0153004, -0.0465499, -0.0153, 3.2778E-008, -6.1758E-011
0, 2040.00000, -0.0532003, -0.017486, -0.0465499, -0.0153004, -0.0465499, -0.0153, 3.2778E-008, -6.1758E-011
0, 2100.00000, -0.0532003, -0.017486, -0.0465499, -0.0153004, -0.0465499, -0.0153, 3.2778E-008, -6.1758E-011
0, 2160.00000, -0.0465504, -0.0153006, -0.0532034, -0.0174871, -0.0531964, -0.0174851, 2.6477E-008, 3.19207E-009
0, 2220.00000, -0.0465498, -0.0153002, -0.0532001, -0.0174858, -0.0532001, -0.0174862, 2.64797E-008, 3.19044E-009
0, 2280.00000, -0.0465498, -0.0153002, -0.0532001, -0.0174858, -0.0532001, -0.0174862, 2.64798E-008, 3.19045E-009
0, 2340.00000, -0.0465498, -0.0153002, -0.0532001, -0.0174858, -0.0532001, -0.0174862, 2.64798E-008, 3.19045E-009
0, 2400.00000, -0.0465498, -0.0153002, -0.0532001, -0.0174858, -0.0532001, -0.0174862, 2.64798E-008, 3.19045E-009
0, 2460.00000, -0.0465499, -0.0153002, -0.0532002, -0.0174859, -0.0532, -0.0174862, 2.31697E-008, 6.21132E-009
0, 2520.00000, -0.0465498, -0.0153002, -0.0532001, -0.0174859, -0.0532, -0.0174862, 2.31702E-008, 6.21129E-009
0, 2580.00000, -0.0465498, -0.0153002, -0.0532001, -0.0174859, -0.0532001, -0.0174862, 2.31701E-008, 6.21129E-009
0, 2640.00000, -0.0465498, -0.0153002, -0.0532001, -0.0174859, -0.0532001, -0.0174862, 2.31701E-008, 6.21129E-009
0, 2700.00000, -0.0465498, -0.0153002, -0.0532001, -0.0174859, -0.0532001, -0.0174862, 2.31701E-008, 6.21129E-009
0, 2760.00000, -0.0598504, -0.0196711, -0.0598503, -0.0196724, -0.0398995, -0.0131144, 2.40922E-007, 2.30509E-008
0, 2820.00000, -0.0598504, -0.0196712, -0.0598503, -0.0196724, -0.0398995, -0.0131144, 2.40921E-007, 2.30509E-008
0, 2880.00000, -0.0598504, -0.0196712, -0.0598503, -0.0196724, -0.0398995, -0.0131144, 2.40921E-007, 2.30509E-008
0, 2940.00000, -0.0598504, -0.0196712, -0.0598503, -0.0196724, -0.0398995, -0.0131144, 2.40921E-007, 2.30509E-008
0, 3000.00000, -0.0598504, -0.0196712, -0.0598503, -0.0196724, -0.0398995, -0.0131144, 2.40921E-007, 2.30509E-008
0, 3060.00000, -0.0398995, -0.0131143, -0.0665006, -0.0218569, -0.0598502, -0.0196726, 3.34126E-007, 2.90863E-008
0, 3120.00000, -0.0398995, -0.0131143, -0.0665007, -0.0218569, -0.0598502, -0.0196726, 3.34128E-007, 2.90865E-008
0, 3180.00000, -0.0398995, -0.0131143, -0.0665007, -0.0218569, -0.0598502, -0.0196726, 3.34128E-007, 2.90865E-008
0, 3240.00000, -0.0398995, -0.0131143, -0.0665007, -0.0218569, -0.0598502, -0.0196726, 3.34128E-007, 2.90865E-008
0, 3300.00000, -0.0398995, -0.0131143, -0.0665007, -0.0218569, -0.0598502, -0.0196726, 3.34128E-007, 2.90865E-008
0, 3360.00000, -0.0532002, -0.017486, -0.04655, -0.0153005, -0.0465499, -0.0153, 3.40295E-008, -7.10772E-010
0, 3420.00000, -0.0532003, -0.017486, -0.0465499, -0.0153005, -0.0465499, -0.0153, 3.40307E-008, -7.10868E-010
0, 3480.00000, -0.0532003, -0.017486, -0.0465499, -0.0153005, -0.0465499, -0.0153, 3.40307E-008, -7.1087E-010
0, 3540.00000, -0.0532003, -0.017486, -0.0465499, -0.0153005, -0.0465499, -0.0153, 3.40307E-008, -7.1087E-010
1, 0.00000, -0.0532003, -0.017486, -0.0465499, -0.0153005, -0.0465499, -0.0153, 3.40307E-008, -7.1087E-010
1, 60.00000, -0.0399002, -0.0131145, -0.03325, -0.0109289, -0.0332499, -0.0109286, 3.11059E-008, -6.99311E-010
1, 120.00000, -0.0399002, -0.0131145, -0.0332499, -0.0109289, -0.0332499, -0.0109286, 3.11063E-008, -6.99324E-010
1, 180.00000, -0.0399002, -0.0131145, -0.0332499, -0.0109289, -0.0332499, -0.0109286, 3.11063E-008, -6.99324E-010
1, 240.00000, -0.0399002, -0.0131145, -0.0332499, -0.0109289, -0.0332499, -0.0109286, 3.11063E-008, -6.99324E-010
1, 300.00000, -0.0399002, -0.0131145, -0.0332499, -0.0109289, -0.0332499, -0.0109286, 3.11063E-008, -6.99324E-010
1, 360.00000, -0.0265997, -0.00874289, -0.0465503, -0.0153, -0.0399001, -0.0131149, 1.77904E-007, 1.51234E-008
1, 420.00000, -0.0265998, -0.00874289, -0.0465504, -0.0153, -0.0399, -0.0131149, 1.77904E-007, 1.51235E-008
1, 480.00000, -0.0265998, -0.00874289, -0.0465504, -0.0153, -0.0399, -0.0131149, 1.77904E-007, 1.51235E-008
1, 540.00000, -0.0265998, -0.00874289, -0.0465504, -0.0153, -0.0399, -0.0131149, 1.77904E-007, 1.51235E-008
1, 600.00000, -0.0265998, -0.00874289, -0.0465504, -0.0153, -0.0399, -0.0131149, 1.77904E-007, 1.51235E-008
1, 660.00000, -0.0332488, -0.0109283, -0.0465498, -0.0152999, -0.0399014, -0.0131152, 7.22926E-008, 9.31899E-009
1, 720.00000, -0.0332498, -0.0109286, -0.0465503, -0.0153001, -0.0399, -0.0131147, 7.22884E-008, 9.32119E-009
1, 780.00000, -0.0332498, -0.0109286, -0.0465503, -0.0153001, -0.0399, -0.0131147, 7.22883E-008, 9.32119E-009
1, 840.00000, -0.0332498, -0.0109286, -0.0465503, -0.0153001, -0.0399, -0.0131147, 7.22883E-008, 9.32119E-009
1, 900.00000, -0.0332498, -0.0109286, -0.0465503, -0.0153001, -0.0399, -0.0131147, 7.22883E-008, 9.32119E-009
1, 960.00000, -0.0332498, -0.0109287, -0.0399001, -0.0131144, -0.0399001, -0.0131146, 2.4092E-008, 1.06786E-009
1, 1020.00000, -0.0332499, -0.0109287, -0.0399001, -0.0131144, -0.0399001, -0.0131146, 2.40916E-008, 1.0679E-009
1, 1080.00000, -0.0332499, -0.0109287, -0.0399001, -0.0131144, -0.0399001, -0.0131146, 2.40916E-008, 1.0679E-009
1, 1140.00000, -0.0332499, -0.0109287, -0.0399001, -0.0131144, -0.0399001, -0.0131146, 2.40916E-008, 1.0679E-009
1, 1200.00000, -0.0332499, -0.0109287, -0.0399001, -0.0131144, -0.0399001, -0.0131146, 2.40916E-008, 1.0679E-009
1, 1260.00000, -0.0398999, -0.0131145, -0.0465501, -0.0153001, -0.04655, -0.0153004, 2.33009E-008, 3.06894E-009
1, 1320.00000, -0.0398999, -0.0131145, -0.0465501, -0.0153001, -0.0465501, -0.0153004, 2.33011E-008, 3.0689E-009
1, 1380.00000, -0.0398999, -0.0131145, -0.0465501, -0.0153001, -0.0465501, -0.0153004, 2.33011E-008, 3.0689E-009
1, 1440.00000, -0.0398999, -0.0131145, -0.0465501, -0.0153001, -0.0465501, -0.0153004, 2.33011E-008, 3.0689E-009
1, 1500.00000, -0.0398999, -0.0131145, -0.0465501, -0.0153001, -0.0465501, -0.0153004, 2.33011E-008, 3.0689E-009
1, 1560.00000, -0.0532003, -0.0174865, -0.0332496, -0.0109287, -0.0532003, -0.0174855, 2.36307E-007, 1.35671E-009
1, 1620.00000, -0.0532003, -0.0174865, -0.0332496, -0.0109287, -0.0532003, -0.0174855, 2.36308E-007, 1.35669E-009
1, 1680.00000, -0.0532003, -0.0174865, -0.0332496, -0.0109287, -0.0532003, -0.0174855, 2.36308E-007, 1.35669E-009
1, 1740.00000, -0.0532003, -0.0174865, -0.0332496, -0.0109287, -0.0532003, -0.0174855, 2.36308E-007, 1.35669E-009
1, 1800.00000, -0.0532003, -0.0174865, -0.0332496, -0.0109287, -0.0532003, -0.0174855, 2.36308E-007, 1.35669E-009
1, 1860.00000, -0.0532003, -0.0174861, -0.0398998, -0.0131147, -0.04655, -0.0152999, 7.99962E-008, -5.9639E-009
1, 1920.00000, -0.0532003, -0.0174862, -0.0398998, -0.0131147, -0.04655, -0.0152999, 7.99963E-008, -5.96391E-009
1, 1980.00000, -0.0532003, -0.0174862, -0.0398998, -0.0131147, -0.04655, -0.0152999, 7.99963E-008, -5.96391E-009
1, 2040.00000, -0.0532003, -0.0174862, -0.0398998, -0.0131147, -0.04655, -0.0152999, 7.99963E-008, -5.96391E-009
1, 2100.00000, -0.0532003, -0.0174862, -0.0398998, -0.0131147, -0.04655, -0.0152999, 7.99963E-008, -5.96391E-009
1, 2160.00000, -0.0398998, -0.0131146, -0.04655, -0.0153, -0.0532002, -0.0174862, 6.51293E-008, 7.04009E-009
1, 2220.00000, -0.0398998, -0.0131146, -0.04655, -0.0153, -0.0532002, -0.0174862, 6.51293E-008, 7.04008E-009
1, 2280.00000, -0.0398998, -0.0131146, -0.04655, -0.0153, -0.0532002, -0.0174862, 6.51293E-008, 7.04008E-009
1, 2340.00000, -0.0398998, -0.0131146, -0.04655, -0.0153, -0.0532002, -0.0174862, 6.51293E-008, 7.04008E-009
1, 2400.00000, -0.0398998, -0.0131146, -0.04655, -0.0153, -0.0532002, -0.0174862, 6.51293E-008, 7.04008E-009
1, 2460.00000, -0.0265995, -0.0087429, -0.0465509, -0.0153, -0.0465503, -0.0153008, 2.32308E-007, 3.44538E-008
1, 2520.00000, -0.0265997, -0.00874295, -0.0465503, -0.0152998, -0.0465502, -0.0153008, 2.32295E-007, 3.44527E-008
1, 2580.00000, -0.0265997, -0.00874295, -0.0465503, -0.0152998, -0.0465502, -0.0153008, 2.32295E-007, 3.44527E-008
1, 2640.00000, -0.0265997, -0.00874295, -0.0465503, -0.0152998, -0.0465502, -0.0153008, 2.32295E-007, 3.44527E-008
1, 2700.00000, -0.0265997, -0.00874295, -0.0465503, -0.0152998, -0.0465502, -0.0153008, 2.32295E-007, 3.44527E-008
1, 2760.00000, -0.0332499, -0.0109287, -0.0399001, -0.0131144, -0.0398993, -0.0131144, 2.34709E-008, 5.03349E-009
1, 2820.00000, -0.0332499, -0.0109287, -0.0399001, -0.0131144, -0.0399, -0.0131146, 2.34736E-008, 5.03334E-009
1, 2880.00000, -0.0332499, -0.0109287, -0.0399001, -0.0131144, -0.0399, -0.0131146, 2.34736E-008, 5.03334E-009
1, 2940.00000, -0.0332499, -0.0109287, -0.0399001, -0.0131144, -0.0399, -0.0131146, 2.34736E-008, 5.03334E-009
1, 3000.00000, -0.0332499, -0.0109287, -0.0399001, -0.0131144, -0.0399, -0.0131146, 2.34736E-008, 5.03334E-009
1, 3060.00000, -0.0465492, -0.0153, -0.0465501, -0.0153003, -0.0465508, -0.0153005, 2.43179E-011, -3.56575E-011
1, 3120.00000, -0.04655, -0.0153002, -0.04655, -0.0153003, -0.04655, -0.0153002, 2.56367E-011, -3.61433E-011
1, 3180.00000, -0.04655, -0.0153002, -0.04655, -0.0153003, -0.04655, -0.0153002, 2.56384E-011, -3.61441E-011
1, 3240.00000, -0.04655, -0.0153002, -0.04655, -0.0153003, -0.04655, -0.0153002, 2.56384E-011, -3.61441E-011
1, 3300.00000, -0.04655, -0.0153002, -0.04655, -0.0153003, -0.04655, -0.0153002, 2.56384E-011, -3.61441E-011
1, 3360.00000, -0.0398998, -0.0131146, -0.04655, -0.0153, -0.0532002, -0.0174861, 6.66413E-008, -2.96802E-009
1, 3420.00000, -0.0398998, -0.0131146, -0.04655, -0.0153, -0.0532003, -0.0174861, 6.66422E-008, -2.96803E-009
1, 3480.00000, -0.0398998, -0.0131146, -0.04655, -0.0153, -0.0532003, -0.0174861, 6.66422E-008, -2.96803E-009
1, 3540.00000, -0.0398998, -0.0131146, -0.04655, -0.0153, -0.0532003, -0.0174861, 6.66422E-008, -2.96803E-009
2, 0.00000, -0.0398998, -0.0131146, -0.04655, -0.0153, -0.0532003, -0.0174861, 6.66422E-008, -2.96803E-009
2, 60.00000, -0.0399001, -0.0131146, -0.0332499, -0.0109288, -0.0399001, -0.0131144, 2.41975E-008, -2.08007E-009
2, 120.00000, -0.0399001, -0.0131146, -0.0332499, -0.0109288, -0.0399001, -0.0131144, 2.41976E-008, -2.08008E-009
2, 180.00000, -0.0399001, -0.0131146, -0.0332499, -0.0109288, -0.0399001, -0.0131144, 2.41976E-008, -2.08008E-009
2, 240.00000, -0.0399001, -0.0131146, -0.0332499, -0.0109288, -0.0399001, -0.0131144, 2.41976E-008, -2.08008E-009
2, 300.00000, -0.0399001, -0.0131146, -0.0332499, -0.0109288, -0.0399001, -0.0131144, 2.41976E-008, -2.08008E-009
2, 360.00000, -0.0399001, -0.0131144, -0.0399, -0.0131147, -0.0332499, -0.0109287, 2.81374E-008, 7.46347E-009
2, 420.00000, -0.0399001, -0.0131144, -0.0399, -0.0131147, -0.0332499, -0.0109287, 2.81376E-008, 7.46349E-009
2, 480.00000, -0.0399001, -0.0131144, -0.0399, -0.0131147, -0.0332499, -0.0109287, 2.81376E-008, 7.46349E-009
2, 540.00000, -0.0399001, -0.0131144, -0.0399, -0.0131147, -0.0332499, -0.0109287, 2.81376E-008, 7.46349E-009
2, 600.00000, -0.0399001, -0.0131144, -0.0399, -0.0131147, -0.0332499, -0.0109287, 2.81376E-008, 7.46349E-009
2, 660.00000, -0.0266004, -0.008743, -0.046549, -0.0152997, -0.0332505, -0.0109292, 1.80416E-007, 2.18954E-008
2, 720.00000, -0.0265998, -0.00874279, -0.0465505, -0.0153001, -0.0332499, -0.0109291, 1.80457E-007, 2.1898E-008
2, 780.00000, -0.0265998, -0.00874279, -0.0465505, -0.0153001, -0.0332499, -0.0109291, 1.80457E-007, 2.1898E-008
2, 840.00000, -0.0265998, -0.00874279, -0.0465505, -0.0153001, -0.0332499, -0.0109291, 1.80457E-007, 2.1898E-008
2, 900.00000, -0.0265998, -0.00874279, -0.0465505, -0.0153001, -0.0332499, -0.0109291, 1.80457E-007, 2.1898E-008
2, 960.00000, -0.0399, -0.0131148, -0.0332498, -0.0109286, -0.0465503, -0.0153001, 7.55844E-008, 5.03076E-009
2, 1020.00000, -0.0399, -0.0131148, -0.0332498, -0.0109286, -0.0465503, -0.0153001, 7.55836E-008, 5.03079E-009
2, 1080.00000, -0.0399, -0.0131148, -0.0332498, -0.0109286, -0.0465503, -0.0153001, 7.55835E-008, 5.03079E-009
2, 1140.00000, -0.0399, -0.0131148, -0.0332498, -0.0109286, -0.0465503, -0.0153001, 7.55835E-008, 5.03079E-009
2, 1200.00000, -0.0399, -0.0131148, -0.0332498, -0.0109286, -0.0465503, -0.0153001, 7.55835E-008, 5.03079E-009
2, 1260.00000, -0.0265996, -0.00874284, -0.0465507, -0.0153001, -0.0399004, -0.013115, 1.77005E-007, 1.97008E-008
2, 1320.00000, -0.0265998, -0.00874288, -0.0465504, -0.0153, -0.0399, -0.0131149, 1.76996E-007, 1.97007E-008
2, 1380.00000, -0.0265998, -0.00874288, -0.0465504, -0.0153, -0.0399, -0.0131149, 1.76996E-007, 1.97007E-008
2, 1440.00000, -0.0265998, -0.00874288, -0.0465504, -0.0153, -0.0399, -0.0131149, 1.76996E-007, 1.97007E-008
2, 1500.00000, -0.0265998, -0.00874288, -0.0465504, -0.0153, -0.0399, -0.0131149, 1.76996E-007, 1.97007E-008
2, 1560.00000, -0.0332499, -0.0109286, -0.0399002, -0.0131145, -0.0332499, -0.0109289, 2.85874E-008, 6.04908E-009
2, 1620.00000, -0.03325, -0.0109286, -0.0399002, -0.0131145, -0.0332499, -0.0109289, 2.85871E-008, 6.04905E-009
2, 1680.00000, -0.03325, -0.0109286, -0.0399002, -0.0131145, -0.0332499, -0.0109289, 2.85871E-008, 6.04905E-009
2, 1740.00000, -0.03325, -0.0109286, -0.0399002, -0.0131145, -0.0332499, -0.0109289, 2.85871E-008, 6.04905E-009
2, 1800.00000, -0.03325, -0.0109286, -0.0399002, -0.0131145, -0.0332499, -0.0109289, 2.85871E-008, 6.04905E-009
2, 1860.00000, -0.0465505, -0.0153001, -0.039901, -0.0131151, -0.0332487, -0.0109283, 8.55337E-008, 6.54187E-009
2, 1920.00000, -0.0465503, -0.0153001, -0.0399, -0.0131148, -0.0332498, -0.0109286, 8.55189E-008, 6.54149E-009
2, 1980.00000, -0.0465503, -0.0153001, -0.0399, -0.0131148, -0.0332498, -0.0109286, 8.55188E-008, 6.54149E-009
2, 2040.00000, -0.0465503, -0.0153001, -0.0399, -0.0131148, -0.0332498, -0.0109286, 8.55188E-008, 6.54149E-009
2, 2100.00000, -0.0465503, -0.0153001, -0.0399, -0.0131148, -0.0332498, -0.0109286, 8.55188E-008, 6.54149E-009
2, 2160.00000, -0.0398998, -0.0131143, -0.0465495, -0.0153, -0.0399005, -0.0131148, 2.51639E-008, 3.16246E-009
2, 2220.00000, -0.0398999, -0.0131144, -0.0465502, -0.0153003, -0.0398999, -0.0131146, 2.51716E-008, 3.16316E-009
2, 2280.00000, -0.0398999, -0.0131144, -0.0465502, -0.0153003, -0.0398999, -0.0131146, 2.51716E-008, 3.16316E-009
2, 2340.00000, -0.0398999, -0.0131144, -0.0465502, -0.0153003, -0.0398999, -0.0131146, 2.51716E-008, 3.16316E-009
2, 2400.00000, -0.0398999, -0.0131144, -0.0465502, -0.0153003, -0.0398999, -0.0131146, 2.51716E-008, 3.16316E-009
2, 2460.00000, -0.03325, -0.0109284, -0.0465505, -0.0153005, -0.0265998, -0.00874317, 1.97653E-007, 2.3207E-008
2, 2520.00000, -0.03325, -0.0109284, -0.0465505, -0.0153005, -0.0265998, -0.00874317, 1.97653E-007, 2.32071E-008
2, 2580.00000, -0.03325, -0.0109284, -0.0465505, -0.0153005, -0.0265998, -0.00874317, 1.97653E-007, 2.32071E-008
2, 2640.00000, -0.03325, -0.0109284, -0.0465505, -0.0153005, -0.0265998, -0.00874317, 1.97653E-007, 2.32071E-008
2, 2700.00000, -0.03325, -0.0109284, -0.0465505, -0.0153005, -0.0265998, -0.00874317, 1.97653E-007, 2.32071E-008
2, 2760.00000, -0.0265999, -0.00874297, -0.0332501, -0.0109287, -0.03325, -0.0109289, 2.51278E-008, 7.46104E-009
2, 2820.00000, -0.0265999, -0.00874297, -0.0332501, -0.0109287, -0.03325, -0.0109289, 2.5128E-008, 7.46106E-009
2, 2880.00000, -0.0265999, -0.00874297, -0.0332501, -0.0109287, -0.03325, -0.0109289, 2.5128E-008, 7.46106E-009
2, 2940.00000, -0.0265999, -0.00874297, -0.0332501, -0.0109287, -0.03325, -0.0109289, 2.5128E-008, 7.46106E-009
2, 3000.00000, -0.0265999, -0.00874297, -0.0332501, -0.0109287, -0.03325, -0.0109289, 2.5128E-008, 7.46106E-009
2, 3060.00000, -0.0532002, -0.017486, -0.0465499, -0.0153004, -0.0465499, -0.0153001, 2.80992E-008, 9.19597E-010
2, 3120.00000, -0.0532002, -0.017486, -0.0465499, -0.0153004, -0.0465499, -0.0153001, 2.8099E-008, 9.19599E-010
2, 3180.00000, -0.0532002, -0.017486, -0.0465499, -0.0153004, -0.0465499, -0.0153001, 2.8099E-008, 9.19599E-010
2, 3240.00000, -0.0532002, -0.017486, -0.0465499, -0.0153004, -0.0465499, -0.0153001, 2.8099E-008, 9.19599E-010
2, 3300.00000, -0.0532002, -0.017486, -0.0465499, -0.0153004, -0.0465499, -0.0153001, 2.8099E-008, 9.19599E-010
2, 3360.00000, -0.0532004, -0.0174864, -0.0332496, -0.0109288, -0.0465502, -0.0152998, 1.90837E-007, 2.41613E-009
2, 3420.00000, -0.0532004, -0.0174864, -0.0332497, -0.0109289, -0.0465501, -0.0152998, 1.90836E-007, 2.41611E-009
