hour, t(sec), P1 (kW), Q1 (kvar), P2 (kW), Q2 (kvar), P3 (kW), Q3 (kvar), P4 (kW), Q4 (kvar)
0, 60.00000, -0.12996, -0.0427188, -0.12996, -0.0427137, -0.162455, -0.0533953, 7.3435E-007, 1.51957E-008
0, 120.00000, -0.129958, -0.0427183, -0.129959, -0.0427132, -0.162454, -0.0533948, 7.34355E-007, 1.51964E-008
0, 180.00000, -0.129958, -0.0427183, -0.129959, -0.0427132, -0.162454, -0.0533948, 7.34355E-007, 1.51964E-008
0, 240.00000, -0.129958, -0.0427183, -0.129959, -0.0427132, -0.162454, -0.0533948, 7.34355E-007, 1.51964E-008
0, 300.00000, -0.129958, -0.0427183, -0.129959, -0.0427132, -0.162454, -0.0533948, 7.34355E-007, 1.51964E-008
0, 360.00000, -0.12996, -0.0427129, -0.146208, -0.0480574, -0.113713, -0.0373772, 6.25817E-007, 9.35693E-008
0, 420.00000, -0.12996, -0.0427129, -0.146208, -0.0480573, -0.113713, -0.0373772, 6.25811E-007, 9.35685E-008
0, 480.00000, -0.12996, -0.0427129, -0.146208, -0.0480573, -0.113713, -0.0373772, 6.25811E-007, 9.35685E-008
0, 540.00000, -0.12996, -0.0427129, -0.146208, -0.0480573, -0.113713, -0.0373772, 6.25811E-007, 9.35685E-008
0, 600.00000, -0.12996, -0.0427129, -0.146208, -0.0480573, -0.113713, -0.0373772, 6.25811E-007, 9.35685E-008
0, 660.00000, -0.129958, -0.0427137, -0.146208, -0.0480559, -0.129962, -0.0427179, 2.0119E-007, 4.2511E-008
0, 720.00000, -0.12996, -0.0427142, -0.146207, -0.0480557, -0.129959, -0.042717, 2.0118E-007, 4.25073E-008
0, 780.00000, -0.12996, -0.0427142, -0.146207, -0.0480557, -0.129959, -0.042717, 2.0118E-007, 4.25073E-008
0, 840.00000, -0.12996, -0.0427142, -0.146207, -0.0480557, -0.129959, -0.042717, 2.0118E-007, 4.25073E-008
0, 900.00000, -0.12996, -0.0427142, -0.146207, -0.0480557, -0.129959, -0.042717, 2.0118E-007, 4.25073E-008
0, 960.00000, -0.146205, -0.0480551, -0.146205, -0.0480555, -0.146205, -0.0480551, 2.1447E-010, 6.08775E-011
0, 1020.00000, -0.146205, -0.0480551, -0.146205, -0.0480556, -0.146205, -0.0480551, 2.14768E-010, 6.12862E-011
0, 1080.00000, -0.146205, -0.0480551, -0.146205, -0.0480556, -0.146205, -0.0480551, 2.14769E-010, 6.12797E-011
0, 1140.00000, -0.146205, -0.0480551, -0.146205, -0.0480556, -0.146205, -0.0480551, 2.14769E-010, 6.12797E-011
0, 1200.00000, -0.146205, -0.0480551, -0.146205, -0.0480556, -0.146205, -0.0480551, 2.14769E-010, 6.12797E-011
0, 1260.00000, -0.097468, -0.0320346, -0.14621, -0.0480543, -0.113714, -0.0373797, 1.37817E-006, 1.67069E-007
0, 1320.00000, -0.0974679, -0.0320345, -0.14621, -0.0480543, -0.113714, -0.0373798, 1.37817E-006, 1.67069E-007
0, 1380.00000, -0.0974679, -0.0320345, -0.14621, -0.0480543, -0.113714, -0.0373798, 1.37817E-006, 1.67069E-007
0, 1440.00000, -0.0974679, -0.0320345, -0.14621, -0.0480543, -0.113714, -0.0373798, 1.37817E-006, 1.67069E-007
0, 1500.00000, -0.0974679, -0.0320345, -0.14621, -0.0480543, -0.113714, -0.0373798, 1.37817E-006, 1.67069E-007
0, 1560.00000, -0.162459, -0.0533882, -0.129961, -0.0427244, -0.064976, -0.0213562, 5.74345E-006, 3.68283E-007
0, 1620.00000, -0.162459, -0.0533882, -0.129961, -0.0427244, -0.064976, -0.0213562, 5.74345E-006, 3.68283E-007
0, 1680.00000, -0.162459, -0.0533882, -0.129961, -0.0427244, -0.064976, -0.0213562, 5.74345E-006, 3.68283E-007
0, 1740.00000, -0.162459, -0.0533882, -0.129961, -0.0427244, -0.064976, -0.0213562, 5.74345E-006, 3.68283E-007
0, 1800.00000, -0.162459, -0.0533882, -0.129961, -0.0427244, -0.064976, -0.0213562, 5.74345E-006, 3.68283E-007
0, 1860.00000, -0.113713, -0.0373785, -0.129959, -0.0427118, -0.162448, -0.0533944, 1.30382E-006, 7.70974E-008
0, 1920.00000, -0.113712, -0.0373784, -0.129959, -0.0427119, -0.162455, -0.0533966, 1.30423E-006, 7.71178E-008
0, 1980.00000, -0.113712, -0.0373784, -0.129959, -0.0427119, -0.162455, -0.0533966, 1.30423E-006, 7.71179E-008
0, 2040.00000, -0.113712, -0.0373784, -0.129959, -0.0427119, -0.162455, -0.0533966, 1.30423E-006, 7.71179E-008
0, 2100.00000, -0.113712, -0.0373784, -0.129959, -0.0427119, -0.162455, -0.0533966, 1.30423E-006, 7.71179E-008
0, 2160.00000, -0.113716, -0.0373803, -0.0974665, -0.0320345, -0.146214, -0.0480555, 1.33361E-006, 4.5248E-008
0, 2220.00000, -0.113714, -0.0373798, -0.0974678, -0.0320348, -0.146209, -0.0480539, 1.33328E-006, 4.52332E-008
0, 2280.00000, -0.113714, -0.0373798, -0.0974678, -0.0320348, -0.146209, -0.0480539, 1.33328E-006, 4.52332E-008
0, 2340.00000, -0.113714, -0.0373798, -0.0974678, -0.0320348, -0.146209, -0.0480539, 1.33328E-006, 4.52332E-008
0, 2400.00000, -0.113714, -0.0373798, -0.0974678, -0.0320348, -0.146209, -0.0480539, 1.33328E-006, 4.52332E-008
0, 2460.00000, -0.146204, -0.0480534, -0.162452, -0.0533953, -0.146204, -0.0480566, 1.96485E-007, 4.9264E-008
0, 2520.00000, -0.146205, -0.0480535, -0.162452, -0.0533952, -0.146204, -0.0480566, 1.96481E-007, 4.92633E-008
0, 2580.00000, -0.146205, -0.0480535, -0.162452, -0.0533952, -0.146204, -0.0480566, 1.96481E-007, 4.92633E-008
0, 2640.00000, -0.146205, -0.0480535, -0.162452, -0.0533952, -0.146204, -0.0480566, 1.96481E-007, 4.92633E-008
0, 2700.00000, -0.146205, -0.0480535, -0.162452, -0.0533952, -0.146204, -0.0480566, 1.96481E-007, 4.92633E-008
0, 2760.00000, -0.162454, -0.0533948, -0.129958, -0.0427187, -0.129958, -0.0427128, 8.53751E-007, 1.69527E-008
0, 2820.00000, -0.162454, -0.0533948, -0.129958, -0.0427187, -0.129958, -0.0427128, 8.53747E-007, 1.69525E-008
0, 2880.00000, -0.162454, -0.0533948, -0.129958, -0.0427187, -0.129958, -0.0427128, 8.53747E-007, 1.69524E-008
0, 2940.00000, -0.162454, -0.0533948, -0.129958, -0.0427187, -0.129958, -0.0427128, 8.53747E-007, 1.69524E-008
0, 3000.00000, -0.162454, -0.0533948, -0.129958, -0.0427187, -0.129958, -0.0427128, 8.53747E-007, 1.69524E-008
0, 3060.00000, -0.129961, -0.0427144, -0.129961, -0.0427174, -0.113713, -0.0373762, 2.24221E-007, 2.40686E-008
0, 3120.00000, -0.129961, -0.0427143, -0.129961, -0.0427174, -0.113713, -0.0373761, 2.24222E-007, 2.40689E-008
0, 3180.00000, -0.129961, -0.0427143, -0.129961, -0.0427174, -0.113713, -0.0373761, 2.24222E-007, 2.40689E-008
0, 3240.00000, -0.129961, -0.0427143, -0.129961, -0.0427174, -0.113713, -0.0373761, 2.24222E-007, 2.40689E-008
0, 3300.00000, -0.129961, -0.0427143, -0.129961, -0.0427174, -0.113713, -0.0373761, 2.24222E-007, 2.40689E-008
0, 3360.00000, -0.129961, -0.0427171, -0.113714, -0.0373764, -0.129961, -0.0427143, 1.98157E-007, -1.45153E-008
0, 3420.00000, -0.129961, -0.0427171, -0.113714, -0.0373764, -0.129961, -0.0427144, 1.9816E-007, -1.45153E-008
0, 3480.00000, -0.129961, -0.0427171, -0.113714, -0.0373764, -0.129961, -0.0427144, 1.9816E-007, -1.45153E-008
0, 3540.00000, -0.129961, -0.0427171, -0.113714, -0.0373764, -0.129961, -0.0427144, 1.9816E-007, -1.45153E-008
1, 0.00000, -0.129961, -0.0427171, -0.113714, -0.0373764, -0.129961, -0.0427144, 1.9816E-007, -1.45153E-008
1, 60.00000, -0.113717, -0.0373739, -0.113716, -0.037379, -0.0812229, -0.0266972, 8.39983E-007, 7.57898E-008
1, 120.00000, -0.113717, -0.0373739, -0.113716, -0.037379, -0.0812229, -0.0266972, 8.39981E-007, 7.57894E-008
1, 180.00000, -0.113717, -0.0373739, -0.113716, -0.037379, -0.0812229, -0.0266972, 8.39981E-007, 7.57894E-008
1, 240.00000, -0.113717, -0.0373739, -0.113716, -0.037379, -0.0812229, -0.0266972, 8.39981E-007, 7.57894E-008
1, 300.00000, -0.113717, -0.0373739, -0.113716, -0.037379, -0.0812229, -0.0266972, 8.39981E-007, 7.57894E-008
1, 360.00000, -0.0974683, -0.0320377, -0.113715, -0.0373741, -0.129962, -0.0427172, 5.43708E-007, 3.75662E-008
1, 420.00000, -0.0974683, -0.0320377, -0.113715, -0.0373741, -0.129962, -0.0427172, 5.43703E-007, 3.75661E-008
1, 480.00000, -0.0974683, -0.0320377, -0.113715, -0.0373741, -0.129962, -0.0427172, 5.43703E-007, 3.75661E-008
1, 540.00000, -0.0974683, -0.0320377, -0.113715, -0.0373741, -0.129962, -0.0427172, 5.43703E-007, 3.75661E-008
1, 600.00000, -0.0974683, -0.0320377, -0.113715, -0.0373741, -0.129962, -0.0427172, 5.43703E-007, 3.75661E-008
1, 660.00000, -0.113714, -0.0373766, -0.0812246, -0.0266986, -0.0974702, -0.0320348, 6.16505E-007, 5.71685E-009
1, 720.00000, -0.113717, -0.0373776, -0.0812235, -0.0266982, -0.09747, -0.0320347, 6.16668E-007, 5.72296E-009
1, 780.00000, -0.113717, -0.0373776, -0.0812235, -0.0266982, -0.09747, -0.0320347, 6.16669E-007, 5.72296E-009
1, 840.00000, -0.113717, -0.0373776, -0.0812235, -0.0266982, -0.09747, -0.0320347, 6.16669E-007, 5.72296E-009
1, 900.00000, -0.113717, -0.0373776, -0.0812235, -0.0266982, -0.09747, -0.0320347, 6.16669E-007, 5.72296E-009
1, 960.00000, -0.113716, -0.0373763, -0.0974693, -0.032038, -0.0974694, -0.0320357, 2.20965E-007, -2.27496E-009
1, 1020.00000, -0.113717, -0.0373763, -0.0974694, -0.032038, -0.0974693, -0.0320357, 2.20968E-007, -2.27478E-009
1, 1080.00000, -0.113717, -0.0373763, -0.0974694, -0.032038, -0.0974693, -0.0320357, 2.20968E-007, -2.27478E-009
1, 1140.00000, -0.113717, -0.0373763, -0.0974694, -0.032038, -0.0974693, -0.0320357, 2.20968E-007, -2.27478E-009
1, 1200.00000, -0.113717, -0.0373763, -0.0974694, -0.032038, -0.0974693, -0.0320357, 2.20968E-007, -2.27478E-009
1, 1260.00000, -0.113717, -0.0373739, -0.113716, -0.037379, -0.0812229, -0.0266972, 8.37982E-007, 7.34915E-008
1, 1320.00000, -0.113717, -0.0373739, -0.113716, -0.037379, -0.0812229, -0.0266972, 8.37976E-007, 7.34911E-008
1, 1380.00000, -0.113717, -0.0373739, -0.113716, -0.037379, -0.0812229, -0.0266972, 8.37976E-007, 7.34911E-008
1, 1440.00000, -0.113717, -0.0373739, -0.113716, -0.037379, -0.0812229, -0.0266972, 8.37976E-007, 7.34911E-008
1, 1500.00000, -0.113717, -0.0373739, -0.113716, -0.037379, -0.0812229, -0.0266972, 8.37976E-007, 7.34911E-008
1, 1560.00000, -0.113715, -0.0373786, -0.0974683, -0.0320359, -0.129962, -0.0427144, 5.78203E-007, 7.20477E-010
1, 1620.00000, -0.113715, -0.0373787, -0.0974683, -0.0320358, -0.129962, -0.0427144, 5.78205E-007, 7.20505E-010
1, 1680.00000, -0.113715, -0.0373787, -0.0974683, -0.0320358, -0.129962, -0.0427144, 5.78205E-007, 7.20505E-010
1, 1740.00000, -0.113715, -0.0373787, -0.0974683, -0.0320358, -0.129962, -0.0427144, 5.78205E-007, 7.20505E-010
1, 1800.00000, -0.113715, -0.0373787, -0.0974683, -0.0320358, -0.129962, -0.0427144, 5.78205E-007, 7.20505E-010
1, 1860.00000, -0.0974689, -0.0320367, -0.113716, -0.0373753, -0.113716, -0.0373775, 1.754E-007, 2.57418E-008
1, 1920.00000, -0.0974689, -0.0320367, -0.113716, -0.0373753, -0.113715, -0.0373775, 1.75399E-007, 2.57419E-008
1, 1980.00000, -0.0974689, -0.0320367, -0.113716, -0.0373753, -0.113715, -0.0373775, 1.75399E-007, 2.57419E-008
1, 2040.00000, -0.0974689, -0.0320367, -0.113716, -0.0373753, -0.113715, -0.0373775, 1.75399E-007, 2.57419E-008
1, 2100.00000, -0.0974689, -0.0320367, -0.113716, -0.0373753, -0.113715, -0.0373775, 1.75399E-007, 2.57419E-008
1, 2160.00000, -0.0974701, -0.0320368, -0.09747, -0.032037, -0.0974698, -0.0320368, 1.00458E-010, -9.19068E-013
1, 2220.00000, -0.0974701, -0.0320368, -0.09747, -0.032037, -0.0974699, -0.0320368, 1.00376E-010, -9.39962E-013
1, 2280.00000, -0.0974701, -0.0320368, -0.09747, -0.032037, -0.0974699, -0.0320368, 1.00375E-010, -9.40112E-013
1, 2340.00000, -0.0974701, -0.0320368, -0.09747, -0.032037, -0.0974699, -0.0320368, 1.00375E-010, -9.40111E-013
1, 2400.00000, -0.0974701, -0.0320368, -0.09747, -0.032037, -0.0974699, -0.0320368, 1.00375E-010, -9.40111E-013
1, 2460.00000, -0.12996, -0.0427172, -0.129962, -0.0427155, -0.146204, -0.0480544, 1.71531E-007, -1.65837E-009
1, 2520.00000, -0.129959, -0.042717, -0.129959, -0.0427146, -0.146207, -0.0480552, 1.7163E-007, -1.65843E-009
1, 2580.00000, -0.129959, -0.042717, -0.129959, -0.0427146, -0.146207, -0.0480552, 1.7163E-007, -1.65842E-009
1, 2640.00000, -0.129959, -0.042717, -0.129959, -0.0427146, -0.146207, -0.0480552, 1.7163E-007, -1.65842E-009
1, 2700.00000, -0.129959, -0.042717, -0.129959, -0.0427146, -0.146207, -0.0480552, 1.7163E-007, -1.65842E-009
1, 2760.00000, -0.0974695, -0.0320387, -0.0812224, -0.0266961, -0.113718, -0.0373756, 5.72843E-007, 1.40459E-008
1, 2820.00000, -0.09747, -0.0320388, -0.0812236, -0.0266965, -0.113717, -0.0373752, 5.72749E-007, 1.40414E-008
1, 2880.00000, -0.09747, -0.0320388, -0.0812236, -0.0266965, -0.113717, -0.0373752, 5.72749E-007, 1.40414E-008
1, 2940.00000, -0.09747, -0.0320388, -0.0812236, -0.0266965, -0.113717, -0.0373752, 5.72749E-007, 1.40414E-008
1, 3000.00000, -0.09747, -0.0320388, -0.0812236, -0.0266965, -0.113717, -0.0373752, 5.72749E-007, 1.40414E-008
1, 3060.00000, -0.113714, -0.0373744, -0.113718, -0.0373784, -0.0974687, -0.0320367, 2.2377E-007, 2.46439E-008
1, 3120.00000, -0.113716, -0.0373751, -0.113716, -0.0373778, -0.0974687, -0.0320367, 2.23777E-007, 2.4639E-008
1, 3180.00000, -0.113716, -0.0373751, -0.113716, -0.0373778, -0.0974687, -0.0320367, 2.23777E-007, 2.4639E-008
1, 3240.00000, -0.113716, -0.0373751, -0.113716, -0.0373778, -0.0974687, -0.0320367, 2.23777E-007, 2.4639E-008
1, 3300.00000, -0.113716, -0.0373751, -0.113716, -0.0373778, -0.0974687, -0.0320367, 2.23777E-007, 2.4639E-008
1, 3360.00000, -0.0974689, -0.0320388, -0.0974688, -0.0320348, -0.129963, -0.0427159, 7.56981E-007, 2.76463E-008
1, 3420.00000, -0.0974688, -0.0320388, -0.0974689, -0.0320348, -0.129963, -0.0427159, 7.56986E-007, 2.76467E-008
1, 3480.00000, -0.0974688, -0.0320388, -0.0974689, -0.0320348, -0.129963, -0.0427159, 7.56986E-007, 2.76467E-008
1, 3540.00000, -0.0974688, -0.0320388, -0.0974689, -0.0320348, -0.129963, -0.0427159, 7.56986E-007, 2.76467E-008
2, 0.00000, -0.0974688, -0.0320388, -0.0974689, -0.0320348, -0.129963, -0.0427159, 7.56986E-007, 2.76467E-008
2, 60.00000, -0.113715, -0.0373762, -0.113715, -0.0373765, -0.113715, -0.0373762, 1.90844E-010, -1.41202E-011
2, 120.00000, -0.113715, -0.0373762, -0.113715, -0.0373765, -0.113715, -0.0373762, 1.90995E-010, -1.42115E-011
2, 180.00000, -0.113715, -0.0373762, -0.113715, -0.0373765, -0.113715, -0.0373762, 1.90995E-010, -1.42129E-011
2, 240.00000, -0.113715, -0.0373762, -0.113715, -0.0373765, -0.113715, -0.0373762, 1.90995E-010, -1.42129E-011
2, 300.00000, -0.113715, -0.0373762, -0.113715, -0.0373765, -0.113715, -0.0373762, 1.90995E-010, -1.42129E-011
2, 360.00000, -0.0974701, -0.0320368, -0.09747, -0.032037, -0.0974699, -0.0320368, 1.02069E-010, -4.01456E-011
2, 420.00000, -0.0974701, -0.0320368, -0.09747, -0.032037, -0.0974699, -0.0320368, 1.02168E-010, -4.02594E-011
2, 480.00000, -0.0974701, -0.0320368, -0.09747, -0.032037, -0.0974699, -0.0320368, 1.02168E-010, -4.02608E-011
2, 540.00000, -0.0974701, -0.0320368, -0.09747, -0.032037, -0.0974699, -0.0320368, 1.02168E-010, -4.02608E-011
2, 600.00000, -0.0974701, -0.0320368, -0.09747, -0.032037, -0.0974699, -0.0320368, 1.02168E-010, -4.02608E-011
2, 660.00000, -0.113718, -0.0373753, -0.0974702, -0.0320392, -0.0812238, -0.0266964, 6.40513E-007, 4.08802E-008
2, 720.00000, -0.113717, -0.0373752, -0.0974699, -0.0320391, -0.0812235, -0.0266963, 6.4051E-007, 4.088E-008
2, 780.00000, -0.113717, -0.0373752, -0.0974699, -0.0320391, -0.0812235, -0.0266963, 6.40509E-007, 4.088E-008
2, 840.00000, -0.113717, -0.0373752, -0.0974699, -0.0320391, -0.0812235, -0.0266963, 6.40509E-007, 4.088E-008
2, 900.00000, -0.113717, -0.0373752, -0.0974699, -0.0320391, -0.0812235, -0.0266963, 6.40509E-007, 4.088E-008
2, 960.00000, -0.0974707, -0.0320379, -0.0812239, -0.0266974, -0.0974706, -0.0320358, 1.98035E-007, -4.84336E-009
2, 1020.00000, -0.0974706, -0.0320379, -0.081224, -0.0266974, -0.0974706, -0.0320358, 1.98032E-007, -4.84343E-009
2, 1080.00000, -0.0974706, -0.0320379, -0.081224, -0.0266974, -0.0974706, -0.0320358, 1.98032E-007, -4.84343E-009
2, 1140.00000, -0.0974706, -0.0320379, -0.081224, -0.0266974, -0.0974706, -0.0320358, 1.98032E-007, -4.84343E-009
2, 1200.00000, -0.0974706, -0.0320379, -0.081224, -0.0266974, -0.0974706, -0.0320358, 1.98032E-007, -4.84343E-009
2, 1260.00000, -0.0649795, -0.0213589, -0.09747, -0.0320337, -0.113717, -0.0373787, 1.33237E-006, 1.01319E-007
2, 1320.00000, -0.064978, -0.0213584, -0.0974708, -0.0320339, -0.113717, -0.0373788, 1.33249E-006, 1.01328E-007
2, 1380.00000, -0.064978, -0.0213584, -0.0974708, -0.0320339, -0.113717, -0.0373788, 1.33249E-006, 1.01328E-007
2, 1440.00000, -0.064978, -0.0213584, -0.0974708, -0.0320339, -0.113717, -0.0373788, 1.33249E-006, 1.01328E-007
2, 1500.00000, -0.064978, -0.0213584, -0.0974708, -0.0320339, -0.113717, -0.0373788, 1.33249E-006, 1.01328E-007
2, 1560.00000, -0.0812237, -0.0266963, -0.113717, -0.0373755, -0.0974698, -0.0320388, 5.62996E-007, 7.66637E-008
2, 1620.00000, -0.0812237, -0.0266964, -0.113717, -0.0373754, -0.0974697, -0.0320388, 5.62992E-007, 7.66633E-008
2, 1680.00000, -0.0812237, -0.0266964, -0.113717, -0.0373754, -0.0974697, -0.0320388, 5.62992E-007, 7.66632E-008
2, 1740.00000, -0.0812237, -0.0266964, -0.113717, -0.0373754, -0.0974697, -0.0320388, 5.62992E-007, 7.66632E-008
2, 1800.00000, -0.0812237, -0.0266964, -0.113717, -0.0373754, -0.0974697, -0.0320388, 5.62992E-007, 7.66632E-008
2, 1860.00000, -0.0974709, -0.0320367, -0.0812244, -0.0266983, -0.0812243, -0.0266964, 2.14982E-007, 4.34575E-009
2, 1920.00000, -0.0974713, -0.0320369, -0.0812244, -0.0266983, -0.0812245, -0.0266964, 2.14988E-007, 4.34588E-009
2, 1980.00000, -0.0974713, -0.0320369, -0.0812244, -0.0266983, -0.0812245, -0.0266964, 2.14988E-007, 4.34588E-009
2, 2040.00000, -0.0974713, -0.0320369, -0.0812244, -0.0266983, -0.0812245, -0.0266964, 2.14988E-007, 4.34588E-009
2, 2100.00000, -0.0974713, -0.0320369, -0.0812244, -0.0266983, -0.0812245, -0.0266964, 2.14988E-007, 4.34588E-009
2, 2160.00000, -0.0812256, -0.0266972, -0.0649798, -0.0213587, -0.0649799, -0.0213573, 2.145E-007, 5.30363E-009
2, 2220.00000, -0.0812261, -0.0266974, -0.0649796, -0.0213586, -0.0649796, -0.0213571, 2.1452E-007, 5.30449E-009
2, 2280.00000, -0.0812261, -0.0266974, -0.0649796, -0.0213586, -0.0649796, -0.0213571, 2.1452E-007, 5.30449E-009
2, 2340.00000, -0.0812261, -0.0266974, -0.0649796, -0.0213586, -0.0649796, -0.0213571, 2.1452E-007, 5.30449E-009
2, 2400.00000, -0.0812261, -0.0266974, -0.0649796, -0.0213586, -0.0649796, -0.0213571, 2.1452E-007, 5.30449E-009
2, 2460.00000, -0.0974707, -0.0320358, -0.0974705, -0.032038, -0.081224, -0.0266973, 2.15701E-007, 1.97453E-008
2, 2520.00000, -0.0974708, -0.0320358, -0.0974705, -0.032038, -0.0812239, -0.0266973, 2.15702E-007, 1.97454E-008
2, 2580.00000, -0.0974708, -0.0320358, -0.0974705, -0.032038, -0.0812239, -0.0266973, 2.15702E-007, 1.97454E-008
2, 2640.00000, -0.0974708, -0.0320358, -0.0974705, -0.032038, -0.0812239, -0.0266973, 2.15702E-007, 1.97454E-008
2, 2700.00000, -0.0974708, -0.0320358, -0.0974705, -0.032038, -0.0812239, -0.0266973, 2.15702E-007, 1.97454E-008
2, 2760.00000, -0.113717, -0.0373752, -0.0974699, -0.032039, -0.0812234, -0.0266964, 6.37875E-007, 3.35959E-008
2, 2820.00000, -0.113717, -0.0373751, -0.0974699, -0.032039, -0.0812235, -0.0266964, 6.37872E-007, 3.35958E-008
2, 2880.00000, -0.113717, -0.0373751, -0.0974699, -0.032039, -0.0812235, -0.0266964, 6.37872E-007, 3.35958E-008
2, 2940.00000, -0.113717, -0.0373751, -0.0974699, -0.032039, -0.0812235, -0.0266964, 6.37872E-007, 3.35958E-008
2, 3000.00000, -0.113717, -0.0373751, -0.0974699, -0.032039, -0.0812235, -0.0266964, 6.37872E-007, 3.35958E-008
2, 3060.00000, -0.0974715, -0.0320348, -0.0974711, -0.0320391, -0.0649783, -0.0213577, 8.26012E-007, 6.36562E-008
2, 3120.00000, -0.0974714, -0.0320348, -0.0974711, -0.0320391, -0.0649783, -0.0213578, 8.26005E-007, 6.36557E-008
2, 3180.00000, -0.0974714, -0.0320348, -0.0974711, -0.0320391, -0.0649784, -0.0213578, 8.26005E-007, 6.36557E-008
2, 3240.00000, -0.0974714, -0.0320348, -0.0974711, -0.0320391, -0.0649784, -0.0213578, 8.26005E-007, 6.36557E-008
2, 3300.00000, -0.0974714, -0.0320348, -0.0974711, -0.0320391, -0.0649784, -0.0213578, 8.26005E-007, 6.36557E-008
2, 3360.00000, -0.0812242, -0.0266955, -0.113718, -0.0373766, -0.0812239, -0.026699, 7.94092E-007, 1.07409E-007
2, 3420.00000, -0.0812242, -0.0266955, -0.113718, -0.0373767, -0.0812238, -0.0266989, 7.94102E-007, 1.0741E-007
2, 3480.00000, -0.0812242, -0.0266955, -0.113718, -0.0373767, -0.0812238, -0.0266989, 7.94102E-007, 1.0741E-007
