hour, t(sec), P1 (kW), Q1 (kvar), P2 (kW), Q2 (kvar), P3 (kW), Q3 (kvar), P4 (kW), Q4 (kvar)
0, 60.00000, -0.116282, -0.0382202, -0.116281, -0.0382197, -0.130817, -0.042997, 2.95234E-008, -2.70152E-008
0, 120.00000, -0.11628, -0.0382197, -0.11628, -0.0382193, -0.130815, -0.0429966, 2.95274E-008, -2.70147E-008
0, 180.00000, -0.11628, -0.0382197, -0.11628, -0.0382193, -0.130815, -0.0429966, 2.95274E-008, -2.70147E-008
0, 240.00000, -0.11628, -0.0382197, -0.11628, -0.0382193, -0.130815, -0.0429966, 2.95274E-008, -2.70147E-008
0, 300.00000, -0.11628, -0.0382197, -0.11628, -0.0382193, -0.130815, -0.0429966, 2.95274E-008, -2.70147E-008
0, 360.00000, -0.101745, -0.033441, -0.116281, -0.0382196, -0.101744, -0.0334428, 1.51582E-007, 1.64662E-008
0, 420.00000, -0.101745, -0.033441, -0.116281, -0.0382195, -0.101744, -0.0334428, 1.51578E-007, 1.64662E-008
0, 480.00000, -0.101745, -0.033441, -0.116281, -0.0382195, -0.101744, -0.0334428, 1.51578E-007, 1.64662E-008
0, 540.00000, -0.101745, -0.033441, -0.116281, -0.0382195, -0.101744, -0.0334428, 1.51578E-007, 1.64662E-008
0, 600.00000, -0.101745, -0.033441, -0.116281, -0.0382195, -0.101744, -0.0334428, 1.51578E-007, 1.64662E-008
0, 660.00000, -0.130816, -0.0429948, -0.130817, -0.0429996, -0.116279, -0.0382192, 2.83782E-007, 9.08056E-008
0, 720.00000, -0.130817, -0.042995, -0.130816, -0.0429994, -0.116278, -0.0382186, 2.83838E-007, 9.07993E-008
0, 780.00000, -0.130817, -0.042995, -0.130816, -0.0429994, -0.116278, -0.0382186, 2.83837E-007, 9.07992E-008
0, 840.00000, -0.130817, -0.042995, -0.130816, -0.0429994, -0.116278, -0.0382186, 2.83837E-007, 9.07992E-008
0, 900.00000, -0.130817, -0.042995, -0.130816, -0.0429994, -0.116278, -0.0382186, 2.83837E-007, 9.07992E-008
0, 960.00000, -0.116282, -0.0382161, -0.130817, -0.0430004, -0.0872073, -0.0286646, 1.18739E-006, 4.00883E-007
0, 1020.00000, -0.116282, -0.0382161, -0.130817, -0.0430005, -0.0872072, -0.0286646, 1.1874E-006, 4.00885E-007
0, 1080.00000, -0.116282, -0.0382161, -0.130817, -0.0430005, -0.0872072, -0.0286646, 1.1874E-006, 4.00885E-007
0, 1140.00000, -0.116282, -0.0382161, -0.130817, -0.0430005, -0.0872072, -0.0286646, 1.1874E-006, 4.00885E-007
0, 1200.00000, -0.116282, -0.0382161, -0.130817, -0.0430005, -0.0872072, -0.0286646, 1.1874E-006, 4.00885E-007
0, 1260.00000, -0.130817, -0.0429952, -0.130815, -0.0429995, -0.101743, -0.0334411, 5.6272E-007, 2.34649E-007
0, 1320.00000, -0.130817, -0.0429952, -0.130815, -0.0429995, -0.101743, -0.0334411, 5.62713E-007, 2.34648E-007
0, 1380.00000, -0.130817, -0.0429951, -0.130815, -0.0429995, -0.101743, -0.0334411, 5.62712E-007, 2.34648E-007
0, 1440.00000, -0.130817, -0.0429951, -0.130815, -0.0429995, -0.101743, -0.0334411, 5.62712E-007, 2.34648E-007
0, 1500.00000, -0.130817, -0.0429951, -0.130815, -0.0429995, -0.101743, -0.0334411, 5.62712E-007, 2.34648E-007
0, 1560.00000, -0.101745, -0.0334417, -0.101745, -0.0334419, -0.130815, -0.0429973, -3.55043E-008, 1.02498E-007
0, 1620.00000, -0.101745, -0.0334417, -0.101745, -0.0334419, -0.130815, -0.0429973, -3.55035E-008, 1.02499E-007
0, 1680.00000, -0.101745, -0.0334417, -0.101745, -0.0334419, -0.130815, -0.0429973, -3.55035E-008, 1.02499E-007
0, 1740.00000, -0.101745, -0.0334417, -0.101745, -0.0334419, -0.130815, -0.0429973, -3.55035E-008, 1.02499E-007
0, 1800.00000, -0.101745, -0.0334417, -0.101745, -0.0334419, -0.130815, -0.0429973, -3.55035E-008, 1.02499E-007
0, 1860.00000, -0.130817, -0.042996, -0.116279, -0.0382209, -0.116274, -0.0382169, 2.17585E-007, -8.8411E-008
0, 1920.00000, -0.130817, -0.042996, -0.11628, -0.0382212, -0.116279, -0.0382182, 2.17508E-007, -8.84037E-008
0, 1980.00000, -0.130817, -0.042996, -0.11628, -0.0382212, -0.116279, -0.0382182, 2.17507E-007, -8.84037E-008
0, 2040.00000, -0.130817, -0.042996, -0.11628, -0.0382212, -0.116279, -0.0382182, 2.17507E-007, -8.84037E-008
0, 2100.00000, -0.130817, -0.042996, -0.11628, -0.0382212, -0.116279, -0.0382182, 2.17507E-007, -8.84037E-008
0, 2160.00000, -0.0872114, -0.0286637, -0.11628, -0.0382196, -0.101747, -0.033444, 1.91808E-007, 2.90905E-007
0, 2220.00000, -0.0872099, -0.0286633, -0.116281, -0.0382201, -0.101744, -0.0334427, 1.9192E-007, 2.90963E-007
0, 2280.00000, -0.0872099, -0.0286633, -0.116281, -0.0382201, -0.101744, -0.0334427, 1.9192E-007, 2.90963E-007
0, 2340.00000, -0.0872099, -0.0286633, -0.116281, -0.0382201, -0.101744, -0.0334427, 1.9192E-007, 2.90963E-007
0, 2400.00000, -0.0872099, -0.0286633, -0.116281, -0.0382201, -0.101744, -0.0334427, 1.9192E-007, 2.90963E-007
0, 2460.00000, -0.130819, -0.0429985, -0.0872078, -0.0286662, -0.11628, -0.0382157, 1.18595E-006, -3.38387E-007
0, 2520.00000, -0.130819, -0.0429986, -0.0872077, -0.0286661, -0.11628, -0.0382157, 1.18596E-006, -3.38388E-007
0, 2580.00000, -0.130819, -0.0429986, -0.0872077, -0.0286661, -0.11628, -0.0382157, 1.18596E-006, -3.38388E-007
0, 2640.00000, -0.130819, -0.0429986, -0.0872077, -0.0286661, -0.11628, -0.0382157, 1.18596E-006, -3.38388E-007
0, 2700.00000, -0.130819, -0.0429986, -0.0872077, -0.0286661, -0.11628, -0.0382157, 1.18596E-006, -3.38388E-007
0, 2760.00000, -0.130817, -0.0429953, -0.130815, -0.0429996, -0.116278, -0.0382182, 2.76255E-007, 1.44721E-007
0, 2820.00000, -0.130817, -0.0429953, -0.130815, -0.0429996, -0.116278, -0.0382182, 2.76252E-007, 1.4472E-007
0, 2880.00000, -0.130817, -0.0429953, -0.130815, -0.0429996, -0.116278, -0.0382182, 2.76252E-007, 1.4472E-007
0, 2940.00000, -0.130817, -0.0429953, -0.130815, -0.0429996, -0.116278, -0.0382182, 2.76252E-007, 1.4472E-007
0, 3000.00000, -0.130817, -0.0429953, -0.130815, -0.0429996, -0.116278, -0.0382182, 2.76252E-007, 1.4472E-007
0, 3060.00000, -0.101746, -0.0334378, -0.130819, -0.0430009, -0.072672, -0.0238879, 2.08648E-006, 6.00237E-007
0, 3120.00000, -0.101746, -0.0334377, -0.130819, -0.0430009, -0.072672, -0.0238879, 2.08648E-006, 6.00238E-007
0, 3180.00000, -0.101746, -0.0334377, -0.130819, -0.0430009, -0.072672, -0.0238879, 2.08648E-006, 6.00238E-007
0, 3240.00000, -0.101746, -0.0334377, -0.130819, -0.0430009, -0.072672, -0.0238879, 2.08648E-006, 6.00238E-007
0, 3300.00000, -0.101746, -0.0334377, -0.130819, -0.0430009, -0.072672, -0.0238879, 2.08648E-006, 6.00238E-007
0, 3360.00000, -0.101745, -0.0334407, -0.116282, -0.0382198, -0.101744, -0.0334429, 1.8E-007, 5.3179E-008
0, 3420.00000, -0.101745, -0.0334407, -0.116281, -0.0382198, -0.101744, -0.0334429, 1.79998E-007, 5.31786E-008
0, 3480.00000, -0.101745, -0.0334407, -0.116281, -0.0382198, -0.101744, -0.0334429, 1.79998E-007, 5.31786E-008
0, 3540.00000, -0.101745, -0.0334407, -0.116281, -0.0382198, -0.101744, -0.0334429, 1.79998E-007, 5.31786E-008
1, 0.00000, -0.101745, -0.0334407, -0.116281, -0.0382198, -0.101744, -0.0334429, 1.79998E-007, 5.31786E-008
1, 60.00000, -0.101747, -0.0334417, -0.0726746, -0.0238884, -0.087209, -0.0286632, 3.78905E-007, -2.95962E-007
1, 120.00000, -0.101747, -0.0334417, -0.0726745, -0.0238884, -0.087209, -0.0286632, 3.78909E-007, -2.95963E-007
1, 180.00000, -0.101747, -0.0334417, -0.0726745, -0.0238884, -0.087209, -0.0286632, 3.78909E-007, -2.95963E-007
1, 240.00000, -0.101747, -0.0334417, -0.0726745, -0.0238884, -0.087209, -0.0286632, 3.78909E-007, -2.95963E-007
1, 300.00000, -0.101747, -0.0334417, -0.0726745, -0.0238884, -0.087209, -0.0286632, 3.78909E-007, -2.95963E-007
1, 360.00000, -0.0726735, -0.0238865, -0.116282, -0.0382178, -0.11628, -0.038222, 9.03822E-007, 3.64271E-007
1, 420.00000, -0.0726735, -0.0238865, -0.116282, -0.0382178, -0.11628, -0.038222, 9.03821E-007, 3.64272E-007
1, 480.00000, -0.0726735, -0.0238865, -0.116282, -0.0382178, -0.11628, -0.038222, 9.03821E-007, 3.64272E-007
1, 540.00000, -0.0726735, -0.0238865, -0.116282, -0.0382178, -0.11628, -0.038222, 9.03821E-007, 3.64272E-007
1, 600.00000, -0.0726735, -0.0238865, -0.116282, -0.0382178, -0.11628, -0.038222, 9.03821E-007, 3.64272E-007
1, 660.00000, -0.0872076, -0.028664, -0.0872113, -0.0286647, -0.101745, -0.0334421, 3.70551E-008, 1.52478E-008
1, 720.00000, -0.0872098, -0.0286647, -0.08721, -0.0286643, -0.101745, -0.0334421, 3.70449E-008, 1.52235E-008
1, 780.00000, -0.0872098, -0.0286647, -0.08721, -0.0286643, -0.101745, -0.0334421, 3.7045E-008, 1.52235E-008
1, 840.00000, -0.0872098, -0.0286647, -0.08721, -0.0286643, -0.101745, -0.0334421, 3.7045E-008, 1.52235E-008
1, 900.00000, -0.0872098, -0.0286647, -0.08721, -0.0286643, -0.101745, -0.0334421, 3.7045E-008, 1.52235E-008
1, 960.00000, -0.08721, -0.0286668, -0.0726733, -0.0238863, -0.116283, -0.0382178, 9.58612E-007, -2.33955E-007
1, 1020.00000, -0.0872101, -0.0286668, -0.0726733, -0.0238863, -0.116283, -0.0382178, 9.58606E-007, -2.33955E-007
1, 1080.00000, -0.0872101, -0.0286668, -0.0726733, -0.0238863, -0.116283, -0.0382178, 9.58606E-007, -2.33955E-007
1, 1140.00000, -0.0872101, -0.0286668, -0.0726733, -0.0238863, -0.116283, -0.0382178, 9.58606E-007, -2.33955E-007
1, 1200.00000, -0.0872101, -0.0286668, -0.0726733, -0.0238863, -0.116283, -0.0382178, 9.58606E-007, -2.33955E-007
1, 1260.00000, -0.0872103, -0.0286635, -0.101746, -0.0334429, -0.101744, -0.0334423, -3.77588E-008, 1.81767E-007
1, 1320.00000, -0.0872102, -0.0286634, -0.101746, -0.0334428, -0.101744, -0.0334424, -3.77596E-008, 1.81766E-007
1, 1380.00000, -0.0872102, -0.0286634, -0.101746, -0.0334428, -0.101744, -0.0334424, -3.77596E-008, 1.81766E-007
1, 1440.00000, -0.0872102, -0.0286634, -0.101746, -0.0334428, -0.101744, -0.0334424, -3.77596E-008, 1.81766E-007
1, 1500.00000, -0.0872102, -0.0286634, -0.101746, -0.0334428, -0.101744, -0.0334424, -3.77596E-008, 1.81766E-007
1, 1560.00000, -0.101746, -0.0334426, -0.087209, -0.0286653, -0.101745, -0.0334404, 1.81091E-007, -1.25319E-007
1, 1620.00000, -0.101746, -0.0334426, -0.0872089, -0.0286653, -0.101745, -0.0334404, 1.81093E-007, -1.2532E-007
1, 1680.00000, -0.101746, -0.0334426, -0.0872089, -0.0286653, -0.101745, -0.0334404, 1.81093E-007, -1.2532E-007
1, 1740.00000, -0.101746, -0.0334426, -0.0872089, -0.0286653, -0.101745, -0.0334404, 1.81093E-007, -1.2532E-007
1, 1800.00000, -0.101746, -0.0334426, -0.0872089, -0.0286653, -0.101745, -0.0334404, 1.81093E-007, -1.2532E-007
1, 1860.00000, -0.11628, -0.0382202, -0.116279, -0.0382194, -0.130816, -0.0429959, 5.51496E-008, -1.06788E-007
1, 1920.00000, -0.116281, -0.0382202, -0.116279, -0.0382194, -0.130815, -0.0429958, 5.51476E-008, -1.06787E-007
1, 1980.00000, -0.116281, -0.0382202, -0.116279, -0.0382194, -0.130815, -0.0429958, 5.51475E-008, -1.06787E-007
1, 2040.00000, -0.116281, -0.0382202, -0.116279, -0.0382194, -0.130815, -0.0429958, 5.51475E-008, -1.06787E-007
1, 2100.00000, -0.116281, -0.0382202, -0.116279, -0.0382194, -0.130815, -0.0429958, 5.51475E-008, -1.06787E-007
1, 2160.00000, -0.101746, -0.0334413, -0.101745, -0.0334429, -0.101744, -0.0334417, 4.8022E-010, -1.05849E-010
1, 2220.00000, -0.101746, -0.0334413, -0.101745, -0.0334429, -0.101744, -0.0334418, 4.79661E-010, -1.05827E-010
1, 2280.00000, -0.101746, -0.0334413, -0.101745, -0.0334429, -0.101744, -0.0334418, 4.79656E-010, -1.05827E-010
1, 2340.00000, -0.101746, -0.0334413, -0.101745, -0.0334429, -0.101744, -0.0334418, 4.79656E-010, -1.05827E-010
1, 2400.00000, -0.101746, -0.0334413, -0.101745, -0.0334429, -0.101744, -0.0334418, 4.79656E-010, -1.05827E-010
1, 2460.00000, -0.087211, -0.0286653, -0.0872111, -0.0286653, -0.101744, -0.0334406, 4.78062E-008, -1.13946E-007
1, 2520.00000, -0.0872105, -0.0286651, -0.0872093, -0.0286646, -0.101745, -0.0334412, 4.78555E-008, -1.13978E-007
1, 2580.00000, -0.0872105, -0.0286651, -0.0872093, -0.0286646, -0.101745, -0.0334412, 4.78556E-008, -1.13978E-007
1, 2640.00000, -0.0872105, -0.0286651, -0.0872093, -0.0286646, -0.101745, -0.0334412, 4.78556E-008, -1.13978E-007
1, 2700.00000, -0.0872105, -0.0286651, -0.0872093, -0.0286646, -0.101745, -0.0334412, 4.78556E-008, -1.13978E-007
1, 2760.00000, -0.101746, -0.0334396, -0.101744, -0.0334442, -0.0726741, -0.023887, 8.23334E-007, 1.84705E-007
1, 2820.00000, -0.101747, -0.0334398, -0.101746, -0.0334448, -0.0726729, -0.0238867, 8.23436E-007, 1.84723E-007
1, 2880.00000, -0.101747, -0.0334398, -0.101746, -0.0334448, -0.0726729, -0.0238867, 8.23436E-007, 1.84723E-007
1, 2940.00000, -0.101747, -0.0334398, -0.101746, -0.0334448, -0.0726729, -0.0238867, 8.23436E-007, 1.84723E-007
1, 3000.00000, -0.101747, -0.0334398, -0.101746, -0.0334448, -0.0726729, -0.0238867, 8.23436E-007, 1.84723E-007
1, 3060.00000, -0.101745, -0.0334416, -0.0726756, -0.0238888, -0.0872088, -0.0286628, 4.79076E-007, -2.25242E-007
1, 3120.00000, -0.101747, -0.0334421, -0.0726741, -0.0238884, -0.0872092, -0.0286629, 4.79175E-007, -2.25271E-007
1, 3180.00000, -0.101747, -0.0334421, -0.0726741, -0.0238884, -0.0872092, -0.0286629, 4.79175E-007, -2.25271E-007
1, 3240.00000, -0.101747, -0.0334421, -0.0726741, -0.0238884, -0.0872092, -0.0286629, 4.79175E-007, -2.25271E-007
1, 3300.00000, -0.101747, -0.0334421, -0.0726741, -0.0238884, -0.0872092, -0.0286629, 4.79175E-007, -2.25271E-007
1, 3360.00000, -0.0872108, -0.0286658, -0.0726738, -0.0238871, -0.101746, -0.0334406, 3.54173E-007, -1.86985E-007
1, 3420.00000, -0.0872106, -0.0286658, -0.0726738, -0.0238871, -0.101746, -0.0334406, 3.54172E-007, -1.86984E-007
1, 3480.00000, -0.0872106, -0.0286658, -0.0726738, -0.0238871, -0.101746, -0.0334406, 3.54172E-007, -1.86984E-007
1, 3540.00000, -0.0872106, -0.0286658, -0.0726738, -0.0238871, -0.101746, -0.0334406, 3.54172E-007, -1.86984E-007
2, 0.00000, -0.0872106, -0.0286658, -0.0726738, -0.0238871, -0.101746, -0.0334406, 3.54172E-007, -1.86984E-007
2, 60.00000, -0.0581394, -0.0191093, -0.0872109, -0.0286641, -0.08721, -0.0286655, 2.76677E-007, 1.75502E-007
2, 120.00000, -0.0581394, -0.0191093, -0.0872109, -0.0286641, -0.08721, -0.0286655, 2.76674E-007, 1.75502E-007
2, 180.00000, -0.0581394, -0.0191093, -0.0872109, -0.0286641, -0.08721, -0.0286655, 2.76674E-007, 1.75502E-007
2, 240.00000, -0.0581394, -0.0191093, -0.0872109, -0.0286641, -0.08721, -0.0286655, 2.76674E-007, 1.75502E-007
2, 300.00000, -0.0581394, -0.0191093, -0.0872109, -0.0286641, -0.08721, -0.0286655, 2.76674E-007, 1.75502E-007
2, 360.00000, -0.101746, -0.033441, -0.0872102, -0.0286658, -0.072674, -0.0238867, 3.62449E-007, -5.1188E-008
2, 420.00000, -0.101746, -0.0334411, -0.0872102, -0.0286658, -0.072674, -0.0238867, 3.6245E-007, -5.11877E-008
2, 480.00000, -0.101746, -0.0334411, -0.0872102, -0.0286658, -0.072674, -0.0238867, 3.6245E-007, -5.11877E-008
2, 540.00000, -0.101746, -0.0334411, -0.0872102, -0.0286658, -0.072674, -0.0238867, 3.6245E-007, -5.11877E-008
2, 600.00000, -0.101746, -0.0334411, -0.0872102, -0.0286658, -0.072674, -0.0238867, 3.6245E-007, -5.11877E-008
2, 660.00000, -0.0872113, -0.0286651, -0.0726746, -0.0238876, -0.0872102, -0.0286637, 1.23091E-007, -7.30494E-008
2, 720.00000, -0.0872108, -0.028665, -0.0726744, -0.0238875, -0.08721, -0.0286637, 1.23089E-007, -7.30483E-008
2, 780.00000, -0.0872108, -0.028665, -0.0726744, -0.0238875, -0.08721, -0.0286637, 1.23089E-007, -7.30484E-008
2, 840.00000, -0.0872108, -0.028665, -0.0726744, -0.0238875, -0.08721, -0.0286637, 1.23089E-007, -7.30484E-008
2, 900.00000, -0.0872108, -0.028665, -0.0726744, -0.0238875, -0.08721, -0.0286637, 1.23089E-007, -7.30484E-008
2, 960.00000, -0.101748, -0.0334443, -0.0436036, -0.0143327, -0.0872106, -0.0286617, 1.76458E-006, -1.37891E-007
2, 1020.00000, -0.101748, -0.0334442, -0.0436036, -0.0143327, -0.0872106, -0.0286617, 1.76458E-006, -1.37891E-007
2, 1080.00000, -0.101748, -0.0334442, -0.0436036, -0.0143327, -0.0872106, -0.0286617, 1.76458E-006, -1.37891E-007
2, 1140.00000, -0.101748, -0.0334442, -0.0436036, -0.0143327, -0.0872106, -0.0286617, 1.76458E-006, -1.37891E-007
2, 1200.00000, -0.101748, -0.0334442, -0.0436036, -0.0143327, -0.0872106, -0.0286617, 1.76458E-006, -1.37891E-007
2, 1260.00000, -0.0726772, -0.0238877, -0.072674, -0.0238872, -0.0726748, -0.0238868, 4.04427E-011, -5.58036E-011
2, 1320.00000, -0.0726754, -0.0238871, -0.0726748, -0.0238875, -0.0726748, -0.0238868, 2.93339E-011, -5.06821E-011
2, 1380.00000, -0.0726754, -0.0238871, -0.0726748, -0.0238875, -0.0726748, -0.0238868, 2.93174E-011, -5.06858E-011
2, 1440.00000, -0.0726754, -0.0238871, -0.0726748, -0.0238875, -0.0726748, -0.0238868, 2.93172E-011, -5.06858E-011
2, 1500.00000, -0.0726754, -0.0238871, -0.0726748, -0.0238875, -0.0726748, -0.0238868, 2.93172E-011, -5.06857E-011
2, 1560.00000, -0.0726738, -0.0238873, -0.101746, -0.0334405, -0.116281, -0.0382208, 6.05413E-007, 9.93402E-008
2, 1620.00000, -0.0726739, -0.0238873, -0.101746, -0.0334404, -0.116281, -0.0382208, 6.0541E-007, 9.93393E-008
2, 1680.00000, -0.0726739, -0.0238873, -0.101746, -0.0334404, -0.116281, -0.0382208, 6.0541E-007, 9.93393E-008
2, 1740.00000, -0.0726739, -0.0238873, -0.101746, -0.0334404, -0.116281, -0.0382208, 6.0541E-007, 9.93393E-008
2, 1800.00000, -0.0726739, -0.0238873, -0.101746, -0.0334404, -0.116281, -0.0382208, 6.0541E-007, 9.93393E-008
2, 1860.00000, -0.0581389, -0.0191099, -0.072675, -0.0238861, -0.0872111, -0.0286652, 3.19442E-007, 2.50008E-008
2, 1920.00000, -0.0581393, -0.01911, -0.0726751, -0.0238862, -0.0872109, -0.0286652, 3.19426E-007, 2.50006E-008
2, 1980.00000, -0.0581393, -0.01911, -0.0726751, -0.0238862, -0.0872109, -0.0286652, 3.19426E-007, 2.50006E-008
2, 2040.00000, -0.0581393, -0.01911, -0.0726751, -0.0238862, -0.0872109, -0.0286652, 3.19426E-007, 2.50006E-008
2, 2100.00000, -0.0581393, -0.01911, -0.0726751, -0.0238862, -0.0872109, -0.0286652, 3.19426E-007, 2.50006E-008
2, 2160.00000, -0.0872106, -0.0286631, -0.101746, -0.0334439, -0.0726738, -0.023887, 3.81247E-007, 2.84146E-007
2, 2220.00000, -0.087211, -0.0286632, -0.101746, -0.0334437, -0.0726736, -0.023887, 3.81249E-007, 2.84145E-007
2, 2280.00000, -0.087211, -0.0286632, -0.101746, -0.0334437, -0.0726736, -0.023887, 3.81249E-007, 2.84145E-007
2, 2340.00000, -0.087211, -0.0286632, -0.101746, -0.0334437, -0.0726736, -0.023887, 3.81249E-007, 2.84145E-007
2, 2400.00000, -0.087211, -0.0286632, -0.101746, -0.0334437, -0.0726736, -0.023887, 3.81249E-007, 2.84145E-007
2, 2460.00000, -0.101746, -0.0334408, -0.101745, -0.0334435, -0.0872087, -0.0286642, 2.26154E-007, 6.02621E-008
2, 2520.00000, -0.101746, -0.0334408, -0.101745, -0.0334435, -0.0872087, -0.0286642, 2.26156E-007, 6.02622E-008
2, 2580.00000, -0.101746, -0.0334408, -0.101745, -0.0334435, -0.0872087, -0.0286642, 2.26156E-007, 6.02622E-008
2, 2640.00000, -0.101746, -0.0334408, -0.101745, -0.0334435, -0.0872087, -0.0286642, 2.26156E-007, 6.02622E-008
2, 2700.00000, -0.101746, -0.0334408, -0.101745, -0.0334435, -0.0872087, -0.0286642, 2.26156E-007, 6.02622E-008
2, 2760.00000, -0.0726757, -0.023887, -0.0726748, -0.0238877, -0.0726746, -0.0238866, 6.28194E-010, -1.75401E-011
2, 2820.00000, -0.0726756, -0.023887, -0.0726748, -0.0238877, -0.0726746, -0.0238866, 6.27766E-010, -1.74841E-011
2, 2880.00000, -0.0726756, -0.023887, -0.0726748, -0.0238877, -0.0726746, -0.0238866, 6.27762E-010, -1.74793E-011
2, 2940.00000, -0.0726756, -0.023887, -0.0726748, -0.0238877, -0.0726746, -0.0238866, 6.27762E-010, -1.74792E-011
2, 3000.00000, -0.0726756, -0.023887, -0.0726748, -0.0238877, -0.0726746, -0.0238866, 6.27762E-010, -1.74792E-011
2, 3060.00000, -0.0872104, -0.028664, -0.101745, -0.0334427, -0.0872093, -0.0286644, 4.36074E-008, 9.6219E-008
2, 3120.00000, -0.0872104, -0.028664, -0.101745, -0.0334426, -0.0872094, -0.0286645, 4.3605E-008, 9.62171E-008
2, 3180.00000, -0.0872104, -0.028664, -0.101745, -0.0334426, -0.0872094, -0.0286645, 4.3605E-008, 9.62171E-008
2, 3240.00000, -0.0872104, -0.028664, -0.101745, -0.0334426, -0.0872094, -0.0286645, 4.3605E-008, 9.62171E-008
2, 3300.00000, -0.0872104, -0.028664, -0.101745, -0.0334426, -0.0872094, -0.0286645, 4.3605E-008, 9.62171E-008
2, 3360.00000, -0.116283, -0.0382173, -0.0872101, -0.0286673, -0.072673, -0.0238861, 1.20035E-006, -3.12206E-007
2, 3420.00000, -0.116283, -0.0382173, -0.0872102, -0.0286673, -0.0726729, -0.0238861, 1.20036E-006, -3.12207E-007
2, 3480.00000, -0.116283, -0.0382173, -0.0872102, -0.0286673, -0.0726729, -0.0238861, 1.20036E-006, -3.12207E-007
