hour, t(sec), P1 (kW), Q1 (kvar), P2 (kW), Q2 (kvar), P3 (kW), Q3 (kvar), P4 (kW), Q4 (kvar)
0, 60.00000, -0.136803, -0.0449641, -0.109444, -0.0359721, -0.0957589, -0.0314742, 2.06979E-009, -9.59735E-009
0, 120.00000, -0.1368, -0.044964, -0.10944, -0.0359712, -0.09576, -0.0314748, 2.06931E-009, -9.59612E-009
0, 180.00000, -0.1368, -0.0449639, -0.10944, -0.0359712, -0.09576, -0.0314748, 2.06931E-009, -9.5961E-009
0, 240.00000, -0.1368, -0.0449639, -0.10944, -0.0359712, -0.09576, -0.0314748, 2.06931E-009, -9.5961E-009
0, 300.00000, -0.1368, -0.0449639, -0.10944, -0.0359712, -0.09576, -0.0314748, 2.06931E-009, -9.5961E-009
0, 360.00000, -0.10944, -0.0359712, -0.136801, -0.0449644, -0.0820793, -0.0269782, 6.90064E-009, -1.29884E-008
0, 420.00000, -0.10944, -0.0359712, -0.1368, -0.044964, -0.08208, -0.0269784, 6.90014E-009, -1.29875E-008
0, 480.00000, -0.10944, -0.0359712, -0.1368, -0.044964, -0.08208, -0.0269784, 6.90014E-009, -1.29875E-008
0, 540.00000, -0.10944, -0.0359712, -0.1368, -0.044964, -0.08208, -0.0269784, 6.90014E-009, -1.29875E-008
0, 600.00000, -0.10944, -0.0359712, -0.1368, -0.044964, -0.08208, -0.0269784, 6.90014E-009, -1.29875E-008
0, 660.00000, -0.0957457, -0.0314715, -0.13682, -0.0449672, -0.123116, -0.0404709, 4.71099E-009, -4.68233E-009
0, 720.00000, -0.09576, -0.0314748, -0.1368, -0.044964, -0.12312, -0.0404676, 4.70561E-009, -4.67496E-009
0, 780.00000, -0.09576, -0.0314748, -0.1368, -0.044964, -0.12312, -0.0404676, 4.7056E-009, -4.67495E-009
0, 840.00000, -0.09576, -0.0314748, -0.1368, -0.044964, -0.12312, -0.0404676, 4.7056E-009, -4.67495E-009
0, 900.00000, -0.09576, -0.0314748, -0.1368, -0.044964, -0.12312, -0.0404676, 4.7056E-009, -4.67495E-009
0, 960.00000, -0.0957598, -0.0314747, -0.0820802, -0.0269785, -0.12312, -0.0404676, 2.21109E-009, -6.76954E-009
0, 1020.00000, -0.09576, -0.0314748, -0.08208, -0.0269784, -0.12312, -0.0404676, 2.2111E-009, -6.7696E-009
0, 1080.00000, -0.09576, -0.0314748, -0.08208, -0.0269784, -0.12312, -0.0404676, 2.2111E-009, -6.7696E-009
0, 1140.00000, -0.09576, -0.0314748, -0.08208, -0.0269784, -0.12312, -0.0404676, 2.2111E-009, -6.7696E-009
0, 1200.00000, -0.09576, -0.0314748, -0.08208, -0.0269784, -0.12312, -0.0404676, 2.2111E-009, -6.7696E-009
0, 1260.00000, -0.109439, -0.0359708, -0.0957611, -0.0314752, -0.12312, -0.0404679, 4.47007E-010, -2.91787E-009
0, 1320.00000, -0.10944, -0.0359712, -0.09576, -0.0314748, -0.12312, -0.0404676, 4.47038E-010, -2.91818E-009
0, 1380.00000, -0.10944, -0.0359712, -0.09576, -0.0314748, -0.12312, -0.0404676, 4.47039E-010, -2.91819E-009
0, 1440.00000, -0.10944, -0.0359712, -0.09576, -0.0314748, -0.12312, -0.0404676, 4.47039E-010, -2.91819E-009
0, 1500.00000, -0.10944, -0.0359712, -0.09576, -0.0314748, -0.12312, -0.0404676, 4.47039E-010, -2.91819E-009
0, 1560.00000, -0.136799, -0.0449637, -0.09576, -0.0314748, -0.0957606, -0.031475, 2.53137E-009, -1.1671E-008
0, 1620.00000, -0.1368, -0.0449639, -0.09576, -0.0314748, -0.09576, -0.0314748, 2.53159E-009, -1.16716E-008
0, 1680.00000, -0.1368, -0.0449639, -0.09576, -0.0314748, -0.09576, -0.0314748, 2.53159E-009, -1.16716E-008
0, 1740.00000, -0.1368, -0.0449639, -0.09576, -0.0314748, -0.09576, -0.0314748, 2.53159E-009, -1.16716E-008
0, 1800.00000, -0.1368, -0.0449639, -0.09576, -0.0314748, -0.09576, -0.0314748, 2.53159E-009, -1.16716E-008
0, 1860.00000, -0.109426, -0.0359653, -0.0957609, -0.0314753, -0.109446, -0.0359741, -2.59314E-010, -1.34482E-009
0, 1920.00000, -0.10944, -0.0359712, -0.0957601, -0.0314748, -0.10944, -0.0359712, -2.59433E-010, -1.34637E-009
0, 1980.00000, -0.10944, -0.0359712, -0.09576, -0.0314748, -0.10944, -0.0359712, -2.59431E-010, -1.34639E-009
0, 2040.00000, -0.10944, -0.0359712, -0.09576, -0.0314748, -0.10944, -0.0359712, -2.59431E-010, -1.34639E-009
0, 2100.00000, -0.10944, -0.0359712, -0.09576, -0.0314748, -0.10944, -0.0359712, -2.59431E-010, -1.34639E-009
0, 2160.00000, -0.0957541, -0.0314733, -0.109447, -0.0359728, -0.0820807, -0.0269784, 1.92049E-009, -3.32061E-009
0, 2220.00000, -0.09576, -0.0314748, -0.10944, -0.0359712, -0.08208, -0.0269784, 1.91922E-009, -3.31945E-009
0, 2280.00000, -0.09576, -0.0314748, -0.10944, -0.0359712, -0.08208, -0.0269784, 1.91921E-009, -3.31943E-009
0, 2340.00000, -0.09576, -0.0314748, -0.10944, -0.0359712, -0.08208, -0.0269784, 1.91921E-009, -3.31943E-009
0, 2400.00000, -0.09576, -0.0314748, -0.10944, -0.0359712, -0.08208, -0.0269784, 1.91921E-009, -3.31943E-009
0, 2460.00000, -0.109441, -0.0359717, -0.109439, -0.035971, -0.10944, -0.0359708, -1.87327E-010, -1.63262E-011
0, 2520.00000, -0.10944, -0.0359712, -0.10944, -0.0359712, -0.10944, -0.0359712, -1.87256E-010, -1.62011E-011
0, 2580.00000, -0.10944, -0.0359712, -0.10944, -0.0359712, -0.10944, -0.0359712, -1.87255E-010, -1.62014E-011
0, 2640.00000, -0.10944, -0.0359712, -0.10944, -0.0359712, -0.10944, -0.0359712, -1.87255E-010, -1.62014E-011
0, 2700.00000, -0.10944, -0.0359712, -0.10944, -0.0359712, -0.10944, -0.0359712, -1.87255E-010, -1.62014E-011
0, 2760.00000, -0.136801, -0.044964, -0.0820804, -0.0269785, -0.123119, -0.0404673, 3.81378E-009, -1.51591E-008
0, 2820.00000, -0.1368, -0.044964, -0.08208, -0.0269784, -0.12312, -0.0404676, 3.81382E-009, -1.51591E-008
0, 2880.00000, -0.1368, -0.044964, -0.08208, -0.0269784, -0.12312, -0.0404676, 3.81382E-009, -1.51591E-008
0, 2940.00000, -0.1368, -0.044964, -0.08208, -0.0269784, -0.12312, -0.0404676, 3.81382E-009, -1.51591E-008
0, 3000.00000, -0.1368, -0.044964, -0.08208, -0.0269784, -0.12312, -0.0404676, 3.81382E-009, -1.51591E-008
0, 3060.00000, -0.109439, -0.0359706, -0.0957593, -0.0314746, -0.0957617, -0.0314753, -1.19129E-010, -1.79472E-009
0, 3120.00000, -0.10944, -0.0359712, -0.09576, -0.0314748, -0.09576, -0.0314748, -1.19006E-010, -1.79511E-009
0, 3180.00000, -0.10944, -0.0359712, -0.09576, -0.0314748, -0.09576, -0.0314748, -1.19005E-010, -1.79511E-009
0, 3240.00000, -0.10944, -0.0359712, -0.09576, -0.0314748, -0.09576, -0.0314748, -1.19005E-010, -1.79511E-009
0, 3300.00000, -0.10944, -0.0359712, -0.09576, -0.0314748, -0.09576, -0.0314748, -1.19005E-010, -1.79511E-009
0, 3360.00000, -0.109438, -0.0359705, -0.123121, -0.0404676, -0.0957607, -0.0314751, 2.01495E-009, -3.37471E-009
0, 3420.00000, -0.10944, -0.0359712, -0.12312, -0.0404676, -0.09576, -0.0314748, 2.01481E-009, -3.37482E-009
0, 3480.00000, -0.10944, -0.0359712, -0.12312, -0.0404676, -0.09576, -0.0314748, 2.01481E-009, -3.37481E-009
0, 3540.00000, -0.10944, -0.0359712, -0.12312, -0.0404676, -0.09576, -0.0314748, 2.01481E-009, -3.37481E-009
1, 0.00000, -0.10944, -0.0359712, -0.12312, -0.0404676, -0.09576, -0.0314748, 2.01481E-009, -3.37481E-009
1, 60.00000, -0.0820797, -0.0269783, -0.082082, -0.0269791, -0.0957589, -0.0314745, 2.13106E-010, -6.48832E-010
1, 120.00000, -0.08208, -0.0269784, -0.08208, -0.0269784, -0.09576, -0.0314748, 2.13147E-010, -6.49151E-010
1, 180.00000, -0.08208, -0.0269784, -0.08208, -0.0269784, -0.09576, -0.0314748, 2.13148E-010, -6.49153E-010
1, 240.00000, -0.08208, -0.0269784, -0.08208, -0.0269784, -0.09576, -0.0314748, 2.13148E-010, -6.49153E-010
1, 300.00000, -0.08208, -0.0269784, -0.08208, -0.0269784, -0.09576, -0.0314748, 2.13148E-010, -6.49153E-010
1, 360.00000, -0.0820786, -0.026978, -0.0820799, -0.0269783, -0.0820816, -0.026979, -9.71254E-011, -8.09488E-012
1, 420.00000, -0.08208, -0.0269784, -0.08208, -0.0269784, -0.08208, -0.0269784, -9.7141E-011, -8.20768E-012
1, 480.00000, -0.08208, -0.0269784, -0.08208, -0.0269784, -0.08208, -0.0269784, -9.71413E-011, -8.20831E-012
1, 540.00000, -0.08208, -0.0269784, -0.08208, -0.0269784, -0.08208, -0.0269784, -9.71413E-011, -8.20831E-012
1, 600.00000, -0.08208, -0.0269784, -0.08208, -0.0269784, -0.08208, -0.0269784, -9.71413E-011, -8.20831E-012
1, 660.00000, -0.109447, -0.0359733, -0.0684011, -0.0224825, -0.109425, -0.035966, 2.6297E-009, -1.00103E-008
1, 720.00000, -0.10944, -0.0359712, -0.0684, -0.022482, -0.10944, -0.0359711, 2.63071E-009, -1.00121E-008
1, 780.00000, -0.10944, -0.0359712, -0.0684, -0.022482, -0.10944, -0.0359712, 2.63071E-009, -1.00121E-008
1, 840.00000, -0.10944, -0.0359712, -0.0684, -0.022482, -0.10944, -0.0359712, 2.63071E-009, -1.00121E-008
1, 900.00000, -0.10944, -0.0359712, -0.0684, -0.022482, -0.10944, -0.0359712, 2.63071E-009, -1.00121E-008
1, 960.00000, -0.0957575, -0.0314739, -0.0957613, -0.0314752, -0.0684004, -0.0224822, 1.89788E-009, -5.1517E-009
1, 1020.00000, -0.09576, -0.0314748, -0.09576, -0.0314748, -0.0684, -0.022482, 1.89789E-009, -5.15218E-009
1, 1080.00000, -0.09576, -0.0314748, -0.09576, -0.0314748, -0.0684, -0.022482, 1.89789E-009, -5.15218E-009
1, 1140.00000, -0.09576, -0.0314748, -0.09576, -0.0314748, -0.0684, -0.022482, 1.89789E-009, -5.15218E-009
1, 1200.00000, -0.09576, -0.0314748, -0.09576, -0.0314748, -0.0684, -0.022482, 1.89789E-009, -5.15218E-009
1, 1260.00000, -0.0684017, -0.0224826, -0.0547198, -0.0179856, -0.0957584, -0.0314742, 2.49637E-009, -6.91048E-009
1, 1320.00000, -0.0684, -0.022482, -0.05472, -0.0179856, -0.09576, -0.0314748, 2.49668E-009, -6.91109E-009
1, 1380.00000, -0.0684, -0.022482, -0.05472, -0.0179856, -0.09576, -0.0314748, 2.49668E-009, -6.91109E-009
1, 1440.00000, -0.0684, -0.022482, -0.05472, -0.0179856, -0.09576, -0.0314748, 2.49668E-009, -6.91109E-009
1, 1500.00000, -0.0684, -0.022482, -0.05472, -0.0179856, -0.09576, -0.0314748, 2.49668E-009, -6.91109E-009
1, 1560.00000, -0.082079, -0.026978, -0.0684009, -0.0224823, -0.0957599, -0.0314748, 7.25473E-010, -3.00552E-009
1, 1620.00000, -0.08208, -0.0269784, -0.0684, -0.022482, -0.09576, -0.0314748, 7.2553E-010, -3.00581E-009
1, 1680.00000, -0.08208, -0.0269784, -0.0684, -0.022482, -0.09576, -0.0314748, 7.2553E-010, -3.00581E-009
1, 1740.00000, -0.08208, -0.0269784, -0.0684, -0.022482, -0.09576, -0.0314748, 7.2553E-010, -3.00581E-009
1, 1800.00000, -0.08208, -0.0269784, -0.0684, -0.022482, -0.09576, -0.0314748, 7.2553E-010, -3.00581E-009
1, 1860.00000, -0.0957587, -0.0314744, -0.0957599, -0.0314747, -0.109442, -0.0359717, 1.34873E-010, -5.65935E-010
1, 1920.00000, -0.09576, -0.0314748, -0.09576, -0.0314748, -0.10944, -0.0359712, 1.34712E-010, -5.65711E-010
1, 1980.00000, -0.09576, -0.0314748, -0.09576, -0.0314748, -0.10944, -0.0359712, 1.34711E-010, -5.6571E-010
1, 2040.00000, -0.09576, -0.0314748, -0.09576, -0.0314748, -0.10944, -0.0359712, 1.34711E-010, -5.6571E-010
1, 2100.00000, -0.09576, -0.0314748, -0.09576, -0.0314748, -0.10944, -0.0359712, 1.34711E-010, -5.6571E-010
1, 2160.00000, -0.0820809, -0.0269787, -0.09576, -0.0314748, -0.0820789, -0.026978, 8.42448E-010, -7.42667E-010
1, 2220.00000, -0.08208, -0.0269784, -0.09576, -0.0314748, -0.08208, -0.0269784, 8.42457E-010, -7.42565E-010
1, 2280.00000, -0.08208, -0.0269784, -0.09576, -0.0314748, -0.08208, -0.0269784, 8.42457E-010, -7.42565E-010
1, 2340.00000, -0.08208, -0.0269784, -0.09576, -0.0314748, -0.08208, -0.0269784, 8.42457E-010, -7.42565E-010
1, 2400.00000, -0.08208, -0.0269784, -0.09576, -0.0314748, -0.08208, -0.0269784, 8.42457E-010, -7.42565E-010
1, 2460.00000, -0.095772, -0.0314785, -0.0957661, -0.0314771, -0.0820706, -0.0269752, 4.35766E-010, -1.52103E-009
1, 2520.00000, -0.0957601, -0.0314748, -0.09576, -0.0314748, -0.0820799, -0.0269784, 4.34624E-010, -1.51736E-009
1, 2580.00000, -0.09576, -0.0314748, -0.09576, -0.0314748, -0.08208, -0.0269784, 4.34621E-010, -1.51734E-009
1, 2640.00000, -0.09576, -0.0314748, -0.09576, -0.0314748, -0.08208, -0.0269784, 4.34621E-010, -1.51734E-009
1, 2700.00000, -0.09576, -0.0314748, -0.09576, -0.0314748, -0.08208, -0.0269784, 4.34621E-010, -1.51734E-009
1, 2760.00000, -0.0957526, -0.0314726, -0.0820683, -0.0269744, -0.0820815, -0.0269789, -1.38861E-011, -1.72567E-009
1, 2820.00000, -0.09576, -0.0314748, -0.08208, -0.0269784, -0.08208, -0.0269784, -1.36016E-011, -1.72626E-009
1, 2880.00000, -0.09576, -0.0314748, -0.08208, -0.0269784, -0.08208, -0.0269784, -1.35988E-011, -1.72627E-009
1, 2940.00000, -0.09576, -0.0314748, -0.08208, -0.0269784, -0.08208, -0.0269784, -1.35988E-011, -1.72627E-009
1, 3000.00000, -0.09576, -0.0314748, -0.08208, -0.0269784, -0.08208, -0.0269784, -1.35988E-011, -1.72627E-009
1, 3060.00000, -0.0957522, -0.0314723, -0.0957656, -0.0314764, -0.0684076, -0.0224846, 1.88742E-009, -5.12417E-009
1, 3120.00000, -0.0957599, -0.0314747, -0.0957601, -0.0314748, -0.0684, -0.022482, 1.88814E-009, -5.12758E-009
1, 3180.00000, -0.09576, -0.0314748, -0.09576, -0.0314748, -0.0684, -0.022482, 1.88814E-009, -5.12759E-009
1, 3240.00000, -0.09576, -0.0314748, -0.09576, -0.0314748, -0.0684, -0.022482, 1.88814E-009, -5.12759E-009
1, 3300.00000, -0.09576, -0.0314748, -0.09576, -0.0314748, -0.0684, -0.022482, 1.88814E-009, -5.12759E-009
1, 3360.00000, -0.0957623, -0.0314756, -0.0820776, -0.0269776, -0.10944, -0.0359712, 6.00508E-010, -2.97414E-009
1, 3420.00000, -0.09576, -0.0314748, -0.08208, -0.0269784, -0.10944, -0.0359712, 6.0038E-010, -2.9734E-009
1, 3480.00000, -0.09576, -0.0314748, -0.08208, -0.0269784, -0.10944, -0.0359712, 6.00378E-010, -2.9734E-009
1, 3540.00000, -0.09576, -0.0314748, -0.08208, -0.0269784, -0.10944, -0.0359712, 6.00378E-010, -2.9734E-009
2, 0.00000, -0.09576, -0.0314748, -0.08208, -0.0269784, -0.10944, -0.0359712, 6.00378E-010, -2.9734E-009
2, 60.00000, -0.0547195, -0.0179854, -0.0820824, -0.0269791, -0.0684001, -0.0224821, 2.0306E-009, -2.2202E-009
2, 120.00000, -0.05472, -0.0179856, -0.08208, -0.0269784, -0.0684, -0.022482, 2.03023E-009, -2.21966E-009
2, 180.00000, -0.05472, -0.0179856, -0.08208, -0.0269784, -0.0684, -0.022482, 2.03022E-009, -2.21965E-009
2, 240.00000, -0.05472, -0.0179856, -0.08208, -0.0269784, -0.0684, -0.022482, 2.03022E-009, -2.21965E-009
2, 300.00000, -0.05472, -0.0179856, -0.08208, -0.0269784, -0.0684, -0.022482, 2.03022E-009, -2.21965E-009
2, 360.00000, -0.082079, -0.026978, -0.0820822, -0.0269791, -0.0820787, -0.026978, -1.01834E-010, -9.1713E-012
2, 420.00000, -0.08208, -0.0269784, -0.08208, -0.0269784, -0.08208, -0.0269784, -1.01939E-010, -9.22525E-012
2, 480.00000, -0.08208, -0.0269784, -0.08208, -0.0269784, -0.08208, -0.0269784, -1.0194E-010, -9.22474E-012
2, 540.00000, -0.08208, -0.0269784, -0.08208, -0.0269784, -0.08208, -0.0269784, -1.0194E-010, -9.22472E-012
2, 600.00000, -0.08208, -0.0269784, -0.08208, -0.0269784, -0.08208, -0.0269784, -1.0194E-010, -9.22472E-012
2, 660.00000, -0.0684088, -0.0224844, -0.0684119, -0.0224864, -0.0820655, -0.0269736, 2.59503E-010, -7.12202E-010
2, 720.00000, -0.0684002, -0.022482, -0.0684, -0.022482, -0.0820798, -0.0269783, 2.60819E-010, -7.15493E-010
2, 780.00000, -0.0684, -0.022482, -0.0684, -0.022482, -0.08208, -0.0269784, 2.60837E-010, -7.15522E-010
2, 840.00000, -0.0684, -0.022482, -0.0684, -0.022482, -0.08208, -0.0269784, 2.60837E-010, -7.15522E-010
2, 900.00000, -0.0684, -0.022482, -0.0684, -0.022482, -0.08208, -0.0269784, 2.60837E-010, -7.15522E-010
2, 960.00000, -0.0957594, -0.0314747, -0.0957558, -0.0314733, -0.0820835, -0.0269795, 4.4433E-010, -1.51068E-009
2, 1020.00000, -0.09576, -0.0314748, -0.09576, -0.0314748, -0.08208, -0.0269784, 4.44871E-010, -1.51161E-009
2, 1080.00000, -0.09576, -0.0314748, -0.09576, -0.0314748, -0.08208, -0.0269784, 4.44876E-010, -1.51162E-009
2, 1140.00000, -0.09576, -0.0314748, -0.09576, -0.0314748, -0.08208, -0.0269784, 4.44876E-010, -1.51162E-009
2, 1200.00000, -0.09576, -0.0314748, -0.09576, -0.0314748, -0.08208, -0.0269784, 4.44876E-010, -1.51162E-009
2, 1260.00000, -0.0820931, -0.0269826, -0.068402, -0.0224829, -0.0820749, -0.0269765, -3.55026E-011, -1.25544E-009
2, 1320.00000, -0.0820801, -0.0269784, -0.0683999, -0.022482, -0.08208, -0.0269784, -3.54182E-011, -1.25458E-009
2, 1380.00000, -0.08208, -0.0269784, -0.0684, -0.022482, -0.08208, -0.0269784, -3.5421E-011, -1.25456E-009
2, 1440.00000, -0.08208, -0.0269784, -0.0684, -0.022482, -0.08208, -0.0269784, -3.5421E-011, -1.25456E-009
2, 1500.00000, -0.08208, -0.0269784, -0.0684, -0.022482, -0.08208, -0.0269784, -3.5421E-011, -1.25456E-009
2, 1560.00000, -0.0683988, -0.0224815, -0.0957632, -0.0314758, -0.0547195, -0.0179855, 4.11563E-009, -7.12382E-009
2, 1620.00000, -0.0684, -0.022482, -0.0957601, -0.0314748, -0.05472, -0.0179856, 4.11484E-009, -7.12252E-009
2, 1680.00000, -0.0684, -0.022482, -0.09576, -0.0314748, -0.05472, -0.0179856, 4.11483E-009, -7.12251E-009
2, 1740.00000, -0.0684, -0.022482, -0.09576, -0.0314748, -0.05472, -0.0179856, 4.11483E-009, -7.12251E-009
2, 1800.00000, -0.0684, -0.022482, -0.09576, -0.0314748, -0.05472, -0.0179856, 4.11483E-009, -7.12251E-009
2, 1860.00000, -0.0820796, -0.0269785, -0.0820675, -0.0269743, -0.0547179, -0.0179848, 1.8678E-009, -4.95203E-009
2, 1920.00000, -0.08208, -0.0269784, -0.0820799, -0.0269784, -0.05472, -0.0179856, 1.86871E-009, -4.95308E-009
2, 1980.00000, -0.08208, -0.0269784, -0.08208, -0.0269784, -0.05472, -0.0179856, 1.86872E-009, -4.95311E-009
2, 2040.00000, -0.08208, -0.0269784, -0.08208, -0.0269784, -0.05472, -0.0179856, 1.86872E-009, -4.95311E-009
2, 2100.00000, -0.08208, -0.0269784, -0.08208, -0.0269784, -0.05472, -0.0179856, 1.86872E-009, -4.95311E-009
2, 2160.00000, -0.0820747, -0.0269765, -0.0820874, -0.0269807, -0.0957637, -0.0314763, 2.0758E-010, -6.39906E-010
2, 2220.00000, -0.08208, -0.0269784, -0.0820801, -0.0269784, -0.09576, -0.0314748, 2.07079E-010, -6.39992E-010
2, 2280.00000, -0.08208, -0.0269784, -0.08208, -0.0269784, -0.09576, -0.0314748, 2.07079E-010, -6.40002E-010
2, 2340.00000, -0.08208, -0.0269784, -0.08208, -0.0269784, -0.09576, -0.0314748, 2.07079E-010, -6.40003E-010
2, 2400.00000, -0.08208, -0.0269784, -0.08208, -0.0269784, -0.09576, -0.0314748, 2.07079E-010, -6.40003E-010
2, 2460.00000, -0.0547188, -0.0179852, -0.054721, -0.0179859, -0.0820804, -0.0269786, 1.50608E-009, -3.60078E-009
2, 2520.00000, -0.05472, -0.0179856, -0.05472, -0.0179856, -0.08208, -0.0269784, 1.50598E-009, -3.60068E-009
2, 2580.00000, -0.05472, -0.0179856, -0.05472, -0.0179856, -0.08208, -0.0269784, 1.50598E-009, -3.60068E-009
2, 2640.00000, -0.05472, -0.0179856, -0.05472, -0.0179856, -0.08208, -0.0269784, 1.50598E-009, -3.60068E-009
2, 2700.00000, -0.05472, -0.0179856, -0.05472, -0.0179856, -0.08208, -0.0269784, 1.50598E-009, -3.60068E-009
2, 2760.00000, -0.0820814, -0.0269789, -0.0683985, -0.0224815, -0.0684005, -0.0224821, 7.5251E-011, -1.59795E-009
2, 2820.00000, -0.08208, -0.0269784, -0.0684, -0.022482, -0.0684, -0.022482, 7.5194E-011, -1.5976E-009
2, 2880.00000, -0.08208, -0.0269784, -0.0684, -0.022482, -0.0684, -0.022482, 7.51943E-011, -1.5976E-009
2, 2940.00000, -0.08208, -0.0269784, -0.0684, -0.022482, -0.0684, -0.022482, 7.51943E-011, -1.5976E-009
2, 3000.00000, -0.08208, -0.0269784, -0.0684, -0.022482, -0.0684, -0.022482, 7.51943E-011, -1.5976E-009
2, 3060.00000, -0.082084, -0.0269796, -0.0820798, -0.0269785, -0.0820755, -0.0269768, -1.03817E-010, -4.23673E-012
2, 3120.00000, -0.0820801, -0.0269784, -0.08208, -0.0269784, -0.08208, -0.0269784, -1.03752E-010, -3.92359E-012
2, 3180.00000, -0.08208, -0.0269784, -0.08208, -0.0269784, -0.08208, -0.0269784, -1.0375E-010, -3.91959E-012
2, 3240.00000, -0.08208, -0.0269784, -0.08208, -0.0269784, -0.08208, -0.0269784, -1.0375E-010, -3.91956E-012
2, 3300.00000, -0.08208, -0.0269784, -0.08208, -0.0269784, -0.08208, -0.0269784, -1.0375E-010, -3.91956E-012
2, 3360.00000, -0.068396, -0.0224807, -0.0957597, -0.0314744, -0.0684043, -0.0224835, 2.70749E-009, -3.58548E-009
2, 3420.00000, -0.0683999, -0.022482, -0.0957601, -0.0314748, -0.0684, -0.022482, 2.70751E-009, -3.58601E-009
2, 3480.00000, -0.0684, -0.022482, -0.09576, -0.0314748, -0.0684, -0.022482, 2.7075E-009, -3.586E-009
2, 3540.00000, -0.0684, -0.022482, -0.09576, -0.0314748, -0.0684, -0.022482, 2.7075E-009, -3.586E-009
3, 0.00000, -0.0684, -0.022482, -0.09576, -0.0314748, -0.0684, -0.022482, 2.7075E-009, -3.586E-009
3, 60.00000, -0.0820837, -0.0269796, -0.0683986, -0.0224816, -0.0820774, -0.0269774, -3.18339E-011, -1.25441E-009
3, 120.00000, -0.08208, -0.0269784, -0.0684, -0.022482, -0.08208, -0.0269784, -3.18642E-011, -1.25391E-009
