hour, t(sec), V1, VAngle1, V2, VAngle2, V3, VAngle3, V4, VAngle4, I1, IAngle1, I2, IAngle2, I3, IAngle3, I4, IAngle4
0, 60.00000, 223.387, -30.1436, 223.471, -150.164, 223.624, 89.8507, 0.000327118, -126.623, 1.02067, 131.662, 0.89275, 11.6414, 0.509787, -108.344, 0.252993, -50.8686
0, 120.00000, 223.387, -30.1436, 223.471, -150.164, 223.624, 89.8507, 0.00032711, -126.622, 1.02065, 131.662, 0.892736, 11.6414, 0.509783, -108.344, 0.252986, -50.8684
0, 180.00000, 223.387, -30.1436, 223.471, -150.164, 223.624, 89.8507, 0.00032711, -126.622, 1.02065, 131.662, 0.892736, 11.6414, 0.509783, -108.344, 0.252986, -50.8684
0, 240.00000, 223.387, -30.1436, 223.471, -150.164, 223.624, 89.8507, 0.00032711, -126.622, 1.02065, 131.662, 0.892736, 11.6414, 0.509783, -108.344, 0.252986, -50.8684
0, 300.00000, 223.387, -30.1436, 223.471, -150.164, 223.624, 89.8507, 0.00032711, -126.622, 1.02065, 131.662, 0.892736, 11.6414, 0.509783, -108.344, 0.252986, -50.8684
0, 360.00000, 223.263, -30.1519, 223.452, -150.172, 223.555, 89.849, 0.000175268, -25.4404, 1.02122, 131.653, 0.765267, 11.6329, 1.01988, -108.346, 0.155954, 53.8898
0, 420.00000, 223.263, -30.1519, 223.452, -150.172, 223.555, 89.849, 0.000175269, -25.4404, 1.02122, 131.653, 0.765265, 11.6329, 1.01988, -108.346, 0.155956, 53.8898
0, 480.00000, 223.263, -30.1519, 223.452, -150.172, 223.555, 89.849, 0.000175269, -25.4404, 1.02122, 131.653, 0.765265, 11.6329, 1.01988, -108.346, 0.155956, 53.8898
0, 540.00000, 223.263, -30.1519, 223.452, -150.172, 223.555, 89.849, 0.000175269, -25.4404, 1.02122, 131.653, 0.765265, 11.6329, 1.01988, -108.346, 0.155956, 53.8898
0, 600.00000, 223.263, -30.1519, 223.452, -150.172, 223.555, 89.849, 0.000175269, -25.4404, 1.02122, 131.653, 0.765265, 11.6329, 1.01988, -108.346, 0.155956, 53.8898
0, 660.00000, 223.357, -30.151, 223.449, -150.157, 223.529, 89.8469, 0.000140049, 136.048, 0.893177, 131.654, 1.14795, 11.6483, 1.01999, -108.349, 0.112355, -165.467
0, 720.00000, 223.357, -30.1509, 223.448, -150.157, 223.529, 89.8468, 0.000140028, 136.042, 0.893187, 131.654, 1.14792, 11.6481, 1.02, -108.348, 0.112339, -165.475
0, 780.00000, 223.357, -30.1509, 223.448, -150.157, 223.529, 89.8468, 0.000140028, 136.042, 0.893187, 131.654, 1.14792, 11.6481, 1.02, -108.348, 0.112339, -165.475
0, 840.00000, 223.357, -30.1509, 223.448, -150.157, 223.529, 89.8468, 0.000140028, 136.042, 0.893187, 131.654, 1.14792, 11.6481, 1.02, -108.348, 0.112339, -165.475
0, 900.00000, 223.357, -30.1509, 223.448, -150.157, 223.529, 89.8468, 0.000140028, 136.042, 0.893187, 131.654, 1.14792, 11.6481, 1.02, -108.348, 0.112339, -165.475
0, 960.00000, 223.367, -30.1552, 223.46, -150.157, 223.425, 89.8432, 0.000157913, 35.6027, 1.02074, 131.65, 1.02032, 11.6482, 1.2756, -108.352, 0.157473, 107.64
0, 1020.00000, 223.367, -30.1552, 223.46, -150.157, 223.425, 89.8432, 0.000157913, 35.6027, 1.02074, 131.65, 1.02032, 11.6482, 1.27559, -108.352, 0.157472, 107.64
0, 1080.00000, 223.367, -30.1552, 223.46, -150.157, 223.425, 89.8432, 0.000157913, 35.6026, 1.02074, 131.65, 1.02032, 11.6482, 1.27559, -108.352, 0.157472, 107.64
0, 1140.00000, 223.367, -30.1552, 223.46, -150.157, 223.425, 89.8432, 0.000157913, 35.6026, 1.02074, 131.65, 1.02032, 11.6482, 1.27559, -108.352, 0.157472, 107.64
0, 1200.00000, 223.367, -30.1552, 223.46, -150.157, 223.425, 89.8432, 0.000157913, 35.6026, 1.02074, 131.65, 1.02032, 11.6482, 1.27559, -108.352, 0.157472, 107.64
0, 1260.00000, 223.324, -30.1386, 223.377, -150.179, 223.634, 89.8449, 0.000185898, -82.8034, 1.14856, 131.667, 0.893111, 11.6258, 0.892082, -108.35, 0.146482, -2.67121
0, 1320.00000, 223.324, -30.1386, 223.377, -150.179, 223.634, 89.8449, 0.000185899, -82.803, 1.14856, 131.667, 0.893109, 11.6258, 0.892083, -108.35, 0.146482, -2.67076
0, 1380.00000, 223.324, -30.1386, 223.377, -150.179, 223.634, 89.8449, 0.000185899, -82.803, 1.14856, 131.667, 0.893109, 11.6258, 0.892083, -108.35, 0.146482, -2.67076
0, 1440.00000, 223.324, -30.1386, 223.377, -150.179, 223.634, 89.8449, 0.000185899, -82.803, 1.14856, 131.667, 0.893109, 11.6258, 0.892083, -108.35, 0.146482, -2.67076
0, 1500.00000, 223.324, -30.1386, 223.377, -150.179, 223.634, 89.8449, 0.000185899, -82.803, 1.14856, 131.667, 0.893109, 11.6258, 0.892083, -108.35, 0.146482, -2.67076
0, 1560.00000, 223.41, -30.1215, 223.272, -150.167, 223.693, 89.8383, 0.000157796, 103.041, 0.892976, 131.684, 1.14882, 11.6381, 1.14666, -108.357, 0.139349, 165.055
0, 1620.00000, 223.41, -30.1215, 223.272, -150.167, 223.693, 89.8383, 0.000157796, 103.041, 0.892976, 131.684, 1.14882, 11.6381, 1.14666, -108.357, 0.139349, 165.056
0, 1680.00000, 223.41, -30.1215, 223.272, -150.167, 223.693, 89.8383, 0.000157796, 103.041, 0.892976, 131.684, 1.14882, 11.6381, 1.14666, -108.357, 0.139349, 165.056
0, 1740.00000, 223.41, -30.1215, 223.272, -150.167, 223.693, 89.8383, 0.000157795, 103.041, 0.892976, 131.684, 1.14882, 11.6381, 1.14666, -108.357, 0.139349, 165.056
0, 1800.00000, 223.41, -30.1215, 223.272, -150.167, 223.693, 89.8383, 0.000157795, 103.041, 0.892976, 131.684, 1.14882, 11.6381, 1.14666, -108.357, 0.139349, 165.056
0, 1860.00000, 223.282, -30.1463, 223.332, -150.166, 223.496, 89.8378, 0.000221932, 16.5824, 1.02109, 131.659, 0.893294, 11.6396, 1.27518, -108.357, 0.203979, 92.0526
0, 1920.00000, 223.282, -30.1464, 223.332, -150.165, 223.496, 89.8378, 0.000221936, 16.5766, 1.02113, 131.659, 0.893287, 11.6396, 1.27519, -108.357, 0.203983, 92.0472
0, 1980.00000, 223.282, -30.1464, 223.332, -150.165, 223.496, 89.8378, 0.000221936, 16.5766, 1.02113, 131.659, 0.893286, 11.6396, 1.27519, -108.357, 0.203983, 92.0472
0, 2040.00000, 223.282, -30.1464, 223.332, -150.165, 223.496, 89.8378, 0.000221936, 16.5766, 1.02113, 131.659, 0.893286, 11.6396, 1.27519, -108.357, 0.203983, 92.0472
0, 2100.00000, 223.282, -30.1464, 223.332, -150.165, 223.496, 89.8378, 0.000221936, 16.5766, 1.02113, 131.659, 0.893286, 11.6396, 1.27519, -108.357, 0.203983, 92.0472
0, 2160.00000, 223.403, -30.14, 223.421, -150.16, 223.527, 89.8428, 7.06936E-005, 32.9141, 1.02059, 131.665, 1.02052, 11.6454, 1.14751, -108.352, 0.0844927, 103.06
0, 2220.00000, 223.403, -30.14, 223.421, -150.16, 223.527, 89.8428, 7.07123E-005, 32.9113, 1.02058, 131.665, 1.02049, 11.6453, 1.14751, -108.352, 0.0845083, 103.059
0, 2280.00000, 223.403, -30.14, 223.421, -150.16, 223.527, 89.8428, 7.07123E-005, 32.9114, 1.02058, 131.665, 1.02049, 11.6453, 1.14751, -108.352, 0.0845084, 103.059
0, 2340.00000, 223.403, -30.14, 223.421, -150.16, 223.527, 89.8428, 7.07123E-005, 32.9114, 1.02058, 131.665, 1.02049, 11.6453, 1.14751, -108.352, 0.0845084, 103.059
0, 2400.00000, 223.403, -30.14, 223.421, -150.16, 223.527, 89.8428, 7.07123E-005, 32.9114, 1.02058, 131.665, 1.02049, 11.6453, 1.14751, -108.352, 0.0845084, 103.059
0, 2460.00000, 223.279, -30.1684, 223.56, -150.15, 223.376, 89.8505, 0.000100617, -86.2126, 1.14879, 131.637, 1.01986, 11.6551, 1.0207, -108.344, 0.0791604, 3.34604
0, 2520.00000, 223.279, -30.1684, 223.56, -150.15, 223.376, 89.8506, 0.000100617, -86.2128, 1.14879, 131.637, 1.01986, 11.6552, 1.0207, -108.344, 0.0791603, 3.34603
0, 2580.00000, 223.279, -30.1684, 223.56, -150.15, 223.376, 89.8506, 0.000100617, -86.2128, 1.14879, 131.637, 1.01986, 11.6552, 1.0207, -108.344, 0.0791603, 3.34603
0, 2640.00000, 223.279, -30.1684, 223.56, -150.15, 223.376, 89.8506, 0.000100617, -86.2128, 1.14879, 131.637, 1.01986, 11.6552, 1.0207, -108.344, 0.0791603, 3.34603
0, 2700.00000, 223.279, -30.1684, 223.56, -150.15, 223.376, 89.8506, 0.000100617, -86.2128, 1.14879, 131.637, 1.01986, 11.6552, 1.0207, -108.344, 0.0791603, 3.34603
0, 2760.00000, 223.242, -30.1711, 223.635, -150.151, 223.416, 89.8647, 0.000144192, 4.21104, 1.02131, 131.634, 0.892078, 11.6546, 1.14808, -108.33, 0.137486, 80.7484
0, 2820.00000, 223.242, -30.171, 223.635, -150.151, 223.416, 89.8647, 0.000144193, 4.21132, 1.02131, 131.634, 0.892077, 11.6546, 1.14808, -108.33, 0.137487, 80.7487
0, 2880.00000, 223.242, -30.171, 223.635, -150.151, 223.416, 89.8647, 0.000144193, 4.21133, 1.02131, 131.634, 0.892077, 11.6546, 1.14808, -108.33, 0.137487, 80.7487
0, 2940.00000, 223.242, -30.171, 223.635, -150.151, 223.416, 89.8647, 0.000144193, 4.21133, 1.02131, 131.634, 0.892077, 11.6546, 1.14808, -108.33, 0.137487, 80.7487
0, 3000.00000, 223.242, -30.171, 223.635, -150.151, 223.416, 89.8647, 0.000144193, 4.21133, 1.02131, 131.634, 0.892077, 11.6546, 1.14808, -108.33, 0.137487, 80.7487
0, 3060.00000, 223.446, -30.1574, 223.418, -150.142, 223.372, 89.8282, 0.000222218, 145.543, 0.892831, 131.648, 1.27564, 11.6633, 1.02072, -108.367, 0.171948, -151.5
0, 3120.00000, 223.446, -30.1574, 223.418, -150.142, 223.372, 89.8282, 0.000222219, 145.543, 0.892831, 131.648, 1.27564, 11.6632, 1.02072, -108.367, 0.171949, -151.499
0, 3180.00000, 223.446, -30.1574, 223.418, -150.142, 223.372, 89.8282, 0.000222219, 145.543, 0.892831, 131.648, 1.27564, 11.6632, 1.02072, -108.367, 0.171949, -151.499
0, 3240.00000, 223.446, -30.1574, 223.418, -150.142, 223.372, 89.8282, 0.000222219, 145.543, 0.892831, 131.648, 1.27564, 11.6632, 1.02072, -108.367, 0.171949, -151.499
0, 3300.00000, 223.446, -30.1574, 223.418, -150.142, 223.372, 89.8282, 0.000222219, 145.543, 0.892831, 131.648, 1.27564, 11.6632, 1.02072, -108.367, 0.171949, -151.499
0, 3360.00000, 223.437, -30.1325, 223.235, -150.157, 223.471, 89.8242, 0.000307599, 149.701, 1.02042, 131.673, 1.53202, 11.648, 1.1478, -108.371, 0.238295, -144.788
0, 3420.00000, 223.437, -30.1325, 223.235, -150.157, 223.471, 89.8242, 0.000307598, 149.701, 1.02042, 131.673, 1.53202, 11.648, 1.1478, -108.371, 0.238293, -144.788
0, 3480.00000, 223.437, -30.1325, 223.235, -150.157, 223.471, 89.8242, 0.000307598, 149.701, 1.02042, 131.673, 1.53202, 11.648, 1.1478, -108.371, 0.238293, -144.788
0, 3540.00000, 223.437, -30.1325, 223.235, -150.157, 223.471, 89.8242, 0.000307598, 149.701, 1.02042, 131.673, 1.53202, 11.648, 1.1478, -108.371, 0.238293, -144.788
1, 0.00000, 223.437, -30.1325, 223.235, -150.157, 223.471, 89.8242, 0.000307598, 149.701, 1.02042, 131.673, 1.53202, 11.648, 1.1478, -108.371, 0.238293, -144.788
1, 60.00000, 223.603, -30.1344, 223.559, -150.142, 223.643, 89.8422, 0.000213676, 80.7552, 0.637289, 131.671, 0.892388, 11.663, 1.01948, -108.353, 0.191883, 148.492
1, 120.00000, 223.603, -30.1344, 223.559, -150.142, 223.643, 89.8422, 0.000213676, 80.7538, 0.63729, 131.671, 0.892382, 11.663, 1.01948, -108.353, 0.191883, 148.49
1, 180.00000, 223.603, -30.1344, 223.559, -150.142, 223.643, 89.8422, 0.000213676, 80.7538, 0.63729, 131.671, 0.892382, 11.663, 1.01948, -108.353, 0.191883, 148.49
1, 240.00000, 223.603, -30.1344, 223.559, -150.142, 223.643, 89.8422, 0.000213676, 80.7538, 0.63729, 131.671, 0.892382, 11.663, 1.01948, -108.353, 0.191883, 148.49
1, 300.00000, 223.603, -30.1344, 223.559, -150.142, 223.643, 89.8422, 0.000213676, 80.7538, 0.63729, 131.671, 0.892382, 11.663, 1.01948, -108.353, 0.191883, 148.49
1, 360.00000, 223.5, -30.127, 223.522, -150.167, 223.798, 89.8529, 0.000101683, -85.2212, 1.02013, 131.678, 0.892528, 11.6385, 0.891434, -108.342, 0.0764032, 4.12183
1, 420.00000, 223.5, -30.127, 223.522, -150.167, 223.798, 89.8529, 0.000101687, -85.2227, 1.02013, 131.678, 0.892528, 11.6385, 0.891429, -108.342, 0.0764062, 4.11946
1, 480.00000, 223.5, -30.127, 223.522, -150.167, 223.798, 89.8529, 0.000101687, -85.2227, 1.02013, 131.678, 0.892528, 11.6385, 0.891429, -108.342, 0.0764062, 4.11945
1, 540.00000, 223.5, -30.127, 223.522, -150.167, 223.798, 89.8529, 0.000101687, -85.2227, 1.02013, 131.678, 0.892528, 11.6385, 0.891429, -108.342, 0.0764062, 4.11945
1, 600.00000, 223.5, -30.127, 223.522, -150.167, 223.798, 89.8529, 0.000101687, -85.2227, 1.02013, 131.678, 0.892528, 11.6385, 0.891429, -108.342, 0.0764062, 4.11945
1, 660.00000, 223.529, -30.135, 223.513, -150.152, 223.713, 89.846, 9.8279E-005, -86.2003, 1.02002, 131.67, 0.89257, 11.6535, 0.891733, -108.349, 0.0782147, 1.63261
1, 720.00000, 223.529, -30.1351, 223.513, -150.152, 223.713, 89.846, 9.82568E-005, -86.1883, 1.02, 131.67, 0.892565, 11.6536, 0.891768, -108.349, 0.0782029, 1.64793
1, 780.00000, 223.529, -30.1351, 223.513, -150.152, 223.713, 89.846, 9.82566E-005, -86.1883, 1.02, 131.67, 0.892565, 11.6536, 0.891768, -108.349, 0.0782028, 1.64799
1, 840.00000, 223.529, -30.1351, 223.513, -150.152, 223.713, 89.846, 9.82566E-005, -86.1883, 1.02, 131.67, 0.892565, 11.6536, 0.891768, -108.349, 0.0782028, 1.64799
1, 900.00000, 223.529, -30.1351, 223.513, -150.152, 223.713, 89.846, 9.82566E-005, -86.1883, 1.02, 131.67, 0.892565, 11.6536, 0.891768, -108.349, 0.0782028, 1.64799
1, 960.00000, 223.324, -30.1426, 223.532, -150.179, 223.745, 89.8577, 0.000157747, -55.0157, 0.893315, 131.663, 0.637496, 11.6264, 0.764264, -108.337, 0.133124, 26.2379
1, 1020.00000, 223.324, -30.1426, 223.532, -150.179, 223.745, 89.8577, 0.000157752, -55.0164, 0.893322, 131.663, 0.637493, 11.6264, 0.764263, -108.337, 0.133128, 26.237
1, 1080.00000, 223.324, -30.1426, 223.532, -150.179, 223.745, 89.8577, 0.000157752, -55.0164, 0.893322, 131.663, 0.637493, 11.6264, 0.764263, -108.337, 0.133128, 26.2369
1, 1140.00000, 223.324, -30.1426, 223.532, -150.179, 223.745, 89.8577, 0.000157752, -55.0164, 0.893322, 131.663, 0.637493, 11.6264, 0.764263, -108.337, 0.133128, 26.2369
1, 1200.00000, 223.324, -30.1426, 223.532, -150.179, 223.745, 89.8577, 0.000157752, -55.0164, 0.893322, 131.663, 0.637493, 11.6264, 0.764263, -108.337, 0.133128, 26.2369
1, 1260.00000, 223.497, -30.145, 223.603, -150.154, 223.666, 89.8524, 1.65741E-005, -116.494, 0.892636, 131.66, 0.892204, 11.651, 0.891951, -108.342, 0.0162849, 62.1373
1, 1320.00000, 223.497, -30.145, 223.603, -150.154, 223.666, 89.8524, 1.65683E-005, -116.499, 0.89263, 131.66, 0.892205, 11.651, 0.891955, -108.342, 0.0162851, 62.1546
1, 1380.00000, 223.497, -30.145, 223.603, -150.154, 223.666, 89.8524, 1.65683E-005, -116.499, 0.89263, 131.66, 0.892205, 11.651, 0.891955, -108.342, 0.0162851, 62.1547
1, 1440.00000, 223.497, -30.145, 223.603, -150.154, 223.666, 89.8524, 1.65683E-005, -116.499, 0.89263, 131.66, 0.892205, 11.651, 0.891955, -108.342, 0.0162851, 62.1547
1, 1500.00000, 223.497, -30.145, 223.603, -150.154, 223.666, 89.8524, 1.65683E-005, -116.499, 0.89263, 131.66, 0.892205, 11.651, 0.891955, -108.342, 0.0162851, 62.1547
1, 1560.00000, 223.464, -30.1512, 223.669, -150.147, 223.646, 89.8554, 0.000172739, 164.304, 0.765219, 131.654, 1.01937, 11.6583, 0.7646, -108.34, 0.128883, -130.017
1, 1620.00000, 223.464, -30.1512, 223.669, -150.147, 223.646, 89.8554, 0.000172736, 164.304, 0.765222, 131.654, 1.01936, 11.6583, 0.7646, -108.34, 0.128881, -130.016
1, 1680.00000, 223.464, -30.1512, 223.669, -150.147, 223.646, 89.8554, 0.000172736, 164.304, 0.765222, 131.654, 1.01936, 11.6583, 0.7646, -108.34, 0.128881, -130.016
1, 1740.00000, 223.464, -30.1512, 223.669, -150.147, 223.646, 89.8554, 0.000172736, 164.304, 0.765222, 131.654, 1.01936, 11.6583, 0.7646, -108.34, 0.128881, -130.016
1, 1800.00000, 223.464, -30.1512, 223.669, -150.147, 223.646, 89.8554, 0.000172736, 164.304, 0.765222, 131.654, 1.01936, 11.6583, 0.7646, -108.34, 0.128881, -130.016
1, 1860.00000, 223.406, -30.1423, 223.593, -150.163, 223.761, 89.8591, 7.4451E-005, 104.941, 0.76542, 131.663, 0.892244, 11.642, 0.891581, -108.336, 0.0691715, 161.011
1, 1920.00000, 223.406, -30.1423, 223.593, -150.163, 223.761, 89.8591, 7.44483E-005, 104.943, 0.765423, 131.663, 0.892245, 11.6419, 0.891577, -108.336, 0.0691688, 161.012
1, 1980.00000, 223.406, -30.1423, 223.593, -150.163, 223.761, 89.8591, 7.44483E-005, 104.943, 0.765423, 131.663, 0.892245, 11.6419, 0.891577, -108.336, 0.0691687, 161.012
1, 2040.00000, 223.406, -30.1423, 223.593, -150.163, 223.761, 89.8591, 7.44483E-005, 104.943, 0.765423, 131.663, 0.892245, 11.6419, 0.891577, -108.336, 0.0691687, 161.012
1, 2100.00000, 223.406, -30.1423, 223.593, -150.163, 223.761, 89.8591, 7.44483E-005, 104.943, 0.765423, 131.663, 0.892245, 11.6419, 0.891577, -108.336, 0.0691687, 161.012
1, 2160.00000, 223.408, -30.1484, 223.642, -150.161, 223.689, 89.8622, 0.000163722, -110.909, 1.02056, 131.657, 0.89205, 11.6441, 0.764451, -108.333, 0.121674, -31.7075
1, 2220.00000, 223.408, -30.1484, 223.642, -150.161, 223.689, 89.8622, 0.000163719, -110.908, 1.02055, 131.657, 0.89205, 11.6441, 0.764453, -108.333, 0.121672, -31.7073
1, 2280.00000, 223.408, -30.1484, 223.642, -150.161, 223.689, 89.8622, 0.000163719, -110.908, 1.02055, 131.657, 0.89205, 11.6441, 0.764453, -108.333, 0.121672, -31.7073
1, 2340.00000, 223.408, -30.1484, 223.642, -150.161, 223.689, 89.8622, 0.000163719, -110.908, 1.02055, 131.657, 0.89205, 11.6441, 0.764453, -108.333, 0.121672, -31.7073
1, 2400.00000, 223.408, -30.1484, 223.642, -150.161, 223.689, 89.8622, 0.000163719, -110.908, 1.02055, 131.657, 0.89205, 11.6441, 0.764453, -108.333, 0.121672, -31.7073
1, 2460.00000, 223.492, -30.1547, 223.739, -150.143, 223.629, 89.8625, 0.000258411, -23.5744, 0.892683, 131.65, 0.509532, 11.6619, 0.892073, -108.332, 0.226906, 52.5462
1, 2520.00000, 223.492, -30.1547, 223.739, -150.143, 223.629, 89.8625, 0.000258414, -23.5662, 0.892649, 131.65, 0.509522, 11.662, 0.892103, -108.332, 0.22691, 52.5537
1, 2580.00000, 223.492, -30.1547, 223.739, -150.143, 223.629, 89.8625, 0.000258414, -23.5661, 0.892649, 131.65, 0.509522, 11.662, 0.892103, -108.332, 0.22691, 52.5537
1, 2640.00000, 223.492, -30.1547, 223.739, -150.143, 223.629, 89.8625, 0.000258414, -23.5661, 0.892649, 131.65, 0.509522, 11.662, 0.892103, -108.332, 0.22691, 52.5537
1, 2700.00000, 223.492, -30.1547, 223.739, -150.143, 223.629, 89.8625, 0.000258414, -23.5661, 0.892649, 131.65, 0.509522, 11.662, 0.892103, -108.332, 0.22691, 52.5537
1, 2760.00000, 223.433, -30.1462, 223.61, -150.152, 223.635, 89.8568, 0.000239636, -157.282, 0.892863, 131.659, 1.01959, 11.6533, 0.6372, -108.338, 0.176398, -84.6565
1, 2820.00000, 223.433, -30.1462, 223.61, -150.152, 223.635, 89.8568, 0.000239659, -157.283, 0.892884, 131.659, 1.01963, 11.6532, 0.637198, -108.338, 0.176416, -84.6573
1, 2880.00000, 223.433, -30.1462, 223.61, -150.152, 223.635, 89.8568, 0.000239659, -157.283, 0.892884, 131.659, 1.01963, 11.6532, 0.637198, -108.338, 0.176416, -84.6573
1, 2940.00000, 223.433, -30.1462, 223.61, -150.152, 223.635, 89.8568, 0.000239659, -157.283, 0.892884, 131.659, 1.01963, 11.6532, 0.637198, -108.338, 0.176416, -84.6573
1, 3000.00000, 223.433, -30.1462, 223.61, -150.152, 223.635, 89.8568, 0.000239659, -157.283, 0.892884, 131.659, 1.01963, 11.6532, 0.637198, -108.338, 0.176416, -84.6573
1, 3060.00000, 223.433, -30.153, 223.665, -150.15, 223.642, 89.8574, 0.000137283, 68.3703, 0.637762, 131.652, 0.764548, 11.6555, 0.892076, -108.337, 0.129513, 137.096
1, 3120.00000, 223.432, -30.153, 223.665, -150.15, 223.642, 89.8575, 0.000137261, 68.3679, 0.637777, 131.652, 0.764534, 11.6554, 0.892051, -108.337, 0.129495, 137.093
1, 3180.00000, 223.432, -30.153, 223.665, -150.15, 223.642, 89.8575, 0.000137261, 68.3678, 0.637777, 131.652, 0.764534, 11.6554, 0.892051, -108.337, 0.129495, 137.093
1, 3240.00000, 223.432, -30.153, 223.665, -150.15, 223.642, 89.8575, 0.000137261, 68.3678, 0.637777, 131.652, 0.764534, 11.6554, 0.892051, -108.337, 0.129495, 137.093
1, 3300.00000, 223.432, -30.153, 223.665, -150.15, 223.642, 89.8575, 0.000137261, 68.3678, 0.637777, 131.652, 0.764534, 11.6554, 0.892051, -108.337, 0.129495, 137.093
1, 3360.00000, 223.574, -30.1376, 223.519, -150.148, 223.635, 89.8394, 9.95497E-005, -136.331, 0.892329, 131.668, 0.892537, 11.6571, 0.764639, -108.356, 0.061389, -58.6908
1, 3420.00000, 223.574, -30.1376, 223.518, -150.148, 223.635, 89.8394, 9.95499E-005, -136.335, 0.892323, 131.668, 0.892544, 11.6571, 0.764639, -108.356, 0.0613883, -58.6963
1, 3480.00000, 223.574, -30.1376, 223.518, -150.148, 223.635, 89.8394, 9.955E-005, -136.335, 0.892323, 131.668, 0.892544, 11.6571, 0.764639, -108.356, 0.0613883, -58.6963
1, 3540.00000, 223.574, -30.1376, 223.518, -150.148, 223.635, 89.8394, 9.955E-005, -136.335, 0.892323, 131.668, 0.892544, 11.6571, 0.764639, -108.356, 0.0613883, -58.6963
