hour, t(sec), P1 (kW), Q1 (kvar), P2 (kW), Q2 (kvar), P3 (kW), Q3 (kvar), P4 (kW), Q4 (kvar)
0, 60.00000, -0.0605115, -0.0199047, -0.0777969, -0.0255604, -0.0864627, -0.0284062, 3.37887E-006, -4.77228E-006
0, 120.00000, -0.0605108, -0.0199053, -0.0777911, -0.0255588, -0.0864715, -0.0284095, 3.38568E-006, -4.77533E-006
0, 180.00000, -0.0605106, -0.0199052, -0.0777912, -0.0255588, -0.0864715, -0.0284095, 3.38577E-006, -4.77533E-006
0, 240.00000, -0.0605106, -0.0199052, -0.0777912, -0.0255588, -0.0864715, -0.0284095, 3.38576E-006, -4.77533E-006
0, 300.00000, -0.0605106, -0.0199052, -0.0777912, -0.0255588, -0.0864715, -0.0284095, 3.38576E-006, -4.77533E-006
0, 360.00000, -0.051867, -0.0170391, -0.0691724, -0.0227367, -0.0777956, -0.0255824, -7.23868E-007, 4.0341E-006
0, 420.00000, -0.0518686, -0.0170396, -0.0691716, -0.0227364, -0.077794, -0.0255819, -7.2494E-007, 4.03301E-006
0, 480.00000, -0.0518686, -0.0170396, -0.0691716, -0.0227364, -0.0777941, -0.025582, -7.24944E-007, 4.03299E-006
0, 540.00000, -0.0518686, -0.0170396, -0.0691716, -0.0227364, -0.0777941, -0.025582, -7.24944E-007, 4.03299E-006
0, 600.00000, -0.0518686, -0.0170396, -0.0691716, -0.0227364, -0.0777941, -0.025582, -7.24944E-007, 4.03299E-006
0, 660.00000, -0.0518604, -0.0170396, -0.0691647, -0.0227319, -0.0518749, -0.0170572, 2.39362E-006, 3.23572E-007
0, 720.00000, -0.0518672, -0.0170421, -0.0691697, -0.0227332, -0.0518656, -0.0170545, 2.39506E-006, 3.26684E-007
0, 780.00000, -0.0518673, -0.0170422, -0.0691696, -0.0227331, -0.0518656, -0.0170545, 2.39492E-006, 3.26672E-007
0, 840.00000, -0.0518673, -0.0170422, -0.0691696, -0.0227331, -0.0518656, -0.0170545, 2.39492E-006, 3.26671E-007
0, 900.00000, -0.0518673, -0.0170422, -0.0691696, -0.0227331, -0.0518656, -0.0170545, 2.39492E-006, 3.26671E-007
0, 960.00000, -0.060506, -0.0198929, -0.0691603, -0.0227219, -0.0605242, -0.0198967, 2.15798E-007, -1.1976E-006
0, 1020.00000, -0.0605071, -0.0198932, -0.0691617, -0.0227223, -0.0605214, -0.0198957, 2.15595E-007, -1.19735E-006
0, 1080.00000, -0.0605071, -0.0198932, -0.0691617, -0.0227223, -0.0605214, -0.0198957, 2.15576E-007, -1.19734E-006
0, 1140.00000, -0.0605071, -0.0198932, -0.0691617, -0.0227223, -0.0605214, -0.0198957, 2.15576E-007, -1.19734E-006
0, 1200.00000, -0.0605071, -0.0198932, -0.0691617, -0.0227223, -0.0605214, -0.0198957, 2.15576E-007, -1.19734E-006
0, 1260.00000, -0.0691674, -0.0227251, -0.0691652, -0.0227417, -0.0518599, -0.0170452, 2.22939E-006, 6.60088E-007
0, 1320.00000, -0.0691668, -0.0227254, -0.0691621, -0.0227408, -0.0518633, -0.0170469, 2.22699E-006, 6.59803E-007
0, 1380.00000, -0.0691667, -0.0227254, -0.0691621, -0.0227408, -0.0518634, -0.0170469, 2.22697E-006, 6.59781E-007
0, 1440.00000, -0.0691667, -0.0227254, -0.0691621, -0.0227408, -0.0518634, -0.0170469, 2.22697E-006, 6.59781E-007
0, 1500.00000, -0.0691667, -0.0227254, -0.0691621, -0.0227408, -0.0518634, -0.0170469, 2.22697E-006, 6.59781E-007
0, 1560.00000, -0.060512, -0.0198853, -0.0778128, -0.0255703, -0.0605117, -0.0198982, 2.22789E-006, -5.41419E-007
0, 1620.00000, -0.0605095, -0.0198845, -0.077815, -0.0255708, -0.0605128, -0.019898, 2.2296E-006, -5.41822E-007
0, 1680.00000, -0.0605095, -0.0198845, -0.077815, -0.0255709, -0.0605127, -0.019898, 2.22962E-006, -5.41811E-007
0, 1740.00000, -0.0605095, -0.0198845, -0.077815, -0.0255709, -0.0605127, -0.019898, 2.22962E-006, -5.41811E-007
0, 1800.00000, -0.0605095, -0.0198845, -0.077815, -0.0255709, -0.0605127, -0.019898, 2.22962E-006, -5.41811E-007
0, 1860.00000, -0.0605115, -0.019888, -0.051877, -0.0170524, -0.0691594, -0.0227304, -1.75924E-007, -3.06209E-007
0, 1920.00000, -0.0605163, -0.0198896, -0.05187, -0.0170501, -0.0691585, -0.0227309, -1.73521E-007, -3.08524E-007
0, 1980.00000, -0.0605162, -0.0198896, -0.05187, -0.0170501, -0.0691586, -0.022731, -1.73495E-007, -3.08492E-007
0, 2040.00000, -0.0605162, -0.0198896, -0.05187, -0.0170501, -0.0691586, -0.022731, -1.73496E-007, -3.08491E-007
0, 2100.00000, -0.0605162, -0.0198896, -0.05187, -0.0170501, -0.0691586, -0.022731, -1.73496E-007, -3.08491E-007
0, 2160.00000, -0.0691558, -0.0227336, -0.0778093, -0.0255643, -0.0605143, -0.0198958, -1.33754E-007, -1.95696E-006
0, 2220.00000, -0.069151, -0.0227324, -0.0778094, -0.0255641, -0.0605194, -0.0198969, -1.33406E-007, -1.95875E-006
0, 2280.00000, -0.0691509, -0.0227324, -0.0778095, -0.0255641, -0.0605194, -0.0198969, -1.33365E-007, -1.95877E-006
0, 2340.00000, -0.0691509, -0.0227324, -0.0778095, -0.0255641, -0.0605194, -0.0198969, -1.33365E-007, -1.95877E-006
0, 2400.00000, -0.0691509, -0.0227324, -0.0778095, -0.0255641, -0.0605194, -0.0198969, -1.33365E-007, -1.95877E-006
0, 2460.00000, -0.0605177, -0.0198874, -0.0778045, -0.0255798, -0.0691578, -0.0227294, -7.05423E-007, 1.0919E-006
0, 2520.00000, -0.0605196, -0.0198879, -0.0778047, -0.02558, -0.069155, -0.0227285, -7.05824E-007, 1.09284E-006
0, 2580.00000, -0.0605197, -0.019888, -0.0778046, -0.02558, -0.069155, -0.0227285, -7.0584E-007, 1.09283E-006
0, 2640.00000, -0.0605197, -0.019888, -0.0778046, -0.02558, -0.069155, -0.0227285, -7.05839E-007, 1.09283E-006
0, 2700.00000, -0.0605197, -0.019888, -0.0778046, -0.02558, -0.069155, -0.0227285, -7.05839E-007, 1.09283E-006
0, 2760.00000, -0.0778024, -0.0255735, -0.0691623, -0.0227302, -0.0778053, -0.0255746, -7.90225E-008, 2.6661E-007
0, 2820.00000, -0.0778026, -0.0255739, -0.0691606, -0.0227296, -0.0778067, -0.0255751, -7.8675E-008, 2.66929E-007
0, 2880.00000, -0.0778026, -0.0255739, -0.0691606, -0.0227296, -0.0778068, -0.0255751, -7.86772E-008, 2.66935E-007
0, 2940.00000, -0.0778026, -0.0255739, -0.0691606, -0.0227296, -0.0778068, -0.0255751, -7.86773E-008, 2.66935E-007
0, 3000.00000, -0.0778026, -0.0255739, -0.0691606, -0.0227296, -0.0778068, -0.0255751, -7.86773E-008, 2.66935E-007
0, 3060.00000, -0.0605262, -0.0198981, -0.0605036, -0.019893, -0.0691595, -0.0227193, 2.85161E-007, -1.48388E-006
0, 3120.00000, -0.0605231, -0.0198972, -0.060505, -0.0198939, -0.0691622, -0.0227199, 2.84829E-007, -1.48378E-006
0, 3180.00000, -0.0605231, -0.0198972, -0.060505, -0.0198939, -0.0691621, -0.0227199, 2.84803E-007, -1.48376E-006
0, 3240.00000, -0.0605231, -0.0198972, -0.060505, -0.0198939, -0.0691621, -0.0227199, 2.84803E-007, -1.48376E-006
0, 3300.00000, -0.0605231, -0.0198972, -0.060505, -0.0198939, -0.0691621, -0.0227199, 2.84803E-007, -1.48376E-006
0, 3360.00000, -0.043223, -0.0142018, -0.0691678, -0.0227367, -0.0777996, -0.0255776, -1.0736E-006, 3.23201E-006
0, 3420.00000, -0.0432254, -0.0142027, -0.0691663, -0.0227361, -0.0777973, -0.0255769, -1.07603E-006, 3.23028E-006
0, 3480.00000, -0.0432254, -0.0142027, -0.0691662, -0.0227361, -0.0777973, -0.0255769, -1.07603E-006, 3.23023E-006
0, 3540.00000, -0.0432254, -0.0142027, -0.0691662, -0.0227361, -0.0777973, -0.0255769, -1.07603E-006, 3.23023E-006
1, 0.00000, -0.0432254, -0.0142027, -0.0691662, -0.0227361, -0.0777973, -0.0255769, -1.07603E-006, 3.23023E-006
1, 60.00000, -0.0605222, -0.019894, -0.0432203, -0.0142104, -0.0432247, -0.0142018, 1.97402E-006, 1.02682E-006
1, 120.00000, -0.0605219, -0.0198939, -0.0432203, -0.0142104, -0.0432248, -0.0142018, 1.97389E-006, 1.02681E-006
1, 180.00000, -0.0605219, -0.0198939, -0.0432203, -0.0142104, -0.0432248, -0.0142018, 1.97389E-006, 1.02681E-006
1, 240.00000, -0.0605219, -0.0198939, -0.0432203, -0.0142104, -0.0432248, -0.0142018, 1.97389E-006, 1.02681E-006
1, 300.00000, -0.0605219, -0.0198939, -0.0432203, -0.0142104, -0.0432248, -0.0142018, 1.97389E-006, 1.02681E-006
1, 360.00000, -0.0691586, -0.0227295, -0.0432265, -0.0142076, -0.0432243, -0.0142086, -3.28469E-007, -7.91978E-007
1, 420.00000, -0.0691591, -0.0227297, -0.0432264, -0.0142076, -0.0432241, -0.0142085, -3.2828E-007, -7.91996E-007
1, 480.00000, -0.0691591, -0.0227297, -0.0432264, -0.0142076, -0.0432241, -0.0142085, -3.2828E-007, -7.91996E-007
1, 540.00000, -0.0691591, -0.0227297, -0.0432264, -0.0142076, -0.0432241, -0.0142085, -3.2828E-007, -7.91996E-007
1, 600.00000, -0.0691591, -0.0227297, -0.0432264, -0.0142076, -0.0432241, -0.0142085, -3.2828E-007, -7.91996E-007
1, 660.00000, -0.0691671, -0.0227288, -0.0432264, -0.0142134, -0.0518631, -0.0170438, 2.32428E-006, -1.70052E-006
1, 720.00000, -0.0691683, -0.0227292, -0.0432238, -0.0142126, -0.0518652, -0.0170444, 2.3253E-006, -1.69971E-006
1, 780.00000, -0.0691683, -0.0227292, -0.0432238, -0.0142126, -0.0518652, -0.0170444, 2.32531E-006, -1.6997E-006
1, 840.00000, -0.0691683, -0.0227292, -0.0432238, -0.0142126, -0.0518652, -0.0170444, 2.32531E-006, -1.6997E-006
1, 900.00000, -0.0691683, -0.0227292, -0.0432238, -0.0142126, -0.0518652, -0.0170444, 2.32531E-006, -1.6997E-006
1, 960.00000, -0.0432246, -0.0142129, -0.0432202, -0.0142044, -0.0605222, -0.0198868, 1.95749E-006, -1.02452E-006
1, 1020.00000, -0.0432248, -0.0142129, -0.0432203, -0.0142044, -0.0605219, -0.0198867, 1.95732E-006, -1.02451E-006
1, 1080.00000, -0.0432248, -0.0142129, -0.0432203, -0.0142044, -0.0605219, -0.0198867, 1.95732E-006, -1.02451E-006
1, 1140.00000, -0.0432248, -0.0142129, -0.0432203, -0.0142044, -0.0605219, -0.0198867, 1.95732E-006, -1.02451E-006
1, 1200.00000, -0.0432248, -0.0142129, -0.0432203, -0.0142044, -0.0605219, -0.0198867, 1.95732E-006, -1.02451E-006
1, 1260.00000, -0.0605174, -0.019884, -0.0518738, -0.0170535, -0.0432202, -0.0142081, 1.31793E-006, -1.0525E-006
1, 1320.00000, -0.0605175, -0.019884, -0.0518736, -0.0170534, -0.0432202, -0.0142081, 1.31791E-006, -1.05246E-006
1, 1380.00000, -0.0605175, -0.019884, -0.0518736, -0.0170534, -0.0432202, -0.0142081, 1.31791E-006, -1.05246E-006
1, 1440.00000, -0.0605175, -0.019884, -0.0518736, -0.0170534, -0.0432202, -0.0142081, 1.31791E-006, -1.05246E-006
1, 1500.00000, -0.0605175, -0.019884, -0.0518736, -0.0170534, -0.0432202, -0.0142081, 1.31791E-006, -1.05246E-006
1, 1560.00000, -0.0691747, -0.022719, -0.0605184, -0.019907, -0.0604987, -0.0198849, 1.84345E-006, -1.63544E-006
1, 1620.00000, -0.0691746, -0.0227189, -0.0605183, -0.0199069, -0.0604989, -0.0198849, 1.84335E-006, -1.63542E-006
1, 1680.00000, -0.0691746, -0.0227189, -0.0605183, -0.0199069, -0.0604989, -0.0198849, 1.84335E-006, -1.63542E-006
1, 1740.00000, -0.0691746, -0.0227189, -0.0605183, -0.0199069, -0.0604989, -0.0198849, 1.84335E-006, -1.63542E-006
1, 1800.00000, -0.0691746, -0.0227189, -0.0605183, -0.0199069, -0.0604989, -0.0198849, 1.84335E-006, -1.63542E-006
1, 1860.00000, -0.0691669, -0.0227364, -0.0518643, -0.0170516, -0.0691607, -0.0227234, 1.89443E-006, -9.28344E-007
1, 1920.00000, -0.069167, -0.0227365, -0.0518643, -0.0170516, -0.0691605, -0.0227234, 1.89442E-006, -9.2836E-007
1, 1980.00000, -0.069167, -0.0227365, -0.0518643, -0.0170516, -0.0691605, -0.0227234, 1.89442E-006, -9.2836E-007
1, 2040.00000, -0.069167, -0.0227365, -0.0518643, -0.0170516, -0.0691605, -0.0227234, 1.89442E-006, -9.2836E-007
1, 2100.00000, -0.069167, -0.0227365, -0.0518643, -0.0170516, -0.0691605, -0.0227234, 1.89442E-006, -9.2836E-007
1, 2160.00000, -0.0605129, -0.0198959, -0.0605112, -0.0198858, -0.0518751, -0.0170479, -8.37437E-007, 1.61299E-007
1, 2220.00000, -0.060513, -0.0198959, -0.0605111, -0.0198858, -0.051875, -0.0170479, -8.37429E-007, 1.61331E-007
1, 2280.00000, -0.060513, -0.0198959, -0.0605111, -0.0198858, -0.051875, -0.0170479, -8.37429E-007, 1.61332E-007
1, 2340.00000, -0.060513, -0.0198959, -0.0605111, -0.0198858, -0.051875, -0.0170479, -8.37429E-007, 1.61332E-007
1, 2400.00000, -0.060513, -0.0198959, -0.0605111, -0.0198858, -0.051875, -0.0170479, -8.37429E-007, 1.61332E-007
1, 2460.00000, -0.0518695, -0.0170447, -0.0605145, -0.0198907, -0.0518705, -0.0170524, 6.34136E-007, 2.94351E-007
1, 2520.00000, -0.0518697, -0.0170447, -0.0605194, -0.0198924, -0.0518666, -0.0170512, 6.35534E-007, 2.9477E-007
1, 2580.00000, -0.0518697, -0.0170447, -0.0605194, -0.0198924, -0.0518666, -0.0170512, 6.35534E-007, 2.9477E-007
1, 2640.00000, -0.0518697, -0.0170447, -0.0605194, -0.0198924, -0.0518666, -0.0170512, 6.35534E-007, 2.9477E-007
1, 2700.00000, -0.0518697, -0.0170447, -0.0605194, -0.0198924, -0.0518666, -0.0170512, 6.35534E-007, 2.9477E-007
1, 2760.00000, -0.0605059, -0.0198828, -0.077824, -0.0255701, -0.0605082, -0.0199, 3.0258E-006, -1.10861E-006
1, 2820.00000, -0.0605063, -0.019883, -0.0778187, -0.0255683, -0.060513, -0.0199014, 3.02284E-006, -1.10846E-006
1, 2880.00000, -0.0605063, -0.019883, -0.0778187, -0.0255683, -0.060513, -0.0199014, 3.02284E-006, -1.10846E-006
1, 2940.00000, -0.0605063, -0.019883, -0.0778187, -0.0255683, -0.060513, -0.0199014, 3.02284E-006, -1.10846E-006
1, 3000.00000, -0.0605063, -0.019883, -0.0778187, -0.0255683, -0.060513, -0.0199014, 3.02284E-006, -1.10846E-006
1, 3060.00000, -0.0691674, -0.0227224, -0.0691641, -0.0227446, -0.0518605, -0.017046, 3.05233E-006, 9.36933E-007
1, 3120.00000, -0.0691694, -0.0227231, -0.0691628, -0.0227442, -0.0518609, -0.017046, 3.05245E-006, 9.37085E-007
1, 3180.00000, -0.0691694, -0.0227231, -0.0691628, -0.0227442, -0.0518609, -0.017046, 3.05245E-006, 9.37084E-007
1, 3240.00000, -0.0691694, -0.0227231, -0.0691628, -0.0227442, -0.0518609, -0.017046, 3.05245E-006, 9.37084E-007
1, 3300.00000, -0.0691694, -0.0227231, -0.0691628, -0.0227442, -0.0518609, -0.017046, 3.05245E-006, 9.37084E-007
1, 3360.00000, -0.0518686, -0.0170424, -0.0432302, -0.014209, -0.0605094, -0.0198956, -1.879E-006, 4.15628E-007
1, 3420.00000, -0.0518685, -0.0170423, -0.0432303, -0.014209, -0.0605093, -0.0198956, -1.87903E-006, 4.15652E-007
1, 3480.00000, -0.0518685, -0.0170423, -0.0432303, -0.014209, -0.0605093, -0.0198956, -1.87903E-006, 4.15653E-007
1, 3540.00000, -0.0518685, -0.0170423, -0.0432303, -0.014209, -0.0605093, -0.0198956, -1.87903E-006, 4.15653E-007
2, 0.00000, -0.0518685, -0.0170423, -0.0432303, -0.014209, -0.0605093, -0.0198956, -1.87903E-006, 4.15653E-007
2, 60.00000, -0.0605168, -0.0198932, -0.0518674, -0.017049, -0.0605163, -0.0198872, 4.897E-007, -8.25413E-010
2, 120.00000, -0.0605167, -0.0198932, -0.0518671, -0.0170489, -0.0605167, -0.0198874, 4.89773E-007, -7.99618E-010
2, 180.00000, -0.0605167, -0.0198932, -0.0518671, -0.0170489, -0.0605167, -0.0198874, 4.89773E-007, -7.99609E-010
2, 240.00000, -0.0605167, -0.0198932, -0.0518671, -0.0170489, -0.0605167, -0.0198874, 4.89773E-007, -7.99609E-010
2, 300.00000, -0.0605167, -0.0198932, -0.0518671, -0.0170489, -0.0605167, -0.0198874, 4.89773E-007, -7.99609E-010
2, 360.00000, -0.0518665, -0.0170431, -0.0518764, -0.0170488, -0.0432226, -0.0142122, 5.49198E-007, -9.46155E-007
2, 420.00000, -0.0518667, -0.0170432, -0.0518765, -0.0170488, -0.0432223, -0.0142121, 5.49295E-007, -9.46208E-007
2, 480.00000, -0.0518667, -0.0170432, -0.0518765, -0.0170488, -0.0432223, -0.0142121, 5.49295E-007, -9.46208E-007
2, 540.00000, -0.0518667, -0.0170432, -0.0518765, -0.0170488, -0.0432223, -0.0142121, 5.49295E-007, -9.46208E-007
2, 600.00000, -0.0518667, -0.0170432, -0.0518765, -0.0170488, -0.0432223, -0.0142121, 5.49295E-007, -9.46208E-007
2, 660.00000, -0.0432271, -0.0142076, -0.0432241, -0.0142097, -0.060514, -0.019887, -3.99376E-007, -9.78815E-007
2, 720.00000, -0.0432276, -0.0142077, -0.0432234, -0.0142095, -0.0605136, -0.0198869, -3.99361E-007, -9.79122E-007
2, 780.00000, -0.0432276, -0.0142077, -0.0432234, -0.0142095, -0.0605136, -0.0198869, -3.99359E-007, -9.79124E-007
2, 840.00000, -0.0432276, -0.0142077, -0.0432234, -0.0142095, -0.0605136, -0.0198869, -3.99359E-007, -9.79124E-007
2, 900.00000, -0.0432276, -0.0142077, -0.0432234, -0.0142095, -0.0605136, -0.0198869, -3.99359E-007, -9.79124E-007
2, 960.00000, -0.0432208, -0.0142101, -0.0432247, -0.0142023, -0.0518754, -0.0170516, 8.94268E-007, 4.63354E-007
2, 1020.00000, -0.0432207, -0.0142101, -0.0432248, -0.0142023, -0.0518754, -0.0170516, 8.94261E-007, 4.63356E-007
2, 1080.00000, -0.0432207, -0.0142101, -0.0432248, -0.0142023, -0.0518754, -0.0170516, 8.94261E-007, 4.63356E-007
2, 1140.00000, -0.0432207, -0.0142101, -0.0432248, -0.0142023, -0.0518754, -0.0170516, 8.94261E-007, 4.63356E-007
2, 1200.00000, -0.0432207, -0.0142101, -0.0432248, -0.0142023, -0.0518754, -0.0170516, 8.94261E-007, 4.63356E-007
2, 1260.00000, -0.0345781, -0.0113645, -0.0432283, -0.0142071, -0.0432241, -0.0142094, 3.23905E-007, 3.02287E-007
2, 1320.00000, -0.0345787, -0.0113647, -0.0432271, -0.0142067, -0.0432245, -0.0142095, 3.23679E-007, 3.02134E-007
2, 1380.00000, -0.0345787, -0.0113647, -0.0432271, -0.0142067, -0.0432245, -0.0142095, 3.23679E-007, 3.02134E-007
2, 1440.00000, -0.0345787, -0.0113647, -0.0432271, -0.0142067, -0.0432245, -0.0142095, 3.23679E-007, 3.02134E-007
2, 1500.00000, -0.0345787, -0.0113647, -0.0432271, -0.0142067, -0.0432245, -0.0142095, 3.23679E-007, 3.02134E-007
2, 1560.00000, -0.0345803, -0.0113639, -0.0345816, -0.011367, -0.0518671, -0.0170502, -9.40315E-007, 4.56719E-007
2, 1620.00000, -0.0345801, -0.0113638, -0.0345817, -0.0113671, -0.0518672, -0.0170502, -9.40295E-007, 4.56809E-007
2, 1680.00000, -0.0345801, -0.0113638, -0.0345817, -0.0113671, -0.0518672, -0.0170502, -9.40295E-007, 4.56809E-007
2, 1740.00000, -0.0345801, -0.0113638, -0.0345817, -0.0113671, -0.0518672, -0.0170502, -9.40295E-007, 4.56809E-007
2, 1800.00000, -0.0345801, -0.0113638, -0.0345817, -0.0113671, -0.0518672, -0.0170502, -9.40295E-007, 4.56809E-007
2, 1860.00000, -0.0518711, -0.0170506, -0.0432225, -0.0142092, -0.0605164, -0.0198854, 7.57591E-007, -1.07458E-006
2, 1920.00000, -0.0518737, -0.0170515, -0.0432216, -0.014209, -0.0605155, -0.019885, 7.57904E-007, -1.07521E-006
2, 1980.00000, -0.0518737, -0.0170515, -0.0432216, -0.014209, -0.0605155, -0.019885, 7.57904E-007, -1.07521E-006
2, 2040.00000, -0.0518737, -0.0170515, -0.0432216, -0.014209, -0.0605155, -0.019885, 7.57904E-007, -1.07521E-006
2, 2100.00000, -0.0518737, -0.0170515, -0.0432216, -0.014209, -0.0605155, -0.019885, 7.57904E-007, -1.07521E-006
2, 2160.00000, -0.0518763, -0.0170501, -0.0518679, -0.0170503, -0.0432209, -0.0142049, 1.74172E-007, 2.59289E-007
2, 2220.00000, -0.0518719, -0.0170487, -0.0518692, -0.0170505, -0.0432241, -0.0142061, 1.73264E-007, 2.58622E-007
2, 2280.00000, -0.0518719, -0.0170487, -0.0518692, -0.0170505, -0.0432241, -0.0142061, 1.73265E-007, 2.58621E-007
2, 2340.00000, -0.0518719, -0.0170487, -0.0518692, -0.0170505, -0.0432241, -0.0142061, 1.73265E-007, 2.58621E-007
2, 2400.00000, -0.0518719, -0.0170487, -0.0518692, -0.0170505, -0.0432241, -0.0142061, 1.73265E-007, 2.58621E-007
2, 2460.00000, -0.0518753, -0.0170453, -0.0518705, -0.0170552, -0.0518642, -0.0170461, 5.36954E-009, -6.07038E-009
2, 2520.00000, -0.0518753, -0.0170453, -0.0518705, -0.0170552, -0.0518643, -0.0170461, 5.36121E-009, -6.07321E-009
2, 2580.00000, -0.0518753, -0.0170453, -0.0518705, -0.0170552, -0.0518643, -0.0170461, 5.36128E-009, -6.0732E-009
2, 2640.00000, -0.0518753, -0.0170453, -0.0518705, -0.0170552, -0.0518643, -0.0170461, 5.36128E-009, -6.0732E-009
2, 2700.00000, -0.0518753, -0.0170453, -0.0518705, -0.0170552, -0.0518643, -0.0170461, 5.36128E-009, -6.0732E-009
2, 2760.00000, -0.0518713, -0.0170469, -0.0518711, -0.0170511, -0.0605122, -0.01989, -3.88921E-007, -5.0322E-008
2, 2820.00000, -0.0518714, -0.0170469, -0.0518709, -0.017051, -0.0605122, -0.01989, -3.88915E-007, -5.03597E-008
2, 2880.00000, -0.0518714, -0.0170469, -0.0518709, -0.017051, -0.0605122, -0.01989, -3.88915E-007, -5.03595E-008
2, 2940.00000, -0.0518714, -0.0170469, -0.0518709, -0.017051, -0.0605122, -0.01989, -3.88915E-007, -5.03595E-008
2, 3000.00000, -0.0518714, -0.0170469, -0.0518709, -0.017051, -0.0605122, -0.01989, -3.88915E-007, -5.03595E-008
2, 3060.00000, -0.060524, -0.0198888, -0.0432226, -0.0142134, -0.0605093, -0.0198834, 8.81777E-007, -2.42116E-006
2, 3120.00000, -0.0605239, -0.0198887, -0.0432228, -0.0142134, -0.0605092, -0.0198834, 8.81702E-007, -2.42112E-006
2, 3180.00000, -0.0605239, -0.0198887, -0.0432228, -0.0142134, -0.0605092, -0.0198834, 8.81702E-007, -2.42112E-006
2, 3240.00000, -0.0605239, -0.0198887, -0.0432228, -0.0142134, -0.0605092, -0.0198834, 8.81702E-007, -2.42112E-006
2, 3300.00000, -0.0605239, -0.0198887, -0.0432228, -0.0142134, -0.0605092, -0.0198834, 8.81702E-007, -2.42112E-006
