hour, t(sec), P1 (kW), Q1 (kvar), P2 (kW), Q2 (kvar), P3 (kW), Q3 (kvar), P4 (kW), Q4 (kvar)
0, 60.00000, -0.16416, -0.0539516, -0.218891, -0.0719444, -0.191518, -0.0629561, 1.45405E-006, 1.12342E-006
0, 120.00000, -0.164158, -0.0539509, -0.218888, -0.0719435, -0.191515, -0.0629554, 1.454E-006, 1.12339E-006
0, 180.00000, -0.164158, -0.0539509, -0.218888, -0.0719435, -0.191515, -0.0629554, 1.454E-006, 1.12339E-006
0, 240.00000, -0.164158, -0.0539509, -0.218888, -0.0719435, -0.191515, -0.0629554, 1.454E-006, 1.12339E-006
0, 300.00000, -0.164158, -0.0539509, -0.218888, -0.0719435, -0.191515, -0.0629554, 1.454E-006, 1.12339E-006
0, 360.00000, -0.164156, -0.0539619, -0.164158, -0.0539505, -0.24625, -0.080937, 3.29997E-006, 6.02226E-007
0, 420.00000, -0.164156, -0.0539619, -0.164158, -0.0539505, -0.24625, -0.080937, 3.29996E-006, 6.02221E-007
0, 480.00000, -0.164156, -0.0539619, -0.164158, -0.0539505, -0.24625, -0.080937, 3.29996E-006, 6.02221E-007
0, 540.00000, -0.164156, -0.0539619, -0.164158, -0.0539505, -0.24625, -0.080937, 3.29996E-006, 6.02221E-007
0, 600.00000, -0.164156, -0.0539619, -0.164158, -0.0539505, -0.24625, -0.080937, 3.29996E-006, 6.02221E-007
0, 660.00000, -0.218886, -0.071936, -0.218883, -0.0719527, -0.218873, -0.0719392, 9.02147E-009, -6.25029E-009
0, 720.00000, -0.218888, -0.0719364, -0.218881, -0.0719522, -0.218871, -0.0719386, 9.15788E-009, -6.34073E-009
0, 780.00000, -0.218888, -0.0719364, -0.218881, -0.0719522, -0.218871, -0.0719386, 9.15744E-009, -6.34154E-009
0, 840.00000, -0.218888, -0.0719364, -0.218881, -0.0719522, -0.218871, -0.0719386, 9.15743E-009, -6.34153E-009
0, 900.00000, -0.218888, -0.0719364, -0.218881, -0.0719522, -0.218871, -0.0719386, 9.15743E-009, -6.34153E-009
0, 960.00000, -0.191522, -0.0629405, -0.246248, -0.0809436, -0.191511, -0.0629521, 1.91102E-006, 1.8821E-006
0, 1020.00000, -0.191522, -0.0629405, -0.246249, -0.0809437, -0.191511, -0.0629521, 1.91104E-006, 1.8821E-006
0, 1080.00000, -0.191522, -0.0629405, -0.246249, -0.0809437, -0.191511, -0.0629521, 1.91104E-006, 1.8821E-006
0, 1140.00000, -0.191522, -0.0629405, -0.246249, -0.0809437, -0.191511, -0.0629521, 1.91104E-006, 1.8821E-006
0, 1200.00000, -0.191522, -0.0629405, -0.246249, -0.0809437, -0.191511, -0.0629521, 1.91104E-006, 1.8821E-006
0, 1260.00000, -0.191522, -0.0629472, -0.218882, -0.0719452, -0.191517, -0.0629495, 2.03653E-007, 3.4577E-007
0, 1320.00000, -0.191521, -0.0629471, -0.218882, -0.0719451, -0.191517, -0.0629496, 2.03644E-007, 3.45765E-007
0, 1380.00000, -0.191521, -0.0629471, -0.218882, -0.0719451, -0.191517, -0.0629496, 2.03644E-007, 3.45765E-007
0, 1440.00000, -0.191521, -0.0629471, -0.218882, -0.0719451, -0.191517, -0.0629496, 2.03644E-007, 3.45765E-007
0, 1500.00000, -0.191521, -0.0629471, -0.218882, -0.0719451, -0.191517, -0.0629496, 2.03644E-007, 3.45765E-007
0, 1560.00000, -0.218884, -0.0719194, -0.273622, -0.0899469, -0.191501, -0.0629565, 7.22024E-006, 2.76691E-006
0, 1620.00000, -0.218884, -0.0719193, -0.273622, -0.0899469, -0.191501, -0.0629565, 7.22024E-006, 2.76692E-006
0, 1680.00000, -0.218884, -0.0719193, -0.273622, -0.0899469, -0.191501, -0.0629565, 7.22024E-006, 2.76692E-006
0, 1740.00000, -0.218884, -0.0719193, -0.273622, -0.0899469, -0.191501, -0.0629565, 7.22024E-006, 2.76692E-006
0, 1800.00000, -0.218884, -0.0719193, -0.273622, -0.0899469, -0.191501, -0.0629565, 7.22024E-006, 2.76692E-006
0, 1860.00000, -0.19152, -0.0629351, -0.273616, -0.0899387, -0.191502, -0.0629545, 5.19641E-006, 3.22534E-006
0, 1920.00000, -0.19152, -0.0629353, -0.273617, -0.0899388, -0.191507, -0.0629563, 5.19588E-006, 3.22534E-006
0, 1980.00000, -0.19152, -0.0629353, -0.273617, -0.0899388, -0.191507, -0.0629563, 5.19588E-006, 3.22534E-006
0, 2040.00000, -0.19152, -0.0629353, -0.273617, -0.0899388, -0.191507, -0.0629563, 5.19588E-006, 3.22534E-006
0, 2100.00000, -0.19152, -0.0629353, -0.273617, -0.0899388, -0.191507, -0.0629563, 5.19588E-006, 3.22534E-006
0, 2160.00000, -0.191531, -0.0629414, -0.218883, -0.0719558, -0.164153, -0.0539554, 2.23978E-006, 2.1714E-006
0, 2220.00000, -0.191529, -0.0629405, -0.218884, -0.0719562, -0.16415, -0.0539541, 2.24002E-006, 2.17151E-006
0, 2280.00000, -0.191529, -0.0629405, -0.218884, -0.0719562, -0.16415, -0.0539541, 2.24002E-006, 2.17151E-006
0, 2340.00000, -0.191529, -0.0629405, -0.218884, -0.0719562, -0.16415, -0.0539541, 2.24002E-006, 2.17151E-006
0, 2400.00000, -0.191529, -0.0629405, -0.218884, -0.0719562, -0.16415, -0.0539541, 2.24002E-006, 2.17151E-006
0, 2460.00000, -0.218891, -0.0719428, -0.191515, -0.0629575, -0.218875, -0.0719329, 7.30087E-007, -1.12149E-006
0, 2520.00000, -0.218891, -0.0719429, -0.191515, -0.0629574, -0.218875, -0.0719329, 7.30101E-007, -1.1215E-006
0, 2580.00000, -0.218891, -0.0719429, -0.191515, -0.0629574, -0.218875, -0.0719329, 7.30101E-007, -1.1215E-006
0, 2640.00000, -0.218891, -0.0719429, -0.191515, -0.0629574, -0.218875, -0.0719329, 7.30101E-007, -1.1215E-006
0, 2700.00000, -0.218891, -0.0719429, -0.191515, -0.0629574, -0.218875, -0.0719329, 7.30101E-007, -1.1215E-006
0, 2760.00000, -0.273623, -0.0899302, -0.191511, -0.0629625, -0.218872, -0.0719258, 5.86713E-006, -1.40884E-006
0, 2820.00000, -0.273623, -0.0899302, -0.191511, -0.0629625, -0.218872, -0.0719258, 5.86712E-006, -1.40884E-006
0, 2880.00000, -0.273623, -0.0899302, -0.191511, -0.0629625, -0.218872, -0.0719258, 5.86712E-006, -1.40884E-006
0, 2940.00000, -0.273623, -0.0899302, -0.191511, -0.0629625, -0.218872, -0.0719258, 5.86712E-006, -1.40884E-006
0, 3000.00000, -0.273623, -0.0899302, -0.191511, -0.0629625, -0.218872, -0.0719258, 5.86712E-006, -1.40884E-006
0, 3060.00000, -0.191529, -0.0629417, -0.191522, -0.0629614, -0.16415, -0.0539534, 1.64157E-006, 5.64997E-007
0, 3120.00000, -0.191529, -0.0629417, -0.191522, -0.0629615, -0.16415, -0.0539534, 1.64157E-006, 5.65008E-007
0, 3180.00000, -0.191529, -0.0629417, -0.191522, -0.0629615, -0.16415, -0.0539534, 1.64157E-006, 5.65008E-007
0, 3240.00000, -0.191529, -0.0629417, -0.191522, -0.0629615, -0.16415, -0.0539534, 1.64157E-006, 5.65008E-007
0, 3300.00000, -0.191529, -0.0629417, -0.191522, -0.0629615, -0.16415, -0.0539534, 1.64157E-006, 5.65008E-007
0, 3360.00000, -0.218881, -0.0719366, -0.246245, -0.0809393, -0.218875, -0.0719445, 5.70215E-007, 4.58279E-007
0, 3420.00000, -0.218881, -0.0719366, -0.246245, -0.0809393, -0.218875, -0.0719445, 5.70207E-007, 4.58277E-007
0, 3480.00000, -0.218881, -0.0719366, -0.246245, -0.0809393, -0.218875, -0.0719445, 5.70207E-007, 4.58277E-007
0, 3540.00000, -0.218881, -0.0719366, -0.246245, -0.0809393, -0.218875, -0.0719445, 5.70207E-007, 4.58277E-007
1, 0.00000, -0.218881, -0.0719366, -0.246245, -0.0809393, -0.218875, -0.0719445, 5.70207E-007, 4.58277E-007
1, 60.00000, -0.191522, -0.0629369, -0.246253, -0.0809457, -0.191508, -0.0629542, 2.85033E-006, 2.31267E-006
1, 120.00000, -0.191522, -0.0629369, -0.246253, -0.0809456, -0.191508, -0.0629542, 2.85031E-006, 2.31265E-006
1, 180.00000, -0.191522, -0.0629369, -0.246253, -0.0809456, -0.191508, -0.0629542, 2.85031E-006, 2.31265E-006
1, 240.00000, -0.191522, -0.0629369, -0.246253, -0.0809456, -0.191508, -0.0629542, 2.85031E-006, 2.31265E-006
1, 300.00000, -0.191522, -0.0629369, -0.246253, -0.0809456, -0.191508, -0.0629542, 2.85031E-006, 2.31265E-006
1, 360.00000, -0.191525, -0.0629429, -0.191523, -0.0629573, -0.164153, -0.0539558, 1.18958E-006, 1.6197E-007
1, 420.00000, -0.191525, -0.062943, -0.191523, -0.0629573, -0.164153, -0.0539558, 1.18959E-006, 1.61971E-007
1, 480.00000, -0.191525, -0.062943, -0.191523, -0.0629573, -0.164153, -0.0539558, 1.18959E-006, 1.61971E-007
1, 540.00000, -0.191525, -0.062943, -0.191523, -0.0629573, -0.164153, -0.0539558, 1.18959E-006, 1.61971E-007
1, 600.00000, -0.191525, -0.062943, -0.191523, -0.0629573, -0.164153, -0.0539558, 1.18959E-006, 1.61971E-007
1, 660.00000, -0.164159, -0.0539502, -0.191527, -0.0629554, -0.164154, -0.0539578, 6.33634E-007, 7.26131E-007
1, 720.00000, -0.164162, -0.0539513, -0.191524, -0.0629547, -0.164154, -0.0539579, 6.33566E-007, 7.26046E-007
1, 780.00000, -0.164162, -0.0539513, -0.191524, -0.0629547, -0.164154, -0.0539579, 6.33566E-007, 7.26046E-007
1, 840.00000, -0.164162, -0.0539513, -0.191524, -0.0629547, -0.164154, -0.0539579, 6.33566E-007, 7.26046E-007
1, 900.00000, -0.164162, -0.0539513, -0.191524, -0.0629547, -0.164154, -0.0539579, 6.33566E-007, 7.26046E-007
1, 960.00000, -0.164162, -0.053961, -0.164155, -0.0539567, -0.191523, -0.0629448, 4.11766E-007, -6.90603E-007
1, 1020.00000, -0.164162, -0.053961, -0.164155, -0.0539567, -0.191523, -0.0629447, 4.11759E-007, -6.90597E-007
1, 1080.00000, -0.164162, -0.053961, -0.164155, -0.0539567, -0.191523, -0.0629447, 4.11759E-007, -6.90597E-007
1, 1140.00000, -0.164162, -0.053961, -0.164155, -0.0539567, -0.191523, -0.0629447, 4.11759E-007, -6.90597E-007
1, 1200.00000, -0.164162, -0.053961, -0.164155, -0.0539567, -0.191523, -0.0629447, 4.11759E-007, -6.90597E-007
1, 1260.00000, -0.191531, -0.0629382, -0.191524, -0.0629649, -0.136789, -0.0449612, 4.40265E-006, 1.09364E-006
1, 1320.00000, -0.191531, -0.0629382, -0.191524, -0.0629648, -0.136789, -0.0449612, 4.40262E-006, 1.09364E-006
1, 1380.00000, -0.191531, -0.0629382, -0.191524, -0.0629648, -0.136789, -0.0449612, 4.40262E-006, 1.09364E-006
1, 1440.00000, -0.191531, -0.0629382, -0.191524, -0.0629648, -0.136789, -0.0449612, 4.40262E-006, 1.09364E-006
1, 1500.00000, -0.191531, -0.0629382, -0.191524, -0.0629648, -0.136789, -0.0449612, 4.40262E-006, 1.09364E-006
1, 1560.00000, -0.191531, -0.0629525, -0.136794, -0.0449697, -0.164158, -0.0539474, 2.72313E-006, -7.1266E-007
1, 1620.00000, -0.191531, -0.0629526, -0.136794, -0.0449697, -0.164158, -0.0539474, 2.72314E-006, -7.12663E-007
1, 1680.00000, -0.191531, -0.0629526, -0.136794, -0.0449697, -0.164158, -0.0539474, 2.72314E-006, -7.12663E-007
1, 1740.00000, -0.191531, -0.0629526, -0.136794, -0.0449697, -0.164158, -0.0539474, 2.72314E-006, -7.12663E-007
1, 1800.00000, -0.191531, -0.0629526, -0.136794, -0.0449697, -0.164158, -0.0539474, 2.72314E-006, -7.12663E-007
1, 1860.00000, -0.191528, -0.0629522, -0.164155, -0.0539614, -0.191519, -0.0629416, 8.82237E-007, -7.69756E-007
1, 1920.00000, -0.191528, -0.0629522, -0.164155, -0.0539614, -0.191518, -0.0629416, 8.82235E-007, -7.69751E-007
1, 1980.00000, -0.191528, -0.0629522, -0.164155, -0.0539614, -0.191518, -0.0629416, 8.82235E-007, -7.69751E-007
1, 2040.00000, -0.191528, -0.0629522, -0.164155, -0.0539614, -0.191518, -0.0629416, 8.82235E-007, -7.69751E-007
1, 2100.00000, -0.191528, -0.0629522, -0.164155, -0.0539614, -0.191518, -0.0629416, 8.82235E-007, -7.69751E-007
1, 2160.00000, -0.218892, -0.0719277, -0.218887, -0.0719601, -0.136788, -0.0449621, 7.02935E-006, 1.12492E-006
1, 2220.00000, -0.218892, -0.0719277, -0.218887, -0.0719601, -0.136788, -0.0449621, 7.02933E-006, 1.12493E-006
1, 2280.00000, -0.218892, -0.0719277, -0.218887, -0.0719601, -0.136788, -0.0449621, 7.02933E-006, 1.12493E-006
1, 2340.00000, -0.218892, -0.0719277, -0.218887, -0.0719601, -0.136788, -0.0449621, 7.02933E-006, 1.12493E-006
1, 2400.00000, -0.218892, -0.0719277, -0.218887, -0.0719601, -0.136788, -0.0449621, 7.02933E-006, 1.12493E-006
1, 2460.00000, -0.218898, -0.0719544, -0.109432, -0.0359763, -0.191519, -0.0629307, 9.15984E-006, -1.88181E-006
1, 2520.00000, -0.218897, -0.0719541, -0.109431, -0.0359757, -0.191521, -0.0629315, 9.16015E-006, -1.88201E-006
1, 2580.00000, -0.218897, -0.0719541, -0.109431, -0.0359757, -0.191521, -0.0629315, 9.16015E-006, -1.88201E-006
1, 2640.00000, -0.218897, -0.0719541, -0.109431, -0.0359757, -0.191521, -0.0629315, 9.16015E-006, -1.88201E-006
1, 2700.00000, -0.218897, -0.0719541, -0.109431, -0.0359757, -0.191521, -0.0629315, 9.16015E-006, -1.88201E-006
1, 2760.00000, -0.19153, -0.0629438, -0.164157, -0.0539667, -0.136794, -0.0449594, 3.06806E-006, 2.06359E-007
1, 2820.00000, -0.191531, -0.0629441, -0.164159, -0.0539674, -0.136793, -0.044959, 3.06818E-006, 2.0641E-007
1, 2880.00000, -0.191531, -0.0629441, -0.164159, -0.0539674, -0.136793, -0.044959, 3.06818E-006, 2.0641E-007
1, 2940.00000, -0.191531, -0.0629441, -0.164159, -0.0539674, -0.136793, -0.044959, 3.06818E-006, 2.0641E-007
1, 3000.00000, -0.191531, -0.0629441, -0.164159, -0.0539674, -0.136793, -0.044959, 3.06818E-006, 2.0641E-007
1, 3060.00000, -0.191526, -0.0629509, -0.136797, -0.0449694, -0.191517, -0.0629407, 1.84695E-006, -1.91177E-006
1, 3120.00000, -0.191529, -0.0629518, -0.136795, -0.0449688, -0.191517, -0.0629407, 1.84723E-006, -1.91198E-006
1, 3180.00000, -0.191529, -0.0629518, -0.136795, -0.0449688, -0.191517, -0.0629407, 1.84723E-006, -1.91198E-006
1, 3240.00000, -0.191529, -0.0629518, -0.136795, -0.0449688, -0.191517, -0.0629407, 1.84723E-006, -1.91198E-006
1, 3300.00000, -0.191529, -0.0629518, -0.136795, -0.0449688, -0.191517, -0.0629407, 1.84723E-006, -1.91198E-006
1, 3360.00000, -0.136801, -0.0449612, -0.191523, -0.0629528, -0.164156, -0.0539574, 1.86515E-007, 1.03962E-006
1, 3420.00000, -0.136801, -0.0449611, -0.191523, -0.0629528, -0.164156, -0.0539574, 1.86523E-007, 1.03962E-006
1, 3480.00000, -0.136801, -0.0449611, -0.191523, -0.0629528, -0.164156, -0.0539574, 1.86523E-007, 1.03962E-006
1, 3540.00000, -0.136801, -0.0449611, -0.191523, -0.0629528, -0.164156, -0.0539574, 1.86523E-007, 1.03962E-006
2, 0.00000, -0.136801, -0.0449611, -0.191523, -0.0629528, -0.164156, -0.0539574, 1.86523E-007, 1.03962E-006
2, 60.00000, -0.191532, -0.0629478, -0.136797, -0.0449721, -0.136795, -0.0449572, 3.43273E-006, -5.0465E-007
2, 120.00000, -0.191532, -0.0629478, -0.136797, -0.044972, -0.136795, -0.0449572, 3.43274E-006, -5.04653E-007
2, 180.00000, -0.191532, -0.0629478, -0.136797, -0.044972, -0.136795, -0.0449572, 3.43274E-006, -5.04653E-007
2, 240.00000, -0.191532, -0.0629478, -0.136797, -0.044972, -0.136795, -0.0449572, 3.43274E-006, -5.04653E-007
2, 300.00000, -0.191532, -0.0629478, -0.136797, -0.044972, -0.136795, -0.0449572, 3.43274E-006, -5.04653E-007
2, 360.00000, -0.136797, -0.0449606, -0.191527, -0.0629479, -0.164159, -0.0539623, 1.59081E-006, 4.13344E-007
2, 420.00000, -0.136797, -0.0449606, -0.191526, -0.0629478, -0.164159, -0.0539623, 1.59079E-006, 4.13344E-007
2, 480.00000, -0.136797, -0.0449606, -0.191526, -0.0629478, -0.164159, -0.0539623, 1.59079E-006, 4.13343E-007
2, 540.00000, -0.136797, -0.0449606, -0.191526, -0.0629478, -0.164159, -0.0539623, 1.59079E-006, 4.13343E-007
2, 600.00000, -0.136797, -0.0449606, -0.191526, -0.0629478, -0.164159, -0.0539623, 1.59079E-006, 4.13343E-007
2, 660.00000, -0.136801, -0.0449625, -0.164162, -0.0539585, -0.164158, -0.0539575, -8.90753E-008, 3.36261E-007
2, 720.00000, -0.1368, -0.0449623, -0.164161, -0.0539583, -0.164158, -0.0539573, -8.9078E-008, 3.3625E-007
2, 780.00000, -0.1368, -0.0449623, -0.164161, -0.0539583, -0.164158, -0.0539573, -8.90782E-008, 3.3625E-007
2, 840.00000, -0.1368, -0.0449623, -0.164161, -0.0539583, -0.164158, -0.0539573, -8.90782E-008, 3.3625E-007
2, 900.00000, -0.1368, -0.0449623, -0.164161, -0.0539583, -0.164158, -0.0539573, -8.90782E-008, 3.3625E-007
2, 960.00000, -0.164164, -0.0539556, -0.164159, -0.0539612, -0.164157, -0.0539536, 2.75464E-009, -1.48148E-009
2, 1020.00000, -0.164164, -0.0539556, -0.164159, -0.0539612, -0.164157, -0.0539536, 2.75226E-009, -1.47465E-009
2, 1080.00000, -0.164164, -0.0539556, -0.164159, -0.0539612, -0.164157, -0.0539536, 2.75229E-009, -1.47456E-009
2, 1140.00000, -0.164164, -0.0539556, -0.164159, -0.0539612, -0.164157, -0.0539536, 2.75229E-009, -1.47456E-009
2, 1200.00000, -0.164164, -0.0539556, -0.164159, -0.0539612, -0.164157, -0.0539536, 2.75229E-009, -1.47456E-009
2, 1260.00000, -0.164167, -0.0539574, -0.164157, -0.0539605, -0.164157, -0.0539531, 3.6202E-010, -4.81579E-010
2, 1320.00000, -0.164164, -0.0539564, -0.164158, -0.0539608, -0.164157, -0.0539532, 2.65588E-010, -4.56787E-010
2, 1380.00000, -0.164164, -0.0539564, -0.164158, -0.0539608, -0.164157, -0.0539532, 2.65408E-010, -4.56837E-010
2, 1440.00000, -0.164164, -0.0539564, -0.164158, -0.0539608, -0.164157, -0.0539532, 2.65406E-010, -4.56837E-010
2, 1500.00000, -0.164164, -0.0539564, -0.164158, -0.0539608, -0.164157, -0.0539532, 2.65406E-010, -4.56837E-010
2, 1560.00000, -0.164164, -0.0539562, -0.164158, -0.0539608, -0.164157, -0.0539534, 2.26057E-009, -1.97782E-011
2, 1620.00000, -0.164164, -0.0539562, -0.164158, -0.0539608, -0.164157, -0.0539533, 2.26485E-009, -2.12171E-011
2, 1680.00000, -0.164164, -0.0539562, -0.164158, -0.0539608, -0.164157, -0.0539533, 2.26488E-009, -2.1258E-011
2, 1740.00000, -0.164164, -0.0539562, -0.164158, -0.0539608, -0.164157, -0.0539533, 2.26488E-009, -2.12585E-011
2, 1800.00000, -0.164164, -0.0539562, -0.164158, -0.0539608, -0.164157, -0.0539533, 2.26488E-009, -2.12585E-011
2, 1860.00000, -0.16416, -0.0539536, -0.191522, -0.0629524, -0.164157, -0.0539572, 3.26125E-007, 4.13192E-007
2, 1920.00000, -0.164161, -0.0539538, -0.191522, -0.0629525, -0.164157, -0.0539572, 3.26134E-007, 4.13192E-007
2, 1980.00000, -0.164161, -0.0539538, -0.191522, -0.0629525, -0.164157, -0.0539572, 3.26135E-007, 4.13192E-007
2, 2040.00000, -0.164161, -0.0539538, -0.191522, -0.0629525, -0.164157, -0.0539572, 3.26135E-007, 4.13192E-007
2, 2100.00000, -0.164161, -0.0539538, -0.191522, -0.0629525, -0.164157, -0.0539572, 3.26135E-007, 4.13192E-007
2, 2160.00000, -0.191529, -0.062952, -0.136795, -0.0449694, -0.164158, -0.0539483, 2.50549E-006, -6.5798E-007
2, 2220.00000, -0.19153, -0.0629523, -0.136795, -0.0449692, -0.164158, -0.0539481, 2.50559E-006, -6.58002E-007
2, 2280.00000, -0.19153, -0.0629523, -0.136795, -0.0449692, -0.164158, -0.0539481, 2.50559E-006, -6.58002E-007
2, 2340.00000, -0.19153, -0.0629523, -0.136795, -0.0449692, -0.164158, -0.0539481, 2.50559E-006, -6.58002E-007
2, 2400.00000, -0.19153, -0.0629523, -0.136795, -0.0449692, -0.164158, -0.0539481, 2.50559E-006, -6.58002E-007
2, 2460.00000, -0.191526, -0.0629478, -0.164159, -0.0539623, -0.164156, -0.0539528, 9.22182E-007, -2.5266E-007
2, 2520.00000, -0.191526, -0.0629478, -0.164159, -0.0539623, -0.164156, -0.0539528, 9.22189E-007, -2.5266E-007
2, 2580.00000, -0.191526, -0.0629478, -0.164159, -0.0539623, -0.164156, -0.0539528, 9.22189E-007, -2.5266E-007
2, 2640.00000, -0.191526, -0.0629478, -0.164159, -0.0539623, -0.164156, -0.0539528, 9.22189E-007, -2.5266E-007
2, 2700.00000, -0.191526, -0.0629478, -0.164159, -0.0539623, -0.164156, -0.0539528, 9.22189E-007, -2.5266E-007
2, 2760.00000, -0.164167, -0.0539557, -0.136798, -0.0449694, -0.136796, -0.0449595, 1.15127E-006, -1.85791E-007
2, 2820.00000, -0.164167, -0.0539557, -0.136798, -0.0449694, -0.136796, -0.0449595, 1.15126E-006, -1.8579E-007
2, 2880.00000, -0.164167, -0.0539557, -0.136798, -0.0449694, -0.136796, -0.0449595, 1.15126E-006, -1.8579E-007
2, 2940.00000, -0.164167, -0.0539557, -0.136798, -0.0449694, -0.136796, -0.0449595, 1.15126E-006, -1.8579E-007
2, 3000.00000, -0.164167, -0.0539557, -0.136798, -0.0449694, -0.136796, -0.0449595, 1.15126E-006, -1.8579E-007
2, 3060.00000, -0.136804, -0.0449666, -0.109437, -0.0359732, -0.1368, -0.0449588, 8.8941E-007, -4.98492E-007
2, 3120.00000, -0.136804, -0.0449666, -0.109436, -0.0359732, -0.1368, -0.0449589, 8.89415E-007, -4.98498E-007
2, 3180.00000, -0.136804, -0.0449666, -0.109436, -0.0359732, -0.1368, -0.0449589, 8.89415E-007, -4.98498E-007
2, 3240.00000, -0.136804, -0.0449666, -0.109436, -0.0359732, -0.1368, -0.0449589, 8.89415E-007, -4.98498E-007
2, 3300.00000, -0.136804, -0.0449666, -0.109436, -0.0359732, -0.1368, -0.0449589, 8.89415E-007, -4.98498E-007
2, 3360.00000, -0.16416, -0.0539461, -0.218892, -0.0719497, -0.164151, -0.0539619, 3.01984E-006, 1.84494E-006
2, 3420.00000, -0.16416, -0.0539462, -0.218892, -0.0719498, -0.164151, -0.0539618, 3.01989E-006, 1.84495E-006
2, 3480.00000, -0.16416, -0.0539462, -0.218892, -0.0719498, -0.164151, -0.0539618, 3.01989E-006, 1.84495E-006
2, 3540.00000, -0.16416, -0.0539462, -0.218892, -0.0719498, -0.164151, -0.0539618, 3.01989E-006, 1.84495E-006
3, 0.00000, -0.16416, -0.0539462, -0.218892, -0.0719498, -0.164151, -0.0539618, 3.01989E-006, 1.84495E-006
