hour, t(sec), P1 (kW), Q1 (kvar), P2 (kW), Q2 (kvar), P3 (kW), Q3 (kvar), P4 (kW), Q4 (kvar)
0, 60.00000, -0.0709672, -0.023325, -0.0630812, -0.0207345, -0.0473101, -0.0155499, 2.55521E-007, 4.85136E-008
0, 120.00000, -0.0709658, -0.0233246, -0.06308, -0.0207342, -0.0473095, -0.0155498, 2.55498E-007, 4.85348E-008
0, 180.00000, -0.0709658, -0.0233246, -0.06308, -0.0207342, -0.0473095, -0.0155498, 2.55498E-007, 4.85348E-008
0, 240.00000, -0.0709658, -0.0233246, -0.06308, -0.0207342, -0.0473095, -0.0155498, 2.55498E-007, 4.85347E-008
0, 300.00000, -0.0709658, -0.0233246, -0.06308, -0.0207342, -0.0473095, -0.0155498, 2.55498E-007, 4.85347E-008
0, 360.00000, -0.0630804, -0.020733, -0.0630801, -0.0207339, -0.0473096, -0.01555, 1.39228E-007, 3.1738E-008
0, 420.00000, -0.0630804, -0.020733, -0.0630802, -0.0207339, -0.0473096, -0.0155499, 1.39233E-007, 3.17398E-008
0, 480.00000, -0.0630804, -0.020733, -0.0630802, -0.0207339, -0.0473096, -0.0155499, 1.39233E-007, 3.17399E-008
0, 540.00000, -0.0630804, -0.020733, -0.0630802, -0.0207339, -0.0473096, -0.0155499, 1.39233E-007, 3.17399E-008
0, 600.00000, -0.0630804, -0.020733, -0.0630802, -0.0207339, -0.0473096, -0.0155499, 1.39233E-007, 3.17399E-008
0, 660.00000, -0.0709666, -0.0233258, -0.0630793, -0.0207333, -0.0709649, -0.0233241, 3.81956E-008, -2.33492E-009
0, 720.00000, -0.0709652, -0.0233254, -0.0630797, -0.0207334, -0.0709651, -0.0233248, 3.8181E-008, -2.34766E-009
0, 780.00000, -0.0709652, -0.0233254, -0.0630797, -0.0207334, -0.0709651, -0.0233248, 3.81812E-008, -2.34782E-009
0, 840.00000, -0.0709652, -0.0233254, -0.0630797, -0.0207334, -0.0709651, -0.0233248, 3.81812E-008, -2.34782E-009
0, 900.00000, -0.0709652, -0.0233254, -0.0630797, -0.0207334, -0.0709651, -0.0233248, 3.81812E-008, -2.34782E-009
0, 960.00000, -0.0630799, -0.0207336, -0.0630799, -0.0207332, -0.0709653, -0.023325, 2.63785E-008, -2.08417E-009
0, 1020.00000, -0.0630799, -0.0207336, -0.0630799, -0.0207332, -0.0709652, -0.023325, 2.63758E-008, -2.08253E-009
0, 1080.00000, -0.0630799, -0.0207336, -0.0630799, -0.0207332, -0.0709652, -0.023325, 2.63758E-008, -2.08257E-009
0, 1140.00000, -0.0630799, -0.0207336, -0.0630799, -0.0207332, -0.0709652, -0.023325, 2.63758E-008, -2.08257E-009
0, 1200.00000, -0.0630799, -0.0207336, -0.0630799, -0.0207332, -0.0709652, -0.023325, 2.63758E-008, -2.08257E-009
0, 1260.00000, -0.0709658, -0.0233252, -0.0551946, -0.0181422, -0.0551947, -0.0181412, 1.60803E-007, 2.08481E-008
0, 1320.00000, -0.0709657, -0.0233252, -0.0551947, -0.0181422, -0.0551948, -0.0181412, 1.60806E-007, 2.0855E-008
0, 1380.00000, -0.0709657, -0.0233252, -0.0551947, -0.0181422, -0.0551948, -0.0181412, 1.60806E-007, 2.08551E-008
0, 1440.00000, -0.0709657, -0.0233252, -0.0551947, -0.0181422, -0.0551948, -0.0181412, 1.60806E-007, 2.08551E-008
0, 1500.00000, -0.0709657, -0.0233252, -0.0551947, -0.0181422, -0.0551948, -0.0181412, 1.60806E-007, 2.08551E-008
0, 1560.00000, -0.0473099, -0.0155495, -0.0709659, -0.0233253, -0.0473095, -0.0155505, 2.88343E-007, 6.04293E-008
0, 1620.00000, -0.0473098, -0.0155495, -0.0709659, -0.0233252, -0.0473096, -0.0155505, 2.88343E-007, 6.04213E-008
0, 1680.00000, -0.0473098, -0.0155495, -0.0709659, -0.0233252, -0.0473096, -0.0155505, 2.88344E-007, 6.04213E-008
0, 1740.00000, -0.0473098, -0.0155495, -0.0709659, -0.0233252, -0.0473096, -0.0155505, 2.88344E-007, 6.04213E-008
0, 1800.00000, -0.0473098, -0.0155495, -0.0709659, -0.0233252, -0.0473096, -0.0155505, 2.88344E-007, 6.04213E-008
0, 1860.00000, -0.0788498, -0.0259164, -0.06308, -0.020734, -0.063079, -0.0207328, 1.59166E-007, 1.20546E-008
0, 1920.00000, -0.0788508, -0.0259168, -0.0630796, -0.0207339, -0.0630797, -0.0207328, 1.59192E-007, 1.20478E-008
0, 1980.00000, -0.0788508, -0.0259168, -0.0630796, -0.0207339, -0.0630797, -0.0207328, 1.59192E-007, 1.2048E-008
0, 2040.00000, -0.0788508, -0.0259168, -0.0630796, -0.0207339, -0.0630797, -0.0207328, 1.59192E-007, 1.2048E-008
0, 2100.00000, -0.0788508, -0.0259168, -0.0630796, -0.0207339, -0.0630797, -0.0207328, 1.59192E-007, 1.2048E-008
0, 2160.00000, -0.0630809, -0.0207337, -0.0551975, -0.0181428, -0.0551927, -0.018141, 4.57342E-008, 3.19996E-009
0, 2220.00000, -0.0630804, -0.0207334, -0.0551948, -0.018142, -0.0551949, -0.0181414, 4.57274E-008, 3.19538E-009
0, 2280.00000, -0.0630804, -0.0207334, -0.0551948, -0.018142, -0.0551949, -0.0181414, 4.57272E-008, 3.19535E-009
0, 2340.00000, -0.0630804, -0.0207334, -0.0551948, -0.018142, -0.0551949, -0.0181414, 4.57272E-008, 3.19535E-009
0, 2400.00000, -0.0630804, -0.0207334, -0.0551948, -0.018142, -0.0551949, -0.0181414, 4.57272E-008, 3.19535E-009
0, 2460.00000, -0.070965, -0.0233256, -0.0630797, -0.0207332, -0.0788504, -0.0259164, 9.79804E-008, 2.05932E-009
0, 2520.00000, -0.070965, -0.0233256, -0.0630796, -0.0207332, -0.0788505, -0.0259165, 9.79773E-008, 2.05883E-009
0, 2580.00000, -0.070965, -0.0233256, -0.0630796, -0.0207332, -0.0788505, -0.0259165, 9.79773E-008, 2.05876E-009
0, 2640.00000, -0.070965, -0.0233256, -0.0630796, -0.0207332, -0.0788505, -0.0259165, 9.79773E-008, 2.05876E-009
0, 2700.00000, -0.070965, -0.0233256, -0.0630796, -0.0207332, -0.0788505, -0.0259165, 9.79773E-008, 2.05876E-009
0, 2760.00000, -0.0551949, -0.0181415, -0.0630803, -0.0207335, -0.0551948, -0.0181419, 3.47467E-008, 7.3213E-009
0, 2820.00000, -0.0551949, -0.0181415, -0.0630803, -0.0207335, -0.0551948, -0.0181419, 3.47444E-008, 7.32162E-009
0, 2880.00000, -0.0551949, -0.0181415, -0.0630803, -0.0207335, -0.0551948, -0.0181419, 3.47444E-008, 7.32159E-009
0, 2940.00000, -0.0551949, -0.0181415, -0.0630803, -0.0207335, -0.0551948, -0.0181419, 3.47444E-008, 7.32159E-009
0, 3000.00000, -0.0551949, -0.0181415, -0.0630803, -0.0207335, -0.0551948, -0.0181419, 3.47444E-008, 7.32159E-009
0, 3060.00000, -0.0630801, -0.0207334, -0.0630799, -0.0207334, -0.06308, -0.0207334, 2.32596E-011, -2.06016E-011
0, 3120.00000, -0.06308, -0.0207334, -0.06308, -0.0207334, -0.0630799, -0.0207334, 2.32175E-011, -2.05075E-011
0, 3180.00000, -0.06308, -0.0207334, -0.06308, -0.0207334, -0.0630799, -0.0207334, 2.32188E-011, -2.05068E-011
0, 3240.00000, -0.06308, -0.0207334, -0.06308, -0.0207334, -0.0630799, -0.0207334, 2.32188E-011, -2.05068E-011
0, 3300.00000, -0.06308, -0.0207334, -0.06308, -0.0207334, -0.0630799, -0.0207334, 2.32188E-011, -2.05068E-011
0, 3360.00000, -0.0473097, -0.0155492, -0.0788515, -0.025917, -0.0473094, -0.0155507, 5.36451E-007, 1.07362E-007
0, 3420.00000, -0.0473097, -0.0155493, -0.0788513, -0.025917, -0.0473095, -0.0155507, 5.36449E-007, 1.07376E-007
0, 3480.00000, -0.0473097, -0.0155493, -0.0788513, -0.025917, -0.0473095, -0.0155507, 5.36449E-007, 1.07376E-007
0, 3540.00000, -0.0473097, -0.0155493, -0.0788513, -0.025917, -0.0473095, -0.0155507, 5.36449E-007, 1.07376E-007
1, 0.00000, -0.0473097, -0.0155493, -0.0788513, -0.025917, -0.0473095, -0.0155507, 5.36449E-007, 1.07376E-007
1, 60.00000, -0.0394249, -0.0129583, -0.0473102, -0.0155499, -0.0473101, -0.0155502, 2.76317E-008, 6.74124E-009
1, 120.00000, -0.0394249, -0.0129583, -0.0473101, -0.0155499, -0.04731, -0.0155502, 2.76324E-008, 6.74145E-009
1, 180.00000, -0.0394249, -0.0129583, -0.0473101, -0.0155499, -0.04731, -0.0155502, 2.76324E-008, 6.74146E-009
1, 240.00000, -0.0394249, -0.0129583, -0.0473101, -0.0155499, -0.04731, -0.0155502, 2.76324E-008, 6.74146E-009
1, 300.00000, -0.0394249, -0.0129583, -0.0473101, -0.0155499, -0.04731, -0.0155502, 2.76324E-008, 6.74146E-009
1, 360.00000, -0.0473099, -0.0155497, -0.0630805, -0.0207335, -0.0473098, -0.0155503, 1.23608E-007, 2.99282E-008
1, 420.00000, -0.0473099, -0.0155497, -0.0630805, -0.0207335, -0.0473097, -0.0155503, 1.23607E-007, 2.99279E-008
1, 480.00000, -0.0473099, -0.0155497, -0.0630805, -0.0207335, -0.0473097, -0.0155503, 1.23607E-007, 2.99279E-008
1, 540.00000, -0.0473099, -0.0155497, -0.0630805, -0.0207335, -0.0473097, -0.0155503, 1.23607E-007, 2.99279E-008
1, 600.00000, -0.0473099, -0.0155497, -0.0630805, -0.0207335, -0.0473097, -0.0155503, 1.23607E-007, 2.99279E-008
1, 660.00000, -0.055194, -0.018141, -0.06308, -0.0207336, -0.0473106, -0.0155504, 1.03081E-007, 2.19805E-008
1, 720.00000, -0.0551951, -0.0181413, -0.0630804, -0.0207337, -0.0473097, -0.0155502, 1.03113E-007, 2.19813E-008
1, 780.00000, -0.0551951, -0.0181413, -0.0630804, -0.0207337, -0.0473097, -0.0155502, 1.03113E-007, 2.19814E-008
1, 840.00000, -0.0551951, -0.0181413, -0.0630804, -0.0207337, -0.0473097, -0.0155502, 1.03113E-007, 2.19814E-008
1, 900.00000, -0.0551951, -0.0181413, -0.0630804, -0.0207337, -0.0473097, -0.0155502, 1.03113E-007, 2.19814E-008
1, 960.00000, -0.0551949, -0.0181421, -0.0473097, -0.0155499, -0.0630805, -0.0207332, 1.07789E-007, 3.20173E-010
1, 1020.00000, -0.055195, -0.0181422, -0.0473097, -0.0155499, -0.0630804, -0.0207331, 1.07789E-007, 3.21301E-010
1, 1080.00000, -0.055195, -0.0181422, -0.0473097, -0.0155499, -0.0630804, -0.0207331, 1.07789E-007, 3.2131E-010
1, 1140.00000, -0.055195, -0.0181422, -0.0473097, -0.0155499, -0.0630804, -0.0207331, 1.07789E-007, 3.2131E-010
1, 1200.00000, -0.055195, -0.0181422, -0.0473097, -0.0155499, -0.0630804, -0.0207331, 1.07789E-007, 3.2131E-010
1, 1260.00000, -0.04731, -0.0155504, -0.0394248, -0.0129582, -0.0551953, -0.0181415, 1.07632E-007, 1.13816E-010
1, 1320.00000, -0.04731, -0.0155504, -0.0394247, -0.0129582, -0.0551954, -0.0181415, 1.07632E-007, 1.13318E-010
1, 1380.00000, -0.04731, -0.0155504, -0.0394247, -0.0129582, -0.0551954, -0.0181415, 1.07632E-007, 1.13313E-010
1, 1440.00000, -0.04731, -0.0155504, -0.0394247, -0.0129582, -0.0551954, -0.0181415, 1.07632E-007, 1.13313E-010
1, 1500.00000, -0.04731, -0.0155504, -0.0394247, -0.0129582, -0.0551954, -0.0181415, 1.07632E-007, 1.13313E-010
1, 1560.00000, -0.0630809, -0.020733, -0.0473099, -0.0155508, -0.0315396, -0.0103664, 4.16066E-007, 5.36647E-008
1, 1620.00000, -0.0630809, -0.020733, -0.0473099, -0.0155508, -0.0315396, -0.0103664, 4.16065E-007, 5.36645E-008
1, 1680.00000, -0.0630809, -0.020733, -0.0473099, -0.0155508, -0.0315396, -0.0103664, 4.16065E-007, 5.36645E-008
1, 1740.00000, -0.0630809, -0.020733, -0.0473099, -0.0155508, -0.0315396, -0.0103664, 4.16065E-007, 5.36645E-008
1, 1800.00000, -0.0630809, -0.020733, -0.0473099, -0.0155508, -0.0315396, -0.0103664, 4.16065E-007, 5.36645E-008
1, 1860.00000, -0.04731, -0.0155501, -0.04731, -0.0155501, -0.04731, -0.01555, 2.29128E-011, 1.52691E-011
1, 1920.00000, -0.04731, -0.0155501, -0.04731, -0.0155501, -0.04731, -0.01555, 2.29144E-011, 1.52909E-011
1, 1980.00000, -0.04731, -0.0155501, -0.04731, -0.0155501, -0.04731, -0.01555, 2.29144E-011, 1.5291E-011
1, 2040.00000, -0.04731, -0.0155501, -0.04731, -0.0155501, -0.04731, -0.01555, 2.29144E-011, 1.5291E-011
1, 2100.00000, -0.04731, -0.0155501, -0.04731, -0.0155501, -0.04731, -0.01555, 2.29144E-011, 1.5291E-011
1, 2160.00000, -0.0630807, -0.0207337, -0.0394246, -0.0129586, -0.0473099, -0.0155495, 2.46292E-007, 2.54018E-008
1, 2220.00000, -0.0630807, -0.0207337, -0.0394246, -0.0129586, -0.0473099, -0.0155495, 2.46291E-007, 2.54003E-008
1, 2280.00000, -0.0630807, -0.0207337, -0.0394246, -0.0129586, -0.0473099, -0.0155495, 2.46291E-007, 2.54003E-008
1, 2340.00000, -0.0630807, -0.0207337, -0.0394246, -0.0129586, -0.0473099, -0.0155495, 2.46291E-007, 2.54003E-008
1, 2400.00000, -0.0630807, -0.0207337, -0.0394246, -0.0129586, -0.0473099, -0.0155495, 2.46291E-007, 2.54003E-008
1, 2460.00000, -0.0551952, -0.0181419, -0.0394251, -0.0129586, -0.0473101, -0.0155497, 1.11689E-007, 1.03542E-008
1, 2520.00000, -0.0551954, -0.018142, -0.0394247, -0.0129585, -0.04731, -0.0155497, 1.11689E-007, 1.03457E-008
1, 2580.00000, -0.0551954, -0.018142, -0.0394247, -0.0129585, -0.04731, -0.0155497, 1.11689E-007, 1.03456E-008
1, 2640.00000, -0.0551954, -0.018142, -0.0394247, -0.0129585, -0.04731, -0.0155497, 1.11689E-007, 1.03456E-008
1, 2700.00000, -0.0551954, -0.018142, -0.0394247, -0.0129585, -0.04731, -0.0155497, 1.11689E-007, 1.03456E-008
1, 2760.00000, -0.0551949, -0.0181415, -0.0630801, -0.0207334, -0.0551942, -0.0181417, 3.02109E-008, 1.0572E-008
1, 2820.00000, -0.055195, -0.0181415, -0.0630802, -0.0207335, -0.0551948, -0.0181419, 3.02068E-008, 1.05718E-008
1, 2880.00000, -0.055195, -0.0181415, -0.0630802, -0.0207335, -0.0551948, -0.0181419, 3.02068E-008, 1.05718E-008
1, 2940.00000, -0.055195, -0.0181415, -0.0630802, -0.0207335, -0.0551948, -0.0181419, 3.02068E-008, 1.05718E-008
1, 3000.00000, -0.055195, -0.0181415, -0.0630802, -0.0207335, -0.0551948, -0.0181419, 3.02068E-008, 1.05718E-008
1, 3060.00000, -0.0473097, -0.0155499, -0.0394249, -0.0129585, -0.0394254, -0.0129584, 3.68385E-008, 7.61272E-009
1, 3120.00000, -0.0473102, -0.0155501, -0.0394249, -0.0129585, -0.0394249, -0.0129582, 3.68454E-008, 7.61832E-009
1, 3180.00000, -0.0473102, -0.0155501, -0.0394249, -0.0129585, -0.0394249, -0.0129582, 3.68454E-008, 7.61835E-009
1, 3240.00000, -0.0473102, -0.0155501, -0.0394249, -0.0129585, -0.0394249, -0.0129582, 3.68454E-008, 7.61835E-009
1, 3300.00000, -0.0473102, -0.0155501, -0.0394249, -0.0129585, -0.0394249, -0.0129582, 3.68454E-008, 7.61835E-009
1, 3360.00000, -0.0394248, -0.0129582, -0.0551953, -0.0181416, -0.0473099, -0.0155504, 9.23952E-008, 2.26144E-008
1, 3420.00000, -0.0394248, -0.0129582, -0.0551954, -0.0181416, -0.0473099, -0.0155504, 9.23945E-008, 2.26162E-008
1, 3480.00000, -0.0394248, -0.0129582, -0.0551954, -0.0181416, -0.0473099, -0.0155504, 9.23945E-008, 2.26162E-008
1, 3540.00000, -0.0394248, -0.0129582, -0.0551954, -0.0181416, -0.0473099, -0.0155504, 9.23945E-008, 2.26162E-008
2, 0.00000, -0.0394248, -0.0129582, -0.0551954, -0.0181416, -0.0473099, -0.0155504, 9.23945E-008, 2.26162E-008
2, 60.00000, -0.0394249, -0.0129584, -0.0473101, -0.0155499, -0.0473101, -0.0155502, 2.80298E-008, 1.31465E-009
2, 120.00000, -0.0394249, -0.0129584, -0.0473101, -0.0155499, -0.0473101, -0.0155502, 2.80308E-008, 1.31425E-009
2, 180.00000, -0.0394249, -0.0129584, -0.0473101, -0.0155499, -0.0473101, -0.0155502, 2.80308E-008, 1.31425E-009
2, 240.00000, -0.0394249, -0.0129584, -0.0473101, -0.0155499, -0.0473101, -0.0155502, 2.80308E-008, 1.31425E-009
2, 300.00000, -0.0394249, -0.0129584, -0.0473101, -0.0155499, -0.0473101, -0.0155502, 2.80308E-008, 1.31425E-009
2, 360.00000, -0.0473103, -0.0155497, -0.0473101, -0.0155505, -0.0315397, -0.0103666, 1.44274E-007, 2.98748E-008
2, 420.00000, -0.0473103, -0.0155497, -0.0473101, -0.0155505, -0.0315397, -0.0103666, 1.44275E-007, 2.98721E-008
2, 480.00000, -0.0473103, -0.0155497, -0.0473101, -0.0155505, -0.0315397, -0.0103666, 1.44275E-007, 2.98721E-008
2, 540.00000, -0.0473103, -0.0155497, -0.0473101, -0.0155505, -0.0315397, -0.0103666, 1.44275E-007, 2.98721E-008
2, 600.00000, -0.0473103, -0.0155497, -0.0473101, -0.0155505, -0.0315397, -0.0103666, 1.44275E-007, 2.98721E-008
2, 660.00000, -0.0473107, -0.0155499, -0.0551944, -0.0181417, -0.0394251, -0.0129585, 1.00665E-007, 2.30601E-008
2, 720.00000, -0.0473101, -0.0155497, -0.0551953, -0.018142, -0.0394247, -0.0129585, 1.00701E-007, 2.30546E-008
2, 780.00000, -0.0473101, -0.0155497, -0.0551953, -0.018142, -0.0394247, -0.0129585, 1.00702E-007, 2.30546E-008
2, 840.00000, -0.0473101, -0.0155497, -0.0551953, -0.018142, -0.0394247, -0.0129585, 1.00702E-007, 2.30546E-008
2, 900.00000, -0.0473101, -0.0155497, -0.0551953, -0.018142, -0.0394247, -0.0129585, 1.00702E-007, 2.30546E-008
2, 960.00000, -0.0394252, -0.0129582, -0.039425, -0.0129586, -0.0315398, -0.0103667, 4.08309E-008, 8.78761E-009
2, 1020.00000, -0.0394251, -0.0129582, -0.0394251, -0.0129586, -0.0315398, -0.0103667, 4.08305E-008, 8.79027E-009
2, 1080.00000, -0.0394251, -0.0129582, -0.0394251, -0.0129586, -0.0315398, -0.0103667, 4.08305E-008, 8.79029E-009
2, 1140.00000, -0.0394251, -0.0129582, -0.0394251, -0.0129586, -0.0315398, -0.0103667, 4.08305E-008, 8.79029E-009
2, 1200.00000, -0.0394251, -0.0129582, -0.0394251, -0.0129586, -0.0315398, -0.0103667, 4.08305E-008, 8.79029E-009
2, 1260.00000, -0.0473103, -0.0155504, -0.0236548, -0.00777513, -0.0394254, -0.012958, 2.53702E-007, 1.22709E-008
2, 1320.00000, -0.0473104, -0.0155504, -0.0236547, -0.0077751, -0.0394251, -0.0129579, 2.53697E-007, 1.22604E-008
2, 1380.00000, -0.0473104, -0.0155504, -0.0236547, -0.0077751, -0.0394251, -0.0129579, 2.53697E-007, 1.22602E-008
2, 1440.00000, -0.0473104, -0.0155504, -0.0236547, -0.0077751, -0.0394251, -0.0129579, 2.53697E-007, 1.22602E-008
2, 1500.00000, -0.0473104, -0.0155504, -0.0236547, -0.0077751, -0.0394251, -0.0129579, 2.53697E-007, 1.22602E-008
2, 1560.00000, -0.0315396, -0.0103666, -0.0551954, -0.0181412, -0.0551953, -0.0181423, 2.85414E-007, 3.59448E-008
2, 1620.00000, -0.0315396, -0.0103666, -0.0551954, -0.0181412, -0.0551953, -0.0181423, 2.85418E-007, 3.59447E-008
2, 1680.00000, -0.0315396, -0.0103666, -0.0551954, -0.0181412, -0.0551953, -0.0181423, 2.85418E-007, 3.59447E-008
2, 1740.00000, -0.0315396, -0.0103666, -0.0551954, -0.0181412, -0.0551953, -0.0181423, 2.85418E-007, 3.59447E-008
2, 1800.00000, -0.0315396, -0.0103666, -0.0551954, -0.0181412, -0.0551953, -0.0181423, 2.85418E-007, 3.59447E-008
2, 1860.00000, -0.0394249, -0.0129583, -0.0473108, -0.0155501, -0.0473091, -0.0155499, 3.13119E-008, 5.3912E-009
2, 1920.00000, -0.0394248, -0.0129583, -0.0473101, -0.0155499, -0.0473101, -0.0155502, 3.13086E-008, 5.38988E-009
2, 1980.00000, -0.0394248, -0.0129583, -0.0473101, -0.0155499, -0.0473101, -0.0155502, 3.13085E-008, 5.38985E-009
2, 2040.00000, -0.0394248, -0.0129583, -0.0473101, -0.0155499, -0.0473101, -0.0155502, 3.13085E-008, 5.38985E-009
2, 2100.00000, -0.0394248, -0.0129583, -0.0473101, -0.0155499, -0.0473101, -0.0155502, 3.13085E-008, 5.38985E-009
2, 2160.00000, -0.0394249, -0.0129585, -0.0394245, -0.0129581, -0.0473107, -0.0155502, 3.30378E-008, -1.37712E-009
2, 2220.00000, -0.0394249, -0.0129585, -0.0394249, -0.0129582, -0.0473102, -0.01555, 3.30383E-008, -1.37577E-009
2, 2280.00000, -0.0394249, -0.0129585, -0.0394249, -0.0129582, -0.0473102, -0.01555, 3.30384E-008, -1.37572E-009
2, 2340.00000, -0.0394249, -0.0129585, -0.0394249, -0.0129582, -0.0473102, -0.01555, 3.30384E-008, -1.37572E-009
2, 2400.00000, -0.0394249, -0.0129585, -0.0394249, -0.0129582, -0.0473102, -0.01555, 3.30384E-008, -1.37572E-009
2, 2460.00000, -0.0473102, -0.0155501, -0.0394249, -0.0129585, -0.0394249, -0.0129582, 3.76087E-008, 4.76791E-009
2, 2520.00000, -0.0473102, -0.0155501, -0.0394249, -0.0129585, -0.0394249, -0.0129582, 3.76078E-008, 4.76867E-009
2, 2580.00000, -0.0473102, -0.0155501, -0.0394249, -0.0129585, -0.0394249, -0.0129582, 3.76078E-008, 4.76867E-009
2, 2640.00000, -0.0473102, -0.0155501, -0.0394249, -0.0129585, -0.0394249, -0.0129582, 3.76078E-008, 4.76867E-009
2, 2700.00000, -0.0473102, -0.0155501, -0.0394249, -0.0129585, -0.0394249, -0.0129582, 3.76078E-008, 4.76867E-009
2, 2760.00000, -0.039425, -0.0129582, -0.0473102, -0.0155501, -0.0394249, -0.0129585, 2.68467E-008, 8.58249E-009
2, 2820.00000, -0.039425, -0.0129582, -0.0473102, -0.0155501, -0.0394249, -0.0129585, 2.68461E-008, 8.5836E-009
2, 2880.00000, -0.039425, -0.0129582, -0.0473102, -0.0155501, -0.0394249, -0.0129585, 2.68461E-008, 8.58361E-009
2, 2940.00000, -0.039425, -0.0129582, -0.0473102, -0.0155501, -0.0394249, -0.0129585, 2.68461E-008, 8.58361E-009
2, 3000.00000, -0.039425, -0.0129582, -0.0473102, -0.0155501, -0.0394249, -0.0129585, 2.68461E-008, 8.58361E-009
2, 3060.00000, -0.0551957, -0.0181416, -0.0394249, -0.0129588, -0.0315397, -0.0103664, 2.45055E-007, 2.94182E-008
2, 3120.00000, -0.0551956, -0.0181416, -0.0394249, -0.0129588, -0.0315397, -0.0103664, 2.45058E-007, 2.94101E-008
2, 3180.00000, -0.0551956, -0.0181416, -0.0394249, -0.0129588, -0.0315397, -0.0103664, 2.45058E-007, 2.94101E-008
2, 3240.00000, -0.0551956, -0.0181416, -0.0394249, -0.0129588, -0.0315397, -0.0103664, 2.45058E-007, 2.94101E-008
2, 3300.00000, -0.0551956, -0.0181416, -0.0394249, -0.0129588, -0.0315397, -0.0103664, 2.45058E-007, 2.94101E-008
2, 3360.00000, -0.0473099, -0.0155502, -0.0473098, -0.0155499, -0.0551953, -0.0181417, 3.23564E-008, -2.60938E-009
