hour, t(sec), P1 (kW), Q1 (kvar), P2 (kW), Q2 (kvar), P3 (kW), Q3 (kvar), P4 (kW), Q4 (kvar)
0, 60.00000, -0.146684, -0.0482111, -0.146683, -0.0482137, -0.128345, -0.0421851, 1.93593E-007, 3.40853E-008
0, 120.00000, -0.146681, -0.0482102, -0.146681, -0.0482129, -0.128344, -0.0421847, 1.93563E-007, 3.40818E-008
0, 180.00000, -0.146681, -0.0482102, -0.146681, -0.0482129, -0.128344, -0.0421847, 1.93562E-007, 3.40818E-008
0, 240.00000, -0.146681, -0.0482102, -0.146681, -0.0482129, -0.128344, -0.0421847, 1.93562E-007, 3.40818E-008
0, 300.00000, -0.146681, -0.0482102, -0.146681, -0.0482129, -0.128344, -0.0421847, 1.93562E-007, 3.40818E-008
0, 360.00000, -0.165014, -0.0542349, -0.201689, -0.0662914, -0.165013, -0.0542401, 6.68931E-007, 1.53377E-007
0, 420.00000, -0.165014, -0.0542349, -0.201689, -0.0662915, -0.165013, -0.0542401, 6.6894E-007, 1.53378E-007
0, 480.00000, -0.165014, -0.0542349, -0.201689, -0.0662915, -0.165013, -0.0542401, 6.6894E-007, 1.53378E-007
0, 540.00000, -0.165014, -0.0542349, -0.201689, -0.0662915, -0.165013, -0.0542401, 6.6894E-007, 1.53378E-007
0, 600.00000, -0.165014, -0.0542349, -0.201689, -0.0662915, -0.165013, -0.0542401, 6.6894E-007, 1.53378E-007
0, 660.00000, -0.128348, -0.0421883, -0.128342, -0.0421823, -0.165017, -0.0542361, 6.01573E-007, 2.30584E-008
0, 720.00000, -0.128344, -0.0421868, -0.128344, -0.0421831, -0.165018, -0.0542379, 6.0167E-007, 2.30712E-008
0, 780.00000, -0.128344, -0.0421868, -0.128344, -0.0421831, -0.165018, -0.0542379, 6.0167E-007, 2.30712E-008
0, 840.00000, -0.128344, -0.0421868, -0.128344, -0.0421831, -0.165018, -0.0542379, 6.0167E-007, 2.30712E-008
0, 900.00000, -0.128344, -0.0421868, -0.128344, -0.0421831, -0.165018, -0.0542379, 6.0167E-007, 2.30712E-008
0, 960.00000, -0.14668, -0.0482112, -0.14668, -0.0482117, -0.14668, -0.0482112, 3.1054E-010, -1.35092E-010
0, 1020.00000, -0.14668, -0.0482112, -0.14668, -0.0482117, -0.14668, -0.0482112, 3.1061E-010, -1.34908E-010
0, 1080.00000, -0.14668, -0.0482112, -0.14668, -0.0482117, -0.14668, -0.0482112, 3.10612E-010, -1.34916E-010
0, 1140.00000, -0.14668, -0.0482112, -0.14668, -0.0482117, -0.14668, -0.0482112, 3.10612E-010, -1.34916E-010
0, 1200.00000, -0.14668, -0.0482112, -0.14668, -0.0482117, -0.14668, -0.0482112, 3.10612E-010, -1.34916E-010
0, 1260.00000, -0.128344, -0.0421858, -0.14668, -0.0482093, -0.165017, -0.054239, 4.32003E-007, 3.30051E-008
0, 1320.00000, -0.128343, -0.0421857, -0.14668, -0.0482094, -0.165017, -0.0542391, 4.32009E-007, 3.30059E-008
0, 1380.00000, -0.128343, -0.0421857, -0.14668, -0.0482094, -0.165017, -0.0542391, 4.32009E-007, 3.30059E-008
0, 1440.00000, -0.128343, -0.0421857, -0.14668, -0.0482094, -0.165017, -0.0542391, 4.32009E-007, 3.30059E-008
0, 1500.00000, -0.128343, -0.0421857, -0.14668, -0.0482094, -0.165017, -0.0542391, 4.32009E-007, 3.30059E-008
0, 1560.00000, -0.165018, -0.0542391, -0.128343, -0.0421861, -0.14668, -0.0482089, 5.23944E-007, -1.39359E-008
0, 1620.00000, -0.165017, -0.0542391, -0.128343, -0.0421861, -0.14668, -0.048209, 5.2394E-007, -1.39361E-008
0, 1680.00000, -0.165017, -0.0542391, -0.128343, -0.0421861, -0.14668, -0.048209, 5.2394E-007, -1.39361E-008
0, 1740.00000, -0.165017, -0.0542391, -0.128343, -0.0421861, -0.14668, -0.048209, 5.2394E-007, -1.39361E-008
0, 1800.00000, -0.165017, -0.0542391, -0.128343, -0.0421861, -0.14668, -0.048209, 5.2394E-007, -1.39361E-008
0, 1860.00000, -0.165014, -0.0542395, -0.128344, -0.0421854, -0.165014, -0.0542352, 6.62378E-007, -1.42883E-008
0, 1920.00000, -0.165017, -0.0542403, -0.128343, -0.042185, -0.165016, -0.0542352, 6.62482E-007, -1.42865E-008
0, 1980.00000, -0.165017, -0.0542403, -0.128343, -0.042185, -0.165016, -0.0542352, 6.62482E-007, -1.42865E-008
0, 2040.00000, -0.165017, -0.0542403, -0.128343, -0.042185, -0.165016, -0.0542352, 6.62482E-007, -1.42865E-008
0, 2100.00000, -0.165017, -0.0542403, -0.128343, -0.042185, -0.165016, -0.0542352, 6.62482E-007, -1.42865E-008
0, 2160.00000, -0.14668, -0.0482111, -0.183362, -0.0602664, -0.18334, -0.0602658, 6.01422E-007, 9.839E-008
0, 2220.00000, -0.146678, -0.048211, -0.183352, -0.0602619, -0.183351, -0.0602671, 6.01501E-007, 9.83642E-008
0, 2280.00000, -0.146678, -0.048211, -0.183352, -0.0602619, -0.183351, -0.0602671, 6.01502E-007, 9.83643E-008
0, 2340.00000, -0.146678, -0.048211, -0.183352, -0.0602619, -0.183351, -0.0602671, 6.01502E-007, 9.83643E-008
0, 2400.00000, -0.146678, -0.048211, -0.183352, -0.0602619, -0.183351, -0.0602671, 6.01502E-007, 9.83643E-008
0, 2460.00000, -0.146682, -0.0482114, -0.128345, -0.0421861, -0.128344, -0.0421838, 1.88157E-007, -6.78836E-009
0, 2520.00000, -0.146681, -0.0482113, -0.128344, -0.0421861, -0.128344, -0.0421839, 1.88152E-007, -6.78864E-009
0, 2580.00000, -0.146682, -0.0482113, -0.128344, -0.0421861, -0.128344, -0.0421839, 1.88152E-007, -6.78864E-009
0, 2640.00000, -0.146681, -0.0482113, -0.128344, -0.0421861, -0.128344, -0.0421839, 1.88152E-007, -6.78864E-009
0, 2700.00000, -0.146681, -0.0482113, -0.128344, -0.0421861, -0.128344, -0.0421839, 1.88152E-007, -6.78864E-009
0, 2760.00000, -0.128343, -0.0421866, -0.14668, -0.0482082, -0.183354, -0.0602658, 1.05791E-006, 8.04203E-008
0, 2820.00000, -0.128343, -0.0421866, -0.14668, -0.0482082, -0.183354, -0.0602658, 1.05791E-006, 8.04206E-008
0, 2880.00000, -0.128343, -0.0421866, -0.14668, -0.0482082, -0.183354, -0.0602658, 1.05791E-006, 8.04206E-008
0, 2940.00000, -0.128343, -0.0421866, -0.14668, -0.0482082, -0.183354, -0.0602658, 1.05791E-006, 8.04206E-008
0, 3000.00000, -0.128343, -0.0421866, -0.14668, -0.0482082, -0.183354, -0.0602658, 1.05791E-006, 8.04206E-008
0, 3060.00000, -0.146679, -0.0482112, -0.165016, -0.0542368, -0.165015, -0.054239, 1.3604E-007, 3.07022E-008
0, 3120.00000, -0.146679, -0.0482111, -0.165016, -0.0542369, -0.165015, -0.054239, 1.36043E-007, 3.07029E-008
0, 3180.00000, -0.146679, -0.0482111, -0.165016, -0.0542369, -0.165015, -0.054239, 1.36043E-007, 3.07029E-008
0, 3240.00000, -0.146679, -0.0482111, -0.165016, -0.0542369, -0.165015, -0.054239, 1.36043E-007, 3.07029E-008
0, 3300.00000, -0.146679, -0.0482111, -0.165016, -0.0542369, -0.165015, -0.054239, 1.36043E-007, 3.07029E-008
0, 3360.00000, -0.165016, -0.0542389, -0.146679, -0.0482117, -0.165015, -0.0542364, 1.68972E-007, -3.05436E-008
0, 3420.00000, -0.165016, -0.054239, -0.146679, -0.0482116, -0.165016, -0.0542364, 1.68979E-007, -3.0544E-008
0, 3480.00000, -0.165016, -0.054239, -0.146679, -0.0482116, -0.165016, -0.0542364, 1.6898E-007, -3.0544E-008
0, 3540.00000, -0.165016, -0.054239, -0.146679, -0.0482116, -0.165016, -0.0542364, 1.6898E-007, -3.0544E-008
1, 0.00000, -0.165016, -0.054239, -0.146679, -0.0482116, -0.165016, -0.0542364, 1.6898E-007, -3.0544E-008
1, 60.00000, -0.128346, -0.0421859, -0.110009, -0.0361587, -0.128346, -0.0421839, 1.63921E-007, -1.86757E-008
1, 120.00000, -0.128346, -0.0421859, -0.110009, -0.0361587, -0.128345, -0.0421839, 1.63923E-007, -1.86758E-008
1, 180.00000, -0.128346, -0.0421859, -0.110009, -0.0361587, -0.128345, -0.0421839, 1.63923E-007, -1.86758E-008
1, 240.00000, -0.128346, -0.0421859, -0.110009, -0.0361587, -0.128345, -0.0421839, 1.63923E-007, -1.86758E-008
1, 300.00000, -0.128346, -0.0421859, -0.110009, -0.0361587, -0.128345, -0.0421839, 1.63923E-007, -1.86758E-008
1, 360.00000, -0.11001, -0.0361593, -0.110009, -0.0361577, -0.128346, -0.042185, 1.44983E-007, 3.58011E-009
1, 420.00000, -0.11001, -0.0361593, -0.11001, -0.0361578, -0.128346, -0.042185, 1.4498E-007, 3.58007E-009
1, 480.00000, -0.11001, -0.0361593, -0.11001, -0.0361578, -0.128346, -0.042185, 1.4498E-007, 3.58007E-009
1, 540.00000, -0.11001, -0.0361593, -0.11001, -0.0361578, -0.128346, -0.042185, 1.4498E-007, 3.58007E-009
1, 600.00000, -0.11001, -0.0361593, -0.11001, -0.0361578, -0.128346, -0.042185, 1.4498E-007, 3.58007E-009
1, 660.00000, -0.110006, -0.0361584, -0.110008, -0.0361573, -0.128351, -0.0421863, 1.40955E-007, -1.5574E-009
1, 720.00000, -0.11001, -0.0361593, -0.11001, -0.0361578, -0.128346, -0.0421849, 1.40845E-007, -1.56269E-009
1, 780.00000, -0.11001, -0.0361593, -0.11001, -0.0361578, -0.128346, -0.0421849, 1.40845E-007, -1.56269E-009
1, 840.00000, -0.11001, -0.0361593, -0.11001, -0.0361578, -0.128346, -0.0421849, 1.40845E-007, -1.56269E-009
1, 900.00000, -0.11001, -0.0361593, -0.11001, -0.0361578, -0.128346, -0.0421849, 1.40845E-007, -1.56269E-009
1, 960.00000, -0.0916725, -0.0301332, -0.128345, -0.0421812, -0.165019, -0.0542406, 1.85609E-006, 1.62513E-007
1, 1020.00000, -0.0916726, -0.0301333, -0.128345, -0.0421812, -0.165019, -0.0542406, 1.85608E-006, 1.62512E-007
1, 1080.00000, -0.0916726, -0.0301333, -0.128345, -0.0421812, -0.165019, -0.0542406, 1.85608E-006, 1.62512E-007
1, 1140.00000, -0.0916726, -0.0301333, -0.128345, -0.0421812, -0.165019, -0.0542406, 1.85608E-006, 1.62512E-007
1, 1200.00000, -0.0916726, -0.0301333, -0.128345, -0.0421812, -0.165019, -0.0542406, 1.85608E-006, 1.62512E-007
1, 1260.00000, -0.11001, -0.0361602, -0.0916739, -0.0301314, -0.128347, -0.042184, 4.69752E-007, 1.49171E-008
1, 1320.00000, -0.11001, -0.0361602, -0.0916738, -0.0301314, -0.128347, -0.0421841, 4.69757E-007, 1.49174E-008
1, 1380.00000, -0.11001, -0.0361602, -0.0916738, -0.0301314, -0.128347, -0.0421841, 4.69757E-007, 1.49174E-008
1, 1440.00000, -0.11001, -0.0361602, -0.0916738, -0.0301314, -0.128347, -0.0421841, 4.69757E-007, 1.49174E-008
1, 1500.00000, -0.11001, -0.0361602, -0.0916738, -0.0301314, -0.128347, -0.0421841, 4.69757E-007, 1.49174E-008
1, 1560.00000, -0.0916743, -0.030132, -0.110011, -0.0361579, -0.11001, -0.0361593, 1.32956E-007, 2.82058E-008
1, 1620.00000, -0.0916743, -0.030132, -0.110011, -0.0361579, -0.11001, -0.0361593, 1.32955E-007, 2.82057E-008
1, 1680.00000, -0.0916743, -0.030132, -0.110011, -0.0361579, -0.11001, -0.0361593, 1.32955E-007, 2.82057E-008
1, 1740.00000, -0.0916743, -0.030132, -0.110011, -0.0361579, -0.11001, -0.0361593, 1.32955E-007, 2.82057E-008
1, 1800.00000, -0.0916743, -0.030132, -0.110011, -0.0361579, -0.11001, -0.0361593, 1.32955E-007, 2.82057E-008
1, 1860.00000, -0.11001, -0.0361584, -0.11001, -0.0361587, -0.11001, -0.0361585, 2.24518E-010, -1.77213E-010
1, 1920.00000, -0.11001, -0.0361584, -0.11001, -0.0361587, -0.11001, -0.0361585, 2.24634E-010, -1.77189E-010
1, 1980.00000, -0.11001, -0.0361584, -0.11001, -0.0361587, -0.11001, -0.0361585, 2.24635E-010, -1.77189E-010
1, 2040.00000, -0.11001, -0.0361584, -0.11001, -0.0361587, -0.11001, -0.0361585, 2.24635E-010, -1.77189E-010
1, 2100.00000, -0.11001, -0.0361584, -0.11001, -0.0361587, -0.11001, -0.0361585, 2.24635E-010, -1.77189E-010
1, 2160.00000, -0.146684, -0.0482104, -0.110009, -0.0361612, -0.0916733, -0.0301305, 1.22674E-006, 7.81832E-008
1, 2220.00000, -0.146684, -0.0482104, -0.110009, -0.0361612, -0.0916733, -0.0301305, 1.22674E-006, 7.81832E-008
1, 2280.00000, -0.146684, -0.0482104, -0.110009, -0.0361612, -0.0916733, -0.0301305, 1.22674E-006, 7.81832E-008
1, 2340.00000, -0.146684, -0.0482104, -0.110009, -0.0361612, -0.0916733, -0.0301305, 1.22674E-006, 7.81832E-008
1, 2400.00000, -0.146684, -0.0482104, -0.110009, -0.0361612, -0.0916733, -0.0301305, 1.22674E-006, 7.81832E-008
1, 2460.00000, -0.128346, -0.0421817, -0.128348, -0.0421887, -0.0733381, -0.0241056, 1.55758E-006, 1.36965E-007
1, 2520.00000, -0.128347, -0.042182, -0.128347, -0.0421883, -0.0733379, -0.0241055, 1.55757E-006, 1.36962E-007
1, 2580.00000, -0.128347, -0.042182, -0.128347, -0.0421883, -0.0733379, -0.0241055, 1.55757E-006, 1.36962E-007
1, 2640.00000, -0.128347, -0.042182, -0.128347, -0.0421883, -0.0733379, -0.0241055, 1.55757E-006, 1.36962E-007
1, 2700.00000, -0.128347, -0.042182, -0.128347, -0.0421883, -0.0733379, -0.0241055, 1.55757E-006, 1.36962E-007
1, 2760.00000, -0.146683, -0.0482114, -0.110009, -0.0361603, -0.110007, -0.0361561, 6.92117E-007, 2.40392E-008
1, 2820.00000, -0.146683, -0.0482115, -0.110009, -0.0361603, -0.110009, -0.0361567, 6.92072E-007, 2.40364E-008
1, 2880.00000, -0.146683, -0.0482115, -0.110009, -0.0361603, -0.110009, -0.0361567, 6.92072E-007, 2.40364E-008
1, 2940.00000, -0.146683, -0.0482115, -0.110009, -0.0361603, -0.110009, -0.0361567, 6.92072E-007, 2.40364E-008
1, 3000.00000, -0.146683, -0.0482115, -0.110009, -0.0361603, -0.110009, -0.0361567, 6.92072E-007, 2.40364E-008
1, 3060.00000, -0.128344, -0.0421823, -0.128346, -0.0421873, -0.0916749, -0.0301324, 7.16468E-007, 8.66019E-008
1, 3120.00000, -0.128347, -0.0421829, -0.128346, -0.0421873, -0.0916732, -0.0301319, 7.1657E-007, 8.66072E-008
1, 3180.00000, -0.128347, -0.0421829, -0.128346, -0.0421873, -0.0916732, -0.0301319, 7.16571E-007, 8.66072E-008
1, 3240.00000, -0.128347, -0.0421829, -0.128346, -0.0421873, -0.0916732, -0.0301319, 7.16571E-007, 8.66072E-008
1, 3300.00000, -0.128347, -0.0421829, -0.128346, -0.0421873, -0.0916732, -0.0301319, 7.16571E-007, 8.66072E-008
1, 3360.00000, -0.128346, -0.042189, -0.0733377, -0.024105, -0.146683, -0.0482081, 2.13304E-006, 9.60959E-008
1, 3420.00000, -0.128346, -0.042189, -0.0733377, -0.024105, -0.146683, -0.0482081, 2.13304E-006, 9.60961E-008
1, 3480.00000, -0.128346, -0.042189, -0.0733377, -0.024105, -0.146683, -0.0482081, 2.13304E-006, 9.60961E-008
1, 3540.00000, -0.128346, -0.042189, -0.0733377, -0.024105, -0.146683, -0.0482081, 2.13304E-006, 9.60961E-008
2, 0.00000, -0.128346, -0.042189, -0.0733377, -0.024105, -0.146683, -0.0482081, 2.13304E-006, 9.60961E-008
2, 60.00000, -0.110011, -0.0361576, -0.110011, -0.0361596, -0.0916741, -0.030132, 1.91478E-007, 2.45415E-008
2, 120.00000, -0.110011, -0.0361576, -0.11001, -0.0361596, -0.0916741, -0.030132, 1.91479E-007, 2.45414E-008
2, 180.00000, -0.110011, -0.0361576, -0.11001, -0.0361596, -0.0916741, -0.030132, 1.91479E-007, 2.45414E-008
2, 240.00000, -0.110011, -0.0361576, -0.11001, -0.0361596, -0.0916741, -0.030132, 1.91479E-007, 2.45414E-008
2, 300.00000, -0.110011, -0.0361576, -0.11001, -0.0361596, -0.0916741, -0.030132, 1.91479E-007, 2.45414E-008
2, 360.00000, -0.128346, -0.042187, -0.0916733, -0.0301321, -0.128346, -0.0421829, 6.72178E-007, 6.91145E-009
2, 420.00000, -0.128346, -0.042187, -0.0916733, -0.0301321, -0.128346, -0.0421829, 6.72179E-007, 6.91145E-009
2, 480.00000, -0.128346, -0.042187, -0.0916733, -0.0301321, -0.128346, -0.0421829, 6.72179E-007, 6.91146E-009
2, 540.00000, -0.128346, -0.042187, -0.0916733, -0.0301321, -0.128346, -0.0421829, 6.72179E-007, 6.91146E-009
2, 600.00000, -0.128346, -0.042187, -0.0916733, -0.0301321, -0.128346, -0.0421829, 6.72179E-007, 6.91146E-009
2, 660.00000, -0.110013, -0.0361602, -0.0916712, -0.0301313, -0.110013, -0.0361582, 1.59936E-007, -6.62784E-009
2, 720.00000, -0.110011, -0.0361593, -0.0916742, -0.0301322, -0.11001, -0.0361577, 1.59847E-007, -6.62867E-009
2, 780.00000, -0.110011, -0.0361593, -0.0916742, -0.0301322, -0.11001, -0.0361577, 1.59847E-007, -6.62866E-009
2, 840.00000, -0.110011, -0.0361593, -0.0916742, -0.0301322, -0.11001, -0.0361577, 1.59847E-007, -6.62866E-009
2, 900.00000, -0.110011, -0.0361593, -0.0916742, -0.0301322, -0.11001, -0.0361577, 1.59847E-007, -6.62866E-009
2, 960.00000, -0.110009, -0.0361584, -0.128345, -0.0421841, -0.128345, -0.0421859, 1.41706E-007, 2.91986E-008
2, 1020.00000, -0.110009, -0.0361584, -0.128346, -0.0421842, -0.128345, -0.0421859, 1.41709E-007, 2.91992E-008
2, 1080.00000, -0.110009, -0.0361584, -0.128346, -0.0421842, -0.128345, -0.0421859, 1.41709E-007, 2.91992E-008
2, 1140.00000, -0.110009, -0.0361584, -0.128346, -0.0421842, -0.128345, -0.0421859, 1.41709E-007, 2.91992E-008
2, 1200.00000, -0.110009, -0.0361584, -0.128346, -0.0421842, -0.128345, -0.0421859, 1.41709E-007, 2.91992E-008
2, 1260.00000, -0.110009, -0.0361583, -0.110011, -0.0361589, -0.110011, -0.0361588, 7.66203E-011, -9.04976E-011
2, 1320.00000, -0.11001, -0.0361585, -0.11001, -0.0361587, -0.11001, -0.0361585, 7.86737E-011, -9.14374E-011
2, 1380.00000, -0.11001, -0.0361585, -0.11001, -0.0361587, -0.11001, -0.0361585, 7.86683E-011, -9.14381E-011
2, 1440.00000, -0.11001, -0.0361585, -0.11001, -0.0361587, -0.11001, -0.0361585, 7.86683E-011, -9.14381E-011
2, 1500.00000, -0.11001, -0.0361585, -0.11001, -0.0361587, -0.11001, -0.0361585, 7.86683E-011, -9.14381E-011
2, 1560.00000, -0.146682, -0.0482102, -0.128345, -0.0421872, -0.110008, -0.0361575, 5.50159E-007, 3.09444E-008
2, 1620.00000, -0.146682, -0.0482103, -0.128345, -0.0421872, -0.110008, -0.0361575, 5.50163E-007, 3.09444E-008
2, 1680.00000, -0.146682, -0.0482103, -0.128345, -0.0421872, -0.110008, -0.0361575, 5.50163E-007, 3.09444E-008
2, 1740.00000, -0.146682, -0.0482103, -0.128345, -0.0421872, -0.110008, -0.0361575, 5.50163E-007, 3.09444E-008
2, 1800.00000, -0.146682, -0.0482103, -0.128345, -0.0421872, -0.110008, -0.0361575, 5.50163E-007, 3.09444E-008
2, 1860.00000, -0.11001, -0.0361601, -0.0916763, -0.0301322, -0.128342, -0.0421828, 4.68515E-007, 4.77028E-009
2, 1920.00000, -0.11001, -0.0361602, -0.0916738, -0.0301314, -0.128347, -0.042184, 4.68685E-007, 4.77763E-009
2, 1980.00000, -0.11001, -0.0361602, -0.0916738, -0.0301314, -0.128347, -0.042184, 4.68685E-007, 4.77764E-009
2, 2040.00000, -0.11001, -0.0361602, -0.0916738, -0.0301314, -0.128347, -0.042184, 4.68685E-007, 4.77764E-009
2, 2100.00000, -0.11001, -0.0361602, -0.0916738, -0.0301314, -0.128347, -0.042184, 4.68685E-007, 4.77764E-009
2, 2160.00000, -0.0733382, -0.024106, -0.110009, -0.0361557, -0.128349, -0.0421876, 1.08028E-006, 1.07888E-007
2, 2220.00000, -0.0733384, -0.0241061, -0.110011, -0.0361562, -0.128347, -0.042187, 1.08022E-006, 1.07888E-007
2, 2280.00000, -0.0733384, -0.0241061, -0.110011, -0.0361562, -0.128347, -0.042187, 1.08022E-006, 1.07888E-007
2, 2340.00000, -0.0733384, -0.0241061, -0.110011, -0.0361562, -0.128347, -0.042187, 1.08022E-006, 1.07888E-007
2, 2400.00000, -0.0733384, -0.0241061, -0.110011, -0.0361562, -0.128347, -0.042187, 1.08022E-006, 1.07888E-007
2, 2460.00000, -0.110011, -0.0361568, -0.110011, -0.0361605, -0.0733386, -0.0241056, 7.17405E-007, 6.97608E-008
2, 2520.00000, -0.110011, -0.0361568, -0.110011, -0.0361605, -0.0733386, -0.0241056, 7.17407E-007, 6.97609E-008
2, 2580.00000, -0.110011, -0.0361568, -0.110011, -0.0361605, -0.0733386, -0.0241055, 7.17407E-007, 6.97609E-008
2, 2640.00000, -0.110011, -0.0361568, -0.110011, -0.0361605, -0.0733386, -0.0241055, 7.17407E-007, 6.97609E-008
2, 2700.00000, -0.110011, -0.0361568, -0.110011, -0.0361605, -0.0733386, -0.0241055, 7.17407E-007, 6.97609E-008
2, 2760.00000, -0.128347, -0.0421829, -0.128346, -0.0421873, -0.0916732, -0.0301319, 7.18944E-007, 6.819E-008
2, 2820.00000, -0.128346, -0.0421829, -0.128346, -0.0421873, -0.0916732, -0.0301319, 7.18942E-007, 6.81899E-008
2, 2880.00000, -0.128346, -0.0421829, -0.128346, -0.0421873, -0.0916732, -0.0301319, 7.18942E-007, 6.81899E-008
2, 2940.00000, -0.128346, -0.0421829, -0.128346, -0.0421873, -0.0916732, -0.0301319, 7.18942E-007, 6.81899E-008
2, 3000.00000, -0.128346, -0.0421829, -0.128346, -0.0421873, -0.0916732, -0.0301319, 7.18942E-007, 6.81899E-008
2, 3060.00000, -0.110009, -0.0361584, -0.128346, -0.0421842, -0.128345, -0.0421858, 1.38534E-007, 2.65672E-008
2, 3120.00000, -0.110009, -0.0361584, -0.128346, -0.0421842, -0.128345, -0.0421859, 1.38534E-007, 2.6567E-008
2, 3180.00000, -0.110009, -0.0361584, -0.128346, -0.0421842, -0.128345, -0.0421859, 1.38535E-007, 2.6567E-008
2, 3240.00000, -0.110009, -0.0361584, -0.128346, -0.0421842, -0.128345, -0.0421859, 1.38535E-007, 2.6567E-008
2, 3300.00000, -0.110009, -0.0361584, -0.128346, -0.0421842, -0.128345, -0.0421859, 1.38535E-007, 2.6567E-008
2, 3360.00000, -0.110011, -0.0361594, -0.0916741, -0.0301321, -0.110011, -0.0361577, 1.67653E-007, -1.18339E-008
2, 3420.00000, -0.110011, -0.0361594, -0.0916742, -0.0301322, -0.11001, -0.0361576, 1.67651E-007, -1.18339E-008
2, 3480.00000, -0.110011, -0.0361594, -0.0916742, -0.0301322, -0.11001, -0.0361576, 1.67651E-007, -1.18339E-008
2, 3540.00000, -0.110011, -0.0361594, -0.0916742, -0.0301322, -0.11001, -0.0361576, 1.67651E-007, -1.18339E-008
3, 0.00000, -0.110011, -0.0361594, -0.0916742, -0.0301322, -0.11001, -0.0361576, 1.67651E-007, -1.18339E-008
