hour, t(sec), V1, VAngle1, V2, VAngle2, V3, VAngle3, V4, VAngle4, I1, IAngle1, I2, IAngle2, I3, IAngle3, I4, IAngle4
0, 60.00000, 223.058, -30.2175, 223.164, -150.239, 223.333, 89.778, 0.000327569, -126.673, 1.02216, 131.588, 0.893962, 11.566, 0.510447, -108.417, 0.253298, -50.9525
0, 120.00000, 223.058, -30.2175, 223.164, -150.239, 223.333, 89.778, 0.000327569, -126.674, 1.02216, 131.588, 0.893963, 11.5659, 0.510447, -108.417, 0.253298, -50.9526
0, 180.00000, 223.058, -30.2175, 223.164, -150.239, 223.333, 89.778, 0.000327569, -126.674, 1.02216, 131.588, 0.893963, 11.5659, 0.510447, -108.417, 0.253298, -50.9526
0, 240.00000, 223.058, -30.2175, 223.164, -150.239, 223.333, 89.778, 0.000327569, -126.674, 1.02216, 131.588, 0.893963, 11.5659, 0.510447, -108.417, 0.253298, -50.9526
0, 300.00000, 223.058, -30.2175, 223.164, -150.239, 223.333, 89.778, 0.000327569, -126.674, 1.02216, 131.588, 0.893963, 11.5659, 0.510447, -108.417, 0.253298, -50.9526
0, 360.00000, 222.933, -30.226, 223.145, -150.248, 223.265, 89.7764, 0.000175617, -25.5326, 1.02272, 131.579, 0.76632, 11.5573, 1.02121, -108.419, 0.156118, 53.8277
0, 420.00000, 222.932, -30.226, 223.145, -150.248, 223.265, 89.7764, 0.00017562, -25.5345, 1.02273, 131.579, 0.766318, 11.5573, 1.02121, -108.418, 0.15612, 53.8258
0, 480.00000, 222.932, -30.226, 223.145, -150.248, 223.265, 89.7764, 0.00017562, -25.5345, 1.02273, 131.579, 0.766318, 11.5573, 1.02121, -108.418, 0.15612, 53.8258
0, 540.00000, 222.932, -30.226, 223.145, -150.248, 223.265, 89.7764, 0.00017562, -25.5345, 1.02273, 131.579, 0.766318, 11.5573, 1.02121, -108.418, 0.15612, 53.8258
0, 600.00000, 222.932, -30.226, 223.145, -150.248, 223.265, 89.7764, 0.00017562, -25.5345, 1.02273, 131.579, 0.766318, 11.5573, 1.02121, -108.418, 0.15612, 53.8258
0, 660.00000, 223.028, -30.225, 223.142, -150.233, 223.237, 89.7741, 0.000140104, 135.973, 0.894515, 131.58, 1.14949, 11.5726, 1.02133, -108.421, 0.112557, -165.547
0, 720.00000, 223.028, -30.225, 223.142, -150.233, 223.237, 89.7741, 0.000140108, 135.971, 0.894507, 131.58, 1.14949, 11.5726, 1.02134, -108.421, 0.11256, -165.549
0, 780.00000, 223.028, -30.225, 223.142, -150.233, 223.237, 89.7741, 0.000140108, 135.971, 0.894507, 131.58, 1.14949, 11.5726, 1.02134, -108.421, 0.11256, -165.549
0, 840.00000, 223.028, -30.225, 223.142, -150.233, 223.237, 89.7741, 0.000140108, 135.971, 0.894507, 131.58, 1.14949, 11.5726, 1.02134, -108.421, 0.11256, -165.549
0, 900.00000, 223.028, -30.225, 223.142, -150.233, 223.237, 89.7741, 0.000140108, 135.971, 0.894507, 131.58, 1.14949, 11.5726, 1.02134, -108.421, 0.11256, -165.549
0, 960.00000, 223.038, -30.2292, 223.153, -150.232, 223.133, 89.7704, 0.000158111, 35.4851, 1.02226, 131.576, 1.02172, 11.5728, 1.27724, -108.424, 0.157664, 107.587
0, 1020.00000, 223.038, -30.2292, 223.153, -150.232, 223.133, 89.7704, 0.000158127, 35.4861, 1.02225, 131.576, 1.02172, 11.5728, 1.27726, -108.424, 0.157678, 107.588
0, 1080.00000, 223.038, -30.2292, 223.153, -150.232, 223.133, 89.7704, 0.000158127, 35.4861, 1.02225, 131.576, 1.02172, 11.5728, 1.27726, -108.424, 0.157678, 107.588
0, 1140.00000, 223.038, -30.2292, 223.153, -150.232, 223.133, 89.7704, 0.000158127, 35.4861, 1.02225, 131.576, 1.02172, 11.5728, 1.27726, -108.424, 0.157678, 107.588
0, 1200.00000, 223.038, -30.2292, 223.153, -150.232, 223.133, 89.7704, 0.000158127, 35.4861, 1.02225, 131.576, 1.02172, 11.5728, 1.27726, -108.424, 0.157678, 107.588
0, 1260.00000, 222.994, -30.2126, 223.069, -150.255, 223.344, 89.7723, 0.000186263, -82.8548, 1.15025, 131.593, 0.894337, 11.5503, 0.893249, -108.423, 0.146632, -2.75086
0, 1320.00000, 222.994, -30.2126, 223.069, -150.255, 223.344, 89.7723, 0.000186268, -82.8571, 1.15026, 131.593, 0.894342, 11.5502, 0.89324, -108.423, 0.146635, -2.7533
0, 1380.00000, 222.994, -30.2126, 223.069, -150.255, 223.344, 89.7723, 0.000186268, -82.8571, 1.15026, 131.593, 0.894342, 11.5502, 0.89324, -108.423, 0.146635, -2.75331
0, 1440.00000, 222.994, -30.2126, 223.069, -150.255, 223.344, 89.7723, 0.000186268, -82.8571, 1.15026, 131.593, 0.894342, 11.5502, 0.89324, -108.423, 0.146635, -2.75331
0, 1500.00000, 222.994, -30.2126, 223.069, -150.255, 223.344, 89.7723, 0.000186268, -82.8571, 1.15026, 131.593, 0.894342, 11.5502, 0.89324, -108.423, 0.146635, -2.75331
0, 1560.00000, 223.081, -30.1954, 222.963, -150.243, 223.404, 89.7656, 0.000157914, 102.951, 0.894296, 131.61, 1.15041, 11.5625, 1.14815, -108.429, 0.139599, 164.999
0, 1620.00000, 223.081, -30.1954, 222.963, -150.243, 223.404, 89.7656, 0.000157916, 102.953, 0.894294, 131.61, 1.15041, 11.5625, 1.14815, -108.429, 0.1396, 165.001
0, 1680.00000, 223.081, -30.1954, 222.963, -150.243, 223.404, 89.7656, 0.000157916, 102.953, 0.894294, 131.61, 1.15041, 11.5625, 1.14815, -108.429, 0.1396, 165.001
0, 1740.00000, 223.081, -30.1954, 222.963, -150.243, 223.404, 89.7656, 0.000157916, 102.953, 0.894294, 131.61, 1.15041, 11.5625, 1.14815, -108.429, 0.1396, 165.001
0, 1800.00000, 223.081, -30.1954, 222.963, -150.243, 223.404, 89.7656, 0.000157916, 102.953, 0.894294, 131.61, 1.15041, 11.5625, 1.14815, -108.429, 0.1396, 165.001
0, 1860.00000, 222.952, -30.2204, 223.024, -150.241, 223.205, 89.765, 0.000222263, 16.4733, 1.02264, 131.585, 0.894526, 11.5641, 1.27685, -108.43, 0.204225, 91.9893
0, 1920.00000, 222.952, -30.2204, 223.024, -150.241, 223.205, 89.7651, 0.000222269, 16.4728, 1.02264, 131.585, 0.894521, 11.5641, 1.27685, -108.43, 0.204229, 91.9887
0, 1980.00000, 222.952, -30.2204, 223.024, -150.241, 223.205, 89.7651, 0.000222269, 16.4728, 1.02264, 131.585, 0.894521, 11.5641, 1.27685, -108.43, 0.204229, 91.9887
0, 2040.00000, 222.952, -30.2204, 223.024, -150.241, 223.205, 89.7651, 0.000222269, 16.4728, 1.02264, 131.585, 0.894521, 11.5641, 1.27685, -108.43, 0.204229, 91.9887
0, 2100.00000, 222.952, -30.2204, 223.024, -150.241, 223.205, 89.7651, 0.000222269, 16.4728, 1.02264, 131.585, 0.894521, 11.5641, 1.27685, -108.43, 0.204229, 91.9887
0, 2160.00000, 223.073, -30.2139, 223.114, -150.235, 223.236, 89.7701, 7.08107E-005, 32.741, 1.02209, 131.591, 1.0219, 11.5699, 1.149, -108.425, 0.0846068, 103.024
0, 2220.00000, 223.073, -30.2139, 223.114, -150.235, 223.236, 89.7701, 7.08162E-005, 32.7428, 1.02209, 131.591, 1.0219, 11.5699, 1.14901, -108.425, 0.0846112, 103.025
0, 2280.00000, 223.073, -30.2139, 223.114, -150.235, 223.236, 89.7701, 7.08162E-005, 32.7428, 1.02209, 131.591, 1.0219, 11.5699, 1.14901, -108.425, 0.0846112, 103.025
0, 2340.00000, 223.073, -30.2139, 223.114, -150.235, 223.236, 89.7701, 7.08162E-005, 32.7428, 1.02209, 131.591, 1.0219, 11.5699, 1.14901, -108.425, 0.0846112, 103.025
0, 2400.00000, 223.073, -30.2139, 223.114, -150.235, 223.236, 89.7701, 7.08162E-005, 32.7428, 1.02209, 131.591, 1.0219, 11.5699, 1.14901, -108.425, 0.0846112, 103.025
0, 2460.00000, 222.948, -30.2425, 223.255, -150.225, 223.084, 89.7778, 0.000100864, -86.2479, 1.15049, 131.563, 1.02126, 11.5798, 1.02203, -108.417, 0.0792228, 3.25492
0, 2520.00000, 222.948, -30.2425, 223.255, -150.225, 223.084, 89.7778, 0.000100863, -86.243, 1.15049, 131.563, 1.02125, 11.5798, 1.02204, -108.417, 0.0792244, 3.25973
0, 2580.00000, 222.948, -30.2425, 223.255, -150.225, 223.084, 89.7778, 0.000100863, -86.2429, 1.15049, 131.563, 1.02125, 11.5798, 1.02204, -108.417, 0.0792244, 3.25977
0, 2640.00000, 222.948, -30.2425, 223.255, -150.225, 223.084, 89.7778, 0.000100863, -86.2429, 1.15049, 131.563, 1.02125, 11.5798, 1.02204, -108.417, 0.0792244, 3.25977
0, 2700.00000, 222.948, -30.2425, 223.255, -150.225, 223.084, 89.7778, 0.000100863, -86.2429, 1.15049, 131.563, 1.02125, 11.5798, 1.02204, -108.417, 0.0792244, 3.25977
0, 2760.00000, 222.911, -30.2452, 223.331, -150.226, 223.124, 89.7921, 0.000144458, 4.09672, 1.02282, 131.56, 0.893299, 11.5793, 1.14959, -108.403, 0.13764, 80.6949
0, 2820.00000, 222.911, -30.2453, 223.331, -150.226, 223.124, 89.7921, 0.000144461, 4.09496, 1.02283, 131.56, 0.893294, 11.5793, 1.14959, -108.403, 0.137642, 80.6933
0, 2880.00000, 222.911, -30.2453, 223.331, -150.226, 223.124, 89.7921, 0.000144461, 4.09495, 1.02283, 131.56, 0.893294, 11.5793, 1.14959, -108.403, 0.137642, 80.6933
0, 2940.00000, 222.911, -30.2453, 223.331, -150.226, 223.124, 89.7921, 0.000144461, 4.09495, 1.02283, 131.56, 0.893294, 11.5793, 1.14959, -108.403, 0.137642, 80.6933
0, 3000.00000, 222.911, -30.2453, 223.331, -150.226, 223.124, 89.7921, 0.000144461, 4.09495, 1.02283, 131.56, 0.893294, 11.5793, 1.14959, -108.403, 0.137642, 80.6933
0, 3060.00000, 223.117, -30.2314, 223.111, -150.217, 223.079, 89.7553, 0.000222401, 145.474, 0.894158, 131.574, 1.27737, 11.5879, 1.02206, -108.44, 0.172239, -151.579
0, 3120.00000, 223.117, -30.2314, 223.111, -150.217, 223.079, 89.7553, 0.000222417, 145.474, 0.894147, 131.574, 1.27739, 11.5879, 1.02206, -108.44, 0.172252, -151.579
0, 3180.00000, 223.117, -30.2314, 223.111, -150.217, 223.079, 89.7553, 0.000222417, 145.474, 0.894147, 131.574, 1.27739, 11.5879, 1.02206, -108.44, 0.172252, -151.579
0, 3240.00000, 223.117, -30.2314, 223.111, -150.217, 223.079, 89.7553, 0.000222417, 145.474, 0.894147, 131.574, 1.27739, 11.5879, 1.02206, -108.44, 0.172252, -151.579
0, 3300.00000, 223.117, -30.2314, 223.111, -150.217, 223.079, 89.7553, 0.000222417, 145.474, 0.894147, 131.574, 1.27739, 11.5879, 1.02206, -108.44, 0.172252, -151.579
0, 3360.00000, 223.109, -30.2063, 222.926, -150.233, 223.179, 89.7513, 0.000307916, 149.633, 1.02192, 131.599, 1.53413, 11.5725, 1.14931, -108.444, 0.238682, -144.868
0, 3420.00000, 223.109, -30.2063, 222.926, -150.233, 223.179, 89.7513, 0.000307926, 149.634, 1.02192, 131.599, 1.53414, 11.5725, 1.1493, -108.444, 0.23869, -144.867
0, 3480.00000, 223.109, -30.2063, 222.926, -150.233, 223.179, 89.7513, 0.000307926, 149.634, 1.02192, 131.599, 1.53414, 11.5725, 1.1493, -108.444, 0.23869, -144.867
0, 3540.00000, 223.109, -30.2063, 222.926, -150.233, 223.179, 89.7513, 0.000307926, 149.634, 1.02192, 131.599, 1.53414, 11.5725, 1.1493, -108.444, 0.23869, -144.867
1, 0.00000, 223.109, -30.2063, 222.926, -150.233, 223.179, 89.7513, 0.000307926, 149.634, 1.02192, 131.599, 1.53414, 11.5725, 1.1493, -108.444, 0.23869, -144.867
1, 60.00000, 223.5, -30.1755, 223.46, -150.184, 223.549, 89.801, 0.000213755, 80.6953, 0.637594, 131.63, 0.89279, 11.6212, 1.01992, -108.394, 0.192025, 148.457
1, 120.00000, 223.5, -30.1755, 223.46, -150.184, 223.55, 89.801, 0.000213754, 80.6951, 0.637584, 131.63, 0.892777, 11.6212, 1.01991, -108.394, 0.192023, 148.457
1, 180.00000, 223.5, -30.1755, 223.46, -150.184, 223.55, 89.801, 0.000213754, 80.6951, 0.637583, 131.63, 0.892777, 11.6212, 1.01991, -108.394, 0.192023, 148.457
1, 240.00000, 223.5, -30.1755, 223.46, -150.184, 223.55, 89.801, 0.000213754, 80.6951, 0.637583, 131.63, 0.892777, 11.6212, 1.01991, -108.394, 0.192023, 148.457
1, 300.00000, 223.5, -30.1755, 223.46, -150.184, 223.55, 89.801, 0.000213754, 80.6951, 0.637583, 131.63, 0.892777, 11.6212, 1.01991, -108.394, 0.192023, 148.457
1, 360.00000, 223.397, -30.1682, 223.423, -150.208, 223.704, 89.8117, 0.000101759, -85.2275, 1.0206, 131.637, 0.892926, 11.5967, 0.891812, -108.383, 0.0763737, 4.09185
1, 420.00000, 223.397, -30.1682, 223.423, -150.208, 223.705, 89.8118, 0.00010177, -85.2301, 1.02061, 131.637, 0.892924, 11.5966, 0.891801, -108.383, 0.0763808, 4.08706
1, 480.00000, 223.397, -30.1682, 223.423, -150.208, 223.705, 89.8118, 0.00010177, -85.2301, 1.02061, 131.637, 0.892924, 11.5966, 0.891801, -108.383, 0.0763809, 4.08705
1, 540.00000, 223.397, -30.1682, 223.423, -150.208, 223.705, 89.8118, 0.00010177, -85.2301, 1.02061, 131.637, 0.892924, 11.5966, 0.891801, -108.383, 0.0763809, 4.08705
1, 600.00000, 223.397, -30.1682, 223.423, -150.208, 223.705, 89.8118, 0.00010177, -85.2301, 1.02061, 131.637, 0.892924, 11.5966, 0.891801, -108.383, 0.0763809, 4.08705
1, 660.00000, 223.426, -30.1762, 223.414, -150.193, 223.619, 89.8048, 9.83413E-005, -86.1945, 1.02048, 131.629, 0.89296, 11.6118, 0.892135, -108.39, 0.0781813, 1.60943
1, 720.00000, 223.426, -30.1762, 223.414, -150.193, 223.619, 89.8048, 9.83363E-005, -86.1931, 1.02047, 131.629, 0.89296, 11.6118, 0.892141, -108.39, 0.078178, 1.61169
1, 780.00000, 223.426, -30.1762, 223.414, -150.193, 223.619, 89.8048, 9.83362E-005, -86.1931, 1.02047, 131.629, 0.89296, 11.6118, 0.892141, -108.39, 0.0781779, 1.6117
1, 840.00000, 223.426, -30.1762, 223.414, -150.193, 223.619, 89.8048, 9.83362E-005, -86.1931, 1.02047, 131.629, 0.89296, 11.6118, 0.892141, -108.39, 0.0781779, 1.6117
1, 900.00000, 223.426, -30.1762, 223.414, -150.193, 223.619, 89.8048, 9.83362E-005, -86.1931, 1.02047, 131.629, 0.89296, 11.6118, 0.892141, -108.39, 0.0781779, 1.6117
1, 960.00000, 223.22, -30.1838, 223.433, -150.221, 223.651, 89.8165, 0.000157876, -55.0441, 0.893726, 131.621, 0.637782, 11.5845, 0.764585, -108.378, 0.133129, 26.2116
1, 1020.00000, 223.22, -30.1838, 223.433, -150.221, 223.651, 89.8165, 0.000157886, -55.0452, 0.893737, 131.621, 0.637776, 11.5845, 0.764583, -108.378, 0.133136, 26.2099
1, 1080.00000, 223.22, -30.1838, 223.433, -150.221, 223.651, 89.8165, 0.000157886, -55.0452, 0.893737, 131.621, 0.637776, 11.5845, 0.764583, -108.378, 0.133136, 26.2099
1, 1140.00000, 223.22, -30.1838, 223.433, -150.221, 223.651, 89.8165, 0.000157886, -55.0452, 0.893737, 131.621, 0.637776, 11.5845, 0.764583, -108.378, 0.133136, 26.2099
1, 1200.00000, 223.22, -30.1838, 223.433, -150.221, 223.651, 89.8165, 0.000157886, -55.0452, 0.893737, 131.621, 0.637776, 11.5845, 0.764583, -108.378, 0.133136, 26.2099
1, 1260.00000, 223.393, -30.1862, 223.505, -150.196, 223.572, 89.8113, 1.65854E-005, -116.279, 0.893055, 131.619, 0.892596, 11.6092, 0.89232, -108.384, 0.0162701, 62.2813
1, 1320.00000, 223.393, -30.1862, 223.505, -150.196, 223.572, 89.8113, 1.65744E-005, -116.293, 0.893043, 131.619, 0.892599, 11.6092, 0.892329, -108.384, 0.01627, 62.3149
1, 1380.00000, 223.393, -30.1862, 223.505, -150.196, 223.572, 89.8113, 1.65743E-005, -116.293, 0.893043, 131.619, 0.892599, 11.6092, 0.892329, -108.384, 0.0162699, 62.3152
1, 1440.00000, 223.393, -30.1862, 223.505, -150.196, 223.572, 89.8113, 1.65743E-005, -116.293, 0.893043, 131.619, 0.892599, 11.6092, 0.892329, -108.384, 0.0162699, 62.3152
1, 1500.00000, 223.393, -30.1862, 223.505, -150.196, 223.572, 89.8113, 1.65743E-005, -116.293, 0.893043, 131.619, 0.892599, 11.6092, 0.892329, -108.384, 0.0162699, 62.3152
1, 1560.00000, 223.361, -30.1924, 223.57, -150.189, 223.553, 89.8142, 0.000172747, 164.265, 0.765572, 131.613, 1.01982, 11.6165, 0.764919, -108.381, 0.128978, -130.082
1, 1620.00000, 223.361, -30.1924, 223.57, -150.189, 223.553, 89.8142, 0.000172741, 164.266, 0.765577, 131.613, 1.01981, 11.6165, 0.76492, -108.381, 0.128972, -130.081
1, 1680.00000, 223.361, -30.1924, 223.57, -150.189, 223.553, 89.8142, 0.00017274, 164.266, 0.765577, 131.613, 1.01981, 11.6165, 0.76492, -108.381, 0.128972, -130.081
1, 1740.00000, 223.361, -30.1924, 223.57, -150.189, 223.553, 89.8142, 0.00017274, 164.266, 0.765577, 131.613, 1.01981, 11.6165, 0.76492, -108.381, 0.128972, -130.081
1, 1800.00000, 223.361, -30.1924, 223.57, -150.189, 223.553, 89.8142, 0.00017274, 164.266, 0.765577, 131.613, 1.01981, 11.6165, 0.76492, -108.381, 0.128972, -130.081
1, 1860.00000, 223.302, -30.1835, 223.495, -150.205, 223.668, 89.818, 7.44409E-005, 104.856, 0.765774, 131.622, 0.892639, 11.6002, 0.891956, -108.377, 0.0692654, 160.982
1, 1920.00000, 223.302, -30.1835, 223.495, -150.205, 223.668, 89.818, 7.44354E-005, 104.859, 0.765779, 131.622, 0.892639, 11.6001, 0.891949, -108.377, 0.0692603, 160.983
1, 1980.00000, 223.302, -30.1835, 223.495, -150.205, 223.668, 89.818, 7.44353E-005, 104.859, 0.765779, 131.622, 0.892639, 11.6001, 0.891949, -108.377, 0.0692602, 160.983
1, 2040.00000, 223.302, -30.1835, 223.495, -150.205, 223.668, 89.818, 7.44353E-005, 104.859, 0.765779, 131.622, 0.892639, 11.6001, 0.891949, -108.377, 0.0692602, 160.983
1, 2100.00000, 223.302, -30.1835, 223.495, -150.205, 223.668, 89.818, 7.44353E-005, 104.859, 0.765779, 131.622, 0.892639, 11.6001, 0.891949, -108.377, 0.0692602, 160.983
1, 2160.00000, 223.304, -30.1896, 223.544, -150.203, 223.596, 89.8211, 0.000163805, -110.923, 1.02103, 131.616, 0.892442, 11.6022, 0.764768, -108.374, 0.121676, -31.7596
1, 2220.00000, 223.304, -30.1896, 223.544, -150.203, 223.595, 89.821, 0.000163798, -110.924, 1.02103, 131.616, 0.892444, 11.6022, 0.764773, -108.374, 0.12167, -31.7598
1, 2280.00000, 223.304, -30.1896, 223.544, -150.203, 223.595, 89.821, 0.000163798, -110.924, 1.02103, 131.616, 0.892444, 11.6022, 0.764774, -108.374, 0.12167, -31.7598
1, 2340.00000, 223.304, -30.1896, 223.544, -150.203, 223.595, 89.821, 0.000163798, -110.924, 1.02103, 131.616, 0.892444, 11.6022, 0.764774, -108.374, 0.12167, -31.7598
1, 2400.00000, 223.304, -30.1896, 223.544, -150.203, 223.595, 89.821, 0.000163798, -110.924, 1.02103, 131.616, 0.892444, 11.6022, 0.764774, -108.374, 0.12167, -31.7598
1, 2460.00000, 223.388, -30.1959, 223.64, -150.185, 223.536, 89.8214, 0.000258591, -23.6195, 0.8931, 131.609, 0.509766, 11.6208, 0.892435, -108.373, 0.226967, 52.5156
1, 2520.00000, 223.389, -30.1959, 223.64, -150.185, 223.535, 89.8213, 0.000258601, -23.6086, 0.893063, 131.609, 0.509747, 11.6202, 0.892476, -108.373, 0.226979, 52.5252
1, 2580.00000, 223.389, -30.1959, 223.64, -150.185, 223.535, 89.8213, 0.0002586, -23.6085, 0.893062, 131.609, 0.509747, 11.6202, 0.892476, -108.373, 0.226979, 52.5253
1, 2640.00000, 223.389, -30.1959, 223.64, -150.185, 223.535, 89.8213, 0.0002586, -23.6085, 0.893062, 131.609, 0.509747, 11.6202, 0.892476, -108.373, 0.226979, 52.5253
1, 2700.00000, 223.389, -30.1959, 223.64, -150.185, 223.535, 89.8213, 0.0002586, -23.6085, 0.893062, 131.609, 0.509747, 11.6202, 0.892476, -108.373, 0.226979, 52.5253
1, 2760.00000, 223.329, -30.1874, 223.512, -150.194, 223.541, 89.8156, 0.000239709, -157.312, 0.893297, 131.618, 1.02008, 11.6114, 0.637468, -108.379, 0.176475, -84.7182
1, 2820.00000, 223.329, -30.1873, 223.511, -150.194, 223.542, 89.8156, 0.000239712, -157.312, 0.893299, 131.618, 1.02008, 11.6114, 0.637465, -108.379, 0.176478, -84.7184
1, 2880.00000, 223.329, -30.1873, 223.511, -150.194, 223.542, 89.8156, 0.000239712, -157.312, 0.893299, 131.618, 1.02008, 11.6114, 0.637465, -108.379, 0.176478, -84.7183
1, 2940.00000, 223.329, -30.1873, 223.511, -150.194, 223.542, 89.8156, 0.000239712, -157.312, 0.893299, 131.618, 1.02008, 11.6114, 0.637465, -108.379, 0.176478, -84.7183
1, 3000.00000, 223.329, -30.1873, 223.511, -150.194, 223.542, 89.8156, 0.000239712, -157.312, 0.893299, 131.618, 1.02008, 11.6114, 0.637465, -108.379, 0.176478, -84.7183
1, 3060.00000, 223.329, -30.1942, 223.567, -150.192, 223.548, 89.8163, 0.000137323, 68.2983, 0.63807, 131.611, 0.764875, 11.6136, 0.892428, -108.379, 0.129605, 137.07
1, 3120.00000, 223.329, -30.1942, 223.567, -150.192, 223.548, 89.8163, 0.000137319, 68.2974, 0.638073, 131.611, 0.764872, 11.6136, 0.892424, -108.379, 0.129602, 137.069
1, 3180.00000, 223.329, -30.1942, 223.567, -150.192, 223.548, 89.8163, 0.000137319, 68.2974, 0.638073, 131.611, 0.764872, 11.6136, 0.892424, -108.379, 0.129602, 137.069
1, 3240.00000, 223.329, -30.1942, 223.567, -150.192, 223.548, 89.8163, 0.000137319, 68.2974, 0.638073, 131.611, 0.764872, 11.6136, 0.892424, -108.379, 0.129602, 137.069
1, 3300.00000, 223.329, -30.1942, 223.567, -150.192, 223.548, 89.8163, 0.000137319, 68.2974, 0.638073, 131.611, 0.764872, 11.6136, 0.892424, -108.379, 0.129602, 137.069
1, 3360.00000, 223.47, -30.1787, 223.42, -150.19, 223.541, 89.7982, 9.95651E-005, -136.33, 0.892745, 131.626, 0.892925, 11.6153, 0.764961, -108.397, 0.0613767, -58.7719
1, 3420.00000, 223.471, -30.1787, 223.419, -150.19, 223.541, 89.7982, 9.95663E-005, -136.338, 0.892735, 131.626, 0.89294, 11.6152, 0.764959, -108.397, 0.0613758, -58.7826
1, 3480.00000, 223.471, -30.1787, 223.419, -150.19, 223.541, 89.7982, 9.95664E-005, -136.338, 0.892735, 131.626, 0.89294, 11.6152, 0.764959, -108.397, 0.0613758, -58.7827
1, 3540.00000, 223.471, -30.1787, 223.419, -150.19, 223.541, 89.7982, 9.95664E-005, -136.338, 0.892735, 131.626, 0.89294, 11.6152, 0.764959, -108.397, 0.0613758, -58.7827
