hour, t(sec), V1, VAngle1, V2, VAngle2, V3, VAngle3, V4, VAngle4, I1, IAngle1, I2, IAngle2, I3, IAngle3, I4, IAngle4
0, 60.00000, 220.917, -30.133, 221.096, -150.172, 221.403, 89.8436, 0.000154409, 116.776, 1.2566, 131.672, 1.29175, 11.6334, 1.14904, -108.351, 0.0579249, -60.5773
0, 120.00000, 220.917, -30.133, 221.096, -150.172, 221.403, 89.8436, 0.00015441, 116.776, 1.2566, 131.672, 1.29176, 11.6334, 1.14904, -108.351, 0.0579254, -60.5791
0, 180.00000, 220.917, -30.133, 221.096, -150.172, 221.403, 89.8436, 0.00015441, 116.776, 1.2566, 131.672, 1.29176, 11.6334, 1.14904, -108.351, 0.0579254, -60.5791
0, 240.00000, 220.917, -30.133, 221.096, -150.172, 221.403, 89.8436, 0.00015441, 116.776, 1.2566, 131.672, 1.29176, 11.6334, 1.14904, -108.351, 0.0579254, -60.5791
0, 300.00000, 220.917, -30.133, 221.096, -150.172, 221.403, 89.8436, 0.00015441, 116.776, 1.2566, 131.672, 1.29176, 11.6334, 1.14904, -108.351, 0.0579254, -60.5791
0, 360.00000, 220.629, -30.1305, 221.031, -150.198, 221.429, 89.8518, 0.000113681, -105.109, 1.20563, 131.675, 1.18538, 11.6073, 1.09473, -108.343, 0.0537027, -35.4837
0, 420.00000, 220.629, -30.1305, 221.031, -150.198, 221.429, 89.8518, 0.000113692, -105.108, 1.20566, 131.675, 1.18537, 11.6072, 1.09472, -108.343, 0.0537189, -35.474
0, 480.00000, 220.629, -30.1305, 221.031, -150.198, 221.429, 89.8518, 0.000113693, -105.108, 1.20566, 131.675, 1.18537, 11.6072, 1.09472, -108.343, 0.053719, -35.4739
0, 540.00000, 220.629, -30.1305, 221.031, -150.198, 221.429, 89.8518, 0.000113693, -105.108, 1.20566, 131.675, 1.18537, 11.6072, 1.09472, -108.343, 0.053719, -35.4739
0, 600.00000, 220.629, -30.1305, 221.031, -150.198, 221.429, 89.8518, 0.000113693, -105.108, 1.20566, 131.675, 1.18537, 11.6072, 1.09472, -108.343, 0.053719, -35.4739
0, 660.00000, 220.798, -30.1462, 221.11, -150.166, 221.263, 89.8492, 6.75592E-005, 148.116, 1.18664, 131.659, 1.34414, 11.6392, 1.1136, -108.345, 0.0966199, -103.146
0, 720.00000, 220.798, -30.1463, 221.11, -150.166, 221.263, 89.8492, 6.75591E-005, 148.106, 1.18662, 131.659, 1.34415, 11.6392, 1.11362, -108.345, 0.0966151, -103.157
0, 780.00000, 220.798, -30.1463, 221.11, -150.166, 221.263, 89.8492, 6.75592E-005, 148.106, 1.18662, 131.659, 1.34415, 11.6392, 1.11362, -108.345, 0.0966152, -103.158
0, 840.00000, 220.798, -30.1463, 221.11, -150.166, 221.263, 89.8492, 6.75592E-005, 148.106, 1.18662, 131.659, 1.34415, 11.6392, 1.11362, -108.345, 0.0966152, -103.158
0, 900.00000, 220.798, -30.1463, 221.11, -150.166, 221.263, 89.8492, 6.75592E-005, 148.106, 1.18662, 131.659, 1.34415, 11.6392, 1.11362, -108.345, 0.0966152, -103.158
0, 960.00000, 220.81, -30.1557, 221.16, -150.164, 221.143, 89.8478, 0.000106232, -73.8836, 1.29344, 131.65, 1.25523, 11.6413, 1.11418, -108.347, 0.0920494, -40.7259
0, 1020.00000, 220.81, -30.1557, 221.16, -150.164, 221.142, 89.8478, 0.000106231, -73.873, 1.29343, 131.65, 1.25522, 11.6413, 1.11422, -108.347, 0.0920217, -40.7165
0, 1080.00000, 220.81, -30.1557, 221.16, -150.164, 221.142, 89.8478, 0.000106231, -73.873, 1.29343, 131.65, 1.25522, 11.6413, 1.11422, -108.347, 0.0920215, -40.7165
0, 1140.00000, 220.81, -30.1557, 221.16, -150.164, 221.142, 89.8478, 0.000106231, -73.873, 1.29343, 131.65, 1.25522, 11.6413, 1.11422, -108.347, 0.0920215, -40.7165
0, 1200.00000, 220.81, -30.1557, 221.16, -150.164, 221.142, 89.8478, 0.000106231, -73.873, 1.29343, 131.65, 1.25522, 11.6413, 1.11422, -108.347, 0.0920215, -40.7165
0, 1260.00000, 220.75, -30.1093, 220.918, -150.209, 221.582, 89.84, 0.000196645, -119.924, 1.36444, 131.696, 1.20406, 11.5966, 1.1644, -108.355, 0.112201, -5.04266
0, 1320.00000, 220.75, -30.1093, 220.918, -150.209, 221.582, 89.84, 0.000196657, -119.927, 1.36446, 131.696, 1.20408, 11.5966, 1.16437, -108.355, 0.112215, -5.05414
0, 1380.00000, 220.75, -30.1093, 220.918, -150.209, 221.582, 89.84, 0.000196657, -119.927, 1.36446, 131.696, 1.20408, 11.5966, 1.16437, -108.355, 0.112215, -5.0542
0, 1440.00000, 220.75, -30.1093, 220.918, -150.209, 221.582, 89.84, 0.000196657, -119.927, 1.36446, 131.696, 1.20408, 11.5966, 1.16437, -108.355, 0.112215, -5.0542
0, 1500.00000, 220.75, -30.1093, 220.918, -150.209, 221.582, 89.84, 0.000196657, -119.927, 1.36446, 131.696, 1.20408, 11.5966, 1.16437, -108.355, 0.112215, -5.0542
0, 1560.00000, 220.851, -30.0793, 220.719, -150.201, 221.704, 89.8256, 7.09414E-005, -91.7603, 1.36383, 131.726, 1.27583, 11.6041, 1.27019, -108.369, 0.0654217, 11.5499
0, 1620.00000, 220.851, -30.0793, 220.719, -150.201, 221.704, 89.8256, 7.09385E-005, -91.7677, 1.36383, 131.726, 1.27584, 11.6041, 1.27018, -108.369, 0.0654138, 11.5383
0, 1680.00000, 220.851, -30.0793, 220.719, -150.201, 221.704, 89.8256, 7.09385E-005, -91.7677, 1.36383, 131.726, 1.27584, 11.6041, 1.27018, -108.369, 0.0654137, 11.5382
0, 1740.00000, 220.851, -30.0793, 220.719, -150.201, 221.704, 89.8256, 7.09385E-005, -91.7677, 1.36383, 131.726, 1.27584, 11.6041, 1.27018, -108.369, 0.0654137, 11.5382
0, 1800.00000, 220.851, -30.0793, 220.719, -150.201, 221.704, 89.8256, 7.09385E-005, -91.7677, 1.36383, 131.726, 1.27584, 11.6041, 1.27018, -108.369, 0.0654137, 11.5382
0, 1860.00000, 220.598, -30.1163, 220.81, -150.193, 221.359, 89.8384, 6.386E-005, -5.66883, 1.25841, 131.689, 1.02715, 11.6124, 1.27214, -108.356, 0.159908, 58.746
0, 1920.00000, 220.598, -30.1163, 220.81, -150.193, 221.359, 89.8384, 6.38701E-005, -5.66958, 1.25842, 131.689, 1.02714, 11.6124, 1.27216, -108.356, 0.159924, 58.7477
0, 1980.00000, 220.598, -30.1163, 220.81, -150.193, 221.359, 89.8384, 6.38702E-005, -5.66956, 1.25842, 131.689, 1.02714, 11.6124, 1.27216, -108.356, 0.159924, 58.7477
0, 2040.00000, 220.598, -30.1163, 220.81, -150.193, 221.359, 89.8384, 6.38702E-005, -5.66956, 1.25842, 131.689, 1.02714, 11.6124, 1.27216, -108.356, 0.159924, 58.7477
0, 2100.00000, 220.598, -30.1163, 220.81, -150.193, 221.359, 89.8384, 6.38702E-005, -5.66956, 1.25842, 131.689, 1.02714, 11.6124, 1.27216, -108.356, 0.159924, 58.7477
0, 2160.00000, 220.881, -30.1295, 221.051, -150.171, 221.314, 89.8399, 8.11541E-005, 132.546, 1.11556, 131.676, 1.36261, 11.634, 1.2724, -108.355, 0.112104, -172.697
0, 2220.00000, 220.881, -30.1295, 221.051, -150.171, 221.314, 89.8399, 8.11524E-005, 132.539, 1.11554, 131.676, 1.3626, 11.6341, 1.27242, -108.355, 0.112112, -172.704
0, 2280.00000, 220.881, -30.1295, 221.051, -150.171, 221.314, 89.8399, 8.11525E-005, 132.539, 1.11554, 131.676, 1.3626, 11.6341, 1.27242, -108.355, 0.112112, -172.704
0, 2340.00000, 220.881, -30.1295, 221.051, -150.171, 221.314, 89.8399, 8.11525E-005, 132.539, 1.11554, 131.676, 1.3626, 11.6341, 1.27242, -108.355, 0.112112, -172.704
0, 2400.00000, 220.881, -30.1295, 221.051, -150.171, 221.314, 89.8399, 8.11525E-005, 132.539, 1.11554, 131.676, 1.3626, 11.6341, 1.27242, -108.355, 0.112112, -172.704
0, 2460.00000, 220.66, -30.1863, 221.372, -150.149, 220.967, 89.868, 8.98985E-005, -58.0066, 1.43572, 131.619, 1.25404, 11.656, 1.27438, -108.327, 0.11467, 10.0238
0, 2520.00000, 220.66, -30.1863, 221.372, -150.149, 220.966, 89.868, 8.99062E-005, -57.9981, 1.43572, 131.619, 1.25402, 11.656, 1.27442, -108.327, 0.114674, 10.0362
0, 2580.00000, 220.66, -30.1863, 221.372, -150.149, 220.966, 89.868, 8.99063E-005, -57.9981, 1.43572, 131.619, 1.25401, 11.656, 1.27442, -108.327, 0.114674, 10.0363
0, 2640.00000, 220.66, -30.1863, 221.372, -150.149, 220.966, 89.868, 8.99063E-005, -57.9981, 1.43572, 131.619, 1.25401, 11.656, 1.27442, -108.327, 0.114674, 10.0363
0, 2700.00000, 220.66, -30.1863, 221.372, -150.149, 220.966, 89.868, 8.99063E-005, -57.9981, 1.43572, 131.619, 1.25401, 11.656, 1.27442, -108.327, 0.114674, 10.0363
0, 2760.00000, 220.518, -30.1925, 221.517, -150.159, 221.037, 89.895, 0.000139591, -36.6815, 1.41849, 131.613, 1.21711, 11.6468, 1.25591, -108.3, 0.123684, 12.5957
0, 2820.00000, 220.518, -30.1925, 221.517, -150.159, 221.037, 89.8951, 0.000139598, -36.6836, 1.4185, 131.613, 1.21709, 11.6468, 1.25591, -108.299, 0.1237, 12.5972
0, 2880.00000, 220.518, -30.1925, 221.517, -150.159, 221.037, 89.8951, 0.000139598, -36.6837, 1.4185, 131.613, 1.21709, 11.6468, 1.25591, -108.299, 0.1237, 12.5972
0, 2940.00000, 220.518, -30.1925, 221.517, -150.159, 221.037, 89.8951, 0.000139598, -36.6837, 1.4185, 131.613, 1.21709, 11.6468, 1.25591, -108.299, 0.1237, 12.5972
0, 3000.00000, 220.518, -30.1925, 221.517, -150.159, 221.037, 89.8951, 0.000139598, -36.6837, 1.4185, 131.613, 1.21709, 11.6468, 1.25591, -108.299, 0.1237, 12.5972
0, 3060.00000, 221.028, -30.1619, 221.034, -150.125, 220.92, 89.8167, 0.000300901, -86.9312, 1.46954, 131.643, 1.25589, 11.6805, 1.23849, -108.378, 0.139313, -1.66403
0, 3120.00000, 221.028, -30.1619, 221.033, -150.125, 220.92, 89.8167, 0.000300879, -86.9335, 1.46951, 131.643, 1.25594, 11.6805, 1.23848, -108.378, 0.139282, -1.67388
0, 3180.00000, 221.028, -30.1619, 221.033, -150.125, 220.92, 89.8167, 0.000300879, -86.9335, 1.46951, 131.643, 1.25594, 11.6805, 1.23848, -108.378, 0.139281, -1.674
0, 3240.00000, 221.028, -30.1619, 221.033, -150.125, 220.92, 89.8167, 0.000300879, -86.9335, 1.46951, 131.643, 1.25594, 11.6805, 1.23848, -108.378, 0.139281, -1.674
0, 3300.00000, 221.028, -30.1619, 221.033, -150.125, 220.92, 89.8167, 0.000300879, -86.9335, 1.46951, 131.643, 1.25594, 11.6805, 1.23848, -108.378, 0.139281, -1.674
0, 3360.00000, 221.027, -30.1084, 220.649, -150.155, 221.179, 89.7987, 0.000120956, 119.756, 1.34465, 131.697, 1.38317, 11.6509, 1.37992, -108.396, 0.0265847, 108.156
0, 3420.00000, 221.027, -30.1084, 220.649, -150.155, 221.18, 89.7987, 0.000120966, 119.765, 1.34465, 131.697, 1.3832, 11.6508, 1.37988, -108.396, 0.0265565, 108.178
0, 3480.00000, 221.027, -30.1084, 220.649, -150.155, 221.18, 89.7987, 0.000120966, 119.765, 1.34465, 131.697, 1.3832, 11.6508, 1.37988, -108.396, 0.0265562, 108.178
0, 3540.00000, 221.027, -30.1084, 220.649, -150.155, 221.18, 89.7987, 0.000120966, 119.765, 1.34465, 131.697, 1.3832, 11.6508, 1.37988, -108.396, 0.0265562, 108.178
1, 0.00000, 221.027, -30.1084, 220.649, -150.155, 221.18, 89.7987, 0.000120966, 119.765, 1.34465, 131.697, 1.3832, 11.6508, 1.37988, -108.396, 0.0265562, 108.178
1, 60.00000, 221.674, -30.1029, 221.663, -150.13, 221.915, 89.8518, 7.52641E-005, 97.6641, 0.934753, 131.703, 1.0936, 11.6755, 0.951747, -108.343, 0.0686824, -132.448
1, 120.00000, 221.674, -30.1029, 221.663, -150.13, 221.916, 89.8518, 7.52629E-005, 97.6626, 0.934719, 131.703, 1.09357, 11.6755, 0.951721, -108.343, 0.0686803, -132.452
1, 180.00000, 221.674, -30.1029, 221.663, -150.13, 221.916, 89.8518, 7.52629E-005, 97.6626, 0.934719, 131.703, 1.09357, 11.6755, 0.951721, -108.343, 0.0686803, -132.452
1, 240.00000, 221.674, -30.1029, 221.663, -150.13, 221.916, 89.8518, 7.52629E-005, 97.6626, 0.934719, 131.703, 1.09357, 11.6755, 0.951721, -108.343, 0.0686803, -132.452
1, 300.00000, 221.674, -30.1029, 221.663, -150.13, 221.916, 89.8518, 7.52629E-005, 97.6626, 0.934719, 131.703, 1.09357, 11.6755, 0.951721, -108.343, 0.0686803, -132.452
1, 360.00000, 221.54, -30.0799, 221.555, -150.169, 222.206, 89.8603, 8.3835E-005, 81.9244, 1.1122, 131.725, 1.1302, 11.6364, 1.21513, -108.335, 0.0688429, 108.169
1, 420.00000, 221.54, -30.0799, 221.556, -150.169, 222.206, 89.8603, 8.38225E-005, 81.931, 1.11223, 131.725, 1.1302, 11.6363, 1.2151, -108.334, 0.0688211, 108.155
1, 480.00000, 221.54, -30.0799, 221.556, -150.169, 222.206, 89.8603, 8.38224E-005, 81.931, 1.11223, 131.725, 1.1302, 11.6363, 1.2151, -108.334, 0.068821, 108.155
1, 540.00000, 221.54, -30.0799, 221.556, -150.169, 222.206, 89.8603, 8.38224E-005, 81.931, 1.11223, 131.725, 1.1302, 11.6363, 1.2151, -108.334, 0.068821, 108.155
1, 600.00000, 221.54, -30.0799, 221.556, -150.169, 222.206, 89.8603, 8.38224E-005, 81.931, 1.11223, 131.725, 1.1302, 11.6363, 1.2151, -108.334, 0.068821, 108.155
1, 660.00000, 221.583, -30.1001, 221.587, -150.141, 221.992, 89.8552, 4.28545E-005, -109.457, 1.11202, 131.705, 1.04158, 11.6644, 1.18022, -108.339, 0.0885185, 80.4391
1, 720.00000, 221.583, -30.1001, 221.587, -150.141, 221.992, 89.8552, 4.28485E-005, -109.453, 1.11201, 131.705, 1.04159, 11.6644, 1.18024, -108.339, 0.0885249, 80.4465
1, 780.00000, 221.583, -30.1001, 221.587, -150.141, 221.992, 89.8552, 4.28484E-005, -109.453, 1.11201, 131.705, 1.04159, 11.6644, 1.18024, -108.339, 0.0885249, 80.4466
1, 840.00000, 221.583, -30.1001, 221.587, -150.141, 221.992, 89.8552, 4.28484E-005, -109.453, 1.11201, 131.705, 1.04159, 11.6644, 1.18024, -108.339, 0.0885249, 80.4466
1, 900.00000, 221.583, -30.1001, 221.587, -150.141, 221.992, 89.8552, 4.28484E-005, -109.453, 1.11201, 131.705, 1.04159, 11.6644, 1.18024, -108.339, 0.0885249, 80.4466
1, 960.00000, 221.122, -30.0975, 221.569, -150.19, 222.096, 89.886, 0.00017425, -113.415, 1.13238, 131.708, 1.1121, 11.6158, 1.00319, -108.309, 0.0632417, -42.7439
1, 1020.00000, 221.121, -30.0976, 221.569, -150.19, 222.096, 89.8861, 0.000174264, -113.413, 1.13242, 131.708, 1.11208, 11.6158, 1.00319, -108.309, 0.0632583, -42.7251
1, 1080.00000, 221.121, -30.0976, 221.569, -150.19, 222.096, 89.8861, 0.000174264, -113.413, 1.13242, 131.708, 1.11208, 11.6158, 1.00319, -108.309, 0.0632583, -42.7248
1, 1140.00000, 221.121, -30.0976, 221.569, -150.19, 222.096, 89.8861, 0.000174264, -113.413, 1.13242, 131.708, 1.11208, 11.6158, 1.00319, -108.309, 0.0632583, -42.7248
1, 1200.00000, 221.121, -30.0976, 221.569, -150.19, 222.096, 89.8861, 0.000174264, -113.413, 1.13242, 131.708, 1.11208, 11.6158, 1.00319, -108.309, 0.0632583, -42.7248
1, 1260.00000, 221.579, -30.1235, 221.759, -150.134, 221.86, 89.8652, 0.000151155, 168.498, 0.9532, 131.682, 1.28789, 11.6713, 1.09258, -108.329, 0.153356, -153.877
1, 1320.00000, 221.579, -30.1234, 221.759, -150.134, 221.859, 89.8651, 0.000151152, 168.494, 0.953166, 131.682, 1.2879, 11.6714, 1.0926, -108.33, 0.153375, -153.884
1, 1380.00000, 221.579, -30.1234, 221.759, -150.134, 221.859, 89.8651, 0.000151152, 168.493, 0.953166, 131.682, 1.2879, 11.6714, 1.0926, -108.33, 0.153375, -153.884
1, 1440.00000, 221.579, -30.1234, 221.759, -150.134, 221.859, 89.8651, 0.000151152, 168.493, 0.953166, 131.682, 1.2879, 11.6714, 1.0926, -108.33, 0.153375, -153.884
1, 1500.00000, 221.579, -30.1234, 221.759, -150.134, 221.859, 89.8651, 0.000151152, 168.493, 0.953166, 131.682, 1.2879, 11.6714, 1.0926, -108.33, 0.153375, -153.884
1, 1560.00000, 221.416, -30.1353, 221.906, -150.135, 221.845, 89.8837, 4.74469E-005, 109.803, 1.02431, 131.67, 1.11041, 11.6705, 1.1107, -108.311, 0.0464391, 152.078
1, 1620.00000, 221.416, -30.1354, 221.906, -150.135, 221.844, 89.8837, 4.74383E-005, 109.802, 1.02433, 131.67, 1.11039, 11.6705, 1.1107, -108.311, 0.046431, 152.06
1, 1680.00000, 221.416, -30.1354, 221.906, -150.135, 221.844, 89.8837, 4.74382E-005, 109.802, 1.02433, 131.67, 1.11039, 11.6705, 1.1107, -108.311, 0.046431, 152.059
1, 1740.00000, 221.416, -30.1354, 221.906, -150.135, 221.844, 89.8837, 4.74382E-005, 109.802, 1.02433, 131.67, 1.11039, 11.6705, 1.1107, -108.311, 0.046431, 152.059
1, 1800.00000, 221.416, -30.1354, 221.906, -150.135, 221.844, 89.8837, 4.74382E-005, 109.802, 1.02433, 131.67, 1.11039, 11.6705, 1.1107, -108.311, 0.046431, 152.059
1, 1860.00000, 221.255, -30.11, 221.785, -150.174, 222.138, 89.8922, 0.000106447, 143.167, 0.724943, 131.695, 1.12903, 11.6313, 1.02101, -108.303, 0.203246, -174.171
1, 1920.00000, 221.255, -30.11, 221.785, -150.174, 222.138, 89.8923, 0.000106448, 143.171, 0.724958, 131.695, 1.12903, 11.6313, 1.021, -108.302, 0.203235, -174.168
1, 1980.00000, 221.255, -30.11, 221.785, -150.174, 222.138, 89.8923, 0.000106448, 143.171, 0.724958, 131.695, 1.12903, 11.6313, 1.021, -108.302, 0.203235, -174.168
1, 2040.00000, 221.255, -30.11, 221.785, -150.174, 222.138, 89.8923, 0.000106448, 143.171, 0.724958, 131.695, 1.12903, 11.6313, 1.021, -108.302, 0.203235, -174.168
1, 2100.00000, 221.255, -30.11, 221.785, -150.174, 222.138, 89.8923, 0.000106448, 143.171, 0.724958, 131.695, 1.12903, 11.6313, 1.021, -108.302, 0.203235, -174.168
1, 2160.00000, 221.287, -30.1287, 221.886, -150.16, 221.948, 89.8969, 5.667E-005, -98.3102, 1.04301, 131.677, 0.969865, 11.6459, 1.18046, -108.298, 0.123405, 91.828
1, 2220.00000, 221.288, -30.1287, 221.886, -150.159, 221.948, 89.8969, 5.66621E-005, -98.3068, 1.04299, 131.677, 0.969871, 11.6459, 1.18047, -108.298, 0.123413, 91.8349
1, 2280.00000, 221.288, -30.1287, 221.886, -150.159, 221.948, 89.8969, 5.6662E-005, -98.3068, 1.04299, 131.677, 0.969871, 11.6459, 1.18047, -108.298, 0.123413, 91.835
1, 2340.00000, 221.288, -30.1287, 221.886, -150.159, 221.948, 89.8969, 5.6662E-005, -98.3068, 1.04299, 131.677, 0.969871, 11.6459, 1.18047, -108.298, 0.123413, 91.835
1, 2400.00000, 221.288, -30.1287, 221.886, -150.159, 221.948, 89.8969, 5.6662E-005, -98.3068, 1.04299, 131.677, 0.969871, 11.6459, 1.18047, -108.298, 0.123413, 91.835
1, 2460.00000, 221.491, -30.1402, 221.976, -150.128, 221.819, 89.8876, 6.25043E-005, 171.902, 1.02408, 131.665, 1.11011, 11.6775, 1.02237, -108.307, 0.0311842, -126.836
1, 2520.00000, 221.493, -30.1403, 221.976, -150.127, 221.818, 89.8874, 6.24571E-005, 171.873, 1.02397, 131.665, 1.11004, 11.678, 1.02247, -108.307, 0.0311536, -127.022
1, 2580.00000, 221.493, -30.1403, 221.976, -150.127, 221.818, 89.8874, 6.24569E-005, 171.873, 1.02397, 131.665, 1.11004, 11.678, 1.02247, -108.307, 0.0311539, -127.024
1, 2640.00000, 221.493, -30.1403, 221.976, -150.127, 221.818, 89.8874, 6.24569E-005, 171.873, 1.02397, 131.665, 1.11004, 11.678, 1.02247, -108.307, 0.031154, -127.024
1, 2700.00000, 221.493, -30.1403, 221.976, -150.127, 221.818, 89.8874, 6.24569E-005, 171.873, 1.02397, 131.665, 1.11004, 11.678, 1.02247, -108.307, 0.031154, -127.024
1, 2760.00000, 221.341, -30.132, 221.821, -150.136, 221.767, 89.8877, 0.00014447, 171.693, 1.02467, 131.673, 1.0585, 11.6688, 0.952365, -108.307, 0.0395575, -66.9893
1, 2820.00000, 221.341, -30.132, 221.821, -150.137, 221.767, 89.8877, 0.000144475, 171.693, 1.02468, 131.673, 1.05851, 11.6688, 0.952359, -108.307, 0.0395653, -66.9924
1, 2880.00000, 221.341, -30.132, 221.821, -150.137, 221.767, 89.8877, 0.000144476, 171.693, 1.02468, 131.673, 1.05851, 11.6688, 0.952359, -108.307, 0.0395654, -66.9924
1, 2940.00000, 221.341, -30.132, 221.821, -150.137, 221.767, 89.8877, 0.000144476, 171.693, 1.02468, 131.673, 1.05851, 11.6688, 0.952359, -108.307, 0.0395654, -66.9924
1, 3000.00000, 221.341, -30.132, 221.821, -150.137, 221.767, 89.8877, 0.000144476, 171.693, 1.02468, 131.673, 1.05851, 11.6688, 0.952359, -108.307, 0.0395654, -66.9924
1, 3060.00000, 221.283, -30.1335, 221.899, -150.147, 221.883, 89.8939, 0.000151216, 4.02124, 1.1135, 131.672, 1.00408, 11.658, 1.12854, -108.301, 0.0871205, 59.9729
1, 3120.00000, 221.283, -30.1335, 221.9, -150.147, 221.883, 89.8939, 0.000151213, 4.01872, 1.11352, 131.672, 1.00407, 11.658, 1.12853, -108.301, 0.0871254, 59.9654
1, 3180.00000, 221.283, -30.1335, 221.9, -150.147, 221.883, 89.8939, 0.000151213, 4.01869, 1.11352, 131.672, 1.00407, 11.658, 1.12853, -108.301, 0.0871255, 59.9653
1, 3240.00000, 221.283, -30.1335, 221.9, -150.147, 221.883, 89.8939, 0.000151213, 4.01869, 1.11352, 131.672, 1.00407, 11.658, 1.12853, -108.301, 0.0871255, 59.9653
1, 3300.00000, 221.283, -30.1335, 221.9, -150.147, 221.883, 89.8939, 0.000151213, 4.01869, 1.11352, 131.672, 1.00407, 11.658, 1.12853, -108.301, 0.0871255, 59.9653
1, 3360.00000, 221.723, -30.1048, 221.543, -150.124, 221.829, 89.8382, 0.000104992, -23.4804, 0.811852, 131.701, 0.935234, 11.6816, 1.02243, -108.356, 0.107955, 142.913
1, 3420.00000, 221.723, -30.1047, 221.542, -150.124, 221.829, 89.8381, 0.000104978, -23.4739, 0.811825, 131.701, 0.935274, 11.6816, 1.02242, -108.357, 0.107963, 142.929
1, 3480.00000, 221.723, -30.1047, 221.542, -150.124, 221.829, 89.8381, 0.000104978, -23.4739, 0.811825, 131.701, 0.935274, 11.6816, 1.02242, -108.357, 0.107963, 142.93
1, 3540.00000, 221.723, -30.1047, 221.542, -150.124, 221.829, 89.8381, 0.000104978, -23.4739, 0.811825, 131.701, 0.935274, 11.6816, 1.02242, -108.357, 0.107963, 142.93
