hour, t(sec), V1, VAngle1, V2, VAngle2, V3, VAngle3, V4, VAngle4, I1, IAngle1, I2, IAngle2, I3, IAngle3, I4, IAngle4
0, 60.00000, 220.686, -30.117, 220.822, -150.163, 221.2, 89.8509, 0.000100186, 139.211, 0.5424, 131.688, 0.696941, 11.6424, 0.618444, -108.344, 0.0567576, -154.843
0, 120.00000, 220.686, -30.117, 220.822, -150.163, 221.2, 89.8509, 0.000100187, 139.212, 0.5424, 131.688, 0.696943, 11.6424, 0.618444, -108.344, 0.0567582, -154.843
0, 180.00000, 220.686, -30.117, 220.822, -150.163, 221.2, 89.8509, 0.000100187, 139.212, 0.5424, 131.688, 0.696943, 11.6424, 0.618444, -108.344, 0.0567582, -154.843
0, 240.00000, 220.686, -30.117, 220.822, -150.163, 221.2, 89.8509, 0.000100187, 139.212, 0.5424, 131.688, 0.696943, 11.6424, 0.618444, -108.344, 0.0567582, -154.843
0, 300.00000, 220.686, -30.117, 220.822, -150.163, 221.2, 89.8509, 0.000100187, 139.212, 0.5424, 131.688, 0.696943, 11.6424, 0.618444, -108.344, 0.0567582, -154.843
0, 360.00000, 220.396, -30.1156, 220.773, -150.19, 221.242, 89.8593, 0.000189222, -134.909, 0.62069, 131.69, 0.619646, 11.6151, 0.386458, -108.335, 0.106604, -55.0819
0, 420.00000, 220.396, -30.1156, 220.773, -150.19, 221.242, 89.8593, 0.000189228, -134.906, 0.620702, 131.69, 0.619641, 11.6151, 0.386454, -108.336, 0.106608, -55.0783
0, 480.00000, 220.396, -30.1156, 220.773, -150.19, 221.242, 89.8593, 0.000189228, -134.906, 0.620702, 131.69, 0.619641, 11.6151, 0.386454, -108.336, 0.106608, -55.0783
0, 540.00000, 220.396, -30.1156, 220.773, -150.19, 221.242, 89.8593, 0.000189228, -134.906, 0.620702, 131.69, 0.619641, 11.6151, 0.386454, -108.336, 0.106608, -55.0783
0, 600.00000, 220.396, -30.1156, 220.773, -150.19, 221.242, 89.8593, 0.000189228, -134.906, 0.620702, 131.69, 0.619641, 11.6151, 0.386454, -108.336, 0.106608, -55.0783
0, 660.00000, 220.533, -30.1333, 220.868, -150.158, 221.047, 89.8611, 6.16425E-005, 173.734, 0.620326, 131.672, 0.696796, 11.6476, 0.618862, -108.334, 0.0272374, -121.121
0, 720.00000, 220.533, -30.1333, 220.868, -150.158, 221.047, 89.8611, 6.16414E-005, 173.722, 0.620315, 131.672, 0.696798, 11.6476, 0.618872, -108.334, 0.0272385, -121.138
0, 780.00000, 220.533, -30.1333, 220.868, -150.158, 221.047, 89.8611, 6.16415E-005, 173.722, 0.620315, 131.672, 0.696798, 11.6476, 0.618872, -108.334, 0.0272385, -121.138
0, 840.00000, 220.533, -30.1333, 220.868, -150.158, 221.047, 89.8611, 6.16415E-005, 173.722, 0.620315, 131.672, 0.696798, 11.6476, 0.618872, -108.334, 0.0272385, -121.138
0, 900.00000, 220.533, -30.1333, 220.868, -150.158, 221.047, 89.8611, 6.16415E-005, 173.722, 0.620315, 131.672, 0.696798, 11.6476, 0.618872, -108.334, 0.0272385, -121.138
0, 960.00000, 220.524, -30.1457, 220.945, -150.155, 220.907, 89.8625, 0.000189101, -77.7211, 0.852976, 131.66, 0.619167, 11.6505, 0.619241, -108.332, 0.115577, 5.10724
0, 1020.00000, 220.524, -30.1457, 220.945, -150.155, 220.906, 89.8625, 0.000189088, -77.7146, 0.852968, 131.659, 0.619158, 11.6505, 0.619266, -108.332, 0.115571, 5.11404
0, 1080.00000, 220.524, -30.1457, 220.945, -150.155, 220.906, 89.8625, 0.000189088, -77.7145, 0.852968, 131.659, 0.619158, 11.6505, 0.619266, -108.332, 0.115571, 5.11407
0, 1140.00000, 220.524, -30.1457, 220.945, -150.155, 220.906, 89.8625, 0.000189088, -77.7145, 0.852968, 131.659, 0.619158, 11.6505, 0.619266, -108.332, 0.115571, 5.11407
0, 1200.00000, 220.524, -30.1457, 220.945, -150.155, 220.906, 89.8625, 0.000189088, -77.7145, 0.852968, 131.659, 0.619158, 11.6505, 0.619266, -108.332, 0.115571, 5.11407
0, 1260.00000, 220.544, -30.0967, 220.659, -150.196, 221.348, 89.8464, 0.000111859, 107.017, 0.542741, 131.708, 0.697449, 11.6095, 0.695305, -108.349, 0.0708519, 173.956
0, 1320.00000, 220.544, -30.0966, 220.659, -150.196, 221.348, 89.8464, 0.000111851, 107.026, 0.542748, 131.708, 0.697458, 11.6094, 0.695286, -108.348, 0.0708454, 173.964
0, 1380.00000, 220.544, -30.0966, 220.659, -150.196, 221.348, 89.8464, 0.000111851, 107.026, 0.542748, 131.708, 0.697458, 11.6094, 0.695286, -108.348, 0.0708453, 173.964
0, 1440.00000, 220.544, -30.0966, 220.659, -150.196, 221.348, 89.8464, 0.000111851, 107.026, 0.542748, 131.708, 0.697458, 11.6094, 0.695286, -108.348, 0.0708453, 173.964
0, 1500.00000, 220.544, -30.0966, 220.659, -150.196, 221.348, 89.8464, 0.000111851, 107.026, 0.542748, 131.708, 0.697458, 11.6094, 0.695286, -108.348, 0.0708453, 173.964
0, 1560.00000, 220.606, -30.0667, 220.5, -150.196, 221.526, 89.8362, 6.81103E-005, -133.382, 0.542597, 131.738, 0.542848, 11.6096, 0.463157, -108.359, 0.0334254, -48.5142
0, 1620.00000, 220.606, -30.0667, 220.5, -150.196, 221.526, 89.8362, 6.81175E-005, -133.389, 0.542595, 131.738, 0.542857, 11.6096, 0.463151, -108.359, 0.033429, -48.5232
0, 1680.00000, 220.606, -30.0667, 220.5, -150.196, 221.526, 89.8362, 6.81176E-005, -133.389, 0.542595, 131.738, 0.542857, 11.6096, 0.463151, -108.359, 0.033429, -48.5233
0, 1740.00000, 220.606, -30.0667, 220.5, -150.196, 221.526, 89.8362, 6.81176E-005, -133.389, 0.542595, 131.738, 0.542857, 11.6096, 0.463151, -108.359, 0.033429, -48.5233
0, 1800.00000, 220.606, -30.0667, 220.5, -150.196, 221.526, 89.8362, 6.81176E-005, -133.389, 0.542595, 131.738, 0.542857, 11.6096, 0.463151, -108.359, 0.033429, -48.5233
0, 1860.00000, 220.332, -30.101, 220.549, -150.186, 221.164, 89.8495, 0.0001219, 168.827, 0.543268, 131.704, 0.697815, 11.6191, 0.541219, -108.345, 0.0646164, -119.84
0, 1920.00000, 220.332, -30.1011, 220.549, -150.186, 221.163, 89.8495, 0.000121888, 168.826, 0.543271, 131.704, 0.697806, 11.6192, 0.541229, -108.345, 0.0646092, -119.842
0, 1980.00000, 220.332, -30.1011, 220.549, -150.186, 221.163, 89.8495, 0.000121888, 168.826, 0.543271, 131.704, 0.697806, 11.6192, 0.541229, -108.345, 0.0646092, -119.842
0, 2040.00000, 220.332, -30.1011, 220.549, -150.186, 221.163, 89.8495, 0.000121888, 168.826, 0.543271, 131.704, 0.697806, 11.6192, 0.541229, -108.345, 0.0646092, -119.842
0, 2100.00000, 220.332, -30.1011, 220.549, -150.186, 221.163, 89.8495, 0.000121888, 168.826, 0.543271, 131.704, 0.697806, 11.6192, 0.541229, -108.345, 0.0646092, -119.842
0, 2160.00000, 220.613, -30.1206, 220.855, -150.164, 221.106, 89.8539, 6.1181E-005, 171.44, 0.465075, 131.684, 0.541988, 11.6411, 0.464025, -108.341, 0.0294677, -120.683
0, 2220.00000, 220.613, -30.1206, 220.855, -150.164, 221.106, 89.8539, 6.11768E-005, 171.432, 0.465067, 131.684, 0.541984, 11.641, 0.464031, -108.341, 0.0294662, -120.694
0, 2280.00000, 220.613, -30.1206, 220.855, -150.164, 221.106, 89.8539, 6.11768E-005, 171.431, 0.465067, 131.684, 0.541984, 11.641, 0.464032, -108.341, 0.0294662, -120.695
0, 2340.00000, 220.613, -30.1206, 220.855, -150.164, 221.106, 89.8539, 6.11768E-005, 171.431, 0.465067, 131.684, 0.541984, 11.641, 0.464032, -108.341, 0.0294662, -120.695
0, 2400.00000, 220.613, -30.1206, 220.855, -150.164, 221.106, 89.8539, 6.11768E-005, 171.431, 0.465067, 131.684, 0.541984, 11.641, 0.464032, -108.341, 0.0294662, -120.695
0, 2460.00000, 220.404, -30.1764, 221.157, -150.139, 220.741, 89.8802, 0.000113974, -106.105, 0.698263, 131.629, 0.618578, 11.6657, 0.542249, -108.315, 0.0642223, -20.7199
0, 2520.00000, 220.404, -30.1765, 221.157, -150.139, 220.741, 89.8802, 0.000113965, -106.098, 0.698263, 131.629, 0.618566, 11.6658, 0.542264, -108.315, 0.0642179, -20.7115
0, 2580.00000, 220.404, -30.1765, 221.157, -150.139, 220.741, 89.8802, 0.000113964, -106.098, 0.698263, 131.629, 0.618565, 11.6658, 0.542264, -108.315, 0.0642178, -20.7114
0, 2640.00000, 220.404, -30.1765, 221.157, -150.139, 220.741, 89.8802, 0.000113964, -106.098, 0.698263, 131.629, 0.618565, 11.6658, 0.542264, -108.315, 0.0642178, -20.7114
0, 2700.00000, 220.404, -30.1765, 221.157, -150.139, 220.741, 89.8802, 0.000113964, -106.098, 0.698263, 131.629, 0.618565, 11.6658, 0.542264, -108.315, 0.0642178, -20.7114
0, 2760.00000, 220.308, -30.1816, 221.267, -150.144, 220.788, 89.9025, 9.91596E-005, 138.985, 0.543323, 131.624, 0.695549, 11.661, 0.619599, -108.292, 0.0561701, -155.248
0, 2820.00000, 220.308, -30.1817, 221.267, -150.144, 220.788, 89.9025, 9.91486E-005, 138.985, 0.54333, 131.623, 0.695539, 11.661, 0.619599, -108.292, 0.0561636, -155.249
0, 2880.00000, 220.308, -30.1817, 221.267, -150.144, 220.788, 89.9025, 9.91485E-005, 138.985, 0.54333, 131.623, 0.695539, 11.661, 0.619599, -108.292, 0.0561635, -155.249
0, 2940.00000, 220.308, -30.1817, 221.267, -150.144, 220.788, 89.9025, 9.91485E-005, 138.985, 0.54333, 131.623, 0.695539, 11.661, 0.619599, -108.292, 0.0561635, -155.249
0, 3000.00000, 220.308, -30.1817, 221.267, -150.144, 220.788, 89.9025, 9.91485E-005, 138.985, 0.54333, 131.623, 0.695539, 11.661, 0.619599, -108.292, 0.0561635, -155.249
0, 3060.00000, 220.806, -30.1491, 220.77, -150.111, 220.677, 89.8236, 0.000113386, -106.454, 0.697009, 131.656, 0.619626, 11.6937, 0.542426, -108.371, 0.0638044, -20.9685
0, 3120.00000, 220.806, -30.1491, 220.769, -150.111, 220.678, 89.8236, 0.000113378, -106.467, 0.696992, 131.656, 0.619651, 11.6937, 0.54242, -108.371, 0.0637969, -20.9821
0, 3180.00000, 220.806, -30.1491, 220.769, -150.111, 220.678, 89.8236, 0.000113378, -106.468, 0.696992, 131.656, 0.619652, 11.6937, 0.54242, -108.371, 0.0637969, -20.9822
0, 3240.00000, 220.806, -30.1491, 220.769, -150.111, 220.678, 89.8236, 0.000113378, -106.468, 0.696992, 131.656, 0.619652, 11.6937, 0.54242, -108.371, 0.0637969, -20.9822
0, 3300.00000, 220.806, -30.1491, 220.769, -150.111, 220.678, 89.8236, 0.000113378, -106.468, 0.696992, 131.656, 0.619652, 11.6937, 0.54242, -108.371, 0.0637969, -20.9822
0, 3360.00000, 220.794, -30.0998, 220.419, -150.14, 220.904, 89.8091, 0.000209243, 57.2134, 0.464686, 131.705, 0.543042, 11.6653, 0.774109, -108.386, 0.137209, 132.002
0, 3420.00000, 220.794, -30.0997, 220.419, -150.14, 220.905, 89.8091, 0.000209225, 57.217, 0.464687, 131.705, 0.543057, 11.6653, 0.774091, -108.386, 0.137197, 132.005
0, 3480.00000, 220.794, -30.0997, 220.419, -150.14, 220.905, 89.8091, 0.000209225, 57.2171, 0.464687, 131.705, 0.543057, 11.6653, 0.774091, -108.386, 0.137197, 132.005
0, 3540.00000, 220.794, -30.0997, 220.419, -150.14, 220.905, 89.8091, 0.000209225, 57.2171, 0.464687, 131.705, 0.543057, 11.6653, 0.774091, -108.386, 0.137197, 132.005
1, 0.00000, 220.794, -30.0997, 220.419, -150.14, 220.905, 89.8091, 0.000209225, 57.2171, 0.464687, 131.705, 0.543057, 11.6653, 0.774091, -108.386, 0.137197, 132.005
1, 60.00000, 221.446, -30.09, 221.444, -150.124, 221.749, 89.8611, 6.11684E-005, 171.307, 0.463334, 131.715, 0.540562, 11.681, 0.462698, -108.334, 0.0294669, -120.696
1, 120.00000, 221.447, -30.09, 221.444, -150.124, 221.749, 89.8611, 6.11657E-005, 171.305, 0.463317, 131.715, 0.540544, 11.6811, 0.462685, -108.334, 0.0294658, -120.699
1, 180.00000, 221.447, -30.09, 221.444, -150.124, 221.749, 89.8611, 6.11657E-005, 171.305, 0.463317, 131.715, 0.540544, 11.6811, 0.462685, -108.334, 0.0294658, -120.699
1, 240.00000, 221.447, -30.09, 221.444, -150.124, 221.749, 89.8611, 6.11657E-005, 171.305, 0.463317, 131.715, 0.540544, 11.6811, 0.462685, -108.334, 0.0294658, -120.699
1, 300.00000, 221.447, -30.09, 221.444, -150.124, 221.749, 89.8611, 6.11657E-005, 171.305, 0.463317, 131.715, 0.540544, 11.6811, 0.462685, -108.334, 0.0294658, -120.699
1, 360.00000, 221.328, -30.0662, 221.337, -150.164, 222.057, 89.868, 6.1422E-005, 171.447, 0.463552, 131.739, 0.540806, 11.6411, 0.462055, -108.327, 0.0296419, -120.516
1, 420.00000, 221.328, -30.0662, 221.337, -150.164, 222.058, 89.8681, 6.14234E-005, 171.462, 0.463565, 131.739, 0.540805, 11.641, 0.462042, -108.327, 0.0296411, -120.496
1, 480.00000, 221.328, -30.0662, 221.337, -150.164, 222.058, 89.8681, 6.14233E-005, 171.463, 0.463565, 131.739, 0.540804, 11.641, 0.462042, -108.327, 0.029641, -120.496
1, 540.00000, 221.328, -30.0662, 221.337, -150.164, 222.058, 89.8681, 6.14233E-005, 171.463, 0.463565, 131.739, 0.540804, 11.641, 0.462042, -108.327, 0.029641, -120.496
1, 600.00000, 221.328, -30.0662, 221.337, -150.164, 222.058, 89.8681, 6.14233E-005, 171.463, 0.463565, 131.739, 0.540804, 11.641, 0.462042, -108.327, 0.029641, -120.496
1, 660.00000, 221.391, -30.0877, 221.368, -150.134, 221.827, 89.8616, 0.000100902, 137.981, 0.386199, 131.717, 0.540728, 11.6713, 0.462515, -108.333, 0.0583047, -153.338
1, 720.00000, 221.391, -30.0877, 221.368, -150.134, 221.827, 89.8615, 0.000100905, 137.977, 0.386194, 131.717, 0.540729, 11.6714, 0.462522, -108.333, 0.058307, -153.342
1, 780.00000, 221.391, -30.0877, 221.368, -150.134, 221.827, 89.8615, 0.000100905, 137.977, 0.386194, 131.717, 0.540729, 11.6714, 0.462522, -108.333, 0.058307, -153.342
1, 840.00000, 221.391, -30.0877, 221.368, -150.134, 221.827, 89.8615, 0.000100905, 137.977, 0.386194, 131.717, 0.540729, 11.6714, 0.462522, -108.333, 0.058307, -153.342
1, 900.00000, 221.391, -30.0877, 221.368, -150.134, 221.827, 89.8615, 0.000100905, 137.977, 0.386194, 131.717, 0.540729, 11.6714, 0.462522, -108.333, 0.058307, -153.342
1, 960.00000, 220.879, -30.0847, 221.355, -150.185, 221.939, 89.8967, 0.000162841, -174.041, 0.464492, 131.721, 0.618022, 11.6198, 0.385243, -108.298, 0.0895061, -98.5614
1, 1020.00000, 220.879, -30.0847, 221.356, -150.185, 221.939, 89.8968, 0.000162833, -174.036, 0.464508, 131.72, 0.618011, 11.6198, 0.38524, -108.298, 0.0895009, -98.5553
1, 1080.00000, 220.879, -30.0847, 221.356, -150.185, 221.939, 89.8968, 0.000162833, -174.035, 0.464508, 131.72, 0.618011, 11.6198, 0.38524, -108.298, 0.0895008, -98.5552
1, 1140.00000, 220.879, -30.0847, 221.356, -150.185, 221.939, 89.8968, 0.000162833, -174.035, 0.464508, 131.72, 0.618011, 11.6198, 0.38524, -108.298, 0.0895008, -98.5552
1, 1200.00000, 220.879, -30.0847, 221.356, -150.185, 221.939, 89.8968, 0.000162833, -174.035, 0.464508, 131.72, 0.618011, 11.6198, 0.38524, -108.298, 0.0895008, -98.5552
1, 1260.00000, 221.359, -30.1174, 221.592, -150.124, 221.653, 89.8764, 0.00011219, -106.378, 0.61802, 131.688, 0.540178, 11.6809, 0.462876, -108.318, 0.0637732, -21.9448
1, 1320.00000, 221.359, -30.1174, 221.592, -150.124, 221.653, 89.8764, 0.000112171, -106.382, 0.618, 131.688, 0.540182, 11.681, 0.462886, -108.319, 0.0637609, -21.9471
1, 1380.00000, 221.359, -30.1174, 221.592, -150.124, 221.653, 89.8764, 0.000112171, -106.382, 0.618, 131.688, 0.540182, 11.681, 0.462886, -108.319, 0.0637608, -21.9472
1, 1440.00000, 221.359, -30.1174, 221.592, -150.124, 221.653, 89.8764, 0.000112171, -106.382, 0.618, 131.688, 0.540182, 11.681, 0.462886, -108.319, 0.0637608, -21.9472
1, 1500.00000, 221.359, -30.1174, 221.592, -150.124, 221.653, 89.8764, 0.000112171, -106.382, 0.618, 131.688, 0.540182, 11.681, 0.462886, -108.319, 0.0637608, -21.9472
1, 1560.00000, 221.239, -30.1284, 221.707, -150.12, 221.604, 89.8903, 0.000100528, 10.2592, 0.541035, 131.677, 0.462783, 11.6849, 0.617316, -108.305, 0.0703625, 88.7652
1, 1620.00000, 221.239, -30.1284, 221.707, -150.12, 221.604, 89.8904, 0.000100535, 10.2546, 0.541043, 131.677, 0.462773, 11.6849, 0.617318, -108.304, 0.0703664, 88.761
1, 1680.00000, 221.239, -30.1284, 221.707, -150.12, 221.604, 89.8904, 0.000100535, 10.2546, 0.541043, 131.677, 0.462773, 11.6849, 0.617318, -108.304, 0.0703665, 88.761
1, 1740.00000, 221.239, -30.1284, 221.707, -150.12, 221.604, 89.8904, 0.000100535, 10.2546, 0.541043, 131.677, 0.462773, 11.6849, 0.617318, -108.304, 0.0703665, 88.761
1, 1800.00000, 221.239, -30.1284, 221.707, -150.12, 221.604, 89.8904, 0.000100535, 10.2546, 0.541043, 131.677, 0.462773, 11.6849, 0.617318, -108.304, 0.0703665, 88.761
1, 1860.00000, 220.977, -30.103, 221.627, -150.168, 221.941, 89.909, 0.000127872, -78.2885, 0.696443, 131.702, 0.540098, 11.6369, 0.53934, -108.286, 0.078038, 6.17828
1, 1920.00000, 220.977, -30.103, 221.627, -150.168, 221.941, 89.909, 0.000127884, -78.2905, 0.696454, 131.702, 0.540097, 11.6369, 0.539331, -108.286, 0.0780447, 6.17558
1, 1980.00000, 220.977, -30.103, 221.627, -150.168, 221.941, 89.909, 0.000127884, -78.2905, 0.696454, 131.702, 0.540097, 11.6369, 0.539331, -108.286, 0.0780448, 6.17557
1, 2040.00000, 220.977, -30.103, 221.627, -150.168, 221.941, 89.909, 0.000127884, -78.2905, 0.696454, 131.702, 0.540097, 11.6369, 0.539331, -108.286, 0.0780448, 6.17558
1, 2100.00000, 220.977, -30.103, 221.627, -150.168, 221.941, 89.909, 0.000127884, -78.2905, 0.696454, 131.702, 0.540097, 11.6369, 0.539331, -108.286, 0.0780448, 6.17558
1, 2160.00000, 221.086, -30.1204, 221.716, -150.153, 221.771, 89.9064, 0.000101459, 11.3605, 0.386736, 131.685, 0.308501, 11.6526, 0.462632, -108.288, 0.0681523, 89.3676
1, 2220.00000, 221.086, -30.1204, 221.716, -150.153, 221.771, 89.9063, 0.000101462, 11.3662, 0.386728, 131.685, 0.308503, 11.6524, 0.462639, -108.289, 0.0681546, 89.3728
1, 2280.00000, 221.086, -30.1204, 221.716, -150.153, 221.771, 89.9063, 0.000101462, 11.3662, 0.386728, 131.685, 0.308503, 11.6524, 0.462639, -108.289, 0.0681546, 89.3729
1, 2340.00000, 221.086, -30.1204, 221.716, -150.153, 221.771, 89.9063, 0.000101462, 11.3662, 0.386728, 131.685, 0.308503, 11.6524, 0.462639, -108.289, 0.0681546, 89.3729
1, 2400.00000, 221.086, -30.1204, 221.716, -150.153, 221.771, 89.9063, 0.000101462, 11.3662, 0.386728, 131.685, 0.308503, 11.6524, 0.462639, -108.289, 0.0681546, 89.3729
1, 2460.00000, 221.315, -30.1272, 221.738, -150.118, 221.641, 89.892, 0.000113289, 105.952, 0.386374, 131.678, 0.539857, 11.6867, 0.540012, -108.303, 0.0712692, 175.306
1, 2520.00000, 221.317, -30.1273, 221.738, -150.118, 221.64, 89.8919, 0.000113329, 105.922, 0.386325, 131.678, 0.539825, 11.6872, 0.540066, -108.303, 0.0712987, 175.28
1, 2580.00000, 221.317, -30.1273, 221.738, -150.118, 221.639, 89.8919, 0.00011333, 105.922, 0.386324, 131.678, 0.539825, 11.6872, 0.540066, -108.303, 0.0712992, 175.28
1, 2640.00000, 221.317, -30.1273, 221.738, -150.118, 221.639, 89.8919, 0.00011333, 105.922, 0.386324, 131.678, 0.539825, 11.6872, 0.540066, -108.303, 0.0712992, 175.28
1, 2700.00000, 221.317, -30.1273, 221.738, -150.118, 221.639, 89.8919, 0.00011333, 105.922, 0.386324, 131.678, 0.539825, 11.6872, 0.540066, -108.303, 0.0712992, 175.28
1, 2760.00000, 221.103, -30.1269, 221.669, -150.128, 221.56, 89.9012, 0.000126545, -77.874, 0.618715, 131.678, 0.462847, 11.6773, 0.463083, -108.294, 0.0772934, 5.6485
1, 2820.00000, 221.102, -30.1269, 221.669, -150.128, 221.56, 89.9012, 0.000126547, -77.8763, 0.618718, 131.678, 0.462852, 11.6773, 0.46308, -108.294, 0.0772942, 5.64621
1, 2880.00000, 221.102, -30.1269, 221.669, -150.128, 221.56, 89.9012, 0.000126547, -77.8763, 0.618718, 131.678, 0.462852, 11.6773, 0.46308, -108.294, 0.0772943, 5.64618
1, 2940.00000, 221.102, -30.1269, 221.669, -150.128, 221.56, 89.9012, 0.000126547, -77.8763, 0.618718, 131.678, 0.462852, 11.6773, 0.46308, -108.294, 0.0772943, 5.64618
1, 3000.00000, 221.102, -30.1269, 221.669, -150.128, 221.56, 89.9012, 0.000126547, -77.8763, 0.618718, 131.678, 0.462852, 11.6773, 0.46308, -108.294, 0.0772943, 5.64618
1, 3060.00000, 221.047, -30.1256, 221.723, -150.14, 221.687, 89.9063, 0.000126682, -77.9008, 0.618865, 131.68, 0.462745, 11.6654, 0.462818, -108.289, 0.0773845, 5.58284
1, 3120.00000, 221.047, -30.1256, 221.723, -150.14, 221.687, 89.9063, 0.000126691, -77.9007, 0.618872, 131.68, 0.46274, 11.6654, 0.462814, -108.289, 0.07739, 5.58249
1, 3180.00000, 221.047, -30.1256, 221.723, -150.14, 221.687, 89.9063, 0.000126691, -77.9006, 0.618872, 131.68, 0.46274, 11.6654, 0.462814, -108.289, 0.07739, 5.58251
1, 3240.00000, 221.047, -30.1256, 221.723, -150.14, 221.687, 89.9063, 0.000126691, -77.9006, 0.618872, 131.68, 0.46274, 11.6654, 0.462814, -108.289, 0.07739, 5.58251
1, 3300.00000, 221.047, -30.1256, 221.723, -150.14, 221.687, 89.9063, 0.000126691, -77.9006, 0.618872, 131.68, 0.46274, 11.6654, 0.462814, -108.289, 0.07739, 5.58251
1, 3360.00000, 221.467, -30.095, 221.346, -150.116, 221.625, 89.8514, 6.00871E-005, -23.8927, 0.617717, 131.71, 0.540762, 11.6888, 0.617261, -108.343, 0.0446646, 62.2797
1, 3420.00000, 221.467, -30.0949, 221.345, -150.116, 221.626, 89.8513, 6.00649E-005, -23.887, 0.6177, 131.71, 0.540784, 11.6888, 0.617257, -108.344, 0.0446519, 62.2874
