hour, t(sec), P1 (kW), Q1 (kvar), P2 (kW), Q2 (kvar), P3 (kW), Q3 (kvar), P4 (kW), Q4 (kvar)
0, 60.00000, -0.0956401, -0.0713448, -0.138111, -0.0853014, -0.124713, -0.0809002, 3.47638E-009, -1.10521E-008
0, 120.00000, -0.0956415, -0.071346, -0.138109, -0.0853031, -0.124714, -0.0809021, 3.47606E-009, -1.10509E-008
0, 180.00000, -0.0956415, -0.071346, -0.138109, -0.0853031, -0.124714, -0.0809021, 3.47606E-009, -1.10509E-008
0, 240.00000, -0.0956415, -0.071346, -0.138109, -0.0853031, -0.124714, -0.0809021, 3.47606E-009, -1.10509E-008
0, 300.00000, -0.0956415, -0.071346, -0.138109, -0.0853031, -0.124714, -0.0809021, 3.47606E-009, -1.10509E-008
0, 360.00000, -0.11504, -0.077712, -0.134401, -0.0840794, -0.110077, -0.0761037, 3.79643E-009, -2.91239E-009
0, 420.00000, -0.115022, -0.0777149, -0.134408, -0.0840864, -0.110085, -0.076094, 3.80042E-009, -2.91499E-009
0, 480.00000, -0.115022, -0.0777149, -0.134408, -0.0840864, -0.110085, -0.076094, 3.80047E-009, -2.91506E-009
0, 540.00000, -0.115022, -0.0777149, -0.134408, -0.0840864, -0.110085, -0.076094, 3.80048E-009, -2.91506E-009
0, 600.00000, -0.115022, -0.0777149, -0.134408, -0.0840864, -0.110085, -0.076094, 3.80048E-009, -2.91506E-009
0, 660.00000, -0.100559, -0.0729674, -0.127188, -0.0817216, -0.114854, -0.0776483, 4.84975E-009, 1.30657E-009
0, 720.00000, -0.100576, -0.072969, -0.127186, -0.0817111, -0.114839, -0.0776571, 4.84389E-009, 1.30853E-009
0, 780.00000, -0.100576, -0.0729689, -0.127186, -0.081711, -0.114839, -0.0776572, 4.84379E-009, 1.30858E-009
0, 840.00000, -0.100576, -0.0729689, -0.127186, -0.081711, -0.114839, -0.0776572, 4.84379E-009, 1.30858E-009
0, 900.00000, -0.100576, -0.0729689, -0.127186, -0.081711, -0.114839, -0.0776572, 4.84379E-009, 1.30858E-009
0, 960.00000, -0.123482, -0.0804912, -0.121004, -0.0796857, -0.0907182, -0.0697218, -1.4423E-010, -3.88826E-009
0, 1020.00000, -0.123483, -0.0804951, -0.121011, -0.0796851, -0.0907003, -0.0697214, -1.43921E-010, -3.90022E-009
0, 1080.00000, -0.123483, -0.0804952, -0.121011, -0.079685, -0.0907001, -0.0697215, -1.4389E-010, -3.90036E-009
0, 1140.00000, -0.123483, -0.0804952, -0.121011, -0.079685, -0.0907001, -0.0697215, -1.43889E-010, -3.90036E-009
0, 1200.00000, -0.123483, -0.0804952, -0.121011, -0.079685, -0.0907001, -0.0697215, -1.43889E-010, -3.90036E-009
0, 1260.00000, -0.101639, -0.0733243, -0.0785502, -0.0657116, -0.0980809, -0.072161, 4.19421E-009, -3.03371E-009
0, 1320.00000, -0.101628, -0.0733135, -0.0785389, -0.0657262, -0.0981065, -0.0721566, 4.20019E-009, -3.03977E-009
0, 1380.00000, -0.101628, -0.0733135, -0.0785389, -0.0657263, -0.0981067, -0.0721566, 4.2002E-009, -3.03974E-009
0, 1440.00000, -0.101628, -0.0733135, -0.0785389, -0.0657263, -0.0981067, -0.0721566, 4.2002E-009, -3.03974E-009
0, 1500.00000, -0.101628, -0.0733135, -0.0785389, -0.0657263, -0.0981067, -0.0721566, 4.2002E-009, -3.03974E-009
0, 1560.00000, -0.113788, -0.077319, -0.124727, -0.0808977, -0.100565, -0.0729644, -2.37744E-009, -1.66029E-010
0, 1620.00000, -0.113791, -0.0773097, -0.124714, -0.0809032, -0.100576, -0.0729683, -2.37387E-009, -1.59259E-010
0, 1680.00000, -0.113791, -0.0773096, -0.124714, -0.0809033, -0.100576, -0.0729683, -2.37386E-009, -1.5922E-010
0, 1740.00000, -0.113791, -0.0773096, -0.124714, -0.0809033, -0.100576, -0.0729683, -2.37386E-009, -1.5922E-010
0, 1800.00000, -0.113791, -0.0773096, -0.124714, -0.0809033, -0.100576, -0.0729683, -2.37386E-009, -1.5922E-010
0, 1860.00000, -0.100399, -0.0728971, -0.181805, -0.0996731, -0.137941, -0.0852476, 1.95834E-008, -3.35471E-008
0, 1920.00000, -0.100393, -0.0729069, -0.181816, -0.0996666, -0.137926, -0.0852444, 1.95934E-008, -3.35645E-008
0, 1980.00000, -0.100393, -0.0729069, -0.181816, -0.0996665, -0.137926, -0.0852444, 1.95935E-008, -3.35645E-008
0, 2040.00000, -0.100393, -0.0729069, -0.181816, -0.0996665, -0.137926, -0.0852444, 1.95935E-008, -3.35645E-008
0, 2100.00000, -0.100393, -0.0729069, -0.181816, -0.0996665, -0.137926, -0.0852444, 1.95935E-008, -3.35645E-008
0, 2160.00000, -0.0906889, -0.0697167, -0.116067, -0.07807, -0.0907109, -0.0697189, 4.12694E-010, -2.92264E-009
0, 2220.00000, -0.0907019, -0.0697209, -0.116073, -0.078061, -0.0906998, -0.069723, 4.15387E-010, -2.9208E-009
0, 2280.00000, -0.0907021, -0.0697209, -0.116073, -0.0780609, -0.0906997, -0.0697231, 4.15401E-010, -2.92075E-009
0, 2340.00000, -0.0907021, -0.0697209, -0.116073, -0.0780609, -0.0906997, -0.0697231, 4.15401E-010, -2.92075E-009
0, 2400.00000, -0.0907021, -0.0697209, -0.116073, -0.0780609, -0.0906997, -0.0697231, 4.15401E-010, -2.92075E-009
0, 2460.00000, -0.139162, -0.0856357, -0.0675949, -0.0621473, -0.093195, -0.070533, 2.67118E-009, -2.19835E-008
0, 2520.00000, -0.139162, -0.0856498, -0.0676121, -0.0621353, -0.0931719, -0.0705319, 2.65266E-009, -2.19957E-008
0, 2580.00000, -0.139162, -0.0856498, -0.0676122, -0.0621352, -0.0931717, -0.070532, 2.65255E-009, -2.1996E-008
0, 2640.00000, -0.139162, -0.0856498, -0.0676122, -0.0621352, -0.0931717, -0.070532, 2.65255E-009, -2.1996E-008
0, 2700.00000, -0.139162, -0.0856498, -0.0676122, -0.0621352, -0.0931717, -0.070532, 2.65255E-009, -2.1996E-008
0, 2760.00000, -0.0954667, -0.0712784, -0.104083, -0.0741233, -0.121012, -0.0796915, 2.63835E-009, -1.5382E-009
0, 2820.00000, -0.0954545, -0.0712849, -0.104096, -0.0741244, -0.121012, -0.0796835, 2.64231E-009, -1.53802E-009
0, 2880.00000, -0.0954544, -0.0712849, -0.104096, -0.0741244, -0.121012, -0.0796835, 2.64232E-009, -1.53799E-009
0, 2940.00000, -0.0954544, -0.0712849, -0.104096, -0.0741244, -0.121012, -0.0796835, 2.64232E-009, -1.53799E-009
0, 3000.00000, -0.0954544, -0.0712849, -0.104096, -0.0741244, -0.121012, -0.0796835, 2.64232E-009, -1.53799E-009
0, 3060.00000, -0.10407, -0.0741449, -0.087034, -0.0685003, -0.16718, -0.0948438, -2.39583E-009, -3.3057E-008
0, 3120.00000, -0.104095, -0.0741256, -0.0870001, -0.0685026, -0.167187, -0.0948617, -2.40711E-009, -3.31427E-008
0, 3180.00000, -0.104095, -0.0741254, -0.0869998, -0.0685027, -0.167188, -0.0948618, -2.4071E-009, -3.31435E-008
0, 3240.00000, -0.104095, -0.0741254, -0.0869998, -0.0685027, -0.167188, -0.0948618, -2.4071E-009, -3.31435E-008
0, 3300.00000, -0.104095, -0.0741254, -0.0869998, -0.0685027, -0.167188, -0.0948618, -2.4071E-009, -3.31435E-008
0, 3360.00000, -0.0820597, -0.0668989, -0.129675, -0.0825082, -0.156054, -0.0912057, 1.44343E-008, -1.9879E-008
0, 3420.00000, -0.0820577, -0.066883, -0.129654, -0.0825223, -0.156077, -0.0912076, 1.44366E-008, -1.99235E-008
0, 3480.00000, -0.0820576, -0.0668829, -0.129654, -0.0825225, -0.156077, -0.0912076, 1.44367E-008, -1.9924E-008
0, 3540.00000, -0.0820576, -0.0668829, -0.129654, -0.0825225, -0.156077, -0.0912076, 1.44367E-008, -1.9924E-008
1, 0.00000, -0.0820576, -0.0668829, -0.129654, -0.0825225, -0.156077, -0.0912076, 1.44367E-008, -1.9924E-008
1, 60.00000, -0.0919982, -0.0621402, -0.102927, -0.0657357, -0.0884855, -0.0609836, -1.23486E-009, -4.72221E-010
1, 120.00000, -0.0920385, -0.062134, -0.102962, -0.0657266, -0.0885173, -0.0609782, -1.23402E-009, -4.70842E-010
1, 180.00000, -0.0920387, -0.0621339, -0.102962, -0.0657266, -0.0885174, -0.0609782, -1.234E-009, -4.70811E-010
1, 240.00000, -0.0920387, -0.0621339, -0.102962, -0.0657266, -0.0885174, -0.0609782, -1.234E-009, -4.70811E-010
1, 300.00000, -0.0920387, -0.0621339, -0.102962, -0.0657266, -0.0885174, -0.0609782, -1.234E-009, -4.70811E-010
1, 360.00000, -0.0945388, -0.0629507, -0.11512, -0.0696976, -0.0823126, -0.0589701, -8.67165E-010, -3.24771E-009
1, 420.00000, -0.0945088, -0.0629456, -0.115124, -0.0697231, -0.082344, -0.0589494, -8.78953E-010, -3.25691E-009
1, 480.00000, -0.0945084, -0.0629458, -0.115124, -0.0697233, -0.0823442, -0.058949, -8.79057E-010, -3.25724E-009
1, 540.00000, -0.0945084, -0.0629458, -0.115124, -0.0697233, -0.0823442, -0.058949, -8.79057E-010, -3.25724E-009
1, 600.00000, -0.0945084, -0.0629458, -0.115124, -0.0697233, -0.0823442, -0.058949, -8.79057E-010, -3.25724E-009
1, 660.00000, -0.0678888, -0.0541975, -0.104202, -0.0661454, -0.0751379, -0.0565676, -1.05616E-010, -3.29783E-010
1, 720.00000, -0.0679021, -0.0542013, -0.104201, -0.0661329, -0.0751219, -0.0565766, -9.67602E-011, -3.20584E-010
1, 780.00000, -0.0679023, -0.0542013, -0.104201, -0.0661328, -0.0751218, -0.0565767, -9.67278E-011, -3.20423E-010
1, 840.00000, -0.0679023, -0.0542013, -0.104201, -0.0661328, -0.0751218, -0.0565767, -9.67286E-011, -3.20421E-010
1, 900.00000, -0.0679023, -0.0542013, -0.104201, -0.0661328, -0.0751218, -0.0565767, -9.67286E-011, -3.20421E-010
1, 960.00000, -0.11516, -0.0697083, -0.115104, -0.0697114, -0.104193, -0.0661558, -2.38352E-010, -1.33408E-009
1, 1020.00000, -0.115125, -0.0697219, -0.115124, -0.0697226, -0.104199, -0.0661316, -2.37108E-010, -1.33482E-009
1, 1080.00000, -0.115125, -0.0697223, -0.115124, -0.0697226, -0.104199, -0.0661314, -2.37093E-010, -1.33496E-009
1, 1140.00000, -0.115125, -0.0697223, -0.115124, -0.0697226, -0.104199, -0.0661314, -2.37093E-010, -1.33497E-009
1, 1200.00000, -0.115125, -0.0697223, -0.115124, -0.0697226, -0.104199, -0.0661314, -2.37093E-010, -1.33497E-009
1, 1260.00000, -0.0847738, -0.0597636, -0.102973, -0.065747, -0.118668, -0.0708552, 3.68219E-009, 8.24692E-010
1, 1320.00000, -0.0848131, -0.0597616, -0.102964, -0.0657234, -0.118645, -0.0708801, 3.64994E-009, 8.45989E-010
1, 1380.00000, -0.0848135, -0.0597613, -0.102964, -0.0657232, -0.118645, -0.0708805, 3.64954E-009, 8.46124E-010
1, 1440.00000, -0.0848135, -0.0597613, -0.102964, -0.0657232, -0.118645, -0.0708805, 3.64953E-009, 8.46124E-010
1, 1500.00000, -0.0848135, -0.0597613, -0.102964, -0.0657232, -0.118645, -0.0708805, 3.64953E-009, 8.46124E-010
1, 1560.00000, -0.092057, -0.0621192, -0.124797, -0.072909, -0.0848169, -0.0597759, -1.5072E-010, -4.5259E-009
1, 1620.00000, -0.0920389, -0.0621329, -0.124817, -0.0729095, -0.0848135, -0.059761, -1.49241E-010, -4.55115E-009
1, 1680.00000, -0.0920388, -0.0621331, -0.124817, -0.0729094, -0.0848133, -0.0597609, -1.49149E-010, -4.55143E-009
1, 1740.00000, -0.0920388, -0.0621331, -0.124817, -0.0729094, -0.0848133, -0.0597609, -1.49147E-010, -4.55143E-009
1, 1800.00000, -0.0920388, -0.0621331, -0.124817, -0.0729094, -0.0848133, -0.0597609, -1.49147E-010, -4.55143E-009
1, 1860.00000, -0.0969969, -0.0637617, -0.100678, -0.0649592, -0.115107, -0.0697356, 2.14379E-009, -3.94994E-010
1, 1920.00000, -0.0969774, -0.0637592, -0.10068, -0.0649746, -0.115125, -0.0697226, 2.1547E-009, -4.04107E-010
1, 1980.00000, -0.0969771, -0.0637593, -0.10068, -0.0649747, -0.115125, -0.0697223, 2.15479E-009, -4.04156E-010
1, 2040.00000, -0.0969771, -0.0637593, -0.10068, -0.0649747, -0.115125, -0.0697223, 2.15479E-009, -4.04156E-010
1, 2100.00000, -0.0969771, -0.0637593, -0.10068, -0.0649747, -0.115125, -0.0697223, 2.15479E-009, -4.04156E-010
1, 2160.00000, -0.0751027, -0.0565753, -0.104207, -0.0661451, -0.128535, -0.0741115, -3.24833E-009, -1.1184E-008
1, 2220.00000, -0.0751228, -0.0565754, -0.104201, -0.0661312, -0.128519, -0.0741263, -3.25634E-009, -1.11606E-008
1, 2280.00000, -0.075123, -0.0565753, -0.104201, -0.0661311, -0.128519, -0.0741266, -3.25649E-009, -1.11606E-008
1, 2340.00000, -0.075123, -0.0565753, -0.104201, -0.0661311, -0.128519, -0.0741266, -3.25649E-009, -1.11606E-008
1, 2400.00000, -0.075123, -0.0565753, -0.104201, -0.0661311, -0.128519, -0.0741266, -3.25649E-009, -1.11606E-008
1, 2460.00000, -0.0737792, -0.056118, -0.105361, -0.0666389, -0.112761, -0.068877, 4.12861E-009, -7.82147E-009
1, 2520.00000, -0.0738879, -0.0561704, -0.105433, -0.0665372, -0.112656, -0.0689105, 4.07798E-009, -7.64767E-009
1, 2580.00000, -0.0738896, -0.0561704, -0.105433, -0.066536, -0.112655, -0.0689116, 4.07704E-009, -7.64535E-009
1, 2640.00000, -0.0738897, -0.0561704, -0.105433, -0.066536, -0.112655, -0.0689116, 4.07703E-009, -7.64533E-009
1, 2700.00000, -0.0738897, -0.0561704, -0.105433, -0.066536, -0.112655, -0.0689116, 4.07703E-009, -7.64533E-009
1, 2760.00000, -0.112662, -0.0689169, -0.138223, -0.0773025, -0.0749303, -0.0565134, 6.47933E-009, -2.37749E-008
1, 2820.00000, -0.112656, -0.0689099, -0.138212, -0.077311, -0.0749379, -0.056514, 6.47271E-009, -2.37509E-008
1, 2880.00000, -0.112656, -0.0689099, -0.138212, -0.0773111, -0.074938, -0.056514, 6.47265E-009, -2.37507E-008
1, 2940.00000, -0.112656, -0.0689099, -0.138212, -0.0773111, -0.074938, -0.056514, 6.47265E-009, -2.37507E-008
1, 3000.00000, -0.112656, -0.0689099, -0.138212, -0.0773111, -0.074938, -0.056514, 6.47265E-009, -2.37507E-008
1, 3060.00000, -0.121312, -0.0717469, -0.0980167, -0.0640955, -0.0811008, -0.058556, 6.71569E-009, -1.19995E-008
1, 3120.00000, -0.121298, -0.0717506, -0.0980271, -0.0641031, -0.0811106, -0.0585439, 6.70695E-009, -1.19779E-008
1, 3180.00000, -0.121298, -0.0717507, -0.0980273, -0.0641031, -0.0811106, -0.0585437, 6.7069E-009, -1.19778E-008
1, 3240.00000, -0.121298, -0.0717507, -0.0980273, -0.0641031, -0.0811106, -0.0585437, 6.7069E-009, -1.19778E-008
1, 3300.00000, -0.121298, -0.0717507, -0.0980273, -0.0641031, -0.0811106, -0.0585437, 6.7069E-009, -1.19778E-008
1, 3360.00000, -0.109103, -0.0677832, -0.0945506, -0.0629466, -0.0872769, -0.0605435, 1.87822E-009, -4.75129E-009
1, 3420.00000, -0.109136, -0.0677545, -0.0945082, -0.0629469, -0.0872837, -0.0605728, 1.8802E-009, -4.76618E-009
1, 3480.00000, -0.109136, -0.0677541, -0.0945076, -0.0629471, -0.0872841, -0.060573, 1.88011E-009, -4.76601E-009
1, 3540.00000, -0.109136, -0.0677541, -0.0945076, -0.0629471, -0.0872841, -0.060573, 1.88011E-009, -4.76601E-009
2, 0.00000, -0.109136, -0.0677541, -0.0945076, -0.0629471, -0.0872841, -0.060573, 1.88011E-009, -4.76601E-009
2, 60.00000, -0.0937087, -0.059753, -0.100909, -0.0621365, -0.0875293, -0.0577425, 5.71741E-010, -1.04966E-009
2, 120.00000, -0.0937071, -0.0597608, -0.100929, -0.0621343, -0.0875338, -0.0577323, 5.74211E-010, -1.05474E-009
2, 180.00000, -0.0937071, -0.0597609, -0.10093, -0.0621342, -0.0875337, -0.0577322, 5.74242E-010, -1.05482E-009
2, 240.00000, -0.0937071, -0.0597609, -0.10093, -0.0621342, -0.0875337, -0.0577322, 5.74242E-010, -1.05482E-009
2, 300.00000, -0.0937071, -0.0597609, -0.10093, -0.0621342, -0.0875337, -0.0577322, 5.74242E-010, -1.05482E-009
2, 360.00000, -0.103407, -0.0629343, -0.107085, -0.0641686, -0.114334, -0.0665452, 1.28829E-009, -2.38101E-010
2, 420.00000, -0.103399, -0.062947, -0.107101, -0.0641635, -0.114325, -0.0665369, 1.28474E-009, -2.35325E-010
2, 480.00000, -0.103399, -0.0629471, -0.107102, -0.0641634, -0.114324, -0.0665369, 1.28466E-009, -2.35254E-010
2, 540.00000, -0.103399, -0.0629471, -0.107102, -0.0641634, -0.114324, -0.0665369, 1.28466E-009, -2.35253E-010
2, 600.00000, -0.103399, -0.0629471, -0.107102, -0.0641634, -0.114324, -0.0665369, 1.28466E-009, -2.35253E-010
2, 660.00000, -0.0754816, -0.0537145, -0.0729798, -0.053089, -0.0670265, -0.0509519, -5.20603E-010, -8.82297E-010
2, 720.00000, -0.0755587, -0.053797, -0.0730902, -0.0529858, -0.066919, -0.0509551, -5.31286E-010, -9.52641E-010
2, 780.00000, -0.0755602, -0.0537974, -0.0730903, -0.0529845, -0.0669175, -0.050956, -5.31499E-010, -9.53375E-010
2, 840.00000, -0.0755602, -0.0537974, -0.0730903, -0.0529845, -0.0669175, -0.050956, -5.31501E-010, -9.53379E-010
2, 900.00000, -0.0755602, -0.0537974, -0.0730903, -0.0529845, -0.0669175, -0.050956, -5.31501E-010, -9.53379E-010
2, 960.00000, -0.0706237, -0.052196, -0.0912658, -0.0589291, -0.0802849, -0.0553538, 1.29737E-009, -1.54549E-009
2, 1020.00000, -0.0706206, -0.0521731, -0.091238, -0.0589489, -0.0803112, -0.0553591, 1.29318E-009, -1.54024E-009
2, 1080.00000, -0.0706203, -0.0521729, -0.0912379, -0.0589492, -0.0803116, -0.055359, 1.29319E-009, -1.54032E-009
2, 1140.00000, -0.0706203, -0.0521729, -0.0912379, -0.0589492, -0.0803116, -0.055359, 1.2932E-009, -1.54033E-009
2, 1200.00000, -0.0706203, -0.0521729, -0.0912379, -0.0589492, -0.0803116, -0.055359, 1.2932E-009, -1.54033E-009
2, 1260.00000, -0.107006, -0.0641586, -0.0972071, -0.0609744, -0.11436, -0.0664987, -4.30059E-010, -4.20116E-009
2, 1320.00000, -0.107101, -0.0641635, -0.0972276, -0.0609175, -0.114323, -0.066537, -4.18061E-010, -4.22497E-009
2, 1380.00000, -0.107102, -0.0641632, -0.097227, -0.0609171, -0.114323, -0.0665378, -4.17929E-010, -4.22574E-009
2, 1440.00000, -0.107102, -0.0641631, -0.097227, -0.0609171, -0.114323, -0.0665378, -4.17929E-010, -4.22575E-009
2, 1500.00000, -0.107102, -0.0641631, -0.097227, -0.0609171, -0.114323, -0.0665378, -4.17929E-010, -4.22575E-009
2, 1560.00000, -0.103411, -0.0629319, -0.116773, -0.0673522, -0.100935, -0.0621471, -6.06573E-011, -1.454E-009
2, 1620.00000, -0.1034, -0.0629463, -0.116794, -0.0673491, -0.100929, -0.0621343, -5.98076E-011, -1.46576E-009
2, 1680.00000, -0.1034, -0.0629465, -0.116794, -0.067349, -0.100929, -0.0621342, -5.9807E-011, -1.46587E-009
2, 1740.00000, -0.1034, -0.0629465, -0.116794, -0.067349, -0.100929, -0.0621342, -5.98071E-011, -1.46587E-009
2, 1800.00000, -0.1034, -0.0629465, -0.116794, -0.067349, -0.100929, -0.0621342, -5.98071E-011, -1.46587E-009
2, 1860.00000, -0.0730971, -0.053022, -0.0597846, -0.0485743, -0.0743511, -0.053352, 2.36128E-009, -2.43518E-009
2, 1920.00000, -0.0730912, -0.0529858, -0.0596956, -0.0485825, -0.0743231, -0.0533902, 2.38424E-009, -2.47677E-009
2, 1980.00000, -0.0730912, -0.0529853, -0.0596949, -0.0485828, -0.0743235, -0.0533904, 2.38443E-009, -2.47722E-009
2, 2040.00000, -0.0730912, -0.0529853, -0.0596949, -0.0485828, -0.0743235, -0.0533904, 2.38443E-009, -2.47723E-009
2, 2100.00000, -0.0730912, -0.0529853, -0.0596949, -0.0485828, -0.0743235, -0.0533904, 2.38443E-009, -2.47723E-009
2, 2160.00000, -0.064487, -0.0501194, -0.0633459, -0.0497853, -0.102135, -0.0625846, 7.49481E-009, -1.08648E-008
2, 2220.00000, -0.0644479, -0.050145, -0.063397, -0.0497995, -0.102164, -0.0625398, 7.50093E-009, -1.08539E-008
2, 2280.00000, -0.0644476, -0.0501454, -0.0633977, -0.0497994, -0.102164, -0.0625393, 7.50074E-009, -1.08532E-008
2, 2340.00000, -0.0644476, -0.0501454, -0.0633977, -0.0497994, -0.102164, -0.0625393, 7.50073E-009, -1.08532E-008
2, 2400.00000, -0.0644476, -0.0501454, -0.0633977, -0.0497994, -0.102164, -0.0625393, 7.50073E-009, -1.08532E-008
2, 2460.00000, -0.0840293, -0.0565699, -0.0961665, -0.0605685, -0.0803077, -0.0553696, 1.12544E-009, -9.43737E-010
2, 2520.00000, -0.0840158, -0.0565757, -0.0961772, -0.0605731, -0.0803117, -0.0553587, 1.12794E-009, -9.4755E-010
2, 2580.00000, -0.0840157, -0.0565759, -0.0961774, -0.060573, -0.0803116, -0.0553586, 1.128E-009, -9.47634E-010
2, 2640.00000, -0.0840157, -0.0565759, -0.0961774, -0.060573, -0.0803116, -0.0553586, 1.128E-009, -9.47635E-010
2, 2700.00000, -0.0840157, -0.0565759, -0.0961774, -0.060573, -0.0803116, -0.0553586, 1.128E-009, -9.47635E-010
2, 2760.00000, -0.110611, -0.0653305, -0.0900172, -0.0585431, -0.103394, -0.0629357, 1.35792E-009, -2.12199E-009
2, 2820.00000, -0.110622, -0.0653202, -0.0900035, -0.0585438, -0.103399, -0.0629454, 1.36322E-009, -2.13229E-009
2, 2880.00000, -0.110622, -0.0653201, -0.0900033, -0.0585439, -0.103399, -0.0629455, 1.36329E-009, -2.13236E-009
2, 2940.00000, -0.110622, -0.0653201, -0.0900033, -0.0585439, -0.103399, -0.0629455, 1.36329E-009, -2.13236E-009
2, 3000.00000, -0.110622, -0.0653201, -0.0900033, -0.0585439, -0.103399, -0.0629455, 1.36329E-009, -2.13236E-009
2, 3060.00000, -0.0875035, -0.0577252, -0.0804961, -0.055449, -0.0912744, -0.0589273, 1.41374E-009, 2.21426E-009
2, 3120.00000, -0.0875342, -0.0577342, -0.0804961, -0.0554199, -0.091239, -0.0589477, 1.38679E-009, 2.22351E-009
2, 3180.00000, -0.0875346, -0.0577341, -0.0804958, -0.0554196, -0.0912387, -0.058948, 1.38662E-009, 2.22364E-009
2, 3240.00000, -0.0875346, -0.0577341, -0.0804958, -0.0554196, -0.0912387, -0.058948, 1.38662E-009, 2.22364E-009
2, 3300.00000, -0.0875346, -0.0577341, -0.0804958, -0.0554196, -0.0912387, -0.058948, 1.38662E-009, 2.22364E-009
2, 3360.00000, -0.0803496, -0.0553712, -0.0864882, -0.0573527, -0.107061, -0.0641867, 3.1218E-009, -4.4364E-009
2, 3420.00000, -0.0803131, -0.055359, -0.0864845, -0.0573873, -0.107102, -0.0641639, 3.14179E-009, -4.47692E-009
