hour, t(sec), V1, VAngle1, V2, VAngle2, V3, VAngle3, V4, VAngle4, I1, IAngle1, I2, IAngle2, I3, IAngle3, I4, IAngle4
0, 60.00000, 221.063, -29.996, 221.061, -150.092, 221.766, 89.9257, 0.0108614, -105.972, 0.465122, 81.7014, 0.465157, -38.401, 0.374375, 143.583, 0.414607, -108.332
0, 120.00000, 221.063, -29.996, 221.061, -150.092, 221.766, 89.9257, 0.0108619, -105.974, 0.465161, 81.6964, 0.465178, -38.4046, 0.374406, 143.583, 0.414626, -108.334
0, 180.00000, 221.063, -29.996, 221.061, -150.092, 221.766, 89.9257, 0.0108619, -105.974, 0.465161, 81.6964, 0.465178, -38.4046, 0.374406, 143.583, 0.414626, -108.334
0, 240.00000, 221.063, -29.996, 221.061, -150.092, 221.766, 89.9257, 0.0108619, -105.974, 0.465161, 81.6964, 0.465178, -38.4046, 0.374406, 143.583, 0.414626, -108.334
0, 300.00000, 221.063, -29.996, 221.061, -150.092, 221.766, 89.9257, 0.0108619, -105.974, 0.465161, 81.6964, 0.465178, -38.4046, 0.374406, 143.583, 0.414626, -108.334
0, 360.00000, 221.108, -29.9565, 220.624, -150.108, 221.883, 89.8842, 0.00716957, 136.288, 0.375528, 23.7028, 0.391866, -54.1737, 0.389656, -174.189, 0.277418, 131.983
0, 420.00000, 221.108, -29.9565, 220.624, -150.108, 221.883, 89.8842, 0.00717032, 136.281, 0.375527, 23.7011, 0.391875, -54.1758, 0.389658, -174.186, 0.277448, 131.976
0, 480.00000, 221.108, -29.9565, 220.624, -150.108, 221.883, 89.8842, 0.00717033, 136.281, 0.375527, 23.7011, 0.391875, -54.1758, 0.389658, -174.186, 0.277448, 131.976
0, 540.00000, 221.108, -29.9565, 220.624, -150.108, 221.883, 89.8842, 0.00717033, 136.281, 0.375527, 23.7011, 0.391875, -54.1758, 0.389658, -174.186, 0.277448, 131.976
0, 600.00000, 221.108, -29.9565, 220.624, -150.108, 221.883, 89.8842, 0.00717033, 136.281, 0.375527, 23.7011, 0.391875, -54.1758, 0.389658, -174.186, 0.277448, 131.976
0, 660.00000, 221.231, -29.9895, 220.964, -150.088, 221.81, 89.9001, 0.00375069, -164.595, 0.357294, 45.251, 0.391286, -54.1586, 0.356364, 165.143, 0.139035, -168.411
0, 720.00000, 221.231, -29.9895, 220.964, -150.088, 221.81, 89.9001, 0.00375084, -164.579, 0.3573, 45.2528, 0.391276, -54.1571, 0.356369, 165.141, 0.139041, -168.394
0, 780.00000, 221.231, -29.9895, 220.964, -150.088, 221.81, 89.9001, 0.00375084, -164.579, 0.3573, 45.2528, 0.391276, -54.1571, 0.356369, 165.141, 0.139041, -168.394
0, 840.00000, 221.231, -29.9895, 220.964, -150.088, 221.81, 89.9001, 0.00375084, -164.579, 0.3573, 45.2528, 0.391276, -54.1571, 0.356369, 165.141, 0.139041, -168.394
0, 900.00000, 221.231, -29.9895, 220.964, -150.088, 221.81, 89.9001, 0.00375084, -164.579, 0.3573, 45.2528, 0.391276, -54.1571, 0.356369, 165.141, 0.139041, -168.394
0, 960.00000, 221.594, -29.969, 220.667, -150.069, 221.74, 89.8478, 0.00957695, 176.056, 0.437813, 6.21222, 0.391977, -54.139, 0.374426, 143.548, 0.366829, 172.507
0, 1020.00000, 221.594, -29.9688, 220.666, -150.069, 221.74, 89.8477, 0.00957592, 176.163, 0.437834, 6.25087, 0.391812, -54.137, 0.374468, 143.503, 0.366783, 172.617
0, 1080.00000, 221.594, -29.9688, 220.666, -150.069, 221.74, 89.8477, 0.00957586, 176.163, 0.437834, 6.25097, 0.391811, -54.1371, 0.374469, 143.503, 0.366781, 172.617
0, 1140.00000, 221.594, -29.9688, 220.666, -150.069, 221.74, 89.8477, 0.00957586, 176.163, 0.437834, 6.25097, 0.391811, -54.1371, 0.374469, 143.503, 0.366781, 172.617
0, 1200.00000, 221.594, -29.9688, 220.666, -150.069, 221.74, 89.8477, 0.00957586, 176.163, 0.437834, 6.25097, 0.391811, -54.1371, 0.374469, 143.503, 0.366781, 172.617
0, 1260.00000, 220.881, -29.9648, 220.804, -150.131, 221.937, 89.9194, 0.00361308, 137.9, 0.357842, 45.2775, 0.391561, -54.2006, 0.389573, -174.151, 0.138998, 132.164
0, 1320.00000, 220.881, -29.9648, 220.804, -150.131, 221.937, 89.9194, 0.00361339, 137.917, 0.357865, 45.2766, 0.391555, -54.1993, 0.389558, -174.15, 0.139008, 132.181
0, 1380.00000, 220.881, -29.9648, 220.804, -150.131, 221.937, 89.9194, 0.00361339, 137.917, 0.357865, 45.2766, 0.391555, -54.1993, 0.389558, -174.15, 0.139008, 132.181
0, 1440.00000, 220.881, -29.9648, 220.804, -150.131, 221.937, 89.9194, 0.00361339, 137.917, 0.357865, 45.2766, 0.391555, -54.1993, 0.389558, -174.15, 0.139008, 132.181
0, 1500.00000, 220.881, -29.9648, 220.804, -150.131, 221.937, 89.9194, 0.00361339, 137.917, 0.357865, 45.2766, 0.391555, -54.1993, 0.389558, -174.15, 0.139008, 132.181
0, 1560.00000, 221.143, -30.0376, 221.562, -150.097, 221.843, 89.9498, 0.00922929, -65.3697, 0.357459, 45.2036, 0.437927, -113.88, 0.529609, 113.942, 0.365294, -67.4063
0, 1620.00000, 221.143, -30.0376, 221.562, -150.097, 221.843, 89.9498, 0.00923016, -65.3699, 0.357458, 45.2054, 0.437916, -113.88, 0.529624, 113.942, 0.365328, -67.4066
0, 1680.00000, 221.143, -30.0376, 221.562, -150.097, 221.843, 89.9498, 0.00923016, -65.3699, 0.357458, 45.2054, 0.437916, -113.88, 0.529624, 113.942, 0.365328, -67.4066
0, 1740.00000, 221.143, -30.0376, 221.562, -150.097, 221.843, 89.9498, 0.00923016, -65.3699, 0.357458, 45.2054, 0.437916, -113.88, 0.529624, 113.942, 0.365328, -67.4066
0, 1800.00000, 221.143, -30.0376, 221.562, -150.097, 221.843, 89.9498, 0.00923016, -65.3699, 0.357458, 45.2054, 0.437916, -113.88, 0.529624, 113.942, 0.365328, -67.4066
0, 1860.00000, 221.16, -30.0444, 221.387, -150.085, 221.632, 89.9253, 0.00720697, 135.872, 0.438692, 6.17444, 0.357053, -74.8418, 0.35666, 165.166, 0.276801, 131.867
0, 1920.00000, 221.16, -30.0444, 221.387, -150.085, 221.632, 89.9253, 0.00720701, 135.871, 0.438695, 6.17388, 0.357054, -74.8418, 0.356666, 165.166, 0.276803, 131.866
0, 1980.00000, 221.16, -30.0444, 221.387, -150.085, 221.632, 89.9253, 0.00720701, 135.871, 0.438695, 6.17388, 0.357054, -74.8418, 0.356666, 165.166, 0.276803, 131.866
0, 2040.00000, 221.16, -30.0444, 221.387, -150.085, 221.632, 89.9253, 0.00720701, 135.871, 0.438695, 6.17388, 0.357054, -74.8418, 0.356666, 165.166, 0.276803, 131.866
0, 2100.00000, 221.16, -30.0444, 221.387, -150.085, 221.632, 89.9253, 0.00720701, 135.871, 0.438695, 6.17388, 0.357054, -74.8418, 0.356666, 165.166, 0.276803, 131.866
0, 2160.00000, 221.144, -30.0196, 221.294, -150.086, 221.664, 89.9296, 0.00725317, -106.42, 0.390952, 65.9124, 0.390699, -54.1562, 0.374585, 143.588, 0.276556, -108.312
0, 2220.00000, 221.144, -30.0196, 221.294, -150.086, 221.664, 89.9296, 0.00725344, -106.419, 0.390954, 65.9131, 0.390695, -54.156, 0.374586, 143.587, 0.276567, -108.311
0, 2280.00000, 221.144, -30.0196, 221.294, -150.086, 221.664, 89.9296, 0.00725345, -106.419, 0.390954, 65.9131, 0.390695, -54.156, 0.374586, 143.587, 0.276567, -108.311
0, 2340.00000, 221.144, -30.0196, 221.294, -150.086, 221.664, 89.9296, 0.00725345, -106.419, 0.390954, 65.9131, 0.390695, -54.156, 0.374586, 143.587, 0.276567, -108.311
0, 2400.00000, 221.144, -30.0196, 221.294, -150.086, 221.664, 89.9296, 0.00725345, -106.419, 0.390954, 65.9131, 0.390695, -54.156, 0.374586, 143.587, 0.276567, -108.311
0, 2460.00000, 221.32, -29.981, 220.742, -150.067, 221.62, 89.869, 0.000180687, -169.073, 0.35717, 45.262, 0.35808, -74.8239, 0.356677, 165.109, 0.000494813, 153.3
0, 2520.00000, 221.32, -29.981, 220.742, -150.067, 221.62, 89.8689, 0.000180421, -169.387, 0.35716, 45.2606, 0.358095, -74.8249, 0.356676, 165.111, 0.000509258, 149.067
0, 2580.00000, 221.32, -29.981, 220.742, -150.067, 221.62, 89.8689, 0.000180423, -169.387, 0.35716, 45.2606, 0.358095, -74.8249, 0.356676, 165.111, 0.000509292, 149.075
0, 2640.00000, 221.32, -29.981, 220.742, -150.067, 221.62, 89.8689, 0.000180423, -169.387, 0.35716, 45.2606, 0.358095, -74.8249, 0.356676, 165.111, 0.000509292, 149.076
0, 2700.00000, 221.32, -29.981, 220.742, -150.067, 221.62, 89.8689, 0.000180423, -169.387, 0.35716, 45.2606, 0.358095, -74.8249, 0.356676, 165.111, 0.000509292, 149.076
0, 2760.00000, 221.356, -29.9772, 220.958, -150.094, 221.973, 89.8854, 0.0163479, 124.38, 0.639953, -14.3286, 0.357751, -74.8502, 0.389527, -174.187, 0.633482, 120.974
0, 2820.00000, 221.356, -29.9772, 220.958, -150.094, 221.973, 89.8854, 0.0163482, 124.383, 0.639964, -14.328, 0.357747, -74.8485, 0.389515, -174.186, 0.633492, 120.977
0, 2880.00000, 221.356, -29.9772, 220.958, -150.094, 221.973, 89.8854, 0.0163482, 124.383, 0.639964, -14.3279, 0.357747, -74.8485, 0.389515, -174.186, 0.633492, 120.977
0, 2940.00000, 221.356, -29.9772, 220.958, -150.094, 221.973, 89.8854, 0.0163482, 124.383, 0.639964, -14.3279, 0.357747, -74.8485, 0.389515, -174.186, 0.633492, 120.977
0, 3000.00000, 221.356, -29.9772, 220.958, -150.094, 221.973, 89.8854, 0.0163482, 124.383, 0.639964, -14.3279, 0.357747, -74.8485, 0.389515, -174.186, 0.633492, 120.977
0, 3060.00000, 220.908, -30.0569, 221.484, -150.077, 221.412, 89.9514, 0.00345805, 77.1812, 0.35782, 45.1826, 0.356905, -74.8359, 0.390479, -174.114, 0.137545, 71.8481
0, 3120.00000, 220.909, -30.0569, 221.484, -150.077, 221.412, 89.9515, 0.00345695, 77.1731, 0.357824, 45.1838, 0.356892, -74.8347, 0.390484, -174.117, 0.137503, 71.8396
0, 3180.00000, 220.909, -30.0569, 221.484, -150.077, 221.412, 89.9515, 0.00345695, 77.173, 0.357824, 45.1838, 0.356892, -74.8347, 0.390484, -174.117, 0.137503, 71.8395
0, 3240.00000, 220.909, -30.0569, 221.484, -150.077, 221.412, 89.9515, 0.00345695, 77.173, 0.357824, 45.1838, 0.356892, -74.8347, 0.390484, -174.117, 0.137503, 71.8395
0, 3300.00000, 220.909, -30.0569, 221.484, -150.077, 221.412, 89.9515, 0.00345695, 77.173, 0.357824, 45.1838, 0.356892, -74.8347, 0.390484, -174.117, 0.137503, 71.8395
0, 3360.00000, 221.104, -29.9755, 220.879, -150.109, 221.837, 89.9023, 0.00953164, 154.765, 0.438811, 6.24447, 0.391418, -54.1724, 0.356339, 165.138, 0.367077, 150.953
0, 3420.00000, 221.104, -29.9755, 220.879, -150.109, 221.837, 89.9023, 0.00953173, 154.756, 0.438801, 6.24338, 0.391429, -54.1763, 0.356335, 165.142, 0.367081, 150.943
0, 3480.00000, 221.104, -29.9755, 220.879, -150.109, 221.837, 89.9023, 0.00953174, 154.756, 0.438801, 6.24338, 0.391429, -54.1764, 0.356335, 165.142, 0.367081, 150.943
0, 3540.00000, 221.104, -29.9755, 220.879, -150.109, 221.837, 89.9023, 0.00953174, 154.756, 0.438801, 6.24338, 0.391429, -54.1764, 0.356335, 165.142, 0.367081, 150.943
1, 0.00000, 221.104, -29.9755, 220.879, -150.109, 221.837, 89.9023, 0.00953174, 154.756, 0.438801, 6.24338, 0.391429, -54.1764, 0.356335, 165.142, 0.367081, 150.943
1, 60.00000, 222.375, -30.0603, 222.261, -150.006, 221.991, 89.918, 0.00360437, 136.617, 0.326023, 22.1932, 0.308714, -72.9056, 0.30912, 167.019, 0.137322, 131.724
1, 120.00000, 222.375, -30.0603, 222.261, -150.006, 221.991, 89.918, 0.0036055, 136.631, 0.326034, 22.1918, 0.308715, -72.9028, 0.309093, 167.02, 0.137365, 131.738
1, 180.00000, 222.375, -30.0603, 222.261, -150.006, 221.991, 89.918, 0.0036055, 136.631, 0.326034, 22.1918, 0.308715, -72.9028, 0.309093, 167.02, 0.137365, 131.738
1, 240.00000, 222.375, -30.0603, 222.261, -150.006, 221.991, 89.918, 0.0036055, 136.631, 0.326034, 22.1918, 0.308715, -72.9028, 0.309093, 167.02, 0.137365, 131.738
1, 300.00000, 222.375, -30.0603, 222.261, -150.006, 221.991, 89.918, 0.0036055, 136.631, 0.326034, 22.1918, 0.308715, -72.9028, 0.309093, 167.02, 0.137365, 131.738
1, 360.00000, 221.631, -29.9903, 221.891, -150.105, 222.534, 89.9596, 0.00613466, 106.206, 0.327098, 22.2631, 0.309215, -73.0036, 0.349047, -169.843, 0.238538, 101.983
1, 420.00000, 221.631, -29.9903, 221.891, -150.105, 222.534, 89.9596, 0.00613562, 106.224, 0.327126, 22.261, 0.309227, -73.0008, 0.349019, -169.84, 0.238573, 102
1, 480.00000, 221.631, -29.9903, 221.891, -150.105, 222.534, 89.9596, 0.00613562, 106.224, 0.327126, 22.261, 0.309227, -73.0008, 0.349019, -169.84, 0.238573, 102
1, 540.00000, 221.631, -29.9903, 221.891, -150.105, 222.534, 89.9596, 0.00613562, 106.224, 0.327126, 22.261, 0.309227, -73.0008, 0.349019, -169.84, 0.238573, 102
1, 600.00000, 221.631, -29.9903, 221.891, -150.105, 222.534, 89.9596, 0.00613562, 106.224, 0.327126, 22.261, 0.309227, -73.0008, 0.349019, -169.84, 0.238573, 102
1, 660.00000, 221.888, -30.0866, 222.577, -150.045, 222.09, 89.9791, 0.00699767, 75.6752, 0.309228, 47.01, 0.308294, -72.9399, 0.432564, -153.544, 0.275031, 71.7864
1, 720.00000, 221.888, -30.0866, 222.577, -150.045, 222.09, 89.9791, 0.00699658, 75.6614, 0.30923, 47.0143, 0.308268, -72.9412, 0.432573, -153.547, 0.274989, 71.7726
1, 780.00000, 221.888, -30.0866, 222.577, -150.045, 222.09, 89.9791, 0.00699658, 75.6614, 0.30923, 47.0143, 0.308268, -72.9412, 0.432573, -153.547, 0.274989, 71.7726
1, 840.00000, 221.888, -30.0866, 222.577, -150.045, 222.09, 89.9791, 0.00699658, 75.6614, 0.30923, 47.0143, 0.308268, -72.9412, 0.432573, -153.547, 0.274989, 71.7726
1, 900.00000, 221.888, -30.0866, 222.577, -150.045, 222.09, 89.9791, 0.00699658, 75.6614, 0.30923, 47.0143, 0.308268, -72.9412, 0.432573, -153.547, 0.274989, 71.7726
1, 960.00000, 221.782, -30.0363, 222.015, -150.075, 222.237, 89.9461, 0.00362316, 136.797, 0.326908, 22.2192, 0.309037, -72.9697, 0.308751, 167.044, 0.138008, 131.948
1, 1020.00000, 221.782, -30.0363, 222.015, -150.075, 222.237, 89.9461, 0.00362425, 136.78, 0.326905, 22.2159, 0.309056, -72.9711, 0.30875, 167.048, 0.138051, 131.931
1, 1080.00000, 221.782, -30.0363, 222.015, -150.075, 222.237, 89.9461, 0.00362425, 136.78, 0.326905, 22.2158, 0.309056, -72.9711, 0.30875, 167.048, 0.138052, 131.931
1, 1140.00000, 221.782, -30.0363, 222.015, -150.075, 222.237, 89.9461, 0.00362425, 136.78, 0.326905, 22.2158, 0.309056, -72.9711, 0.30875, 167.048, 0.138052, 131.931
1, 1200.00000, 221.782, -30.0363, 222.015, -150.075, 222.237, 89.9461, 0.00362425, 136.78, 0.326905, 22.2158, 0.309056, -72.9711, 0.30875, 167.048, 0.138052, 131.931
1, 1260.00000, 221.578, -30.0218, 222.189, -150.104, 222.5, 89.9755, 0.00362654, -107.535, 0.309658, 47.0824, 0.308821, -73.0046, 0.325856, 142.23, 0.138072, -108.384
1, 1320.00000, 221.578, -30.0218, 222.189, -150.104, 222.5, 89.9755, 0.00362725, -107.545, 0.309666, 47.0818, 0.308818, -73.002, 0.325851, 142.228, 0.138098, -108.395
1, 1380.00000, 221.578, -30.0218, 222.189, -150.104, 222.5, 89.9755, 0.00362725, -107.545, 0.309666, 47.0818, 0.308818, -73.002, 0.325851, 142.228, 0.138098, -108.395
1, 1440.00000, 221.578, -30.0218, 222.189, -150.104, 222.5, 89.9755, 0.00362725, -107.545, 0.309666, 47.0818, 0.308818, -73.002, 0.325851, 142.228, 0.138098, -108.395
1, 1500.00000, 221.578, -30.0218, 222.189, -150.104, 222.5, 89.9755, 0.00362725, -107.545, 0.309666, 47.0818, 0.308818, -73.002, 0.325851, 142.228, 0.138098, -108.395
1, 1560.00000, 221.629, -30.0523, 222.27, -150.061, 222.153, 89.975, 0.00954958, -146.214, 0.327126, 22.2003, 0.349453, -49.8608, 0.394412, 123.013, 0.36493, -149.14
1, 1620.00000, 221.629, -30.0523, 222.27, -150.061, 222.153, 89.975, 0.00954976, -146.208, 0.327129, 22.2023, 0.349439, -49.8602, 0.394423, 123.012, 0.364938, -149.134
1, 1680.00000, 221.629, -30.0523, 222.27, -150.061, 222.153, 89.975, 0.00954976, -146.208, 0.327129, 22.2023, 0.349439, -49.8602, 0.394424, 123.012, 0.364938, -149.134
1, 1740.00000, 221.629, -30.0523, 222.27, -150.061, 222.153, 89.975, 0.00954976, -146.208, 0.327129, 22.2023, 0.349439, -49.8602, 0.394424, 123.012, 0.364938, -149.134
1, 1800.00000, 221.629, -30.0523, 222.27, -150.061, 222.153, 89.975, 0.00954976, -146.208, 0.327129, 22.2023, 0.349439, -49.8602, 0.394424, 123.012, 0.364938, -149.134
1, 1860.00000, 221.79, -30.0464, 222.215, -150.064, 222.263, 89.9608, 0.00341821, -47.1347, 0.309376, 47.0577, 0.326264, -97.8136, 0.326209, 142.213, 0.137789, -48.4499
1, 1920.00000, 221.79, -30.0464, 222.215, -150.064, 222.263, 89.9608, 0.00341754, -47.1317, 0.309373, 47.0566, 0.326273, -97.813, 0.326199, 142.214, 0.137763, -48.4466
1, 1980.00000, 221.79, -30.0464, 222.215, -150.064, 222.263, 89.9608, 0.00341754, -47.1317, 0.309373, 47.0566, 0.326273, -97.813, 0.326199, 142.214, 0.137763, -48.4466
1, 2040.00000, 221.79, -30.0464, 222.215, -150.064, 222.263, 89.9608, 0.00341754, -47.1317, 0.309373, 47.0566, 0.326273, -97.813, 0.326199, 142.214, 0.137763, -48.4466
1, 2100.00000, 221.79, -30.0464, 222.215, -150.064, 222.263, 89.9608, 0.00341754, -47.1317, 0.309373, 47.0566, 0.326273, -97.813, 0.326199, 142.214, 0.137763, -48.4466
1, 2160.00000, 221.75, -30.0231, 222.117, -150.088, 222.442, 89.9575, 0.00370409, -165.443, 0.326955, 22.2315, 0.308909, -72.9861, 0.325944, 142.209, 0.138336, -168.302
1, 2220.00000, 221.75, -30.0231, 222.117, -150.088, 222.442, 89.9575, 0.00370427, -165.452, 0.326954, 22.2299, 0.308918, -72.9853, 0.325939, 142.209, 0.138343, -168.311
1, 2280.00000, 221.75, -30.0231, 222.117, -150.088, 222.442, 89.9575, 0.00370427, -165.452, 0.326954, 22.2299, 0.308918, -72.9853, 0.32594, 142.209, 0.138343, -168.311
1, 2340.00000, 221.75, -30.0231, 222.117, -150.088, 222.442, 89.9575, 0.00370427, -165.452, 0.326954, 22.2299, 0.308918, -72.9853, 0.32594, 142.209, 0.138343, -168.311
1, 2400.00000, 221.75, -30.0231, 222.117, -150.088, 222.442, 89.9575, 0.00370427, -165.452, 0.326954, 22.2299, 0.308918, -72.9853, 0.32594, 142.209, 0.138343, -168.311
1, 2460.00000, 221.745, -29.9839, 221.961, -150.103, 222.693, 89.9467, 0.014058, -45.8055, 0.539385, 96.9662, 0.326424, -97.8326, 0.325627, 142.162, 0.551631, -48.2854
1, 2520.00000, 221.745, -29.9839, 221.96, -150.103, 222.693, 89.9467, 0.014053, -45.7435, 0.539283, 96.9765, 0.326643, -97.8539, 0.325558, 142.202, 0.551445, -48.2238
1, 2580.00000, 221.745, -29.9839, 221.96, -150.103, 222.693, 89.9467, 0.014053, -45.7435, 0.539283, 96.9765, 0.326643, -97.8539, 0.325558, 142.202, 0.551444, -48.2238
1, 2640.00000, 221.745, -29.9839, 221.96, -150.103, 222.693, 89.9467, 0.014053, -45.7435, 0.539283, 96.9765, 0.326643, -97.8539, 0.325558, 142.202, 0.551444, -48.2238
1, 2700.00000, 221.745, -29.9839, 221.96, -150.103, 222.693, 89.9467, 0.014053, -45.7435, 0.539283, 96.9765, 0.326643, -97.8539, 0.325558, 142.202, 0.551444, -48.2238
1, 2760.00000, 221.63, -30.0409, 222.273, -150.08, 222.317, 89.9759, 0.010769, -105.903, 0.350426, 70.1624, 0.349438, -49.8823, 0.394111, 123.016, 0.413622, -108.223
1, 2820.00000, 221.63, -30.0409, 222.273, -150.08, 222.317, 89.9759, 0.0107699, -105.901, 0.350437, 70.1628, 0.349431, -49.8813, 0.394124, 123.015, 0.413657, -108.221
1, 2880.00000, 221.63, -30.0409, 222.273, -150.08, 222.317, 89.9759, 0.0107699, -105.901, 0.350437, 70.1628, 0.349431, -49.8813, 0.394124, 123.015, 0.413657, -108.221
1, 2940.00000, 221.63, -30.0409, 222.273, -150.08, 222.317, 89.9759, 0.0107699, -105.901, 0.350437, 70.1628, 0.349431, -49.8813, 0.394124, 123.015, 0.413657, -108.221
1, 3000.00000, 221.63, -30.0409, 222.273, -150.08, 222.317, 89.9759, 0.0107699, -105.901, 0.350437, 70.1628, 0.349431, -49.8813, 0.394124, 123.015, 0.413657, -108.221
1, 3060.00000, 221.756, -30.0555, 222.196, -150.044, 222.034, 89.9605, 0.00613285, 106.09, 0.326948, 22.1962, 0.308801, -72.939, 0.349798, -169.84, 0.238493, 101.858
1, 3120.00000, 221.756, -30.0555, 222.196, -150.044, 222.034, 89.9605, 0.00613307, 106.085, 0.326942, 22.1958, 0.308802, -72.9402, 0.349805, -169.839, 0.238501, 101.853
1, 3180.00000, 221.756, -30.0555, 222.196, -150.044, 222.034, 89.9605, 0.00613307, 106.085, 0.326942, 22.1957, 0.308802, -72.9402, 0.349805, -169.839, 0.238502, 101.853
1, 3240.00000, 221.756, -30.0555, 222.196, -150.044, 222.034, 89.9605, 0.00613307, 106.085, 0.326942, 22.1957, 0.308802, -72.9402, 0.349805, -169.839, 0.238502, 101.853
1, 3300.00000, 221.756, -30.0555, 222.196, -150.044, 222.034, 89.9605, 0.00613307, 106.085, 0.326942, 22.1957, 0.308802, -72.9402, 0.349805, -169.839, 0.238502, 101.853
1, 3360.00000, 222.012, -29.999, 221.814, -150.064, 222.349, 89.915, 0.00613288, -76.8086, 0.349847, 70.2021, 0.309323, -72.9617, 0.326073, 142.167, 0.23839, -78.285
1, 3420.00000, 222.012, -29.999, 221.814, -150.064, 222.349, 89.915, 0.00613213, -76.8047, 0.349836, 70.2031, 0.309338, -72.9631, 0.326068, 142.168, 0.238361, -78.2808
1, 3480.00000, 222.012, -29.999, 221.814, -150.064, 222.349, 89.915, 0.00613213, -76.8047, 0.349836, 70.2031, 0.309338, -72.9631, 0.326068, 142.168, 0.238361, -78.2808
