hour, t(sec), P1 (kW), Q1 (kvar), P2 (kW), Q2 (kvar), P3 (kW), Q3 (kvar), P4 (kW), Q4 (kvar)
0, 60.00000, -0.465033, -0.152853, -0.473481, -0.155595, -0.522959, -0.171881, -4.6706E-009, 1.53559E-008
0, 120.00000, -0.465031, -0.152852, -0.473482, -0.155595, -0.522958, -0.171881, -4.66994E-009, 1.5356E-008
0, 180.00000, -0.465031, -0.152852, -0.473482, -0.155595, -0.522958, -0.171881, -4.66993E-009, 1.5356E-008
0, 240.00000, -0.465031, -0.152852, -0.473482, -0.155595, -0.522958, -0.171881, -4.66993E-009, 1.5356E-008
0, 300.00000, -0.465031, -0.152852, -0.473482, -0.155595, -0.522958, -0.171881, -4.66993E-009, 1.5356E-008
0, 360.00000, -0.503539, -0.165501, -0.473097, -0.155491, -0.525096, -0.172569, 4.15075E-009, 6.08591E-009
0, 420.00000, -0.503556, -0.165507, -0.47309, -0.155489, -0.525089, -0.172566, 4.14726E-009, 6.08721E-009
0, 480.00000, -0.503556, -0.165507, -0.47309, -0.155489, -0.525089, -0.172566, 4.14724E-009, 6.08722E-009
0, 540.00000, -0.503556, -0.165507, -0.47309, -0.155489, -0.525089, -0.172566, 4.14724E-009, 6.08722E-009
0, 600.00000, -0.503556, -0.165507, -0.47309, -0.155489, -0.525089, -0.172566, 4.14724E-009, 6.08722E-009
0, 660.00000, -0.539514, -0.177328, -0.445604, -0.146465, -0.466337, -0.153243, -1.07442E-008, -1.43569E-009
0, 720.00000, -0.539498, -0.177323, -0.445606, -0.146466, -0.466351, -0.153247, -1.07409E-008, -1.43079E-009
0, 780.00000, -0.539497, -0.177323, -0.445606, -0.146466, -0.466351, -0.153247, -1.07409E-008, -1.43075E-009
0, 840.00000, -0.539497, -0.177323, -0.445606, -0.146466, -0.466351, -0.153247, -1.07409E-008, -1.43075E-009
0, 900.00000, -0.539497, -0.177323, -0.445606, -0.146466, -0.466351, -0.153247, -1.07409E-008, -1.43075E-009
0, 960.00000, -0.490503, -0.161184, -0.5775, -0.189814, -0.478867, -0.157403, 1.2321E-008, -7.5895E-009
0, 1020.00000, -0.490504, -0.161185, -0.577493, -0.189812, -0.47888, -0.157407, 1.23184E-008, -7.58533E-009
0, 1080.00000, -0.490504, -0.161185, -0.577493, -0.189812, -0.47888, -0.157407, 1.23183E-008, -7.58528E-009
0, 1140.00000, -0.490504, -0.161185, -0.577493, -0.189812, -0.47888, -0.157407, 1.23183E-008, -7.58528E-009
0, 1200.00000, -0.490504, -0.161185, -0.577493, -0.189812, -0.47888, -0.157407, 1.23183E-008, -7.58528E-009
0, 1260.00000, -0.478146, -0.157143, -0.467604, -0.153683, -0.474749, -0.156036, -2.74276E-009, -3.50648E-009
0, 1320.00000, -0.478156, -0.157145, -0.467614, -0.153687, -0.474725, -0.156028, -2.73736E-009, -3.50843E-009
0, 1380.00000, -0.478156, -0.157145, -0.467614, -0.153687, -0.474725, -0.156028, -2.73733E-009, -3.50847E-009
0, 1440.00000, -0.478156, -0.157145, -0.467614, -0.153687, -0.474725, -0.156028, -2.73733E-009, -3.50847E-009
0, 1500.00000, -0.478156, -0.157145, -0.467614, -0.153687, -0.474725, -0.156028, -2.73733E-009, -3.50847E-009
0, 1560.00000, -0.462958, -0.152161, -0.487345, -0.160164, -0.49756, -0.16353, 5.39028E-009, 6.16089E-009
0, 1620.00000, -0.462956, -0.15216, -0.487358, -0.160169, -0.49755, -0.163527, 5.3924E-009, 6.15644E-009
0, 1680.00000, -0.462956, -0.15216, -0.487358, -0.160169, -0.49755, -0.163527, 5.3924E-009, 6.1564E-009
0, 1740.00000, -0.462956, -0.15216, -0.487358, -0.160169, -0.49755, -0.163527, 5.3924E-009, 6.1564E-009
0, 1800.00000, -0.462956, -0.15216, -0.487358, -0.160169, -0.49755, -0.163527, 5.3924E-009, 6.1564E-009
0, 1860.00000, -0.492904, -0.161999, -0.456591, -0.150066, -0.509873, -0.167571, 1.63837E-009, -1.7504E-009
0, 1920.00000, -0.492909, -0.162002, -0.45658, -0.150062, -0.509888, -0.167576, 1.63951E-009, -1.75256E-009
0, 1980.00000, -0.492909, -0.162002, -0.45658, -0.150062, -0.509888, -0.167576, 1.63952E-009, -1.75258E-009
0, 2040.00000, -0.492909, -0.162002, -0.45658, -0.150062, -0.509888, -0.167576, 1.63952E-009, -1.75258E-009
0, 2100.00000, -0.492909, -0.162002, -0.45658, -0.150062, -0.509888, -0.167576, 1.63952E-009, -1.75258E-009
0, 2160.00000, -0.495941, -0.162998, -0.504367, -0.165765, -0.498855, -0.163954, -1.88054E-009, 1.5031E-009
0, 2220.00000, -0.495929, -0.162994, -0.504361, -0.165763, -0.498866, -0.163957, -1.87985E-009, 1.50829E-009
0, 2280.00000, -0.495929, -0.162994, -0.504361, -0.165763, -0.498866, -0.163957, -1.87983E-009, 1.50833E-009
0, 2340.00000, -0.495929, -0.162994, -0.504361, -0.165763, -0.498866, -0.163957, -1.87983E-009, 1.50833E-009
0, 2400.00000, -0.495929, -0.162994, -0.504361, -0.165763, -0.498866, -0.163957, -1.87983E-009, 1.50833E-009
0, 2460.00000, -0.449357, -0.147685, -0.454027, -0.149215, -0.527531, -0.173385, 2.98615E-009, -9.57551E-009
0, 2520.00000, -0.449356, -0.147686, -0.454012, -0.14921, -0.527554, -0.173392, 2.98832E-009, -9.58254E-009
0, 2580.00000, -0.449356, -0.147685, -0.454012, -0.14921, -0.527554, -0.173392, 2.98834E-009, -9.5826E-009
0, 2640.00000, -0.449356, -0.147685, -0.454012, -0.14921, -0.527554, -0.173392, 2.98834E-009, -9.5826E-009
0, 2700.00000, -0.449356, -0.147685, -0.454012, -0.14921, -0.527554, -0.173392, 2.98834E-009, -9.5826E-009
0, 2760.00000, -0.503549, -0.165501, -0.460371, -0.151312, -0.487075, -0.160071, -2.24232E-009, -1.60129E-009
0, 2820.00000, -0.50356, -0.165505, -0.460359, -0.151308, -0.487076, -0.160071, -2.24281E-009, -1.6033E-009
0, 2880.00000, -0.50356, -0.165505, -0.460359, -0.151308, -0.487076, -0.160071, -2.24281E-009, -1.60332E-009
0, 2940.00000, -0.50356, -0.165505, -0.460359, -0.151308, -0.487076, -0.160071, -2.24281E-009, -1.60332E-009
0, 3000.00000, -0.50356, -0.165505, -0.460359, -0.151308, -0.487076, -0.160071, -2.24281E-009, -1.60332E-009
0, 3060.00000, -0.387505, -0.127349, -0.478126, -0.157134, -0.485271, -0.159504, 8.40977E-009, -8.01256E-009
0, 3120.00000, -0.387486, -0.127343, -0.478157, -0.157144, -0.485262, -0.159501, 8.4136E-009, -8.01904E-009
0, 3180.00000, -0.387486, -0.127343, -0.478157, -0.157145, -0.485262, -0.159501, 8.41361E-009, -8.01906E-009
0, 3240.00000, -0.387486, -0.127343, -0.478157, -0.157145, -0.485262, -0.159501, 8.41361E-009, -8.01906E-009
0, 3300.00000, -0.387486, -0.127343, -0.478157, -0.157145, -0.485262, -0.159501, 8.41361E-009, -8.01906E-009
0, 3360.00000, -0.500481, -0.164482, -0.518602, -0.170451, -0.48347, -0.1589, 1.63405E-009, -2.02091E-009
0, 3420.00000, -0.500484, -0.164481, -0.518623, -0.170458, -0.483448, -0.158893, 1.63815E-009, -2.02496E-009
0, 3480.00000, -0.500484, -0.164481, -0.518623, -0.170458, -0.483447, -0.158893, 1.63818E-009, -2.02501E-009
0, 3540.00000, -0.500484, -0.164481, -0.518623, -0.170458, -0.483447, -0.158893, 1.63818E-009, -2.02501E-009
1, 0.00000, -0.500484, -0.164481, -0.518623, -0.170458, -0.483447, -0.158893, 1.63818E-009, -2.02501E-009
1, 60.00000, -0.377043, -0.12392, -0.356249, -0.117072, -0.458208, -0.150602, 3.83916E-010, -2.62833E-008
1, 120.00000, -0.377017, -0.123911, -0.356228, -0.117065, -0.458183, -0.150594, 3.83702E-010, -2.62815E-008
1, 180.00000, -0.377017, -0.123911, -0.356228, -0.117065, -0.458183, -0.150594, 3.83696E-010, -2.62815E-008
1, 240.00000, -0.377017, -0.123911, -0.356228, -0.117065, -0.458183, -0.150594, 3.83696E-010, -2.62815E-008
1, 300.00000, -0.377017, -0.123911, -0.356228, -0.117065, -0.458183, -0.150594, 3.83696E-010, -2.62815E-008
1, 360.00000, -0.414191, -0.136112, -0.429881, -0.141297, -0.373612, -0.122789, 2.50261E-009, -4.46512E-009
1, 420.00000, -0.414211, -0.136119, -0.429877, -0.141298, -0.37359, -0.122783, 2.50367E-009, -4.47051E-009
1, 480.00000, -0.414212, -0.136119, -0.429877, -0.141298, -0.37359, -0.122783, 2.50366E-009, -4.47055E-009
1, 540.00000, -0.414212, -0.136119, -0.429877, -0.141298, -0.37359, -0.122783, 2.50366E-009, -4.47055E-009
1, 600.00000, -0.414212, -0.136119, -0.429877, -0.141298, -0.37359, -0.122783, 2.50366E-009, -4.47055E-009
1, 660.00000, -0.408405, -0.13423, -0.346896, -0.114009, -0.391367, -0.128619, -1.60265E-009, -1.04344E-008
1, 720.00000, -0.408396, -0.134227, -0.346896, -0.114009, -0.391378, -0.128623, -1.6038E-009, -1.04325E-008
1, 780.00000, -0.408396, -0.134227, -0.346896, -0.114009, -0.391378, -0.128623, -1.60381E-009, -1.04325E-008
1, 840.00000, -0.408396, -0.134227, -0.346896, -0.114009, -0.391378, -0.128623, -1.60381E-009, -1.04325E-008
1, 900.00000, -0.408396, -0.134227, -0.346896, -0.114009, -0.391378, -0.128623, -1.60381E-009, -1.04325E-008
1, 960.00000, -0.425209, -0.139744, -0.409539, -0.134605, -0.415506, -0.136555, 1.03265E-009, -1.23855E-012
1, 1020.00000, -0.425233, -0.139752, -0.409525, -0.134601, -0.415502, -0.136554, 1.03377E-009, -1.80985E-012
1, 1080.00000, -0.425233, -0.139752, -0.409525, -0.134601, -0.415502, -0.136554, 1.0338E-009, -1.82544E-012
1, 1140.00000, -0.425233, -0.139752, -0.409525, -0.134601, -0.415502, -0.136554, 1.0338E-009, -1.82568E-012
1, 1200.00000, -0.425233, -0.139752, -0.409525, -0.134601, -0.415502, -0.136554, 1.0338E-009, -1.82568E-012
1, 1260.00000, -0.362621, -0.119163, -0.419235, -0.137793, -0.416802, -0.136993, -5.50987E-009, -9.10334E-009
1, 1320.00000, -0.362596, -0.119155, -0.419241, -0.137794, -0.416818, -0.136998, -5.5131E-009, -9.11268E-009
1, 1380.00000, -0.362596, -0.119155, -0.419242, -0.137794, -0.416818, -0.136998, -5.51317E-009, -9.11275E-009
1, 1440.00000, -0.362596, -0.119155, -0.419242, -0.137794, -0.416818, -0.136998, -5.51317E-009, -9.11275E-009
1, 1500.00000, -0.362596, -0.119155, -0.419242, -0.137794, -0.416818, -0.136998, -5.51317E-009, -9.11275E-009
1, 1560.00000, -0.392708, -0.12905, -0.383326, -0.125996, -0.348207, -0.11444, 8.35829E-009, -5.15314E-010
1, 1620.00000, -0.392719, -0.129055, -0.383313, -0.125992, -0.348209, -0.114441, 8.36098E-009, -5.19983E-010
1, 1680.00000, -0.392719, -0.129055, -0.383313, -0.125992, -0.348209, -0.114441, 8.36098E-009, -5.20031E-010
1, 1740.00000, -0.392719, -0.129055, -0.383313, -0.125992, -0.348209, -0.114441, 8.36097E-009, -5.20031E-010
1, 1800.00000, -0.392719, -0.129055, -0.383313, -0.125992, -0.348209, -0.114441, 8.36097E-009, -5.20031E-010
1, 1860.00000, -0.412114, -0.135447, -0.386222, -0.126942, -0.381686, -0.125431, -4.83511E-009, 4.74521E-009
1, 1920.00000, -0.412127, -0.135451, -0.38622, -0.126942, -0.381674, -0.125427, -4.83973E-009, 4.74498E-009
1, 1980.00000, -0.412127, -0.135451, -0.38622, -0.126942, -0.381674, -0.125427, -4.83977E-009, 4.745E-009
1, 2040.00000, -0.412127, -0.135451, -0.38622, -0.126942, -0.381674, -0.125427, -4.83977E-009, 4.745E-009
1, 2100.00000, -0.412127, -0.135451, -0.38622, -0.126942, -0.381674, -0.125427, -4.83977E-009, 4.745E-009
1, 2160.00000, -0.386749, -0.127095, -0.402399, -0.132264, -0.375183, -0.123307, -8.06547E-010, 1.41992E-009
1, 2220.00000, -0.386736, -0.127091, -0.402403, -0.132265, -0.375195, -0.12331, -8.08056E-010, 1.41775E-009
1, 2280.00000, -0.386736, -0.127091, -0.402404, -0.132265, -0.375195, -0.12331, -8.08089E-010, 1.41773E-009
1, 2340.00000, -0.386736, -0.127091, -0.402404, -0.132265, -0.375195, -0.12331, -8.0809E-010, 1.41773E-009
1, 2400.00000, -0.386736, -0.127091, -0.402404, -0.132265, -0.375195, -0.12331, -8.0809E-010, 1.41773E-009
1, 2460.00000, -0.423496, -0.139177, -0.378307, -0.124344, -0.384548, -0.12638, -4.15518E-010, -9.49924E-009
1, 2520.00000, -0.423424, -0.139158, -0.378263, -0.124326, -0.384622, -0.126403, -4.30711E-010, -9.48177E-009
1, 2580.00000, -0.423423, -0.139158, -0.378263, -0.124326, -0.384623, -0.126404, -4.30857E-010, -9.48135E-009
1, 2640.00000, -0.423423, -0.139158, -0.378263, -0.124326, -0.384623, -0.126404, -4.30858E-010, -9.48135E-009
1, 2700.00000, -0.423423, -0.139158, -0.378263, -0.124326, -0.384623, -0.126404, -4.30858E-010, -9.48135E-009
1, 2760.00000, -0.341855, -0.112348, -0.427309, -0.140424, -0.45401, -0.149233, 5.05073E-009, -1.88084E-009
1, 2820.00000, -0.341859, -0.112349, -0.427316, -0.140427, -0.454005, -0.149231, 5.05123E-009, -1.87986E-009
1, 2880.00000, -0.341859, -0.112349, -0.427316, -0.140427, -0.454005, -0.149231, 5.05122E-009, -1.87983E-009
1, 2940.00000, -0.341859, -0.112349, -0.427316, -0.140427, -0.454005, -0.149231, 5.05122E-009, -1.87983E-009
1, 3000.00000, -0.341859, -0.112349, -0.427316, -0.140427, -0.454005, -0.149231, 5.05122E-009, -1.87983E-009
1, 3060.00000, -0.456491, -0.150013, -0.45193, -0.148549, -0.393833, -0.129434, 4.26471E-009, -4.25976E-009
1, 3120.00000, -0.456501, -0.150017, -0.451923, -0.148547, -0.393826, -0.129432, 4.26593E-009, -4.26228E-009
1, 3180.00000, -0.456502, -0.150017, -0.451923, -0.148547, -0.393826, -0.129432, 4.26594E-009, -4.2623E-009
1, 3240.00000, -0.456502, -0.150017, -0.451923, -0.148547, -0.393826, -0.129432, 4.26594E-009, -4.2623E-009
1, 3300.00000, -0.456502, -0.150017, -0.451923, -0.148547, -0.393826, -0.129432, 4.26594E-009, -4.2623E-009
1, 3360.00000, -0.409569, -0.134595, -0.440108, -0.144658, -0.373216, -0.122663, 1.44607E-009, -1.37221E-009
1, 3420.00000, -0.409548, -0.134586, -0.440137, -0.144667, -0.373212, -0.12266, 1.44592E-009, -1.37376E-009
1, 3480.00000, -0.409548, -0.134586, -0.440138, -0.144668, -0.373212, -0.12266, 1.44593E-009, -1.37381E-009
1, 3540.00000, -0.409548, -0.134586, -0.440138, -0.144668, -0.373211, -0.12266, 1.44593E-009, -1.37381E-009
2, 0.00000, -0.409548, -0.134586, -0.440138, -0.144668, -0.373211, -0.12266, 1.44593E-009, -1.37381E-009
2, 60.00000, -0.369339, -0.121374, -0.45612, -0.14991, -0.416646, -0.136944, 1.10049E-008, -2.4952E-009
2, 120.00000, -0.36934, -0.121374, -0.456106, -0.149905, -0.416643, -0.136943, 1.10021E-008, -2.49289E-009
2, 180.00000, -0.36934, -0.121374, -0.456106, -0.149905, -0.416643, -0.136943, 1.10021E-008, -2.49286E-009
2, 240.00000, -0.36934, -0.121374, -0.456106, -0.149905, -0.416643, -0.136943, 1.10021E-008, -2.49286E-009
2, 300.00000, -0.36934, -0.121374, -0.456106, -0.149905, -0.416643, -0.136943, 1.10021E-008, -2.49286E-009
2, 360.00000, -0.402415, -0.132248, -0.391386, -0.128641, -0.364654, -0.119842, -4.71394E-011, -1.46529E-009
2, 420.00000, -0.40242, -0.13225, -0.391376, -0.128638, -0.364661, -0.119844, -4.71066E-011, -1.46512E-009
2, 480.00000, -0.40242, -0.13225, -0.391376, -0.128638, -0.364661, -0.119845, -4.71076E-011, -1.4651E-009
2, 540.00000, -0.40242, -0.13225, -0.391376, -0.128638, -0.364661, -0.119845, -4.71077E-011, -1.4651E-009
2, 600.00000, -0.40242, -0.13225, -0.391376, -0.128638, -0.364661, -0.119845, -4.71077E-011, -1.4651E-009
2, 660.00000, -0.442946, -0.145578, -0.360069, -0.118341, -0.396343, -0.130252, -1.07148E-008, -1.78906E-008
2, 720.00000, -0.442891, -0.145568, -0.360003, -0.118316, -0.39642, -0.130277, -1.07301E-008, -1.78715E-008
2, 780.00000, -0.44289, -0.145568, -0.360003, -0.118316, -0.396421, -0.130277, -1.07302E-008, -1.78709E-008
2, 840.00000, -0.44289, -0.145568, -0.360003, -0.118316, -0.396421, -0.130277, -1.07302E-008, -1.78709E-008
2, 900.00000, -0.44289, -0.145568, -0.360003, -0.118316, -0.396421, -0.130277, -1.07302E-008, -1.78709E-008
2, 960.00000, -0.344337, -0.113148, -0.429876, -0.141291, -0.328748, -0.108056, 8.94103E-009, -2.52156E-009
2, 1020.00000, -0.344339, -0.113148, -0.429894, -0.141299, -0.328732, -0.10805, 8.94619E-009, -2.52627E-009
2, 1080.00000, -0.34434, -0.113148, -0.429894, -0.141299, -0.328731, -0.10805, 8.94625E-009, -2.52631E-009
2, 1140.00000, -0.34434, -0.113148, -0.429894, -0.141299, -0.328731, -0.10805, 8.94625E-009, -2.52631E-009
2, 1200.00000, -0.34434, -0.113148, -0.429894, -0.141299, -0.328731, -0.10805, 8.94625E-009, -2.52631E-009
2, 1260.00000, -0.341925, -0.112378, -0.337213, -0.110822, -0.362559, -0.119158, -3.01915E-009, 2.13156E-009
2, 1320.00000, -0.341866, -0.112359, -0.337201, -0.110818, -0.362586, -0.119165, -3.01526E-009, 2.13963E-009
2, 1380.00000, -0.341866, -0.112358, -0.337202, -0.110818, -0.362586, -0.119165, -3.01516E-009, 2.13973E-009
2, 1440.00000, -0.341866, -0.112358, -0.337202, -0.110818, -0.362586, -0.119165, -3.01516E-009, 2.13973E-009
2, 1500.00000, -0.341866, -0.112358, -0.337202, -0.110818, -0.362586, -0.119165, -3.01516E-009, 2.13973E-009
2, 1560.00000, -0.411632, -0.135282, -0.355355, -0.116801, -0.326169, -0.107185, 2.04087E-009, -8.60153E-009
2, 1620.00000, -0.411639, -0.135285, -0.355343, -0.116797, -0.326172, -0.107187, 2.04149E-009, -8.60347E-009
2, 1680.00000, -0.411639, -0.135285, -0.355343, -0.116797, -0.326172, -0.107187, 2.04148E-009, -8.60346E-009
2, 1740.00000, -0.411639, -0.135285, -0.355343, -0.116797, -0.326172, -0.107187, 2.04148E-009, -8.60346E-009
2, 1800.00000, -0.411639, -0.135285, -0.355343, -0.116797, -0.326172, -0.107187, 2.04148E-009, -8.60346E-009
2, 1860.00000, -0.35337, -0.116139, -0.398453, -0.130943, -0.448008, -0.147249, 1.0706E-008, -3.13709E-009
2, 1920.00000, -0.353371, -0.116139, -0.398511, -0.130962, -0.448027, -0.147256, 1.07112E-008, -3.14225E-009
2, 1980.00000, -0.353371, -0.116139, -0.398512, -0.130962, -0.448027, -0.147256, 1.07112E-008, -3.14223E-009
2, 2040.00000, -0.353371, -0.116139, -0.398512, -0.130962, -0.448027, -0.147256, 1.07112E-008, -3.14223E-009
2, 2100.00000, -0.353371, -0.116139, -0.398512, -0.130962, -0.448027, -0.147256, 1.07112E-008, -3.14223E-009
2, 2160.00000, -0.324071, -0.106507, -0.322804, -0.106085, -0.379608, -0.124763, -1.45296E-009, -7.7062E-009
2, 2220.00000, -0.324095, -0.106514, -0.322773, -0.106074, -0.379589, -0.124758, -1.45096E-009, -7.707E-009
2, 2280.00000, -0.324095, -0.106514, -0.322773, -0.106074, -0.379589, -0.124758, -1.45094E-009, -7.70708E-009
2, 2340.00000, -0.324095, -0.106514, -0.322772, -0.106074, -0.379589, -0.124758, -1.45094E-009, -7.70708E-009
2, 2400.00000, -0.324095, -0.106514, -0.322772, -0.106074, -0.379589, -0.124758, -1.45094E-009, -7.70708E-009
2, 2460.00000, -0.406955, -0.133754, -0.373124, -0.122627, -0.415515, -0.136558, -2.33173E-009, -2.0229E-010
2, 2520.00000, -0.406964, -0.133757, -0.373118, -0.122625, -0.415512, -0.136557, -2.33266E-009, -2.03714E-010
2, 2580.00000, -0.406964, -0.133757, -0.373117, -0.122625, -0.415512, -0.136557, -2.33266E-009, -2.0373E-010
2, 2640.00000, -0.406964, -0.133757, -0.373117, -0.122625, -0.415512, -0.136557, -2.33266E-009, -2.0373E-010
2, 2700.00000, -0.406964, -0.133757, -0.373117, -0.122625, -0.415512, -0.136557, -2.33266E-009, -2.0373E-010
2, 2760.00000, -0.376479, -0.123732, -0.344423, -0.113198, -0.362583, -0.119161, -2.16102E-009, -3.44815E-009
2, 2820.00000, -0.376472, -0.123729, -0.344431, -0.113201, -0.36258, -0.11916, -2.16044E-009, -3.44617E-009
2, 2880.00000, -0.376472, -0.123729, -0.344431, -0.113201, -0.36258, -0.11916, -2.16043E-009, -3.44616E-009
2, 2940.00000, -0.376472, -0.123729, -0.344431, -0.113201, -0.36258, -0.11916, -2.16043E-009, -3.44616E-009
2, 3000.00000, -0.376472, -0.123729, -0.344431, -0.113201, -0.36258, -0.11916, -2.16043E-009, -3.44616E-009
2, 3060.00000, -0.364704, -0.119857, -0.346899, -0.114015, -0.359217, -0.118056, 3.17595E-010, -2.34237E-009
2, 3120.00000, -0.364685, -0.119851, -0.346899, -0.114015, -0.359241, -0.118063, 3.15578E-010, -2.34192E-009
2, 3180.00000, -0.364685, -0.119851, -0.346899, -0.114015, -0.359241, -0.118063, 3.15552E-010, -2.34188E-009
2, 3240.00000, -0.364685, -0.119851, -0.346899, -0.114015, -0.359241, -0.118063, 3.15552E-010, -2.34188E-009
2, 3300.00000, -0.364685, -0.119851, -0.346899, -0.114015, -0.359241, -0.118063, 3.15552E-010, -2.34188E-009
2, 3360.00000, -0.352875, -0.115959, -0.398512, -0.130982, -0.324104, -0.10652, 5.49169E-009, -3.52106E-009
2, 3420.00000, -0.352898, -0.115966, -0.398513, -0.130985, -0.324077, -0.106513, 5.49486E-009, -3.52685E-009
2, 3480.00000, -0.352898, -0.115966, -0.398513, -0.130985, -0.324077, -0.106513, 5.49487E-009, -3.52689E-009
2, 3540.00000, -0.352898, -0.115966, -0.398513, -0.130985, -0.324077, -0.106513, 5.49486E-009, -3.52689E-009
3, 0.00000, -0.352898, -0.115966, -0.398513, -0.130985, -0.324077, -0.106513, 5.49486E-009, -3.52689E-009
3, 60.00000, -0.294914, -0.0969251, -0.337969, -0.111063, -0.378269, -0.124328, 3.9168E-009, 5.05709E-009
3, 120.00000, -0.294918, -0.0969264, -0.337972, -0.111064, -0.378271, -0.124329, 3.91666E-009, 5.05724E-009
3, 180.00000, -0.294918, -0.0969264, -0.337972, -0.111064, -0.378271, -0.124329, 3.91666E-009, 5.05724E-009
3, 240.00000, -0.294918, -0.0969264, -0.337972, -0.111064, -0.378271, -0.124329, 3.91666E-009, 5.05724E-009
