hour, t(sec), P1 (kW), Q1 (kvar), P2 (kW), Q2 (kvar), P3 (kW), Q3 (kvar), P4 (kW), Q4 (kvar)
0, 60.00000, -0.399761, -0.131396, -0.299819, -0.098546, -0.449731, -0.147818, 4.20035E-008, -1.52804E-007
0, 120.00000, -0.399761, -0.131395, -0.299819, -0.0985462, -0.44973, -0.147818, 4.20028E-008, -1.52802E-007
0, 180.00000, -0.399761, -0.131395, -0.299819, -0.0985462, -0.44973, -0.147818, 4.20028E-008, -1.52802E-007
0, 240.00000, -0.399761, -0.131395, -0.299819, -0.0985462, -0.44973, -0.147818, 4.20028E-008, -1.52802E-007
0, 300.00000, -0.399761, -0.131395, -0.299819, -0.0985462, -0.44973, -0.147818, 4.20028E-008, -1.52802E-007
0, 360.00000, -0.499687, -0.164238, -0.499706, -0.164244, -0.399764, -0.131397, 2.15145E-008, -8.76554E-008
0, 420.00000, -0.4997, -0.164243, -0.499701, -0.164244, -0.399759, -0.131395, 2.15169E-008, -8.7673E-008
0, 480.00000, -0.4997, -0.164243, -0.499701, -0.164244, -0.399759, -0.131395, 2.15169E-008, -8.76731E-008
0, 540.00000, -0.4997, -0.164243, -0.499701, -0.164244, -0.399759, -0.131395, 2.15169E-008, -8.76731E-008
0, 600.00000, -0.4997, -0.164243, -0.499701, -0.164244, -0.399759, -0.131395, 2.15169E-008, -8.76731E-008
0, 660.00000, -0.399771, -0.131399, -0.349788, -0.114971, -0.499689, -0.164238, 4.58146E-008, -1.47916E-007
0, 720.00000, -0.39976, -0.131395, -0.349789, -0.11497, -0.4997, -0.164243, 4.58243E-008, -1.4794E-007
0, 780.00000, -0.39976, -0.131395, -0.349789, -0.11497, -0.499701, -0.164243, 4.58244E-008, -1.4794E-007
0, 840.00000, -0.39976, -0.131395, -0.349789, -0.11497, -0.499701, -0.164243, 4.58244E-008, -1.4794E-007
0, 900.00000, -0.39976, -0.131395, -0.349789, -0.11497, -0.499701, -0.164243, 4.58244E-008, -1.4794E-007
0, 960.00000, -0.399761, -0.131395, -0.299826, -0.0985483, -0.399745, -0.131389, 2.08775E-008, -9.26246E-008
0, 1020.00000, -0.399761, -0.131395, -0.29982, -0.0985464, -0.39976, -0.131394, 2.08848E-008, -9.26465E-008
0, 1080.00000, -0.399761, -0.131395, -0.29982, -0.0985463, -0.39976, -0.131394, 2.08848E-008, -9.26466E-008
0, 1140.00000, -0.399761, -0.131395, -0.29982, -0.0985463, -0.39976, -0.131394, 2.08848E-008, -9.26466E-008
0, 1200.00000, -0.399761, -0.131395, -0.29982, -0.0985463, -0.39976, -0.131394, 2.08848E-008, -9.26466E-008
0, 1260.00000, -0.299814, -0.0985438, -0.399754, -0.131391, -0.399778, -0.131401, 3.6535E-008, -6.74353E-008
0, 1320.00000, -0.29982, -0.0985462, -0.39976, -0.131394, -0.399761, -0.131395, 3.65289E-008, -6.74183E-008
0, 1380.00000, -0.29982, -0.0985463, -0.39976, -0.131394, -0.39976, -0.131395, 3.65288E-008, -6.74181E-008
0, 1440.00000, -0.29982, -0.0985463, -0.39976, -0.131394, -0.39976, -0.131395, 3.65288E-008, -6.74181E-008
0, 1500.00000, -0.29982, -0.0985463, -0.39976, -0.131394, -0.39976, -0.131395, 3.65288E-008, -6.74181E-008
0, 1560.00000, -0.349792, -0.114971, -0.399753, -0.131392, -0.349796, -0.114973, 9.70964E-009, -1.52631E-008
0, 1620.00000, -0.34979, -0.11497, -0.39976, -0.131395, -0.34979, -0.114971, 9.71372E-009, -1.52723E-008
0, 1680.00000, -0.34979, -0.11497, -0.39976, -0.131395, -0.34979, -0.114971, 9.71374E-009, -1.52724E-008
0, 1740.00000, -0.34979, -0.11497, -0.39976, -0.131395, -0.34979, -0.114971, 9.71374E-009, -1.52724E-008
0, 1800.00000, -0.34979, -0.11497, -0.39976, -0.131395, -0.34979, -0.114971, 9.71374E-009, -1.52724E-008
0, 1860.00000, -0.349786, -0.114969, -0.499708, -0.164246, -0.34978, -0.114968, 7.38876E-008, -1.6531E-007
0, 1920.00000, -0.349789, -0.11497, -0.499701, -0.164243, -0.34979, -0.114971, 7.38746E-008, -1.65276E-007
0, 1980.00000, -0.349789, -0.11497, -0.499701, -0.164243, -0.34979, -0.114971, 7.38745E-008, -1.65276E-007
0, 2040.00000, -0.349789, -0.11497, -0.499701, -0.164243, -0.34979, -0.114971, 7.38745E-008, -1.65276E-007
0, 2100.00000, -0.349789, -0.11497, -0.499701, -0.164243, -0.34979, -0.114971, 7.38745E-008, -1.65276E-007
0, 2160.00000, -0.299827, -0.0985487, -0.449734, -0.147821, -0.399753, -0.131393, 6.22112E-008, -1.21178E-007
0, 2220.00000, -0.299819, -0.0985462, -0.44973, -0.147818, -0.39976, -0.131395, 6.2215E-008, -1.21187E-007
0, 2280.00000, -0.299819, -0.0985462, -0.44973, -0.147818, -0.39976, -0.131395, 6.22151E-008, -1.21188E-007
0, 2340.00000, -0.299819, -0.0985462, -0.44973, -0.147818, -0.39976, -0.131395, 6.22151E-008, -1.21188E-007
0, 2400.00000, -0.299819, -0.0985462, -0.44973, -0.147818, -0.39976, -0.131395, 6.22151E-008, -1.21188E-007
0, 2460.00000, -0.39976, -0.131394, -0.399769, -0.131399, -0.349775, -0.114966, 3.95803E-009, -2.22017E-008
0, 2520.00000, -0.39976, -0.131394, -0.39976, -0.131395, -0.34979, -0.114971, 3.95288E-009, -2.21872E-008
0, 2580.00000, -0.39976, -0.131394, -0.39976, -0.131395, -0.34979, -0.114971, 3.95284E-009, -2.2187E-008
0, 2640.00000, -0.39976, -0.131394, -0.39976, -0.131395, -0.34979, -0.114971, 3.95284E-009, -2.2187E-008
0, 2700.00000, -0.39976, -0.131394, -0.39976, -0.131395, -0.34979, -0.114971, 3.95284E-009, -2.2187E-008
0, 2760.00000, -0.499693, -0.16424, -0.349796, -0.114973, -0.449729, -0.147818, 3.60317E-008, -1.65398E-007
0, 2820.00000, -0.499701, -0.164244, -0.34979, -0.114971, -0.44973, -0.147818, 3.60397E-008, -1.65427E-007
0, 2880.00000, -0.499701, -0.164244, -0.34979, -0.114971, -0.44973, -0.147818, 3.60398E-008, -1.65427E-007
0, 2940.00000, -0.499701, -0.164244, -0.34979, -0.114971, -0.44973, -0.147818, 3.60398E-008, -1.65427E-007
0, 3000.00000, -0.499701, -0.164244, -0.34979, -0.114971, -0.44973, -0.147818, 3.60398E-008, -1.65427E-007
0, 3060.00000, -0.499718, -0.164251, -0.349772, -0.114965, -0.449736, -0.14782, 3.53533E-008, -1.63026E-007
0, 3120.00000, -0.499701, -0.164244, -0.349789, -0.114971, -0.44973, -0.147818, 3.53339E-008, -1.62957E-007
0, 3180.00000, -0.499701, -0.164244, -0.34979, -0.114971, -0.44973, -0.147818, 3.53337E-008, -1.62957E-007
0, 3240.00000, -0.499701, -0.164244, -0.34979, -0.114971, -0.44973, -0.147818, 3.53337E-008, -1.62957E-007
0, 3300.00000, -0.499701, -0.164244, -0.34979, -0.114971, -0.44973, -0.147818, 3.53337E-008, -1.62957E-007
0, 3360.00000, -0.299819, -0.0985446, -0.349779, -0.114966, -0.249863, -0.0821268, 2.15692E-008, -5.84608E-008
0, 3420.00000, -0.29982, -0.0985457, -0.34979, -0.11497, -0.24985, -0.0821221, 2.15799E-008, -5.84912E-008
0, 3480.00000, -0.29982, -0.0985457, -0.34979, -0.11497, -0.24985, -0.082122, 2.15799E-008, -5.84915E-008
0, 3540.00000, -0.29982, -0.0985457, -0.34979, -0.11497, -0.24985, -0.082122, 2.15799E-008, -5.84915E-008
1, 0.00000, -0.29982, -0.0985457, -0.34979, -0.11497, -0.24985, -0.082122, 2.15799E-008, -5.84915E-008
1, 60.00000, -0.34981, -0.114977, -0.249862, -0.0821261, -0.349805, -0.114975, 2.16795E-008, -8.98525E-008
1, 120.00000, -0.349791, -0.114971, -0.24985, -0.082122, -0.34979, -0.11497, 2.16773E-008, -8.98428E-008
1, 180.00000, -0.34979, -0.114971, -0.24985, -0.0821219, -0.34979, -0.11497, 2.16773E-008, -8.98427E-008
1, 240.00000, -0.34979, -0.114971, -0.24985, -0.0821219, -0.34979, -0.11497, 2.16773E-008, -8.98427E-008
1, 300.00000, -0.34979, -0.114971, -0.24985, -0.0821219, -0.34979, -0.11497, 2.16773E-008, -8.98427E-008
1, 360.00000, -0.349775, -0.114965, -0.349793, -0.114969, -0.299834, -0.0985505, 4.5736E-009, -2.20579E-008
1, 420.00000, -0.34979, -0.11497, -0.34979, -0.114971, -0.29982, -0.0985462, 4.57687E-009, -2.20758E-008
1, 480.00000, -0.34979, -0.11497, -0.34979, -0.114971, -0.29982, -0.0985462, 4.57687E-009, -2.20759E-008
1, 540.00000, -0.34979, -0.11497, -0.34979, -0.114971, -0.29982, -0.0985462, 4.57687E-009, -2.20759E-008
1, 600.00000, -0.34979, -0.11497, -0.34979, -0.114971, -0.29982, -0.0985462, 4.57687E-009, -2.20759E-008
1, 660.00000, -0.349796, -0.114972, -0.349789, -0.114971, -0.349782, -0.114968, -8.23675E-010, -4.9557E-011
1, 720.00000, -0.34979, -0.11497, -0.34979, -0.11497, -0.34979, -0.11497, -8.22939E-010, -4.85436E-011
1, 780.00000, -0.34979, -0.11497, -0.34979, -0.11497, -0.34979, -0.11497, -8.22926E-010, -4.85246E-011
1, 840.00000, -0.34979, -0.11497, -0.34979, -0.11497, -0.34979, -0.11497, -8.22926E-010, -4.85243E-011
1, 900.00000, -0.34979, -0.11497, -0.34979, -0.11497, -0.34979, -0.11497, -8.22926E-010, -4.85243E-011
1, 960.00000, -0.399742, -0.131388, -0.299828, -0.0985486, -0.299822, -0.0985464, 1.86236E-008, -9.50608E-008
1, 1020.00000, -0.39976, -0.131394, -0.29982, -0.0985466, -0.299819, -0.0985458, 1.86349E-008, -9.51035E-008
1, 1080.00000, -0.399761, -0.131394, -0.29982, -0.0985466, -0.29982, -0.0985459, 1.8635E-008, -9.51039E-008
1, 1140.00000, -0.399761, -0.131394, -0.29982, -0.0985466, -0.29982, -0.0985459, 1.8635E-008, -9.51039E-008
1, 1200.00000, -0.399761, -0.131394, -0.29982, -0.0985466, -0.29982, -0.0985459, 1.8635E-008, -9.51039E-008
1, 1260.00000, -0.349809, -0.114976, -0.299816, -0.0985464, -0.24984, -0.0821197, 1.43723E-008, -6.84924E-008
1, 1320.00000, -0.34979, -0.11497, -0.29982, -0.0985464, -0.24985, -0.0821217, 1.43629E-008, -6.84549E-008
1, 1380.00000, -0.34979, -0.11497, -0.29982, -0.0985464, -0.24985, -0.0821217, 1.43628E-008, -6.84545E-008
1, 1440.00000, -0.34979, -0.11497, -0.29982, -0.0985464, -0.24985, -0.0821217, 1.43628E-008, -6.84545E-008
1, 1500.00000, -0.34979, -0.11497, -0.29982, -0.0985464, -0.24985, -0.0821217, 1.43628E-008, -6.84545E-008
1, 1560.00000, -0.349782, -0.114967, -0.249857, -0.0821243, -0.299818, -0.098545, 1.42645E-008, -7.10217E-008
1, 1620.00000, -0.34979, -0.11497, -0.24985, -0.0821221, -0.29982, -0.0985457, 1.42702E-008, -7.10427E-008
1, 1680.00000, -0.34979, -0.11497, -0.24985, -0.082122, -0.29982, -0.0985457, 1.42703E-008, -7.10429E-008
1, 1740.00000, -0.34979, -0.11497, -0.24985, -0.082122, -0.29982, -0.0985457, 1.42703E-008, -7.10429E-008
1, 1800.00000, -0.34979, -0.11497, -0.24985, -0.082122, -0.29982, -0.0985457, 1.42703E-008, -7.10429E-008
1, 1860.00000, -0.299811, -0.098543, -0.349791, -0.114969, -0.299828, -0.0985488, 9.07814E-009, -1.52457E-008
1, 1920.00000, -0.29982, -0.0985459, -0.34979, -0.11497, -0.29982, -0.0985463, 9.07678E-009, -1.52462E-008
1, 1980.00000, -0.29982, -0.0985459, -0.34979, -0.11497, -0.29982, -0.0985463, 9.07673E-009, -1.52462E-008
1, 2040.00000, -0.29982, -0.0985459, -0.34979, -0.11497, -0.29982, -0.0985463, 9.07673E-009, -1.52462E-008
1, 2100.00000, -0.29982, -0.0985459, -0.34979, -0.11497, -0.29982, -0.0985463, 9.07673E-009, -1.52462E-008
1, 2160.00000, -0.449742, -0.147822, -0.299817, -0.0985466, -0.299812, -0.0985434, 4.84974E-008, -2.04389E-007
1, 2220.00000, -0.449731, -0.147819, -0.29982, -0.0985468, -0.299819, -0.0985458, 4.84854E-008, -2.04347E-007
1, 2280.00000, -0.449731, -0.147818, -0.29982, -0.0985468, -0.299819, -0.0985458, 4.84852E-008, -2.04346E-007
1, 2340.00000, -0.449731, -0.147818, -0.29982, -0.0985468, -0.299819, -0.0985458, 4.84852E-008, -2.04346E-007
1, 2400.00000, -0.449731, -0.147818, -0.29982, -0.0985468, -0.299819, -0.0985458, 4.84852E-008, -2.04346E-007
1, 2460.00000, -0.449797, -0.147835, -0.249873, -0.0821315, -0.349737, -0.114952, 6.91634E-008, -2.65359E-007
1, 2520.00000, -0.449732, -0.147819, -0.24985, -0.0821223, -0.349789, -0.114969, 6.91333E-008, -2.65243E-007
1, 2580.00000, -0.449731, -0.147819, -0.24985, -0.0821223, -0.349789, -0.11497, 6.91325E-008, -2.6524E-007
1, 2640.00000, -0.449731, -0.147819, -0.24985, -0.0821223, -0.349789, -0.11497, 6.91325E-008, -2.6524E-007
1, 2700.00000, -0.449731, -0.147819, -0.24985, -0.0821223, -0.349789, -0.11497, 6.91325E-008, -2.6524E-007
1, 2760.00000, -0.299817, -0.0985453, -0.299816, -0.0985443, -0.349794, -0.114971, 7.22539E-009, -1.95092E-008
1, 2820.00000, -0.29982, -0.0985462, -0.29982, -0.098546, -0.34979, -0.11497, 7.22347E-009, -1.95034E-008
1, 2880.00000, -0.29982, -0.0985463, -0.29982, -0.098546, -0.34979, -0.11497, 7.22344E-009, -1.95033E-008
1, 2940.00000, -0.29982, -0.0985463, -0.29982, -0.098546, -0.34979, -0.11497, 7.22344E-009, -1.95033E-008
1, 3000.00000, -0.29982, -0.0985463, -0.29982, -0.098546, -0.34979, -0.11497, 7.22344E-009, -1.95033E-008
1, 3060.00000, -0.299814, -0.0985445, -0.249853, -0.0821228, -0.399765, -0.131396, 4.58772E-008, -1.45335E-007
1, 3120.00000, -0.29982, -0.0985466, -0.24985, -0.0821217, -0.39976, -0.131394, 4.58741E-008, -1.45328E-007
1, 3180.00000, -0.29982, -0.0985466, -0.24985, -0.0821217, -0.39976, -0.131394, 4.58741E-008, -1.45328E-007
1, 3240.00000, -0.29982, -0.0985466, -0.24985, -0.0821217, -0.39976, -0.131394, 4.58741E-008, -1.45328E-007
1, 3300.00000, -0.29982, -0.0985466, -0.24985, -0.0821217, -0.39976, -0.131394, 4.58741E-008, -1.45328E-007
1, 3360.00000, -0.299835, -0.098551, -0.349772, -0.114964, -0.399765, -0.131394, 2.53618E-008, -5.39957E-008
1, 3420.00000, -0.29982, -0.0985464, -0.34979, -0.11497, -0.399761, -0.131395, 2.53685E-008, -5.40043E-008
1, 3480.00000, -0.29982, -0.0985464, -0.34979, -0.11497, -0.39976, -0.131395, 2.53685E-008, -5.40041E-008
1, 3540.00000, -0.29982, -0.0985464, -0.34979, -0.11497, -0.39976, -0.131395, 2.53685E-008, -5.40041E-008
2, 0.00000, -0.29982, -0.0985464, -0.34979, -0.11497, -0.39976, -0.131395, 2.53685E-008, -5.40041E-008
2, 60.00000, -0.34979, -0.11497, -0.249857, -0.0821243, -0.349792, -0.114971, 2.15703E-008, -8.93846E-008
2, 120.00000, -0.34979, -0.114971, -0.24985, -0.082122, -0.34979, -0.11497, 2.15732E-008, -8.93949E-008
2, 180.00000, -0.34979, -0.114971, -0.24985, -0.0821219, -0.34979, -0.11497, 2.15733E-008, -8.9395E-008
2, 240.00000, -0.34979, -0.114971, -0.24985, -0.0821219, -0.34979, -0.11497, 2.15733E-008, -8.9395E-008
2, 300.00000, -0.34979, -0.114971, -0.24985, -0.0821219, -0.34979, -0.11497, 2.15733E-008, -8.9395E-008
2, 360.00000, -0.399757, -0.131393, -0.199885, -0.0656995, -0.299815, -0.0985439, 7.10971E-008, -2.60236E-007
2, 420.00000, -0.399761, -0.131395, -0.19988, -0.0656979, -0.299819, -0.0985454, 7.11041E-008, -2.60258E-007
2, 480.00000, -0.399761, -0.131395, -0.19988, -0.0656979, -0.29982, -0.0985454, 7.11041E-008, -2.60258E-007
2, 540.00000, -0.399761, -0.131395, -0.19988, -0.0656979, -0.29982, -0.0985454, 7.11041E-008, -2.60258E-007
2, 600.00000, -0.399761, -0.131395, -0.19988, -0.0656979, -0.29982, -0.0985454, 7.11041E-008, -2.60258E-007
2, 660.00000, -0.249881, -0.0821358, -0.299858, -0.0985631, -0.24981, -0.0821085, 8.75623E-009, -1.57411E-008
2, 720.00000, -0.24985, -0.0821218, -0.29982, -0.098546, -0.249849, -0.0821217, 8.74424E-009, -1.57023E-008
2, 780.00000, -0.24985, -0.0821216, -0.29982, -0.098546, -0.24985, -0.0821219, 8.74429E-009, -1.57022E-008
2, 840.00000, -0.24985, -0.0821216, -0.29982, -0.098546, -0.24985, -0.0821219, 8.74429E-009, -1.57022E-008
2, 900.00000, -0.24985, -0.0821216, -0.29982, -0.098546, -0.24985, -0.0821219, 8.74429E-009, -1.57022E-008
2, 960.00000, -0.299818, -0.0985449, -0.399749, -0.131389, -0.24986, -0.082126, 5.15753E-008, -1.32696E-007
2, 1020.00000, -0.299819, -0.0985456, -0.399761, -0.131395, -0.24985, -0.0821223, 5.15901E-008, -1.32738E-007
2, 1080.00000, -0.29982, -0.0985456, -0.399761, -0.131395, -0.24985, -0.0821222, 5.15902E-008, -1.32738E-007
2, 1140.00000, -0.29982, -0.0985456, -0.399761, -0.131395, -0.24985, -0.0821222, 5.15902E-008, -1.32738E-007
2, 1200.00000, -0.29982, -0.0985456, -0.399761, -0.131395, -0.24985, -0.0821222, 5.15902E-008, -1.32738E-007
2, 1260.00000, -0.299863, -0.0985599, -0.299827, -0.0985511, -0.199866, -0.0656961, 2.36751E-008, -8.36873E-008
2, 1320.00000, -0.29982, -0.0985457, -0.29982, -0.0985463, -0.19988, -0.0656976, 2.36595E-008, -8.36238E-008
2, 1380.00000, -0.29982, -0.0985456, -0.29982, -0.0985463, -0.19988, -0.0656975, 2.36594E-008, -8.36233E-008
2, 1440.00000, -0.29982, -0.0985456, -0.29982, -0.0985463, -0.19988, -0.0656975, 2.36594E-008, -8.36233E-008
2, 1500.00000, -0.29982, -0.0985456, -0.29982, -0.0985463, -0.19988, -0.0656975, 2.36594E-008, -8.36233E-008
2, 1560.00000, -0.249845, -0.0821211, -0.299828, -0.0985484, -0.349788, -0.11497, 2.44892E-008, -5.45756E-008
2, 1620.00000, -0.24985, -0.082122, -0.29982, -0.0985458, -0.34979, -0.11497, 2.44878E-008, -5.45751E-008
2, 1680.00000, -0.24985, -0.082122, -0.29982, -0.0985458, -0.34979, -0.11497, 2.44878E-008, -5.45753E-008
2, 1740.00000, -0.24985, -0.082122, -0.29982, -0.0985458, -0.34979, -0.11497, 2.44878E-008, -5.45753E-008
2, 1800.00000, -0.24985, -0.082122, -0.29982, -0.0985458, -0.34979, -0.11497, 2.44878E-008, -5.45753E-008
2, 1860.00000, -0.299814, -0.0985439, -0.29979, -0.098536, -0.349776, -0.114965, 7.21834E-009, -1.94554E-008
2, 1920.00000, -0.29982, -0.0985463, -0.29982, -0.0985459, -0.34979, -0.11497, 7.21897E-009, -1.945E-008
2, 1980.00000, -0.29982, -0.0985463, -0.29982, -0.098546, -0.34979, -0.11497, 7.21889E-009, -1.94497E-008
2, 2040.00000, -0.29982, -0.0985463, -0.29982, -0.098546, -0.34979, -0.11497, 7.21889E-009, -1.94497E-008
2, 2100.00000, -0.29982, -0.0985463, -0.29982, -0.098546, -0.34979, -0.11497, 7.21889E-009, -1.94497E-008
2, 2160.00000, -0.249835, -0.0821175, -0.299837, -0.0985506, -0.249865, -0.0821249, 8.81745E-009, -1.58756E-008
2, 2220.00000, -0.24985, -0.0821216, -0.29982, -0.0985461, -0.24985, -0.0821219, 8.80962E-009, -1.58637E-008
2, 2280.00000, -0.24985, -0.0821216, -0.29982, -0.098546, -0.24985, -0.0821219, 8.80949E-009, -1.58635E-008
2, 2340.00000, -0.24985, -0.0821216, -0.29982, -0.098546, -0.24985, -0.0821219, 8.80948E-009, -1.58635E-008
2, 2400.00000, -0.24985, -0.0821216, -0.29982, -0.098546, -0.24985, -0.0821219, 8.80948E-009, -1.58635E-008
2, 2460.00000, -0.299814, -0.0985439, -0.299824, -0.0985473, -0.249852, -0.0821219, 4.9082E-009, -2.17146E-008
2, 2520.00000, -0.29982, -0.0985458, -0.29982, -0.0985462, -0.24985, -0.0821218, 4.90811E-009, -2.17177E-008
2, 2580.00000, -0.29982, -0.0985458, -0.29982, -0.0985462, -0.24985, -0.0821218, 4.90809E-009, -2.17177E-008
2, 2640.00000, -0.29982, -0.0985458, -0.29982, -0.0985462, -0.24985, -0.0821218, 4.90809E-009, -2.17177E-008
2, 2700.00000, -0.29982, -0.0985458, -0.29982, -0.0985462, -0.24985, -0.0821218, 4.90809E-009, -2.17177E-008
2, 2760.00000, -0.249855, -0.0821229, -0.299815, -0.0985442, -0.299822, -0.0985469, 9.97933E-009, -1.47857E-008
2, 2820.00000, -0.24985, -0.0821218, -0.29982, -0.0985458, -0.29982, -0.0985462, 9.98177E-009, -1.47899E-008
2, 2880.00000, -0.24985, -0.0821218, -0.29982, -0.0985459, -0.29982, -0.0985462, 9.98178E-009, -1.47899E-008
2, 2940.00000, -0.24985, -0.0821218, -0.29982, -0.0985459, -0.29982, -0.0985462, 9.98178E-009, -1.47899E-008
2, 3000.00000, -0.24985, -0.0821218, -0.29982, -0.0985459, -0.29982, -0.0985462, 9.98178E-009, -1.47899E-008
2, 3060.00000, -0.399777, -0.131399, -0.299819, -0.0985477, -0.349773, -0.114964, 1.27605E-008, -7.18927E-008
2, 3120.00000, -0.399761, -0.131395, -0.29982, -0.0985464, -0.34979, -0.11497, 1.2756E-008, -7.18719E-008
2, 3180.00000, -0.399761, -0.131395, -0.29982, -0.0985464, -0.34979, -0.11497, 1.27559E-008, -7.18714E-008
2, 3240.00000, -0.399761, -0.131395, -0.29982, -0.0985464, -0.34979, -0.11497, 1.27559E-008, -7.18714E-008
2, 3300.00000, -0.399761, -0.131395, -0.29982, -0.0985464, -0.34979, -0.11497, 1.27559E-008, -7.18714E-008
2, 3360.00000, -0.349773, -0.114964, -0.299819, -0.0985444, -0.249867, -0.0821264, 1.43299E-008, -6.83553E-008
2, 3420.00000, -0.34979, -0.11497, -0.29982, -0.0985465, -0.24985, -0.0821218, 1.43414E-008, -6.83985E-008
2, 3480.00000, -0.34979, -0.11497, -0.29982, -0.0985464, -0.24985, -0.0821217, 1.43415E-008, -6.8399E-008
2, 3540.00000, -0.34979, -0.11497, -0.29982, -0.0985464, -0.24985, -0.0821217, 1.43415E-008, -6.83991E-008
3, 0.00000, -0.34979, -0.11497, -0.29982, -0.0985464, -0.24985, -0.0821217, 1.43415E-008, -6.83991E-008
3, 60.00000, -0.299817, -0.0985447, -0.299818, -0.0985454, -0.249849, -0.0821216, 4.82586E-009, -2.12832E-008
3, 120.00000, -0.29982, -0.0985458, -0.29982, -0.0985462, -0.24985, -0.0821218, 4.82627E-009, -2.12851E-008
3, 180.00000, -0.29982, -0.0985458, -0.29982, -0.0985462, -0.24985, -0.0821218, 4.82627E-009, -2.12851E-008
3, 240.00000, -0.29982, -0.0985458, -0.29982, -0.0985462, -0.24985, -0.0821218, 4.82627E-009, -2.12851E-008
3, 300.00000, -0.29982, -0.0985458, -0.29982, -0.0985462, -0.24985, -0.0821218, 4.82627E-009, -2.12851E-008
