hour, t(sec), V1, VAngle1, V2, VAngle2, V3, VAngle3, V4, VAngle4, I1, IAngle1, I2, IAngle2, I3, IAngle3, I4, IAngle4
0, 60.00000, 219.141, -30.0641, 219.37, -150.097, 219.675, 89.9042, 9.42588E-005, 161.941, 0.313042, 131.741, 0.446734, 11.7077, 0.31228, -108.291, 0.0704096, -126.021
0, 120.00000, 219.141, -30.0641, 219.37, -150.097, 219.675, 89.9042, 9.42598E-005, 161.941, 0.313041, 131.741, 0.446735, 11.7077, 0.31228, -108.291, 0.0704104, -126.021
0, 180.00000, 219.141, -30.0641, 219.37, -150.097, 219.675, 89.9042, 9.42598E-005, 161.941, 0.313041, 131.741, 0.446735, 11.7077, 0.31228, -108.291, 0.0704104, -126.021
0, 240.00000, 219.141, -30.0641, 219.37, -150.097, 219.675, 89.9042, 9.42598E-005, 161.941, 0.313041, 131.741, 0.446735, 11.7077, 0.31228, -108.291, 0.0704104, -126.021
0, 300.00000, 219.141, -30.0641, 219.37, -150.097, 219.675, 89.9042, 9.42598E-005, 161.941, 0.313041, 131.741, 0.446735, 11.7077, 0.31228, -108.291, 0.0704104, -126.021
0, 360.00000, 218.514, -30.0466, 219.314, -150.161, 219.882, 89.9401, 6.9023E-005, -85.6939, 0.448472, 131.759, 0.357483, 11.6441, 0.356559, -108.255, 0.0550651, 0.780613
0, 420.00000, 218.514, -30.0466, 219.314, -150.161, 219.882, 89.9402, 6.90344E-005, -85.6934, 0.448484, 131.759, 0.357479, 11.6441, 0.356555, -108.255, 0.0550744, 0.779588
0, 480.00000, 218.514, -30.0466, 219.314, -150.161, 219.882, 89.9402, 6.90345E-005, -85.6934, 0.448484, 131.759, 0.357478, 11.6441, 0.356555, -108.255, 0.0550745, 0.77961
0, 540.00000, 218.514, -30.0466, 219.314, -150.161, 219.882, 89.9402, 6.90345E-005, -85.6934, 0.448484, 131.759, 0.357478, 11.6441, 0.356555, -108.255, 0.0550745, 0.77961
0, 600.00000, 218.514, -30.0466, 219.314, -150.161, 219.882, 89.9402, 6.90345E-005, -85.6934, 0.448484, 131.759, 0.357478, 11.6441, 0.356555, -108.255, 0.0550745, 0.77961
0, 660.00000, 218.969, -30.0904, 219.453, -150.084, 219.421, 89.9191, 5.94876E-006, -115.122, 0.358051, 131.715, 0.357251, 11.7208, 0.357296, -108.276, 0.00568348, 57.866
0, 720.00000, 218.969, -30.0904, 219.453, -150.084, 219.421, 89.9191, 5.93765E-006, -115.139, 0.358041, 131.715, 0.357253, 11.7207, 0.357304, -108.276, 0.00568276, 57.9583
0, 780.00000, 218.969, -30.0904, 219.453, -150.084, 219.421, 89.9191, 5.93757E-006, -115.14, 0.358041, 131.715, 0.357253, 11.7207, 0.357304, -108.276, 0.00568272, 57.959
0, 840.00000, 218.969, -30.0904, 219.453, -150.084, 219.421, 89.9191, 5.93757E-006, -115.14, 0.358041, 131.715, 0.357253, 11.7207, 0.357304, -108.276, 0.00568272, 57.959
0, 900.00000, 218.969, -30.0904, 219.453, -150.084, 219.421, 89.9191, 5.93757E-006, -115.14, 0.358041, 131.715, 0.357253, 11.7207, 0.357304, -108.276, 0.00568272, 57.959
0, 960.00000, 218.948, -30.0896, 219.476, -150.096, 219.423, 89.9182, 5.81884E-005, -167.922, 0.313316, 131.716, 0.357221, 11.7094, 0.267966, -108.277, 0.0397525, -90.5193
0, 1020.00000, 218.949, -30.0897, 219.476, -150.096, 219.423, 89.9182, 5.81792E-005, -167.923, 0.313316, 131.715, 0.357215, 11.7094, 0.267975, -108.277, 0.0397452, -90.52
0, 1080.00000, 218.949, -30.0897, 219.476, -150.096, 219.423, 89.9182, 5.81791E-005, -167.923, 0.313316, 131.715, 0.357215, 11.7094, 0.267976, -108.277, 0.0397451, -90.52
0, 1140.00000, 218.949, -30.0897, 219.476, -150.096, 219.423, 89.9182, 5.81791E-005, -167.923, 0.313316, 131.715, 0.357215, 11.7094, 0.267976, -108.277, 0.0397451, -90.52
0, 1200.00000, 218.949, -30.0897, 219.476, -150.096, 219.423, 89.9182, 5.81791E-005, -167.923, 0.313316, 131.715, 0.357215, 11.7094, 0.267976, -108.277, 0.0397451, -90.52
0, 1260.00000, 218.898, -30.0115, 219.079, -150.164, 220.12, 89.8978, 3.0878E-005, -35.289, 0.358151, 131.794, 0.313122, 11.6411, 0.356184, -108.297, 0.0318307, 54.187
0, 1320.00000, 218.898, -30.0114, 219.079, -150.164, 220.12, 89.8978, 3.08736E-005, -35.3163, 0.358157, 131.794, 0.313129, 11.6412, 0.356169, -108.297, 0.0318249, 54.1674
0, 1380.00000, 218.898, -30.0114, 219.079, -150.164, 220.12, 89.8978, 3.08736E-005, -35.3165, 0.358157, 131.794, 0.313129, 11.6412, 0.356169, -108.297, 0.0318249, 54.1672
0, 1440.00000, 218.898, -30.0114, 219.079, -150.164, 220.12, 89.8978, 3.08736E-005, -35.3165, 0.358157, 131.794, 0.313129, 11.6412, 0.356169, -108.297, 0.0318249, 54.1672
0, 1500.00000, 218.898, -30.0114, 219.079, -150.164, 220.12, 89.8978, 3.08736E-005, -35.3165, 0.358157, 131.794, 0.313129, 11.6412, 0.356169, -108.297, 0.0318249, 54.1672
0, 1560.00000, 219.094, -29.9663, 218.668, -150.145, 220.184, 89.8628, 5.54767E-005, -56.9102, 0.402569, 131.839, 0.31371, 11.6599, 0.356071, -108.332, 0.0479193, 26.1976
0, 1620.00000, 219.094, -29.9663, 218.667, -150.145, 220.184, 89.8628, 5.54713E-005, -56.9174, 0.402567, 131.839, 0.313719, 11.6599, 0.356065, -108.332, 0.0479145, 26.1916
0, 1680.00000, 219.094, -29.9663, 218.667, -150.145, 220.184, 89.8628, 5.54713E-005, -56.9174, 0.402567, 131.839, 0.313719, 11.6599, 0.356065, -108.332, 0.0479145, 26.1916
0, 1740.00000, 219.094, -29.9663, 218.667, -150.145, 220.184, 89.8628, 5.54713E-005, -56.9174, 0.402567, 131.839, 0.313719, 11.6599, 0.356065, -108.332, 0.0479145, 26.1916
0, 1800.00000, 219.094, -29.9663, 218.667, -150.145, 220.184, 89.8628, 5.54713E-005, -56.9174, 0.402567, 131.839, 0.313719, 11.6599, 0.356065, -108.332, 0.0479145, 26.1916
0, 1860.00000, 218.637, -30.005, 218.73, -150.139, 219.75, 89.8918, 7.48914E-005, 56.357, 0.313759, 131.8, 0.35844, 11.6658, 0.445952, -108.303, 0.069767, 128.413
0, 1920.00000, 218.637, -30.005, 218.73, -150.139, 219.75, 89.8918, 7.48977E-005, 56.3503, 0.313762, 131.8, 0.358432, 11.6658, 0.445962, -108.303, 0.0697728, 128.407
0, 1980.00000, 218.637, -30.005, 218.73, -150.139, 219.75, 89.8918, 7.48978E-005, 56.3503, 0.313762, 131.8, 0.358432, 11.6658, 0.445962, -108.303, 0.0697729, 128.407
0, 2040.00000, 218.637, -30.005, 218.73, -150.139, 219.75, 89.8918, 7.48978E-005, 56.3503, 0.313762, 131.8, 0.358432, 11.6658, 0.445962, -108.303, 0.0697729, 128.407
0, 2100.00000, 218.637, -30.005, 218.73, -150.139, 219.75, 89.8918, 7.48978E-005, 56.3503, 0.313762, 131.8, 0.358432, 11.6658, 0.445962, -108.303, 0.0697729, 128.407
0, 2160.00000, 219.063, -30.0483, 219.307, -150.114, 219.742, 89.9012, 7.2118E-006, -117.018, 0.313159, 131.757, 0.312807, 11.6914, 0.312179, -108.294, 0.00679998, 59.0015
0, 2220.00000, 219.063, -30.0483, 219.307, -150.114, 219.742, 89.9012, 7.20343E-006, -117.005, 0.313152, 131.757, 0.312803, 11.6913, 0.312185, -108.294, 0.00680219, 59.056
0, 2280.00000, 219.063, -30.0483, 219.307, -150.114, 219.742, 89.9012, 7.20336E-006, -117.005, 0.313152, 131.757, 0.312803, 11.6913, 0.312185, -108.294, 0.00680218, 59.0565
0, 2340.00000, 219.063, -30.0483, 219.307, -150.114, 219.742, 89.9012, 7.20336E-006, -117.005, 0.313152, 131.757, 0.312803, 11.6913, 0.312185, -108.294, 0.00680218, 59.0565
0, 2400.00000, 219.063, -30.0483, 219.307, -150.114, 219.742, 89.9012, 7.20336E-006, -117.005, 0.313152, 131.757, 0.312803, 11.6913, 0.312185, -108.294, 0.00680218, 59.0565
0, 2460.00000, 218.75, -30.1372, 219.821, -150.076, 219.158, 89.9509, 3.68809E-005, -85.8787, 0.3584, 131.668, 0.312083, 11.7291, 0.313004, -108.244, 0.0281899, 5.87557
0, 2520.00000, 218.751, -30.1373, 219.821, -150.076, 219.158, 89.9509, 3.68785E-005, -85.8573, 0.358399, 131.668, 0.312072, 11.729, 0.313017, -108.244, 0.0281906, 5.89802
0, 2580.00000, 218.751, -30.1373, 219.821, -150.076, 219.158, 89.9509, 3.68785E-005, -85.8571, 0.358399, 131.668, 0.312072, 11.729, 0.313017, -108.244, 0.0281906, 5.89821
0, 2640.00000, 218.751, -30.1373, 219.821, -150.076, 219.158, 89.9509, 3.68785E-005, -85.8571, 0.358399, 131.668, 0.312072, 11.729, 0.313017, -108.244, 0.0281906, 5.89821
0, 2700.00000, 218.751, -30.1373, 219.821, -150.076, 219.158, 89.9509, 3.68785E-005, -85.8571, 0.358399, 131.668, 0.312072, 11.729, 0.313017, -108.244, 0.0281906, 5.89821
0, 2760.00000, 218.441, -30.1479, 220.025, -150.094, 219.213, 89.9962, 6.37002E-005, -27.8255, 0.403764, 131.657, 0.311791, 11.7107, 0.402347, -108.199, 0.0570862, 55.4273
0, 2820.00000, 218.44, -30.148, 220.025, -150.094, 219.213, 89.9963, 6.37083E-005, -27.8285, 0.403771, 131.657, 0.311783, 11.7108, 0.402348, -108.199, 0.0570923, 55.4239
0, 2880.00000, 218.44, -30.148, 220.025, -150.094, 219.213, 89.9963, 6.37084E-005, -27.8285, 0.403771, 131.657, 0.311783, 11.7108, 0.402348, -108.199, 0.0570924, 55.4239
0, 2940.00000, 218.44, -30.148, 220.025, -150.094, 219.213, 89.9963, 6.37084E-005, -27.8285, 0.403771, 131.657, 0.311783, 11.7108, 0.402348, -108.199, 0.0570924, 55.4239
0, 3000.00000, 218.44, -30.148, 220.025, -150.094, 219.213, 89.9963, 6.37084E-005, -27.8285, 0.403771, 131.657, 0.311783, 11.7108, 0.402348, -108.199, 0.0570924, 55.4239
0, 3060.00000, 219.267, -30.0971, 219.3, -150.043, 219.124, 89.8762, 6.1567E-005, -27.8473, 0.402263, 131.708, 0.312792, 11.7621, 0.402517, -108.318, 0.0575532, 54.4191
0, 3120.00000, 219.268, -30.097, 219.299, -150.043, 219.124, 89.8762, 6.1546E-005, -27.8442, 0.402249, 131.708, 0.312814, 11.7621, 0.402512, -108.319, 0.0575368, 54.4233
0, 3180.00000, 219.268, -30.097, 219.299, -150.043, 219.124, 89.8762, 6.15458E-005, -27.8443, 0.402249, 131.708, 0.312814, 11.7621, 0.402512, -108.319, 0.0575367, 54.4233
0, 3240.00000, 219.268, -30.097, 219.299, -150.043, 219.124, 89.8762, 6.15458E-005, -27.8443, 0.402249, 131.708, 0.312814, 11.7621, 0.402512, -108.319, 0.0575367, 54.4233
0, 3300.00000, 219.268, -30.097, 219.299, -150.043, 219.124, 89.8762, 6.15458E-005, -27.8443, 0.402249, 131.708, 0.312814, 11.7621, 0.402512, -108.319, 0.0575367, 54.4233
0, 3360.00000, 219.451, -30.006, 218.587, -150.073, 219.519, 89.8211, 2.68059E-005, 106.896, 0.357254, 131.799, 0.403484, 11.7318, 0.401803, -108.374, 0.0236498, 162.018
0, 3420.00000, 219.451, -30.0059, 218.587, -150.073, 219.519, 89.8211, 2.6808E-005, 106.934, 0.357256, 131.799, 0.4035, 11.7317, 0.401788, -108.374, 0.0236457, 162.051
0, 3480.00000, 219.451, -30.0059, 218.587, -150.073, 219.519, 89.8211, 2.6808E-005, 106.935, 0.357256, 131.799, 0.403501, 11.7317, 0.401787, -108.374, 0.0236456, 162.052
0, 3540.00000, 219.451, -30.0059, 218.587, -150.073, 219.519, 89.8211, 2.6808E-005, 106.935, 0.357256, 131.799, 0.403501, 11.7317, 0.401787, -108.374, 0.0236456, 162.052
1, 0.00000, 219.451, -30.0059, 218.587, -150.073, 219.519, 89.8211, 2.6808E-005, 106.935, 0.357256, 131.799, 0.403501, 11.7317, 0.401787, -108.374, 0.0236456, 162.052
1, 60.00000, 220.185, -30.0543, 220.173, -150.059, 220.346, 89.896, 6.85013E-005, -140.362, 0.356085, 131.751, 0.356103, 11.7456, 0.266866, -108.299, 0.0480912, -58.6656
1, 120.00000, 220.186, -30.0543, 220.173, -150.059, 220.346, 89.896, 6.84953E-005, -140.363, 0.356063, 131.751, 0.356083, 11.7457, 0.266853, -108.299, 0.0480867, -58.6668
1, 180.00000, 220.186, -30.0543, 220.173, -150.059, 220.346, 89.896, 6.84953E-005, -140.363, 0.356063, 131.751, 0.356083, 11.7457, 0.266853, -108.299, 0.0480867, -58.6668
1, 240.00000, 220.186, -30.0543, 220.173, -150.059, 220.346, 89.896, 6.84953E-005, -140.363, 0.356063, 131.751, 0.356083, 11.7457, 0.266853, -108.299, 0.0480867, -58.6668
1, 300.00000, 220.186, -30.0543, 220.173, -150.059, 220.346, 89.896, 6.84953E-005, -140.363, 0.356063, 131.751, 0.356083, 11.7457, 0.266853, -108.299, 0.0480867, -58.6668
1, 360.00000, 219.928, -30.0028, 219.983, -150.135, 220.942, 89.9079, 8.13292E-005, 142.975, 0.178228, 131.803, 0.311845, 11.6699, 0.221789, -108.287, 0.0623691, -146.611
1, 420.00000, 219.927, -30.0028, 219.983, -150.135, 220.943, 89.908, 8.13242E-005, 142.984, 0.178241, 131.802, 0.311842, 11.6699, 0.221777, -108.287, 0.0623635, -146.601
1, 480.00000, 219.927, -30.0028, 219.983, -150.135, 220.943, 89.908, 8.1324E-005, 142.985, 0.178241, 131.802, 0.311842, 11.6699, 0.221777, -108.287, 0.0623633, -146.601
1, 540.00000, 219.927, -30.0028, 219.983, -150.135, 220.943, 89.908, 8.1324E-005, 142.985, 0.178241, 131.802, 0.311842, 11.6699, 0.221777, -108.287, 0.0623633, -146.601
1, 600.00000, 219.927, -30.0028, 219.983, -150.135, 220.943, 89.908, 8.1324E-005, 142.985, 0.178241, 131.802, 0.311842, 11.6699, 0.221777, -108.287, 0.0623633, -146.601
1, 660.00000, 220.039, -30.033, 220.056, -150.095, 220.632, 89.9007, 2.82684E-005, 101.36, 0.222694, 131.772, 0.267204, 11.7099, 0.266501, -108.294, 0.0245836, 168.265
1, 720.00000, 220.039, -30.033, 220.056, -150.095, 220.632, 89.9006, 2.82747E-005, 101.351, 0.222688, 131.772, 0.267204, 11.7099, 0.266507, -108.294, 0.0245894, 168.259
1, 780.00000, 220.039, -30.033, 220.056, -150.095, 220.632, 89.9006, 2.82748E-005, 101.351, 0.222688, 131.772, 0.267204, 11.7099, 0.266507, -108.294, 0.0245895, 168.259
1, 840.00000, 220.039, -30.033, 220.056, -150.095, 220.632, 89.9006, 2.82748E-005, 101.351, 0.222688, 131.772, 0.267204, 11.7099, 0.266507, -108.294, 0.0245895, 168.259
1, 900.00000, 220.039, -30.033, 220.056, -150.095, 220.632, 89.9006, 2.82748E-005, 101.351, 0.222688, 131.772, 0.267204, 11.7099, 0.266507, -108.294, 0.0245895, 168.259
1, 960.00000, 219.317, -30.0255, 220.019, -150.16, 220.743, 89.9517, 5.6569E-005, -57.3026, 0.357454, 131.78, 0.267259, 11.6454, 0.31077, -108.243, 0.0485324, 27.2862
1, 1020.00000, 219.317, -30.0256, 220.02, -150.16, 220.743, 89.9518, 5.65866E-005, -57.3068, 0.357474, 131.78, 0.267249, 11.6455, 0.310768, -108.243, 0.0485461, 27.2801
1, 1080.00000, 219.317, -30.0256, 220.02, -150.16, 220.743, 89.9518, 5.65868E-005, -57.3068, 0.357474, 131.78, 0.267248, 11.6455, 0.310768, -108.243, 0.0485463, 27.2801
1, 1140.00000, 219.317, -30.0256, 220.02, -150.16, 220.743, 89.9518, 5.65868E-005, -57.3068, 0.357474, 131.78, 0.267248, 11.6455, 0.310768, -108.243, 0.0485463, 27.2801
1, 1200.00000, 219.317, -30.0256, 220.02, -150.16, 220.743, 89.9518, 5.65868E-005, -57.3068, 0.357474, 131.78, 0.267248, 11.6455, 0.310768, -108.243, 0.0485463, 27.2801
1, 1260.00000, 219.998, -30.0691, 220.325, -150.084, 220.433, 89.92, 6.5817E-005, -140.683, 0.311841, 131.736, 0.311353, 11.7211, 0.222282, -108.275, 0.0490909, -61.5934
1, 1320.00000, 219.998, -30.0691, 220.325, -150.084, 220.432, 89.9198, 6.5805E-005, -140.696, 0.311821, 131.736, 0.311358, 11.7212, 0.22229, -108.275, 0.0490808, -61.6076
1, 1380.00000, 219.998, -30.0691, 220.325, -150.084, 220.432, 89.9198, 6.5805E-005, -140.696, 0.31182, 131.736, 0.311359, 11.7212, 0.222291, -108.275, 0.0490808, -61.6078
1, 1440.00000, 219.998, -30.0691, 220.325, -150.084, 220.432, 89.9198, 6.5805E-005, -140.696, 0.31182, 131.736, 0.311359, 11.7212, 0.222291, -108.275, 0.0490808, -61.6078
1, 1500.00000, 219.998, -30.0691, 220.325, -150.084, 220.432, 89.9198, 6.5805E-005, -140.696, 0.31182, 131.736, 0.311359, 11.7212, 0.222291, -108.275, 0.0490808, -61.6078
1, 1560.00000, 219.61, -30.0765, 220.513, -150.108, 220.517, 89.9598, 2.65043E-005, 33.2245, 0.267739, 131.729, 0.26666, 11.6973, 0.311085, -108.235, 0.0281477, 105.964
1, 1620.00000, 219.61, -30.0765, 220.514, -150.108, 220.517, 89.9599, 2.65069E-005, 33.2015, 0.267748, 131.729, 0.26665, 11.6973, 0.311087, -108.235, 0.0281505, 105.947
1, 1680.00000, 219.61, -30.0765, 220.514, -150.108, 220.517, 89.9599, 2.6507E-005, 33.2013, 0.267748, 131.729, 0.26665, 11.6973, 0.311087, -108.235, 0.0281506, 105.947
1, 1740.00000, 219.61, -30.0765, 220.514, -150.108, 220.517, 89.9599, 2.6507E-005, 33.2013, 0.267748, 131.729, 0.26665, 11.6973, 0.311087, -108.235, 0.0281506, 105.947
1, 1800.00000, 219.61, -30.0765, 220.514, -150.108, 220.517, 89.9599, 2.6507E-005, 33.2013, 0.267748, 131.729, 0.26665, 11.6973, 0.311087, -108.235, 0.0281506, 105.947
1, 1860.00000, 219.378, -30.0447, 220.366, -150.155, 220.853, 89.9716, 3.17239E-005, -33.4624, 0.312693, 131.76, 0.266829, 11.6502, 0.310622, -108.223, 0.0309044, 55.2868
1, 1920.00000, 219.377, -30.0447, 220.367, -150.155, 220.853, 89.9717, 3.17271E-005, -33.4823, 0.312703, 131.76, 0.266828, 11.6502, 0.310614, -108.223, 0.0309053, 55.2697
1, 1980.00000, 219.377, -30.0447, 220.367, -150.155, 220.853, 89.9717, 3.17273E-005, -33.4824, 0.312703, 131.76, 0.266828, 11.6502, 0.310614, -108.223, 0.0309054, 55.2695
1, 2040.00000, 219.377, -30.0447, 220.367, -150.155, 220.853, 89.9717, 3.17273E-005, -33.4824, 0.312703, 131.76, 0.266828, 11.6502, 0.310614, -108.223, 0.0309054, 55.2695
1, 2100.00000, 219.377, -30.0447, 220.367, -150.155, 220.853, 89.9717, 3.17273E-005, -33.4824, 0.312703, 131.76, 0.266828, 11.6502, 0.310614, -108.223, 0.0309054, 55.2695
1, 2160.00000, 219.596, -30.0738, 220.421, -150.111, 220.475, 89.9594, 4.89445E-005, 67.6469, 0.223145, 131.731, 0.266759, 11.6939, 0.311139, -108.235, 0.0450682, 138.859
1, 2220.00000, 219.597, -30.0738, 220.421, -150.111, 220.475, 89.9593, 4.89546E-005, 67.6493, 0.223136, 131.731, 0.266762, 11.6938, 0.311146, -108.236, 0.0450762, 138.862
1, 2280.00000, 219.597, -30.0738, 220.421, -150.111, 220.475, 89.9593, 4.89547E-005, 67.6495, 0.223136, 131.731, 0.266762, 11.6938, 0.311146, -108.236, 0.0450762, 138.862
1, 2340.00000, 219.597, -30.0738, 220.421, -150.111, 220.475, 89.9593, 4.89547E-005, 67.6495, 0.223136, 131.731, 0.266762, 11.6938, 0.311146, -108.236, 0.0450762, 138.862
1, 2400.00000, 219.597, -30.0738, 220.421, -150.111, 220.475, 89.9593, 4.89547E-005, 67.6495, 0.223136, 131.731, 0.266762, 11.6938, 0.311146, -108.236, 0.0450762, 138.862
1, 2460.00000, 219.767, -30.0976, 220.652, -150.082, 220.352, 89.9615, 5.99381E-005, -112.373, 0.356801, 131.708, 0.310932, 11.723, 0.266803, -108.233, 0.0443692, -27.8256
1, 2520.00000, 219.769, -30.0977, 220.653, -150.082, 220.349, 89.9612, 5.98742E-005, -112.355, 0.356739, 131.707, 0.310896, 11.7233, 0.266849, -108.234, 0.0443198, -27.7992
1, 2580.00000, 219.769, -30.0977, 220.653, -150.082, 220.349, 89.9612, 5.98734E-005, -112.355, 0.356738, 131.707, 0.310896, 11.7233, 0.266849, -108.234, 0.0443191, -27.7993
1, 2640.00000, 219.769, -30.0977, 220.653, -150.082, 220.349, 89.9612, 5.98733E-005, -112.355, 0.356738, 131.707, 0.310896, 11.7233, 0.266849, -108.234, 0.044319, -27.7993
1, 2700.00000, 219.769, -30.0977, 220.653, -150.082, 220.349, 89.9612, 5.98733E-005, -112.355, 0.356738, 131.707, 0.310896, 11.7233, 0.266849, -108.234, 0.044319, -27.7993
1, 2760.00000, 219.594, -30.0685, 220.253, -150.089, 220.274, 89.9484, 5.64603E-005, 101.255, 0.223136, 131.737, 0.311454, 11.7161, 0.311433, -108.246, 0.0490598, 167.464
1, 2820.00000, 219.594, -30.0685, 220.253, -150.089, 220.275, 89.9484, 5.64595E-005, 101.262, 0.223139, 131.737, 0.31146, 11.7161, 0.31143, -108.246, 0.0490582, 167.47
1, 2880.00000, 219.594, -30.0685, 220.253, -150.089, 220.275, 89.9484, 5.64594E-005, 101.262, 0.223139, 131.737, 0.31146, 11.7161, 0.31143, -108.246, 0.0490581, 167.47
1, 2940.00000, 219.594, -30.0685, 220.253, -150.089, 220.275, 89.9484, 5.64594E-005, 101.262, 0.223139, 131.737, 0.31146, 11.7161, 0.31143, -108.246, 0.0490581, 167.47
1, 3000.00000, 219.594, -30.0685, 220.253, -150.089, 220.275, 89.9484, 5.64594E-005, 101.262, 0.223139, 131.737, 0.31146, 11.7161, 0.31143, -108.246, 0.0490581, 167.47
1, 3060.00000, 219.501, -30.0622, 220.38, -150.12, 220.57, 89.9595, 5.55014E-006, -114.844, 0.267873, 131.743, 0.266817, 11.6853, 0.266586, -108.235, 0.00515816, 56.9526
1, 3120.00000, 219.501, -30.0622, 220.38, -150.12, 220.57, 89.9596, 5.55662E-006, -114.795, 0.26788, 131.743, 0.266811, 11.6854, 0.266583, -108.235, 0.00516163, 56.8908
1, 3180.00000, 219.501, -30.0622, 220.38, -150.12, 220.57, 89.9596, 5.55666E-006, -114.794, 0.26788, 131.743, 0.266811, 11.6854, 0.266583, -108.235, 0.0051617, 56.8903
1, 3240.00000, 219.501, -30.0622, 220.38, -150.12, 220.57, 89.9596, 5.55666E-006, -114.794, 0.26788, 131.743, 0.266811, 11.6854, 0.266583, -108.235, 0.0051617, 56.8903
1, 3300.00000, 219.501, -30.0622, 220.38, -150.12, 220.57, 89.9596, 5.55666E-006, -114.794, 0.26788, 131.743, 0.266811, 11.6854, 0.266583, -108.235, 0.0051617, 56.8903
1, 3360.00000, 220.205, -30.0357, 219.899, -150.064, 220.355, 89.875, 2.66075E-005, 106.417, 0.267039, 131.77, 0.311939, 11.7411, 0.31132, -108.32, 0.0233501, 161.585
