hour, t(sec), V1, VAngle1, V2, VAngle2, V3, VAngle3, V4, VAngle4, I1, IAngle1, I2, IAngle2, I3, IAngle3, I4, IAngle4
0, 60.00000, 220.818, -30.128, 220.982, -150.169, 221.312, 89.845, 0.00177435, 137.957, 0.548413, 131.677, 0.626296, 11.6363, 0.625366, -108.35, 0.0775479, 131.998
0, 120.00000, 220.818, -30.128, 220.982, -150.169, 221.312, 89.845, 0.00177438, 137.958, 0.548412, 131.677, 0.626297, 11.6363, 0.625365, -108.35, 0.0775488, 131.999
0, 180.00000, 220.818, -30.128, 220.982, -150.169, 221.312, 89.845, 0.00177438, 137.958, 0.548412, 131.677, 0.626297, 11.6363, 0.625365, -108.35, 0.0775488, 131.999
0, 240.00000, 220.818, -30.128, 220.982, -150.169, 221.312, 89.845, 0.00177438, 137.958, 0.548412, 131.677, 0.626297, 11.6363, 0.625365, -108.35, 0.0775488, 131.999
0, 300.00000, 220.818, -30.128, 220.982, -150.169, 221.312, 89.845, 0.00177438, 137.958, 0.548412, 131.677, 0.626297, 11.6363, 0.625365, -108.35, 0.0775488, 131.999
0, 360.00000, 220.532, -30.1258, 220.911, -150.194, 221.327, 89.8529, 0.0016513, 140.148, 0.627558, 131.679, 0.704814, 11.6114, 0.703493, -108.342, 0.0770905, 132.12
0, 420.00000, 220.532, -30.1258, 220.912, -150.194, 221.327, 89.8529, 0.00165092, 140.151, 0.627569, 131.679, 0.704809, 11.6114, 0.703488, -108.342, 0.0770751, 132.121
0, 480.00000, 220.532, -30.1258, 220.912, -150.194, 221.327, 89.8529, 0.00165092, 140.151, 0.627569, 131.679, 0.704809, 11.6114, 0.703488, -108.342, 0.077075, 132.12
0, 540.00000, 220.532, -30.1258, 220.912, -150.194, 221.327, 89.8529, 0.00165092, 140.151, 0.627569, 131.679, 0.704809, 11.6114, 0.703488, -108.342, 0.077075, 132.12
0, 600.00000, 220.532, -30.1258, 220.912, -150.194, 221.327, 89.8529, 0.00165092, 140.151, 0.627569, 131.679, 0.704809, 11.6114, 0.703488, -108.342, 0.077075, 132.12
0, 660.00000, 220.678, -30.1429, 221.014, -150.164, 221.169, 89.8532, 0.00234978, -105.52, 0.627169, 131.663, 0.626209, 11.6405, 0.54753, -108.342, 0.0789506, -107.79
0, 720.00000, 220.679, -30.1429, 221.014, -150.164, 221.169, 89.8532, 0.00234944, -105.526, 0.627158, 131.663, 0.62621, 11.6406, 0.54754, -108.342, 0.0789371, -107.797
0, 780.00000, 220.679, -30.1429, 221.014, -150.164, 221.169, 89.8532, 0.00234944, -105.526, 0.627158, 131.663, 0.62621, 11.6406, 0.54754, -108.342, 0.078937, -107.797
0, 840.00000, 220.679, -30.1429, 221.014, -150.164, 221.169, 89.8532, 0.00234944, -105.526, 0.627158, 131.663, 0.62621, 11.6406, 0.54754, -108.342, 0.078937, -107.797
0, 900.00000, 220.679, -30.1429, 221.014, -150.164, 221.169, 89.8532, 0.00234944, -105.526, 0.627158, 131.663, 0.62621, 11.6406, 0.54754, -108.342, 0.078937, -107.797
0, 960.00000, 220.704, -30.1531, 221.066, -150.161, 221.043, 89.8507, 0.00224257, -45.7559, 0.548709, 131.652, 0.469548, 11.6437, 0.469569, -108.344, 0.0790618, -48.3214
0, 1020.00000, 220.704, -30.1531, 221.067, -150.161, 221.042, 89.8507, 0.00224229, -45.7398, 0.548704, 131.652, 0.469541, 11.6437, 0.46959, -108.344, 0.07905, -48.3037
0, 1080.00000, 220.704, -30.1531, 221.067, -150.161, 221.042, 89.8507, 0.00224229, -45.7397, 0.548704, 131.652, 0.469541, 11.6437, 0.46959, -108.344, 0.0790499, -48.3036
0, 1140.00000, 220.704, -30.1531, 221.067, -150.161, 221.042, 89.8507, 0.00224229, -45.7397, 0.548704, 131.652, 0.469541, 11.6437, 0.46959, -108.344, 0.0790499, -48.3036
0, 1200.00000, 220.704, -30.1531, 221.067, -150.161, 221.042, 89.8507, 0.00224229, -45.7397, 0.548704, 131.652, 0.469541, 11.6437, 0.46959, -108.344, 0.0790499, -48.3036
0, 1260.00000, 220.657, -30.1055, 220.809, -150.205, 221.481, 89.841, 0.00219941, -48.5447, 0.627217, 131.7, 0.548429, 11.5999, 0.546785, -108.354, 0.0792261, -48.8
0, 1320.00000, 220.657, -30.1054, 220.809, -150.205, 221.481, 89.841, 0.00219971, -48.5575, 0.627225, 131.7, 0.548437, 11.5999, 0.546769, -108.354, 0.0792377, -48.814
0, 1380.00000, 220.657, -30.1054, 220.809, -150.205, 221.481, 89.841, 0.00219971, -48.5576, 0.627225, 131.7, 0.548437, 11.5999, 0.546769, -108.354, 0.0792379, -48.8141
0, 1440.00000, 220.657, -30.1054, 220.809, -150.205, 221.481, 89.841, 0.00219971, -48.5576, 0.627225, 131.7, 0.548437, 11.5999, 0.546769, -108.354, 0.0792379, -48.8141
0, 1500.00000, 220.657, -30.1054, 220.809, -150.205, 221.481, 89.841, 0.00219971, -48.5576, 0.627225, 131.7, 0.548437, 11.5999, 0.546769, -108.354, 0.0792379, -48.8141
0, 1560.00000, 220.743, -30.0745, 220.617, -150.201, 221.636, 89.8283, 0.00734264, -133.55, 0.548599, 131.732, 0.70576, 11.6038, 0.390275, -108.368, 0.272082, -138.309
0, 1620.00000, 220.743, -30.0745, 220.617, -150.201, 221.636, 89.8283, 0.00734297, -133.551, 0.548597, 131.732, 0.70577, 11.6037, 0.390269, -108.368, 0.272095, -138.31
0, 1680.00000, 220.743, -30.0745, 220.617, -150.201, 221.636, 89.8283, 0.00734297, -133.551, 0.548597, 131.732, 0.70577, 11.6037, 0.390269, -108.368, 0.272095, -138.31
0, 1740.00000, 220.743, -30.0745, 220.617, -150.201, 221.636, 89.8283, 0.00734297, -133.551, 0.548597, 131.732, 0.70577, 11.6037, 0.390269, -108.368, 0.272095, -138.31
0, 1800.00000, 220.743, -30.0745, 220.617, -150.201, 221.636, 89.8283, 0.00734297, -133.551, 0.548597, 131.732, 0.70577, 11.6037, 0.390269, -108.368, 0.272095, -138.31
0, 1860.00000, 220.472, -30.1116, 220.703, -150.192, 221.276, 89.8423, 0.004497, -101.878, 0.706211, 131.695, 0.70549, 11.6123, 0.547261, -108.353, 0.157712, -108.098
0, 1920.00000, 220.472, -30.1116, 220.703, -150.192, 221.275, 89.8423, 0.00449676, -101.874, 0.706215, 131.695, 0.705482, 11.6123, 0.547271, -108.353, 0.157702, -108.094
0, 1980.00000, 220.472, -30.1116, 220.703, -150.192, 221.275, 89.8423, 0.00449675, -101.874, 0.706215, 131.695, 0.705482, 11.6123, 0.547271, -108.353, 0.157701, -108.094
0, 2040.00000, 220.472, -30.1116, 220.703, -150.192, 221.275, 89.8423, 0.00449675, -101.874, 0.706215, 131.695, 0.705482, 11.6123, 0.547271, -108.353, 0.157701, -108.094
0, 2100.00000, 220.472, -30.1116, 220.703, -150.192, 221.275, 89.8423, 0.00449675, -101.874, 0.706215, 131.695, 0.705482, 11.6123, 0.547271, -108.353, 0.157701, -108.094
0, 2160.00000, 220.751, -30.1274, 220.966, -150.17, 221.213, 89.8457, 0.00172952, 75.164, 0.626958, 131.677, 0.626342, 11.6358, 0.703843, -108.349, 0.0775888, 71.2112
0, 2220.00000, 220.751, -30.1274, 220.966, -150.17, 221.213, 89.8457, 0.00172988, 75.1663, 0.62695, 131.677, 0.626337, 11.6358, 0.703851, -108.349, 0.0776025, 71.2137
0, 2280.00000, 220.751, -30.1274, 220.966, -150.17, 221.213, 89.8457, 0.00172988, 75.1664, 0.62695, 131.677, 0.626337, 11.6358, 0.703851, -108.349, 0.0776026, 71.2138
0, 2340.00000, 220.751, -30.1274, 220.966, -150.17, 221.213, 89.8457, 0.00172988, 75.1664, 0.62695, 131.677, 0.626337, 11.6358, 0.703851, -108.349, 0.0776026, 71.2138
0, 2400.00000, 220.751, -30.1274, 220.966, -150.17, 221.213, 89.8457, 0.00172988, 75.1664, 0.62695, 131.677, 0.626337, 11.6358, 0.703851, -108.349, 0.0776026, 71.2138
0, 2460.00000, 220.562, -30.1838, 221.276, -150.146, 220.867, 89.8705, 0.00189738, -156.253, 0.54905, 131.622, 0.625481, 11.6594, 0.548277, -108.325, 0.0772642, -167.766
0, 2520.00000, 220.562, -30.1839, 221.276, -150.146, 220.867, 89.8705, 0.00189685, -156.259, 0.54905, 131.622, 0.625469, 11.6594, 0.548292, -108.325, 0.0772455, -167.775
0, 2580.00000, 220.562, -30.1839, 221.276, -150.146, 220.867, 89.8705, 0.00189685, -156.259, 0.54905, 131.622, 0.625469, 11.6594, 0.548292, -108.325, 0.0772454, -167.775
0, 2640.00000, 220.562, -30.1839, 221.276, -150.146, 220.867, 89.8705, 0.00189685, -156.259, 0.54905, 131.622, 0.625469, 11.6594, 0.548292, -108.325, 0.0772454, -167.775
0, 2700.00000, 220.562, -30.1839, 221.276, -150.146, 220.867, 89.8705, 0.00189685, -156.259, 0.54905, 131.622, 0.625469, 11.6594, 0.548292, -108.325, 0.0772454, -167.775
0, 2760.00000, 220.432, -30.191, 221.426, -150.154, 220.926, 89.8969, 0.00369194, 70.8651, 0.470886, 131.613, 0.468782, 11.652, 0.626462, -108.298, 0.156356, 71.2443
0, 2820.00000, 220.432, -30.191, 221.426, -150.154, 220.926, 89.8969, 0.00369197, 70.8605, 0.470893, 131.613, 0.468774, 11.652, 0.626463, -108.298, 0.156356, 71.24
0, 2880.00000, 220.432, -30.191, 221.426, -150.154, 220.926, 89.8969, 0.00369198, 70.8605, 0.470893, 131.613, 0.468774, 11.652, 0.626463, -108.298, 0.156356, 71.2399
0, 2940.00000, 220.432, -30.191, 221.426, -150.154, 220.926, 89.8969, 0.00369198, 70.8605, 0.470893, 131.613, 0.468774, 11.652, 0.626463, -108.298, 0.156356, 71.2399
0, 3000.00000, 220.432, -30.191, 221.426, -150.154, 220.926, 89.8969, 0.00369198, 70.8605, 0.470893, 131.613, 0.468774, 11.652, 0.626463, -108.298, 0.156356, 71.2399
0, 3060.00000, 220.949, -30.1576, 220.906, -150.119, 220.809, 89.8159, 0.00333447, 170.096, 0.548096, 131.648, 0.704809, 11.6866, 0.626794, -108.38, 0.135177, 161.679
0, 3120.00000, 220.949, -30.1576, 220.905, -150.119, 220.809, 89.8158, 0.00333533, 170.099, 0.548082, 131.648, 0.704835, 11.6866, 0.626788, -108.38, 0.13521, 161.683
0, 3180.00000, 220.949, -30.1576, 220.905, -150.119, 220.809, 89.8158, 0.00333533, 170.099, 0.548082, 131.648, 0.704835, 11.6866, 0.626788, -108.38, 0.13521, 161.683
0, 3240.00000, 220.949, -30.1576, 220.905, -150.119, 220.809, 89.8158, 0.00333533, 170.099, 0.548082, 131.648, 0.704835, 11.6866, 0.626788, -108.38, 0.13521, 161.683
0, 3300.00000, 220.949, -30.1576, 220.905, -150.119, 220.809, 89.8158, 0.00333533, 170.099, 0.548082, 131.648, 0.704835, 11.6866, 0.626788, -108.38, 0.13521, 161.683
0, 3360.00000, 220.907, -30.1047, 220.551, -150.152, 221.082, 89.8019, 0.00914853, -35.721, 0.861484, 131.7, 0.470619, 11.6508, 0.547763, -108.391, 0.35909, -37.4731
0, 3420.00000, 220.907, -30.1047, 220.551, -150.152, 221.082, 89.8019, 0.00914849, -35.7244, 0.861485, 131.701, 0.470632, 11.6508, 0.547747, -108.391, 0.359089, -37.4765
0, 3480.00000, 220.907, -30.1047, 220.551, -150.152, 221.082, 89.8019, 0.00914849, -35.7244, 0.861486, 131.701, 0.470632, 11.6508, 0.547747, -108.391, 0.359089, -37.4765
0, 3540.00000, 220.907, -30.1047, 220.551, -150.152, 221.082, 89.8019, 0.00914849, -35.7244, 0.861486, 131.701, 0.470632, 11.6508, 0.547747, -108.391, 0.359089, -37.4765
1, 0.00000, 220.907, -30.1047, 220.551, -150.152, 221.082, 89.8019, 0.00914849, -35.7244, 0.861486, 131.701, 0.470632, 11.6508, 0.547747, -108.391, 0.359089, -37.4765
1, 60.00000, 221.57, -30.0987, 221.567, -150.129, 221.846, 89.8545, 0.00723313, -132.181, 0.468488, 131.708, 0.62468, 11.6758, 0.31193, -108.342, 0.270537, -138.268
1, 120.00000, 221.57, -30.0987, 221.568, -150.129, 221.846, 89.8545, 0.00723284, -132.181, 0.468471, 131.708, 0.624659, 11.6758, 0.311921, -108.342, 0.270526, -138.269
1, 180.00000, 221.57, -30.0987, 221.568, -150.129, 221.846, 89.8545, 0.00723284, -132.181, 0.468471, 131.708, 0.624659, 11.6758, 0.311921, -108.342, 0.270526, -138.269
1, 240.00000, 221.57, -30.0987, 221.568, -150.129, 221.846, 89.8545, 0.00723284, -132.181, 0.468471, 131.708, 0.624659, 11.6758, 0.311921, -108.342, 0.270526, -138.269
1, 300.00000, 221.57, -30.0987, 221.568, -150.129, 221.846, 89.8545, 0.00723284, -132.181, 0.468471, 131.708, 0.624659, 11.6758, 0.311921, -108.342, 0.270526, -138.269
1, 360.00000, 221.45, -30.0747, 221.461, -150.169, 222.149, 89.8618, 0.00021788, -89.9615, 0.468717, 131.73, 0.468707, 11.636, 0.467265, -108.333, 0.000791716, -97.8591
1, 420.00000, 221.449, -30.0747, 221.462, -150.169, 222.149, 89.8618, 0.00021838, -89.924, 0.46873, 131.73, 0.468705, 11.6361, 0.467253, -108.333, 0.000810752, -97.2962
1, 480.00000, 221.449, -30.0747, 221.462, -150.169, 222.149, 89.8618, 0.000218384, -89.9226, 0.46873, 131.73, 0.468705, 11.6361, 0.467253, -108.333, 0.000810897, -97.2798
1, 540.00000, 221.449, -30.0747, 221.462, -150.169, 222.149, 89.8618, 0.000218384, -89.9225, 0.46873, 131.73, 0.468705, 11.6361, 0.467253, -108.333, 0.000810897, -97.2796
1, 600.00000, 221.449, -30.0747, 221.462, -150.169, 222.149, 89.8618, 0.000218384, -89.9225, 0.46873, 131.73, 0.468705, 11.6361, 0.467253, -108.333, 0.000810897, -97.2795
1, 660.00000, 221.489, -30.0961, 221.496, -150.14, 221.916, 89.8575, 0.0032454, 39.0273, 0.546762, 131.708, 0.468624, 11.6658, 0.623657, -108.337, 0.134683, 41.3915
1, 720.00000, 221.489, -30.0961, 221.496, -150.139, 221.916, 89.8574, 0.00324555, 39.0315, 0.546756, 131.708, 0.468625, 11.6658, 0.623664, -108.337, 0.134689, 41.3953
1, 780.00000, 221.489, -30.0961, 221.496, -150.139, 221.916, 89.8574, 0.00324555, 39.0315, 0.546756, 131.708, 0.468625, 11.6658, 0.623664, -108.337, 0.134689, 41.3954
1, 840.00000, 221.489, -30.0961, 221.496, -150.139, 221.916, 89.8574, 0.00324555, 39.0315, 0.546756, 131.708, 0.468625, 11.6658, 0.623664, -108.337, 0.134689, 41.3954
1, 900.00000, 221.489, -30.0961, 221.496, -150.139, 221.916, 89.8574, 0.00324555, 39.0315, 0.546756, 131.708, 0.468625, 11.6658, 0.623664, -108.337, 0.134689, 41.3954
1, 960.00000, 221.016, -30.0939, 221.479, -150.189, 222.02, 89.8894, 0.00210179, -155.557, 0.469631, 131.712, 0.546795, 11.6165, 0.467526, -108.306, 0.0780954, -167.564
1, 1020.00000, 221.016, -30.0939, 221.479, -150.189, 222.02, 89.8895, 0.00210148, -155.545, 0.469647, 131.712, 0.546784, 11.6165, 0.467524, -108.306, 0.0780801, -167.553
1, 1080.00000, 221.016, -30.0939, 221.479, -150.189, 222.02, 89.8895, 0.00210147, -155.545, 0.469647, 131.712, 0.546784, 11.6165, 0.467524, -108.306, 0.0780798, -167.553
1, 1140.00000, 221.016, -30.0939, 221.479, -150.189, 222.02, 89.8895, 0.00210147, -155.545, 0.469647, 131.712, 0.546784, 11.6165, 0.467524, -108.306, 0.0780798, -167.553
1, 1200.00000, 221.016, -30.0939, 221.479, -150.189, 222.02, 89.8895, 0.00210147, -155.545, 0.469647, 131.712, 0.546784, 11.6165, 0.467524, -108.306, 0.0780798, -167.553
1, 1260.00000, 221.495, -30.1233, 221.687, -150.129, 221.757, 89.8681, 0.00372191, 136.222, 0.468642, 131.682, 0.624301, 11.6766, 0.624104, -108.327, 0.155524, 131.717
1, 1320.00000, 221.495, -30.1233, 221.687, -150.129, 221.757, 89.868, 0.00372242, 136.219, 0.468625, 131.682, 0.624306, 11.6767, 0.624114, -108.328, 0.155545, 131.715
1, 1380.00000, 221.495, -30.1233, 221.687, -150.129, 221.757, 89.868, 0.00372242, 136.219, 0.468625, 131.682, 0.624306, 11.6767, 0.624114, -108.328, 0.155545, 131.715
1, 1440.00000, 221.495, -30.1233, 221.687, -150.129, 221.757, 89.868, 0.00372242, 136.219, 0.468625, 131.682, 0.624306, 11.6767, 0.624114, -108.328, 0.155545, 131.715
1, 1500.00000, 221.495, -30.1233, 221.687, -150.129, 221.757, 89.868, 0.00372242, 136.219, 0.468625, 131.682, 0.624306, 11.6767, 0.624114, -108.328, 0.155545, 131.715
1, 1560.00000, 221.336, -30.1334, 221.818, -150.13, 221.746, 89.885, 0.000342205, -60.7218, 0.547124, 131.672, 0.545955, 11.6749, 0.546118, -108.31, 0.000963795, -45.9216
1, 1620.00000, 221.336, -30.1334, 221.818, -150.13, 221.746, 89.885, 0.000342436, -60.6736, 0.547132, 131.672, 0.545944, 11.6749, 0.546119, -108.31, 0.00097584, -45.4338
1, 1680.00000, 221.336, -30.1334, 221.818, -150.13, 221.746, 89.885, 0.000342437, -60.6728, 0.547132, 131.672, 0.545943, 11.6749, 0.54612, -108.31, 0.000975919, -45.4242
1, 1740.00000, 221.336, -30.1334, 221.818, -150.13, 221.746, 89.885, 0.000342437, -60.6728, 0.547132, 131.672, 0.545943, 11.6749, 0.54612, -108.31, 0.000975919, -45.424
1, 1800.00000, 221.336, -30.1334, 221.818, -150.13, 221.746, 89.885, 0.000342437, -60.6728, 0.547132, 131.672, 0.545943, 11.6749, 0.54612, -108.31, 0.000975919, -45.424
1, 1860.00000, 221.133, -30.109, 221.728, -150.174, 222.058, 89.8986, 0.00234279, -47.0882, 0.469398, 131.696, 0.390117, 11.6307, 0.38954, -108.296, 0.0791378, -48.5232
1, 1920.00000, 221.132, -30.109, 221.728, -150.174, 222.058, 89.8986, 0.00234309, -47.0915, 0.469407, 131.696, 0.390116, 11.6309, 0.389534, -108.296, 0.0791499, -48.527
1, 1980.00000, 221.132, -30.109, 221.728, -150.174, 222.058, 89.8986, 0.0023431, -47.0915, 0.469407, 131.696, 0.390116, 11.6309, 0.389534, -108.296, 0.0791501, -48.527
1, 2040.00000, 221.132, -30.109, 221.728, -150.174, 222.058, 89.8986, 0.0023431, -47.0915, 0.469407, 131.696, 0.390116, 11.6309, 0.389534, -108.296, 0.0791501, -48.527
1, 2100.00000, 221.132, -30.109, 221.728, -150.174, 222.058, 89.8986, 0.0023431, -47.0915, 0.469407, 131.696, 0.390116, 11.6309, 0.389534, -108.296, 0.0791501, -48.527
1, 2160.00000, 221.18, -30.1241, 221.803, -150.161, 221.897, 89.9005, 0.00240735, -107.447, 0.46931, 131.682, 0.467984, 11.644, 0.389812, -108.294, 0.0785738, -107.711
1, 2220.00000, 221.18, -30.1241, 221.803, -150.161, 221.896, 89.9005, 0.00240713, -107.453, 0.469302, 131.682, 0.467988, 11.644, 0.389818, -108.295, 0.0785651, -107.718
1, 2280.00000, 221.18, -30.1241, 221.803, -150.161, 221.896, 89.9005, 0.00240713, -107.453, 0.469302, 131.682, 0.467988, 11.644, 0.389818, -108.295, 0.0785651, -107.718
1, 2340.00000, 221.18, -30.1241, 221.803, -150.161, 221.896, 89.9005, 0.00240713, -107.453, 0.469302, 131.682, 0.467988, 11.644, 0.389818, -108.295, 0.0785651, -107.718
1, 2400.00000, 221.18, -30.1241, 221.803, -150.161, 221.896, 89.9005, 0.00240713, -107.453, 0.469302, 131.682, 0.467988, 11.644, 0.389818, -108.295, 0.0785651, -107.718
1, 2460.00000, 221.401, -30.137, 221.888, -150.125, 221.732, 89.8897, 0.00330023, 39.1853, 0.54703, 131.668, 0.467829, 11.6808, 0.624134, -108.304, 0.135159, 41.2967
1, 2520.00000, 221.403, -30.1371, 221.888, -150.125, 221.731, 89.8896, 0.00330197, 39.2161, 0.546971, 131.667, 0.467796, 11.6806, 0.624185, -108.305, 0.135231, 41.3243
1, 2580.00000, 221.403, -30.1371, 221.888, -150.125, 221.731, 89.8896, 0.00330198, 39.2166, 0.54697, 131.667, 0.467797, 11.6806, 0.624186, -108.305, 0.135231, 41.3248
1, 2640.00000, 221.403, -30.1371, 221.888, -150.125, 221.731, 89.8896, 0.00330198, 39.2166, 0.54697, 131.667, 0.467797, 11.6806, 0.624186, -108.305, 0.135231, 41.3248
1, 2700.00000, 221.403, -30.1371, 221.888, -150.125, 221.731, 89.8896, 0.00330198, 39.2166, 0.54697, 131.667, 0.467797, 11.6806, 0.624186, -108.305, 0.135231, 41.3248
1, 2760.00000, 221.245, -30.1317, 221.754, -150.133, 221.668, 89.8915, 0.00201758, 6.68767, 0.469164, 131.673, 0.390063, 11.6719, 0.46827, -108.303, 0.078486, 11.1862
1, 2820.00000, 221.245, -30.1317, 221.754, -150.133, 221.669, 89.8915, 0.00201747, 6.6837, 0.469166, 131.673, 0.390068, 11.6719, 0.468267, -108.303, 0.0784812, 11.1826
1, 2880.00000, 221.245, -30.1317, 221.754, -150.133, 221.669, 89.8915, 0.00201747, 6.68364, 0.469166, 131.673, 0.390068, 11.6719, 0.468267, -108.303, 0.0784812, 11.1825
1, 2940.00000, 221.245, -30.1317, 221.754, -150.133, 221.669, 89.8915, 0.00201747, 6.68364, 0.469166, 131.673, 0.390068, 11.6719, 0.468267, -108.303, 0.0784812, 11.1825
1, 3000.00000, 221.245, -30.1317, 221.754, -150.133, 221.669, 89.8915, 0.00201747, 6.68364, 0.469166, 131.673, 0.390068, 11.6719, 0.468267, -108.303, 0.0784812, 11.1825
1, 3060.00000, 221.181, -30.1311, 221.824, -150.146, 221.807, 89.8977, 0.00219218, -52.2484, 0.547514, 131.674, 0.467942, 11.6584, 0.467975, -108.297, 0.0792398, -48.344
1, 3120.00000, 221.181, -30.1311, 221.824, -150.146, 221.807, 89.8977, 0.00219243, -52.2474, 0.547521, 131.674, 0.467937, 11.6584, 0.467971, -108.297, 0.0792501, -48.3436
1, 3180.00000, 221.181, -30.1311, 221.824, -150.146, 221.807, 89.8977, 0.00219244, -52.2474, 0.547521, 131.674, 0.467937, 11.6584, 0.467971, -108.297, 0.0792502, -48.3435
1, 3240.00000, 221.181, -30.1311, 221.824, -150.146, 221.807, 89.8977, 0.00219244, -52.2474, 0.547521, 131.674, 0.467937, 11.6584, 0.467971, -108.297, 0.0792502, -48.3435
1, 3300.00000, 221.181, -30.1311, 221.824, -150.146, 221.807, 89.8977, 0.00219244, -52.2474, 0.547521, 131.674, 0.467937, 11.6584, 0.467971, -108.297, 0.0792502, -48.3435
1, 3360.00000, 221.604, -30.1012, 221.455, -150.123, 221.752, 89.8427, 0.00230655, -103.381, 0.546486, 131.704, 0.54682, 11.6816, 0.468089, -108.352, 0.0783765, -108.25
1, 3420.00000, 221.605, -30.1011, 221.454, -150.123, 221.752, 89.8426, 0.00230662, -103.4, 0.546471, 131.705, 0.546844, 11.6816, 0.468086, -108.352, 0.0783808, -108.272
1, 3480.00000, 221.605, -30.1011, 221.454, -150.123, 221.752, 89.8426, 0.00230662, -103.4, 0.54647, 131.705, 0.546844, 11.6816, 0.468086, -108.352, 0.0783811, -108.272
