hour, t(sec), P1 (kW), Q1 (kvar), P2 (kW), Q2 (kvar), P3 (kW), Q3 (kvar), P4 (kW), Q4 (kvar)
0, 60.00000, -0.0625101, -0.0205461, -0.0714399, -0.0234811, -0.06251, -0.0205461, 3.22105E-010, -4.40876E-010
0, 120.00000, -0.06251, -0.020546, -0.07144, -0.0234812, -0.06251, -0.0205461, 3.22116E-010, -4.40895E-010
0, 180.00000, -0.06251, -0.020546, -0.07144, -0.0234812, -0.06251, -0.0205461, 3.22117E-010, -4.40895E-010
0, 240.00000, -0.06251, -0.020546, -0.07144, -0.0234812, -0.06251, -0.0205461, 3.22117E-010, -4.40895E-010
0, 300.00000, -0.06251, -0.020546, -0.07144, -0.0234812, -0.06251, -0.0205461, 3.22117E-010, -4.40895E-010
0, 360.00000, -0.0625088, -0.0205456, -0.0893006, -0.0293516, -0.0625105, -0.0205462, 2.17519E-009, -5.31939E-009
0, 420.00000, -0.06251, -0.020546, -0.0893, -0.0293515, -0.06251, -0.0205461, 2.17499E-009, -5.31913E-009
0, 480.00000, -0.06251, -0.020546, -0.0893, -0.0293515, -0.06251, -0.0205461, 2.17499E-009, -5.31912E-009
0, 540.00000, -0.06251, -0.020546, -0.0893, -0.0293515, -0.06251, -0.0205461, 2.17499E-009, -5.31912E-009
0, 600.00000, -0.06251, -0.020546, -0.0893, -0.0293515, -0.06251, -0.0205461, 2.17499E-009, -5.31912E-009
0, 660.00000, -0.062511, -0.0205464, -0.0803699, -0.0264164, -0.0625091, -0.0205457, 1.07605E-009, -2.20296E-009
0, 720.00000, -0.06251, -0.020546, -0.08037, -0.0264163, -0.06251, -0.0205461, 1.07611E-009, -2.20295E-009
0, 780.00000, -0.06251, -0.020546, -0.08037, -0.0264163, -0.06251, -0.0205461, 1.07611E-009, -2.20295E-009
0, 840.00000, -0.06251, -0.020546, -0.08037, -0.0264163, -0.06251, -0.0205461, 1.07611E-009, -2.20295E-009
0, 900.00000, -0.06251, -0.020546, -0.08037, -0.0264163, -0.06251, -0.0205461, 1.07611E-009, -2.20295E-009
0, 960.00000, -0.0893007, -0.0293515, -0.0714409, -0.0234815, -0.0714376, -0.0234804, 5.61518E-010, -3.0102E-009
0, 1020.00000, -0.0893, -0.0293515, -0.07144, -0.0234812, -0.07144, -0.0234812, 5.61351E-010, -3.00984E-009
0, 1080.00000, -0.0893, -0.0293515, -0.07144, -0.0234812, -0.07144, -0.0234812, 5.6135E-010, -3.00984E-009
0, 1140.00000, -0.0893, -0.0293515, -0.07144, -0.0234812, -0.07144, -0.0234812, 5.6135E-010, -3.00984E-009
0, 1200.00000, -0.0893, -0.0293515, -0.07144, -0.0234812, -0.07144, -0.0234812, 5.6135E-010, -3.00984E-009
0, 1260.00000, -0.0714392, -0.023481, -0.0625092, -0.0205458, -0.0714418, -0.0234818, 1.75857E-010, -7.0265E-010
0, 1320.00000, -0.07144, -0.0234812, -0.06251, -0.020546, -0.07144, -0.0234812, 1.75794E-010, -7.02476E-010
0, 1380.00000, -0.07144, -0.0234812, -0.06251, -0.020546, -0.07144, -0.0234812, 1.75793E-010, -7.02475E-010
0, 1440.00000, -0.07144, -0.0234812, -0.06251, -0.020546, -0.07144, -0.0234812, 1.75793E-010, -7.02475E-010
0, 1500.00000, -0.07144, -0.0234812, -0.06251, -0.020546, -0.07144, -0.0234812, 1.75793E-010, -7.02475E-010
0, 1560.00000, -0.0714402, -0.0234813, -0.0625091, -0.0205457, -0.0714407, -0.0234814, 1.49476E-010, -7.25679E-010
0, 1620.00000, -0.07144, -0.0234812, -0.06251, -0.020546, -0.07144, -0.0234812, 1.4941E-010, -7.25487E-010
0, 1680.00000, -0.07144, -0.0234812, -0.06251, -0.020546, -0.07144, -0.0234812, 1.49409E-010, -7.25486E-010
0, 1740.00000, -0.07144, -0.0234812, -0.06251, -0.020546, -0.07144, -0.0234812, 1.49409E-010, -7.25486E-010
0, 1800.00000, -0.07144, -0.0234812, -0.06251, -0.020546, -0.07144, -0.0234812, 1.49409E-010, -7.25486E-010
0, 1860.00000, -0.0714396, -0.023481, -0.0803709, -0.0264167, -0.0446492, -0.0146755, 2.05793E-009, -9.24231E-009
0, 1920.00000, -0.07144, -0.0234812, -0.08037, -0.0264164, -0.04465, -0.0146758, 2.05768E-009, -9.24172E-009
0, 1980.00000, -0.07144, -0.0234812, -0.08037, -0.0264164, -0.04465, -0.0146758, 2.05768E-009, -9.24172E-009
0, 2040.00000, -0.07144, -0.0234812, -0.08037, -0.0264164, -0.04465, -0.0146758, 2.05768E-009, -9.24172E-009
0, 2100.00000, -0.07144, -0.0234812, -0.08037, -0.0264164, -0.04465, -0.0146758, 2.05768E-009, -9.24172E-009
0, 2160.00000, -0.0714409, -0.0234815, -0.0982305, -0.0322869, -0.0892992, -0.0293512, 2.07296E-009, -3.63891E-009
0, 2220.00000, -0.07144, -0.0234812, -0.09823, -0.0322866, -0.0893, -0.0293515, 2.07305E-009, -3.63904E-009
0, 2280.00000, -0.07144, -0.0234812, -0.09823, -0.0322866, -0.0893, -0.0293515, 2.07306E-009, -3.63905E-009
0, 2340.00000, -0.07144, -0.0234812, -0.09823, -0.0322866, -0.0893, -0.0293515, 2.07306E-009, -3.63905E-009
0, 2400.00000, -0.07144, -0.0234812, -0.09823, -0.0322866, -0.0893, -0.0293515, 2.07306E-009, -3.63905E-009
0, 2460.00000, -0.08037, -0.0264162, -0.0803713, -0.0264169, -0.0625085, -0.0205456, 5.89933E-010, -2.88562E-009
0, 2520.00000, -0.08037, -0.0264163, -0.08037, -0.0264164, -0.06251, -0.020546, 5.89716E-010, -2.88508E-009
0, 2580.00000, -0.08037, -0.0264163, -0.08037, -0.0264164, -0.06251, -0.0205461, 5.89714E-010, -2.88508E-009
0, 2640.00000, -0.08037, -0.0264163, -0.08037, -0.0264164, -0.06251, -0.0205461, 5.89714E-010, -2.88508E-009
0, 2700.00000, -0.08037, -0.0264163, -0.08037, -0.0264164, -0.06251, -0.0205461, 5.89714E-010, -2.88508E-009
0, 2760.00000, -0.0892991, -0.0293511, -0.0535808, -0.0176112, -0.0803699, -0.0264164, 2.50193E-009, -8.96958E-009
0, 2820.00000, -0.0893, -0.0293515, -0.05358, -0.0176109, -0.08037, -0.0264163, 2.50219E-009, -8.97024E-009
0, 2880.00000, -0.0893, -0.0293515, -0.05358, -0.0176109, -0.08037, -0.0264163, 2.50219E-009, -8.97025E-009
0, 2940.00000, -0.0893, -0.0293515, -0.05358, -0.0176109, -0.08037, -0.0264163, 2.50219E-009, -8.97025E-009
0, 3000.00000, -0.0893, -0.0293515, -0.05358, -0.0176109, -0.08037, -0.0264163, 2.50219E-009, -8.97025E-009
0, 3060.00000, -0.0714416, -0.0234819, -0.0803673, -0.0264155, -0.0803707, -0.0264164, 3.14432E-010, -4.70495E-010
0, 3120.00000, -0.07144, -0.0234812, -0.08037, -0.0264163, -0.08037, -0.0264164, 3.14585E-010, -4.70823E-010
0, 3180.00000, -0.07144, -0.0234812, -0.08037, -0.0264163, -0.08037, -0.0264163, 3.14585E-010, -4.70825E-010
0, 3240.00000, -0.07144, -0.0234812, -0.08037, -0.0264163, -0.08037, -0.0264163, 3.14585E-010, -4.70825E-010
0, 3300.00000, -0.07144, -0.0234812, -0.08037, -0.0264163, -0.08037, -0.0264163, 3.14585E-010, -4.70825E-010
0, 3360.00000, -0.0535799, -0.0176108, -0.0714384, -0.0234806, -0.0714416, -0.0234817, 1.14679E-009, -2.16684E-009
0, 3420.00000, -0.05358, -0.0176109, -0.07144, -0.0234812, -0.07144, -0.0234812, 1.14676E-009, -2.16684E-009
0, 3480.00000, -0.05358, -0.0176109, -0.07144, -0.0234812, -0.07144, -0.0234812, 1.14676E-009, -2.16684E-009
0, 3540.00000, -0.05358, -0.0176109, -0.07144, -0.0234812, -0.07144, -0.0234812, 1.14676E-009, -2.16684E-009
1, 0.00000, -0.05358, -0.0176109, -0.07144, -0.0234812, -0.07144, -0.0234812, 1.14676E-009, -2.16684E-009
1, 60.00000, -0.0625122, -0.0205468, -0.062512, -0.0205467, -0.0535814, -0.0176114, 1.60319E-010, -6.53585E-010
1, 120.00000, -0.06251, -0.020546, -0.06251, -0.0205461, -0.05358, -0.0176109, 1.60294E-010, -6.53484E-010
1, 180.00000, -0.06251, -0.020546, -0.06251, -0.020546, -0.05358, -0.0176109, 1.60294E-010, -6.53483E-010
1, 240.00000, -0.06251, -0.020546, -0.06251, -0.020546, -0.05358, -0.0176109, 1.60294E-010, -6.53483E-010
1, 300.00000, -0.06251, -0.020546, -0.06251, -0.020546, -0.05358, -0.0176109, 1.60294E-010, -6.53483E-010
1, 360.00000, -0.0625084, -0.0205455, -0.0625102, -0.0205461, -0.0446513, -0.0146761, 5.39722E-010, -2.90404E-009
1, 420.00000, -0.06251, -0.020546, -0.06251, -0.0205461, -0.04465, -0.0146758, 5.39871E-010, -2.90469E-009
1, 480.00000, -0.06251, -0.020546, -0.06251, -0.0205461, -0.04465, -0.0146758, 5.39871E-010, -2.9047E-009
1, 540.00000, -0.06251, -0.020546, -0.06251, -0.0205461, -0.04465, -0.0146758, 5.39871E-010, -2.9047E-009
1, 600.00000, -0.06251, -0.020546, -0.06251, -0.0205461, -0.04465, -0.0146758, 5.39871E-010, -2.9047E-009
1, 660.00000, -0.0714408, -0.0234814, -0.06251, -0.0205461, -0.0714392, -0.0234808, 8.21074E-011, -7.97386E-010
1, 720.00000, -0.07144, -0.0234812, -0.06251, -0.020546, -0.07144, -0.0234812, 8.21263E-011, -7.9737E-010
1, 780.00000, -0.07144, -0.0234812, -0.06251, -0.020546, -0.07144, -0.0234812, 8.21261E-011, -7.97368E-010
1, 840.00000, -0.07144, -0.0234812, -0.06251, -0.020546, -0.07144, -0.0234812, 8.21261E-011, -7.97368E-010
1, 900.00000, -0.07144, -0.0234812, -0.06251, -0.020546, -0.07144, -0.0234812, 8.21261E-011, -7.97368E-010
1, 960.00000, -0.0625081, -0.0205454, -0.0625111, -0.0205464, -0.0625103, -0.0205463, -1.36402E-011, -1.96581E-012
1, 1020.00000, -0.06251, -0.020546, -0.06251, -0.0205461, -0.06251, -0.020546, -1.36669E-011, -2.01411E-012
1, 1080.00000, -0.06251, -0.020546, -0.06251, -0.020546, -0.06251, -0.020546, -1.36672E-011, -2.01461E-012
1, 1140.00000, -0.06251, -0.020546, -0.06251, -0.020546, -0.06251, -0.020546, -1.36672E-011, -2.01462E-012
1, 1200.00000, -0.06251, -0.020546, -0.06251, -0.020546, -0.06251, -0.020546, -1.36672E-011, -2.01462E-012
1, 1260.00000, -0.053582, -0.0176115, -0.0535796, -0.0176107, -0.0625089, -0.0205455, 1.37853E-010, -7.15732E-010
1, 1320.00000, -0.05358, -0.0176109, -0.05358, -0.0176109, -0.06251, -0.020546, 1.37977E-010, -7.15983E-010
1, 1380.00000, -0.05358, -0.0176109, -0.05358, -0.0176109, -0.06251, -0.020546, 1.37978E-010, -7.15983E-010
1, 1440.00000, -0.05358, -0.0176109, -0.05358, -0.0176109, -0.06251, -0.020546, 1.37978E-010, -7.15983E-010
1, 1500.00000, -0.05358, -0.0176109, -0.05358, -0.0176109, -0.06251, -0.020546, 1.37978E-010, -7.15983E-010
1, 1560.00000, -0.062509, -0.0205457, -0.0625111, -0.0205464, -0.0535798, -0.0176109, 1.05188E-010, -7.16257E-010
1, 1620.00000, -0.06251, -0.020546, -0.06251, -0.0205461, -0.05358, -0.0176109, 1.05139E-010, -7.16298E-010
1, 1680.00000, -0.06251, -0.020546, -0.06251, -0.020546, -0.05358, -0.0176109, 1.05138E-010, -7.16297E-010
1, 1740.00000, -0.06251, -0.020546, -0.06251, -0.020546, -0.05358, -0.0176109, 1.05138E-010, -7.16297E-010
1, 1800.00000, -0.06251, -0.020546, -0.06251, -0.020546, -0.05358, -0.0176109, 1.05138E-010, -7.16297E-010
1, 1860.00000, -0.0625089, -0.0205457, -0.0535801, -0.017611, -0.0625109, -0.0205464, -1.21365E-010, -1.017E-009
1, 1920.00000, -0.06251, -0.020546, -0.05358, -0.0176109, -0.06251, -0.020546, -1.21372E-010, -1.01704E-009
1, 1980.00000, -0.06251, -0.020546, -0.05358, -0.0176109, -0.06251, -0.020546, -1.21372E-010, -1.01704E-009
1, 2040.00000, -0.06251, -0.020546, -0.05358, -0.0176109, -0.06251, -0.020546, -1.21372E-010, -1.01704E-009
1, 2100.00000, -0.06251, -0.020546, -0.05358, -0.0176109, -0.06251, -0.020546, -1.21372E-010, -1.01704E-009
1, 2160.00000, -0.0714411, -0.0234815, -0.0625097, -0.020546, -0.0625092, -0.0205457, -6.22938E-011, -9.86313E-010
1, 2220.00000, -0.07144, -0.0234812, -0.06251, -0.020546, -0.06251, -0.020546, -6.23465E-011, -9.8602E-010
1, 2280.00000, -0.07144, -0.0234812, -0.06251, -0.0205461, -0.06251, -0.020546, -6.23472E-011, -9.86016E-010
1, 2340.00000, -0.07144, -0.0234812, -0.06251, -0.0205461, -0.06251, -0.020546, -6.23472E-011, -9.86016E-010
1, 2400.00000, -0.07144, -0.0234812, -0.06251, -0.0205461, -0.06251, -0.020546, -6.23472E-011, -9.86016E-010
1, 2460.00000, -0.0446555, -0.0146779, -0.0535834, -0.0176118, -0.0625044, -0.020544, 7.69856E-010, -1.73813E-009
1, 2520.00000, -0.0446501, -0.0146758, -0.05358, -0.0176109, -0.06251, -0.020546, 7.70832E-010, -1.74046E-009
1, 2580.00000, -0.04465, -0.0146758, -0.05358, -0.0176109, -0.06251, -0.020546, 7.70844E-010, -1.74049E-009
1, 2640.00000, -0.04465, -0.0146758, -0.05358, -0.0176109, -0.06251, -0.020546, 7.70845E-010, -1.74049E-009
1, 2700.00000, -0.04465, -0.0146758, -0.05358, -0.0176109, -0.06251, -0.020546, 7.70845E-010, -1.74049E-009
1, 2760.00000, -0.0535797, -0.0176108, -0.0535794, -0.0176107, -0.0803704, -0.0264164, 1.88748E-009, -5.85714E-009
1, 2820.00000, -0.05358, -0.0176109, -0.05358, -0.0176109, -0.08037, -0.0264163, 1.88735E-009, -5.85676E-009
1, 2880.00000, -0.05358, -0.0176109, -0.05358, -0.0176109, -0.08037, -0.0264163, 1.88734E-009, -5.85676E-009
1, 2940.00000, -0.05358, -0.0176109, -0.05358, -0.0176109, -0.08037, -0.0264163, 1.88734E-009, -5.85676E-009
1, 3000.00000, -0.05358, -0.0176109, -0.05358, -0.0176109, -0.08037, -0.0264163, 1.88734E-009, -5.85676E-009
1, 3060.00000, -0.0714392, -0.0234809, -0.0625106, -0.0205462, -0.0535804, -0.0176111, 2.97835E-010, -2.35998E-009
1, 3120.00000, -0.07144, -0.0234812, -0.06251, -0.0205461, -0.05358, -0.0176109, 2.97907E-010, -2.3603E-009
1, 3180.00000, -0.07144, -0.0234812, -0.06251, -0.0205461, -0.05358, -0.0176109, 2.97907E-010, -2.3603E-009
1, 3240.00000, -0.07144, -0.0234812, -0.06251, -0.0205461, -0.05358, -0.0176109, 2.97907E-010, -2.3603E-009
1, 3300.00000, -0.07144, -0.0234812, -0.06251, -0.0205461, -0.05358, -0.0176109, 2.97907E-010, -2.3603E-009
1, 3360.00000, -0.0535817, -0.0176114, -0.0714375, -0.0234804, -0.0625104, -0.020546, 9.93785E-010, -1.31833E-009
1, 3420.00000, -0.05358, -0.0176109, -0.07144, -0.0234812, -0.06251, -0.0205461, 9.94194E-010, -1.31905E-009
1, 3480.00000, -0.05358, -0.0176109, -0.07144, -0.0234812, -0.06251, -0.0205461, 9.94198E-010, -1.31906E-009
1, 3540.00000, -0.05358, -0.0176109, -0.07144, -0.0234812, -0.06251, -0.0205461, 9.94198E-010, -1.31906E-009
2, 0.00000, -0.05358, -0.0176109, -0.07144, -0.0234812, -0.06251, -0.0205461, 9.94198E-010, -1.31906E-009
2, 60.00000, -0.0357199, -0.0117406, -0.053581, -0.0176112, -0.0446502, -0.0146758, 8.68004E-010, -1.51185E-009
2, 120.00000, -0.03572, -0.0117406, -0.05358, -0.0176109, -0.04465, -0.0146758, 8.67898E-010, -1.51163E-009
2, 180.00000, -0.03572, -0.0117406, -0.05358, -0.0176109, -0.04465, -0.0146758, 8.67897E-010, -1.51163E-009
2, 240.00000, -0.03572, -0.0117406, -0.05358, -0.0176109, -0.04465, -0.0146758, 8.67897E-010, -1.51163E-009
2, 300.00000, -0.03572, -0.0117406, -0.05358, -0.0176109, -0.04465, -0.0146758, 8.67897E-010, -1.51163E-009
2, 360.00000, -0.0535796, -0.0176108, -0.0446508, -0.014676, -0.0446496, -0.0146756, 8.73435E-011, -8.11767E-010
2, 420.00000, -0.05358, -0.0176109, -0.04465, -0.0146758, -0.04465, -0.0146757, 8.73634E-011, -8.11866E-010
2, 480.00000, -0.05358, -0.0176109, -0.04465, -0.0146758, -0.04465, -0.0146757, 8.73632E-011, -8.11866E-010
2, 540.00000, -0.05358, -0.0176109, -0.04465, -0.0146758, -0.04465, -0.0146757, 8.73632E-011, -8.11866E-010
2, 600.00000, -0.05358, -0.0176109, -0.04465, -0.0146758, -0.04465, -0.0146757, 8.73632E-011, -8.11866E-010
2, 660.00000, -0.0625142, -0.0205473, -0.0535853, -0.0176125, -0.0625053, -0.0205445, 1.3697E-010, -7.51042E-010
2, 720.00000, -0.0625101, -0.0205461, -0.05358, -0.0176109, -0.0625099, -0.020546, 1.37276E-010, -7.5177E-010
2, 780.00000, -0.06251, -0.020546, -0.05358, -0.0176109, -0.06251, -0.020546, 1.37277E-010, -7.5177E-010
2, 840.00000, -0.06251, -0.020546, -0.05358, -0.0176109, -0.06251, -0.020546, 1.37277E-010, -7.51769E-010
2, 900.00000, -0.06251, -0.020546, -0.05358, -0.0176109, -0.06251, -0.020546, 1.37277E-010, -7.51769E-010
2, 960.00000, -0.0625099, -0.020546, -0.0535786, -0.0176105, -0.0535812, -0.0176113, 8.92743E-011, -8.11098E-010
2, 1020.00000, -0.06251, -0.020546, -0.05358, -0.0176109, -0.05358, -0.0176109, 8.92765E-011, -8.11103E-010
2, 1080.00000, -0.06251, -0.020546, -0.05358, -0.0176109, -0.05358, -0.0176109, 8.92772E-011, -8.11105E-010
2, 1140.00000, -0.06251, -0.020546, -0.05358, -0.0176109, -0.05358, -0.0176109, 8.92772E-011, -8.11105E-010
2, 1200.00000, -0.06251, -0.020546, -0.05358, -0.0176109, -0.05358, -0.0176109, 8.92772E-011, -8.11105E-010
2, 1260.00000, -0.053585, -0.0176125, -0.0446506, -0.0146756, -0.035719, -0.0117405, 5.76875E-010, -2.0232E-009
2, 1320.00000, -0.0535801, -0.0176109, -0.04465, -0.0146757, -0.03572, -0.0117406, 5.76399E-010, -2.0218E-009
2, 1380.00000, -0.05358, -0.0176109, -0.04465, -0.0146758, -0.03572, -0.0117406, 5.76394E-010, -2.02179E-009
2, 1440.00000, -0.05358, -0.0176109, -0.04465, -0.0146758, -0.03572, -0.0117406, 5.76394E-010, -2.02178E-009
2, 1500.00000, -0.05358, -0.0176109, -0.04465, -0.0146758, -0.03572, -0.0117406, 5.76394E-010, -2.02178E-009
2, 1560.00000, -0.0357195, -0.0117406, -0.044651, -0.014676, -0.0446498, -0.0146756, 1.69317E-010, -6.78793E-010
2, 1620.00000, -0.03572, -0.0117406, -0.04465, -0.0146757, -0.04465, -0.0146757, 1.69283E-010, -6.78657E-010
2, 1680.00000, -0.03572, -0.0117406, -0.04465, -0.0146757, -0.04465, -0.0146757, 1.69283E-010, -6.78657E-010
2, 1740.00000, -0.03572, -0.0117406, -0.04465, -0.0146757, -0.04465, -0.0146757, 1.69283E-010, -6.78657E-010
2, 1800.00000, -0.03572, -0.0117406, -0.04465, -0.0146757, -0.04465, -0.0146757, 1.69283E-010, -6.78657E-010
2, 1860.00000, -0.0446489, -0.0146753, -0.0625066, -0.0205449, -0.0625082, -0.0205453, 1.16275E-009, -2.07407E-009
2, 1920.00000, -0.04465, -0.0146757, -0.06251, -0.020546, -0.06251, -0.0205461, 1.16294E-009, -2.07442E-009
2, 1980.00000, -0.04465, -0.0146758, -0.06251, -0.020546, -0.06251, -0.0205461, 1.16294E-009, -2.07442E-009
2, 2040.00000, -0.04465, -0.0146758, -0.06251, -0.020546, -0.06251, -0.0205461, 1.16294E-009, -2.07442E-009
2, 2100.00000, -0.04465, -0.0146758, -0.06251, -0.020546, -0.06251, -0.0205461, 1.16294E-009, -2.07442E-009
2, 2160.00000, -0.0625085, -0.0205455, -0.0446514, -0.0146763, -0.0625119, -0.0205468, 6.49587E-010, -2.85234E-009
2, 2220.00000, -0.06251, -0.020546, -0.04465, -0.0146758, -0.06251, -0.020546, 6.49721E-010, -2.85261E-009
2, 2280.00000, -0.06251, -0.0205461, -0.04465, -0.0146758, -0.06251, -0.020546, 6.49725E-010, -2.85262E-009
2, 2340.00000, -0.06251, -0.0205461, -0.04465, -0.0146758, -0.06251, -0.020546, 6.49726E-010, -2.85262E-009
2, 2400.00000, -0.06251, -0.0205461, -0.04465, -0.0146758, -0.06251, -0.020546, 6.49726E-010, -2.85262E-009
2, 2460.00000, -0.0535793, -0.0176107, -0.0535805, -0.0176111, -0.0625102, -0.0205462, 1.74779E-010, -6.65504E-010
2, 2520.00000, -0.05358, -0.0176109, -0.05358, -0.0176109, -0.06251, -0.020546, 1.74753E-010, -6.65484E-010
2, 2580.00000, -0.05358, -0.0176109, -0.05358, -0.0176109, -0.06251, -0.020546, 1.74753E-010, -6.65484E-010
2, 2640.00000, -0.05358, -0.0176109, -0.05358, -0.0176109, -0.06251, -0.020546, 1.74753E-010, -6.65484E-010
2, 2700.00000, -0.05358, -0.0176109, -0.05358, -0.0176109, -0.06251, -0.020546, 1.74753E-010, -6.65484E-010
2, 2760.00000, -0.0446505, -0.0146759, -0.0714392, -0.0234809, -0.0446502, -0.0146758, 1.91464E-009, -5.6462E-009
2, 2820.00000, -0.04465, -0.0146757, -0.07144, -0.0234812, -0.04465, -0.0146758, 1.91484E-009, -5.64669E-009
2, 2880.00000, -0.04465, -0.0146757, -0.07144, -0.0234812, -0.04465, -0.0146758, 1.91484E-009, -5.6467E-009
2, 2940.00000, -0.04465, -0.0146757, -0.07144, -0.0234812, -0.04465, -0.0146758, 1.91484E-009, -5.6467E-009
2, 3000.00000, -0.04465, -0.0146757, -0.07144, -0.0234812, -0.04465, -0.0146758, 1.91484E-009, -5.6467E-009
2, 3060.00000, -0.0535815, -0.0176114, -0.0357201, -0.0117404, -0.0625083, -0.0205454, 1.32778E-009, -4.76323E-009
2, 3120.00000, -0.05358, -0.0176109, -0.03572, -0.0117406, -0.06251, -0.020546, 1.32794E-009, -4.76375E-009
2, 3180.00000, -0.05358, -0.0176109, -0.03572, -0.0117406, -0.06251, -0.020546, 1.32794E-009, -4.76375E-009
2, 3240.00000, -0.05358, -0.0176109, -0.03572, -0.0117406, -0.06251, -0.020546, 1.32794E-009, -4.76375E-009
2, 3300.00000, -0.05358, -0.0176109, -0.03572, -0.0117406, -0.06251, -0.020546, 1.32794E-009, -4.76375E-009
2, 3360.00000, -0.0625081, -0.0205454, -0.0625098, -0.0205459, -0.0535819, -0.0176115, 1.70235E-010, -6.00396E-010
2, 3420.00000, -0.06251, -0.020546, -0.06251, -0.0205461, -0.05358, -0.0176109, 1.70357E-010, -6.00845E-010
2, 3480.00000, -0.06251, -0.020546, -0.06251, -0.020546, -0.05358, -0.0176109, 1.70358E-010, -6.00849E-010
2, 3540.00000, -0.06251, -0.020546, -0.06251, -0.020546, -0.05358, -0.0176109, 1.70358E-010, -6.00849E-010
3, 0.00000, -0.06251, -0.020546, -0.06251, -0.020546, -0.05358, -0.0176109, 1.70358E-010, -6.00849E-010
3, 60.00000, -0.0535796, -0.0176108, -0.0535798, -0.0176108, -0.0535799, -0.0176109, -3.8176E-011, -7.09506E-013
3, 120.00000, -0.05358, -0.0176109, -0.05358, -0.0176109, -0.05358, -0.0176109, -3.81805E-011, -7.15808E-013
