hour, t(sec), P1 (kW), Q1 (kvar), P2 (kW), Q2 (kvar), P3 (kW), Q3 (kvar), P4 (kW), Q4 (kvar)
0, 60.00000, -0.1976, -0.0649509, -0.197597, -0.0649464, -0.222303, -0.073065, 2.98942E-007, -1.64449E-007
0, 120.00000, -0.1976, -0.0649507, -0.197598, -0.0649466, -0.222303, -0.073065, 2.98932E-007, -1.64442E-007
0, 180.00000, -0.1976, -0.0649507, -0.197598, -0.0649466, -0.222303, -0.073065, 2.98932E-007, -1.64442E-007
0, 240.00000, -0.1976, -0.0649507, -0.197598, -0.0649466, -0.222303, -0.073065, 2.98932E-007, -1.64442E-007
0, 300.00000, -0.1976, -0.0649507, -0.197598, -0.0649466, -0.222303, -0.073065, 2.98932E-007, -1.64442E-007
0, 360.00000, -0.247013, -0.0811834, -0.172895, -0.0568415, -0.172896, -0.0568183, 5.7941E-006, 1.70837E-007
0, 420.00000, -0.247019, -0.0811855, -0.172893, -0.0568409, -0.172894, -0.0568177, 5.79528E-006, 1.70761E-007
0, 480.00000, -0.247019, -0.0811855, -0.172893, -0.0568409, -0.172894, -0.0568177, 5.79529E-006, 1.7076E-007
0, 540.00000, -0.247019, -0.0811855, -0.172893, -0.0568409, -0.172894, -0.0568177, 5.79529E-006, 1.7076E-007
0, 600.00000, -0.247019, -0.0811855, -0.172893, -0.0568409, -0.172894, -0.0568177, 5.79529E-006, 1.7076E-007
0, 660.00000, -0.172905, -0.0568342, -0.172896, -0.0568283, -0.197598, -0.0649439, 3.39838E-007, -3.10525E-007
0, 720.00000, -0.172901, -0.0568327, -0.172897, -0.0568285, -0.197603, -0.0649454, 3.40022E-007, -3.10619E-007
0, 780.00000, -0.172901, -0.0568327, -0.172897, -0.0568285, -0.197603, -0.0649454, 3.40023E-007, -3.1062E-007
0, 840.00000, -0.172901, -0.0568327, -0.172897, -0.0568285, -0.197603, -0.0649454, 3.40023E-007, -3.1062E-007
0, 900.00000, -0.172901, -0.0568327, -0.172897, -0.0568285, -0.197603, -0.0649454, 3.40023E-007, -3.1062E-007
0, 960.00000, -0.222317, -0.0730685, -0.148196, -0.0487208, -0.172889, -0.0568152, 4.87808E-006, -1.00894E-006
0, 1020.00000, -0.222317, -0.0730686, -0.148193, -0.0487199, -0.172895, -0.0568174, 4.87812E-006, -1.00918E-006
0, 1080.00000, -0.222317, -0.0730686, -0.148193, -0.0487199, -0.172895, -0.0568174, 4.87811E-006, -1.00918E-006
0, 1140.00000, -0.222317, -0.0730686, -0.148193, -0.0487199, -0.172895, -0.0568174, 4.87811E-006, -1.00918E-006
0, 1200.00000, -0.222317, -0.0730686, -0.148193, -0.0487199, -0.172895, -0.0568174, 4.87811E-006, -1.00918E-006
0, 1260.00000, -0.197603, -0.0649264, -0.247014, -0.0812034, -0.123493, -0.0405973, 1.15855E-005, 2.40359E-006
0, 1320.00000, -0.197607, -0.0649273, -0.247018, -0.0812053, -0.123487, -0.0405952, 1.15873E-005, 2.40348E-006
0, 1380.00000, -0.197607, -0.0649274, -0.247018, -0.0812053, -0.123487, -0.0405952, 1.15873E-005, 2.40348E-006
0, 1440.00000, -0.197607, -0.0649274, -0.247018, -0.0812053, -0.123487, -0.0405952, 1.15873E-005, 2.40348E-006
0, 1500.00000, -0.197607, -0.0649274, -0.247018, -0.0812053, -0.123487, -0.0405952, 1.15873E-005, 2.40348E-006
0, 1560.00000, -0.197604, -0.0649404, -0.222302, -0.0730722, -0.172896, -0.0568319, 1.75983E-006, 6.17336E-007
0, 1620.00000, -0.197603, -0.0649399, -0.222306, -0.0730738, -0.172893, -0.0568308, 1.76028E-006, 6.17394E-007
0, 1680.00000, -0.197603, -0.0649399, -0.222306, -0.0730738, -0.172893, -0.0568308, 1.76028E-006, 6.17394E-007
0, 1740.00000, -0.197603, -0.0649399, -0.222306, -0.0730738, -0.172893, -0.0568308, 1.76028E-006, 6.17394E-007
0, 1800.00000, -0.197603, -0.0649399, -0.222306, -0.0730738, -0.172893, -0.0568308, 1.76028E-006, 6.17394E-007
0, 1860.00000, -0.197596, -0.0649353, -0.247018, -0.0811913, -0.172888, -0.056835, 4.04813E-006, -7.58497E-008
0, 1920.00000, -0.197598, -0.064936, -0.247015, -0.0811898, -0.172892, -0.0568365, 4.04729E-006, -7.57689E-008
0, 1980.00000, -0.197598, -0.064936, -0.247014, -0.0811898, -0.172892, -0.0568365, 4.04728E-006, -7.5768E-008
0, 2040.00000, -0.197598, -0.064936, -0.247014, -0.0811898, -0.172892, -0.0568365, 4.04728E-006, -7.5768E-008
0, 2100.00000, -0.197598, -0.064936, -0.247014, -0.0811898, -0.172892, -0.0568365, 4.04728E-006, -7.5768E-008
0, 2160.00000, -0.172905, -0.0568284, -0.197604, -0.0649509, -0.172894, -0.0568289, 2.27202E-007, 2.73929E-007
0, 2220.00000, -0.172901, -0.0568272, -0.197602, -0.0649502, -0.172898, -0.0568299, 2.27064E-007, 2.73858E-007
0, 2280.00000, -0.172901, -0.0568272, -0.197602, -0.0649502, -0.172898, -0.0568299, 2.27063E-007, 2.73858E-007
0, 2340.00000, -0.172901, -0.0568272, -0.197602, -0.0649502, -0.172898, -0.0568299, 2.27063E-007, 2.73858E-007
0, 2400.00000, -0.172901, -0.0568272, -0.197602, -0.0649502, -0.172898, -0.0568299, 2.27063E-007, 2.73858E-007
0, 2460.00000, -0.247008, -0.0811835, -0.222303, -0.0730749, -0.222288, -0.0730584, 7.8675E-007, -9.73143E-008
0, 2520.00000, -0.247008, -0.0811841, -0.222297, -0.0730728, -0.222296, -0.0730609, 7.86695E-007, -9.74248E-008
0, 2580.00000, -0.247008, -0.0811841, -0.222297, -0.0730728, -0.222296, -0.0730609, 7.86693E-007, -9.74253E-008
0, 2640.00000, -0.247008, -0.0811841, -0.222297, -0.0730728, -0.222296, -0.0730609, 7.86693E-007, -9.74253E-008
0, 2700.00000, -0.247008, -0.0811841, -0.222297, -0.0730728, -0.222296, -0.0730609, 7.86693E-007, -9.74253E-008
0, 2760.00000, -0.222301, -0.0730536, -0.222312, -0.0730772, -0.197589, -0.0649496, 1.34014E-006, -2.64909E-007
0, 2820.00000, -0.222304, -0.073055, -0.222308, -0.0730759, -0.197589, -0.0649497, 1.34008E-006, -2.65149E-007
0, 2880.00000, -0.222304, -0.073055, -0.222308, -0.0730759, -0.197589, -0.0649497, 1.34008E-006, -2.65151E-007
0, 2940.00000, -0.222304, -0.073055, -0.222308, -0.0730759, -0.197589, -0.0649497, 1.34008E-006, -2.65151E-007
0, 3000.00000, -0.222304, -0.073055, -0.222308, -0.0730759, -0.197589, -0.0649497, 1.34008E-006, -2.65151E-007
0, 3060.00000, -0.197611, -0.0649419, -0.197595, -0.0649526, -0.172894, -0.0568313, 1.20471E-006, -1.01988E-007
0, 3120.00000, -0.197604, -0.0649393, -0.197605, -0.0649559, -0.172892, -0.0568301, 1.20499E-006, -1.0155E-007
0, 3180.00000, -0.197604, -0.0649393, -0.197605, -0.0649559, -0.172892, -0.0568301, 1.20499E-006, -1.01548E-007
0, 3240.00000, -0.197604, -0.0649393, -0.197605, -0.0649559, -0.172892, -0.0568301, 1.20499E-006, -1.01548E-007
0, 3300.00000, -0.197604, -0.0649393, -0.197605, -0.0649559, -0.172892, -0.0568301, 1.20499E-006, -1.01548E-007
0, 3360.00000, -0.172898, -0.0568253, -0.197598, -0.0649464, -0.172904, -0.0568352, 6.0305E-007, 8.74814E-008
0, 3420.00000, -0.172898, -0.0568256, -0.197605, -0.0649487, -0.172897, -0.0568328, 6.03546E-007, 8.74513E-008
0, 3480.00000, -0.172898, -0.0568256, -0.197605, -0.0649487, -0.172897, -0.0568328, 6.03549E-007, 8.74509E-008
0, 3540.00000, -0.172898, -0.0568256, -0.197605, -0.0649487, -0.172897, -0.0568328, 6.03549E-007, 8.74509E-008
1, 0.00000, -0.172898, -0.0568256, -0.197605, -0.0649487, -0.172897, -0.0568328, 6.03549E-007, 8.74509E-008
1, 60.00000, -0.148201, -0.0487185, -0.172907, -0.0568225, -0.222321, -0.0730749, 3.6894E-006, 3.60732E-007
1, 120.00000, -0.148193, -0.0487159, -0.172899, -0.0568197, -0.222312, -0.0730717, 3.68925E-006, 3.60681E-007
1, 180.00000, -0.148193, -0.0487159, -0.172899, -0.0568197, -0.222311, -0.0730717, 3.68925E-006, 3.60681E-007
1, 240.00000, -0.148193, -0.0487159, -0.172899, -0.0568197, -0.222311, -0.0730717, 3.68925E-006, 3.60681E-007
1, 300.00000, -0.148193, -0.0487159, -0.172899, -0.0568197, -0.222311, -0.0730717, 3.68925E-006, 3.60681E-007
1, 360.00000, -0.172895, -0.0568307, -0.148198, -0.0487109, -0.17291, -0.0568292, 4.84129E-007, 8.78303E-008
1, 420.00000, -0.172901, -0.0568327, -0.148197, -0.0487105, -0.172902, -0.0568268, 4.84053E-007, 8.78293E-008
1, 480.00000, -0.172901, -0.0568327, -0.148197, -0.0487105, -0.172902, -0.0568268, 4.84056E-007, 8.78294E-008
1, 540.00000, -0.172901, -0.0568327, -0.148197, -0.0487105, -0.172902, -0.0568268, 4.84056E-007, 8.78294E-008
1, 600.00000, -0.172901, -0.0568327, -0.148197, -0.0487105, -0.172902, -0.0568268, 4.84056E-007, 8.78294E-008
1, 660.00000, -0.148205, -0.0487014, -0.172909, -0.0568384, -0.0987896, -0.0324753, 4.75007E-006, 3.0631E-007
1, 720.00000, -0.148203, -0.0487006, -0.172909, -0.0568383, -0.0987931, -0.0324759, 4.74963E-006, 3.06437E-007
1, 780.00000, -0.148203, -0.0487006, -0.172909, -0.0568383, -0.0987931, -0.0324759, 4.74962E-006, 3.06439E-007
1, 840.00000, -0.148203, -0.0487006, -0.172909, -0.0568383, -0.0987931, -0.0324759, 4.74962E-006, 3.06439E-007
1, 900.00000, -0.148203, -0.0487006, -0.172909, -0.0568383, -0.0987931, -0.0324759, 4.74962E-006, 3.06439E-007
1, 960.00000, -0.197601, -0.0649448, -0.148201, -0.0487185, -0.148198, -0.0487048, 2.31017E-006, 2.51653E-009
1, 1020.00000, -0.197609, -0.0649479, -0.148197, -0.048717, -0.148197, -0.0487051, 2.31124E-006, 2.39671E-009
1, 1080.00000, -0.197609, -0.0649479, -0.148197, -0.0487169, -0.148197, -0.0487051, 2.31125E-006, 2.39497E-009
1, 1140.00000, -0.197609, -0.0649479, -0.148197, -0.0487169, -0.148197, -0.0487051, 2.31125E-006, 2.39495E-009
1, 1200.00000, -0.197609, -0.0649479, -0.148197, -0.0487169, -0.148197, -0.0487051, 2.31125E-006, 2.39495E-009
1, 1260.00000, -0.123497, -0.0405937, -0.197607, -0.064935, -0.1976, -0.0649606, 5.93237E-006, 6.93869E-007
1, 1320.00000, -0.12349, -0.0405913, -0.197609, -0.0649351, -0.197606, -0.0649626, 5.93377E-006, 6.9387E-007
1, 1380.00000, -0.12349, -0.0405913, -0.19761, -0.0649352, -0.197606, -0.0649626, 5.93379E-006, 6.93868E-007
1, 1440.00000, -0.12349, -0.0405913, -0.19761, -0.0649352, -0.197606, -0.0649626, 5.93379E-006, 6.93868E-007
1, 1500.00000, -0.12349, -0.0405913, -0.19761, -0.0649352, -0.197606, -0.0649626, 5.93379E-006, 6.93868E-007
1, 1560.00000, -0.148192, -0.0487138, -0.148203, -0.0487063, -0.197607, -0.0649504, 1.95381E-006, 7.141E-007
1, 1620.00000, -0.148195, -0.048715, -0.148199, -0.0487048, -0.197608, -0.0649508, 1.95377E-006, 7.14142E-007
1, 1680.00000, -0.148195, -0.0487151, -0.148199, -0.0487048, -0.197608, -0.0649508, 1.95378E-006, 7.14143E-007
1, 1740.00000, -0.148195, -0.0487151, -0.148199, -0.0487048, -0.197608, -0.0649508, 1.95378E-006, 7.14143E-007
1, 1800.00000, -0.148195, -0.0487151, -0.148199, -0.0487048, -0.197608, -0.0649508, 1.95378E-006, 7.14143E-007
1, 1860.00000, -0.148192, -0.0487043, -0.197609, -0.0649472, -0.148202, -0.0487179, 2.1746E-006, -1.5511E-007
1, 1920.00000, -0.148196, -0.0487055, -0.197609, -0.0649475, -0.148197, -0.0487168, 2.1746E-006, -1.55148E-007
1, 1980.00000, -0.148196, -0.0487055, -0.197609, -0.0649474, -0.148197, -0.0487168, 2.17459E-006, -1.55147E-007
1, 2040.00000, -0.148196, -0.0487055, -0.197609, -0.0649474, -0.148197, -0.0487168, 2.17459E-006, -1.55147E-007
1, 2100.00000, -0.148196, -0.0487055, -0.197609, -0.0649474, -0.148197, -0.0487168, 2.17459E-006, -1.55147E-007
1, 2160.00000, -0.197608, -0.0649362, -0.197608, -0.0649576, -0.148186, -0.0487126, 3.32151E-006, -8.92803E-007
1, 2220.00000, -0.197604, -0.0649348, -0.19761, -0.0649577, -0.14819, -0.0487136, 3.321E-006, -8.92479E-007
1, 2280.00000, -0.197604, -0.0649348, -0.19761, -0.0649577, -0.14819, -0.0487136, 3.321E-006, -8.92476E-007
1, 2340.00000, -0.197604, -0.0649348, -0.19761, -0.0649577, -0.14819, -0.0487136, 3.321E-006, -8.92476E-007
1, 2400.00000, -0.197604, -0.0649348, -0.19761, -0.0649577, -0.14819, -0.0487136, 3.321E-006, -8.92476E-007
1, 2460.00000, -0.172932, -0.0568305, -0.148217, -0.0487229, -0.123469, -0.0405833, 2.1779E-006, -3.46986E-007
1, 2520.00000, -0.172907, -0.0568241, -0.148201, -0.0487184, -0.123494, -0.0405901, 2.17428E-006, -3.46523E-007
1, 2580.00000, -0.172907, -0.056824, -0.148201, -0.0487185, -0.123494, -0.0405902, 2.17423E-006, -3.46512E-007
1, 2640.00000, -0.172907, -0.056824, -0.148201, -0.0487185, -0.123494, -0.0405902, 2.17423E-006, -3.46511E-007
1, 2700.00000, -0.172907, -0.056824, -0.148201, -0.0487185, -0.123494, -0.0405902, 2.17423E-006, -3.46511E-007
1, 2760.00000, -0.197602, -0.0649588, -0.148189, -0.0487081, -0.222311, -0.073058, 3.77204E-006, -2.78307E-007
1, 2820.00000, -0.197603, -0.064959, -0.148192, -0.0487088, -0.222309, -0.0730573, 3.77165E-006, -2.78251E-007
1, 2880.00000, -0.197603, -0.064959, -0.148192, -0.0487088, -0.222309, -0.0730573, 3.77165E-006, -2.78251E-007
1, 2940.00000, -0.197603, -0.064959, -0.148192, -0.0487088, -0.222309, -0.0730573, 3.77165E-006, -2.78251E-007
1, 3000.00000, -0.197603, -0.064959, -0.148192, -0.0487088, -0.222309, -0.0730573, 3.77165E-006, -2.78251E-007
1, 3060.00000, -0.172903, -0.0568226, -0.172905, -0.0568383, -0.148196, -0.0487095, 1.16087E-006, 3.05089E-007
1, 3120.00000, -0.172906, -0.0568236, -0.172902, -0.0568375, -0.148193, -0.0487091, 1.16113E-006, 3.04973E-007
1, 3180.00000, -0.172906, -0.0568237, -0.172902, -0.0568375, -0.148193, -0.0487091, 1.16113E-006, 3.0497E-007
1, 3240.00000, -0.172906, -0.0568237, -0.172902, -0.0568375, -0.148193, -0.0487091, 1.16113E-006, 3.0497E-007
1, 3300.00000, -0.172906, -0.0568237, -0.172902, -0.0568375, -0.148193, -0.0487091, 1.16113E-006, 3.0497E-007
1, 3360.00000, -0.123505, -0.0405941, -0.148192, -0.0487069, -0.148202, -0.0487138, 2.1356E-007, 3.90212E-008
1, 3420.00000, -0.123499, -0.0405923, -0.148201, -0.04871, -0.148201, -0.0487123, 2.13911E-007, 3.9102E-008
1, 3480.00000, -0.123499, -0.0405923, -0.148201, -0.04871, -0.1482, -0.0487122, 2.13914E-007, 3.91039E-008
1, 3540.00000, -0.123499, -0.0405923, -0.148201, -0.04871, -0.1482, -0.0487122, 2.13914E-007, 3.9104E-008
2, 0.00000, -0.123499, -0.0405923, -0.148201, -0.04871, -0.1482, -0.0487122, 2.13914E-007, 3.9104E-008
2, 60.00000, -0.148203, -0.0487119, -0.123502, -0.0405956, -0.148201, -0.0487078, 4.13017E-007, -3.53193E-007
2, 120.00000, -0.148203, -0.048712, -0.123498, -0.0405943, -0.148199, -0.0487078, 4.13175E-007, -3.53264E-007
2, 180.00000, -0.148203, -0.048712, -0.123498, -0.0405943, -0.148199, -0.0487078, 4.13176E-007, -3.53265E-007
2, 240.00000, -0.148203, -0.048712, -0.123498, -0.0405943, -0.148199, -0.0487078, 4.13176E-007, -3.53265E-007
2, 300.00000, -0.148203, -0.048712, -0.123498, -0.0405943, -0.148199, -0.0487078, 4.13176E-007, -3.53265E-007
2, 360.00000, -0.172904, -0.0568181, -0.17291, -0.056841, -0.123489, -0.0405915, 3.44003E-006, -1.08736E-007
2, 420.00000, -0.172906, -0.0568189, -0.172906, -0.0568397, -0.123491, -0.0405927, 3.43972E-006, -1.08862E-007
2, 480.00000, -0.172906, -0.0568189, -0.172906, -0.0568397, -0.123491, -0.0405927, 3.43972E-006, -1.08862E-007
2, 540.00000, -0.172906, -0.0568189, -0.172906, -0.0568397, -0.123491, -0.0405927, 3.43972E-006, -1.08862E-007
2, 600.00000, -0.172906, -0.0568189, -0.172906, -0.0568397, -0.123491, -0.0405927, 3.43972E-006, -1.08862E-007
2, 660.00000, -0.148216, -0.0487152, -0.148223, -0.048718, -0.148175, -0.0487027, -1.2099E-010, -3.2979E-010
2, 720.00000, -0.1482, -0.0487109, -0.1482, -0.048711, -0.1482, -0.048711, -1.62581E-010, -2.86813E-010
2, 780.00000, -0.1482, -0.0487108, -0.1482, -0.048711, -0.1482, -0.0487111, -1.62849E-010, -2.86042E-010
2, 840.00000, -0.1482, -0.0487108, -0.1482, -0.048711, -0.1482, -0.0487111, -1.62848E-010, -2.86033E-010
2, 900.00000, -0.1482, -0.0487108, -0.1482, -0.048711, -0.1482, -0.0487111, -1.62848E-010, -2.86033E-010
2, 960.00000, -0.19761, -0.06495, -0.148189, -0.0487155, -0.148203, -0.048706, 2.64938E-006, 3.47666E-007
2, 1020.00000, -0.197611, -0.0649493, -0.148195, -0.0487173, -0.148197, -0.0487037, 2.64931E-006, 3.47832E-007
2, 1080.00000, -0.197611, -0.0649493, -0.148195, -0.0487173, -0.148197, -0.0487036, 2.64932E-006, 3.47834E-007
2, 1140.00000, -0.197611, -0.0649493, -0.148195, -0.0487173, -0.148197, -0.0487036, 2.64932E-006, 3.47834E-007
2, 1200.00000, -0.197611, -0.0649493, -0.148195, -0.0487173, -0.148197, -0.0487036, 2.64932E-006, 3.47834E-007
2, 1260.00000, -0.123513, -0.0405983, -0.148207, -0.0487072, -0.148194, -0.0487142, 9.13298E-007, 1.02818E-008
2, 1320.00000, -0.123496, -0.0405925, -0.148203, -0.0487062, -0.148203, -0.0487158, 9.14426E-007, 1.03725E-008
2, 1380.00000, -0.123495, -0.0405924, -0.148203, -0.0487062, -0.148203, -0.0487158, 9.14442E-007, 1.03703E-008
2, 1440.00000, -0.123495, -0.0405924, -0.148203, -0.0487062, -0.148203, -0.0487158, 9.14442E-007, 1.03703E-008
2, 1500.00000, -0.123495, -0.0405924, -0.148203, -0.0487062, -0.148203, -0.0487158, 9.14442E-007, 1.03703E-008
2, 1560.00000, -0.148205, -0.0487091, -0.123502, -0.0405994, -0.123495, -0.0405867, 1.19339E-006, -1.73652E-007
2, 1620.00000, -0.148207, -0.0487099, -0.123498, -0.040598, -0.123496, -0.0405878, 1.19367E-006, -1.73834E-007
2, 1680.00000, -0.148207, -0.0487099, -0.123498, -0.040598, -0.123496, -0.0405878, 1.19367E-006, -1.73837E-007
2, 1740.00000, -0.148207, -0.0487099, -0.123498, -0.040598, -0.123496, -0.0405878, 1.19367E-006, -1.73837E-007
2, 1800.00000, -0.148207, -0.0487099, -0.123498, -0.040598, -0.123496, -0.0405878, 1.19367E-006, -1.73837E-007
2, 1860.00000, -0.148197, -0.0487128, -0.148181, -0.0487035, -0.172895, -0.0568269, 3.94679E-007, -7.01477E-008
2, 1920.00000, -0.148199, -0.0487133, -0.148198, -0.0487091, -0.172903, -0.056829, 3.94624E-007, -7.00904E-008
2, 1980.00000, -0.148199, -0.0487133, -0.148198, -0.0487091, -0.172903, -0.056829, 3.94618E-007, -7.00889E-008
2, 2040.00000, -0.148199, -0.0487133, -0.148198, -0.0487091, -0.172903, -0.056829, 3.94618E-007, -7.00889E-008
2, 2100.00000, -0.148199, -0.0487133, -0.148198, -0.0487091, -0.172903, -0.056829, 3.94618E-007, -7.00889E-008
2, 2160.00000, -0.148192, -0.0487046, -0.172915, -0.0568339, -0.148206, -0.0487152, 6.5632E-007, 1.57036E-007
2, 2220.00000, -0.148199, -0.048707, -0.172905, -0.0568307, -0.148197, -0.0487139, 6.55959E-007, 1.56883E-007
2, 2280.00000, -0.148199, -0.0487071, -0.172905, -0.0568306, -0.148197, -0.0487139, 6.55949E-007, 1.56881E-007
2, 2340.00000, -0.148199, -0.0487071, -0.172905, -0.0568306, -0.148197, -0.0487139, 6.55949E-007, 1.56881E-007
2, 2400.00000, -0.148199, -0.0487071, -0.172905, -0.0568306, -0.148197, -0.0487139, 6.55949E-007, 1.56881E-007
2, 2460.00000, -0.123496, -0.0405831, -0.172914, -0.0568343, -0.0987958, -0.0324782, 4.62574E-006, -1.89685E-008
2, 2520.00000, -0.123498, -0.0405839, -0.172912, -0.0568335, -0.0987947, -0.0324786, 4.62545E-006, -1.90455E-008
2, 2580.00000, -0.123498, -0.0405839, -0.172912, -0.0568335, -0.0987947, -0.0324786, 4.62544E-006, -1.90457E-008
2, 2640.00000, -0.123498, -0.0405839, -0.172912, -0.0568335, -0.0987947, -0.0324786, 4.62544E-006, -1.90457E-008
2, 2700.00000, -0.123498, -0.0405839, -0.172912, -0.0568335, -0.0987947, -0.0324786, 4.62544E-006, -1.90457E-008
2, 2760.00000, -0.148201, -0.0487084, -0.172901, -0.0568294, -0.148199, -0.0487142, 5.71699E-007, 1.354E-007
2, 2820.00000, -0.148199, -0.0487076, -0.172904, -0.0568305, -0.148198, -0.0487135, 5.71904E-007, 1.35418E-007
2, 2880.00000, -0.148199, -0.0487076, -0.172904, -0.0568305, -0.148198, -0.0487135, 5.71907E-007, 1.35418E-007
2, 2940.00000, -0.148199, -0.0487076, -0.172904, -0.0568305, -0.148198, -0.0487135, 5.71907E-007, 1.35418E-007
2, 3000.00000, -0.148199, -0.0487076, -0.172904, -0.0568305, -0.148198, -0.0487135, 5.71907E-007, 1.35418E-007
2, 3060.00000, -0.123503, -0.0405923, -0.148204, -0.0487092, -0.148191, -0.0487127, 5.31471E-007, 4.13428E-007
2, 3120.00000, -0.123497, -0.0405904, -0.148204, -0.0487094, -0.148199, -0.048715, 5.31733E-007, 4.1358E-007
2, 3180.00000, -0.123497, -0.0405904, -0.148204, -0.0487094, -0.148199, -0.048715, 5.31739E-007, 4.13582E-007
2, 3240.00000, -0.123497, -0.0405904, -0.148204, -0.0487094, -0.148199, -0.048715, 5.31739E-007, 4.13582E-007
2, 3300.00000, -0.123497, -0.0405904, -0.148204, -0.0487094, -0.148199, -0.048715, 5.31739E-007, 4.13582E-007
2, 3360.00000, -0.148194, -0.048705, -0.148201, -0.0487143, -0.123506, -0.0405949, 6.81455E-007, -6.35521E-008
2, 3420.00000, -0.148202, -0.0487073, -0.148202, -0.0487144, -0.123497, -0.0405928, 6.82095E-007, -6.36973E-008
2, 3480.00000, -0.148202, -0.0487073, -0.148202, -0.0487143, -0.123497, -0.0405928, 6.821E-007, -6.36994E-008
2, 3540.00000, -0.148202, -0.0487073, -0.148202, -0.0487143, -0.123497, -0.0405928, 6.821E-007, -6.36994E-008
3, 0.00000, -0.148202, -0.0487073, -0.148202, -0.0487143, -0.123497, -0.0405928, 6.821E-007, -6.36994E-008
