hour, t(sec), P1 (kW), Q1 (kvar), P2 (kW), Q2 (kvar), P3 (kW), Q3 (kvar), P4 (kW), Q4 (kvar)
0, 60.00000, -0.331204, -0.105393, -0.366831, -0.117099, -0.295584, -0.0936801, 8.71942E-009, -2.59291E-008
0, 120.00000, -0.331215, -0.105384, -0.36684, -0.117094, -0.29559, -0.0936752, 8.71861E-009, -2.59273E-008
0, 180.00000, -0.331215, -0.105384, -0.36684, -0.117094, -0.29559, -0.0936752, 8.71861E-009, -2.59274E-008
0, 240.00000, -0.331215, -0.105384, -0.36684, -0.117094, -0.29559, -0.0936752, 8.71861E-009, -2.59274E-008
0, 300.00000, -0.331215, -0.105384, -0.36684, -0.117094, -0.29559, -0.0936752, 8.71861E-009, -2.59274E-008
0, 360.00000, -0.295587, -0.0936718, -0.366835, -0.117096, -0.259971, -0.081967, 2.32486E-008, -6.19452E-008
0, 420.00000, -0.29559, -0.0936746, -0.366841, -0.117094, -0.259965, -0.081966, 2.32529E-008, -6.19599E-008
0, 480.00000, -0.29559, -0.0936746, -0.366841, -0.117094, -0.259965, -0.081966, 2.32529E-008, -6.19599E-008
0, 540.00000, -0.29559, -0.0936746, -0.366841, -0.117094, -0.259965, -0.081966, 2.32529E-008, -6.19599E-008
0, 600.00000, -0.29559, -0.0936746, -0.366841, -0.117094, -0.259965, -0.081966, 2.32529E-008, -6.19599E-008
0, 660.00000, -0.259968, -0.0819684, -0.402469, -0.1288, -0.33121, -0.105384, 4.66358E-008, -1.00403E-007
0, 720.00000, -0.259964, -0.0819655, -0.402465, -0.128802, -0.331215, -0.105385, 4.66384E-008, -1.00408E-007
0, 780.00000, -0.259964, -0.0819655, -0.402465, -0.128802, -0.331215, -0.105385, 4.66384E-008, -1.00408E-007
0, 840.00000, -0.259964, -0.0819655, -0.402465, -0.128802, -0.331215, -0.105385, 4.66384E-008, -1.00408E-007
0, 900.00000, -0.259964, -0.0819655, -0.402465, -0.128802, -0.331215, -0.105385, 4.66384E-008, -1.00408E-007
0, 960.00000, -0.224404, -0.0703299, -0.366818, -0.117048, -0.259884, -0.0819286, 4.75262E-008, -1.1346E-007
0, 1020.00000, -0.22434, -0.0702562, -0.36684, -0.117093, -0.259965, -0.0819663, 4.75559E-008, -1.13509E-007
0, 1080.00000, -0.22434, -0.070256, -0.366841, -0.117093, -0.259965, -0.0819662, 4.75564E-008, -1.1351E-007
0, 1140.00000, -0.22434, -0.070256, -0.366841, -0.117093, -0.259965, -0.0819662, 4.75564E-008, -1.1351E-007
0, 1200.00000, -0.22434, -0.070256, -0.366841, -0.117093, -0.259965, -0.0819662, 4.75564E-008, -1.1351E-007
0, 1260.00000, -0.224335, -0.0702604, -0.366844, -0.117093, -0.224341, -0.0702529, 5.48029E-008, -1.43296E-007
0, 1320.00000, -0.22434, -0.0702559, -0.366841, -0.117093, -0.22434, -0.0702568, 5.47937E-008, -1.4327E-007
0, 1380.00000, -0.22434, -0.0702559, -0.366841, -0.117093, -0.22434, -0.0702568, 5.47937E-008, -1.4327E-007
0, 1440.00000, -0.22434, -0.0702559, -0.366841, -0.117093, -0.22434, -0.0702568, 5.47937E-008, -1.4327E-007
0, 1500.00000, -0.22434, -0.0702559, -0.366841, -0.117093, -0.22434, -0.0702568, 5.47937E-008, -1.4327E-007
0, 1560.00000, -0.33122, -0.105386, -0.259968, -0.0819638, -0.25996, -0.0819659, 7.8886E-009, -4.44276E-008
0, 1620.00000, -0.331215, -0.105384, -0.259965, -0.0819659, -0.259965, -0.0819654, 7.88594E-009, -4.44165E-008
0, 1680.00000, -0.331215, -0.105384, -0.259965, -0.0819659, -0.259965, -0.0819654, 7.88594E-009, -4.44165E-008
0, 1740.00000, -0.331215, -0.105384, -0.259965, -0.0819659, -0.259965, -0.0819654, 7.88594E-009, -4.44165E-008
0, 1800.00000, -0.331215, -0.105384, -0.259965, -0.0819659, -0.259965, -0.0819654, 7.88594E-009, -4.44165E-008
0, 1860.00000, -0.259963, -0.081965, -0.29559, -0.093675, -0.29559, -0.0936762, 5.11834E-009, -6.48156E-009
0, 1920.00000, -0.259965, -0.0819656, -0.29559, -0.0936748, -0.29559, -0.0936751, 5.11811E-009, -6.48111E-009
0, 1980.00000, -0.259965, -0.0819656, -0.29559, -0.0936748, -0.29559, -0.0936751, 5.11811E-009, -6.48111E-009
0, 2040.00000, -0.259965, -0.0819656, -0.29559, -0.0936748, -0.29559, -0.0936751, 5.11811E-009, -6.48111E-009
0, 2100.00000, -0.259965, -0.0819656, -0.29559, -0.0936748, -0.29559, -0.0936751, 5.11811E-009, -6.48111E-009
0, 2160.00000, -0.295592, -0.0936754, -0.29559, -0.093674, -0.295589, -0.0936744, -4.30143E-010, -2.52049E-011
0, 2220.00000, -0.29559, -0.0936749, -0.29559, -0.093675, -0.29559, -0.093675, -4.29892E-010, -2.49538E-011
0, 2280.00000, -0.29559, -0.0936749, -0.29559, -0.093675, -0.29559, -0.093675, -4.2989E-010, -2.49519E-011
0, 2340.00000, -0.29559, -0.0936749, -0.29559, -0.093675, -0.29559, -0.093675, -4.2989E-010, -2.49519E-011
0, 2400.00000, -0.29559, -0.0936749, -0.29559, -0.093675, -0.29559, -0.093675, -4.2989E-010, -2.49519E-011
0, 2460.00000, -0.295588, -0.0936713, -0.331211, -0.105387, -0.295593, -0.0936765, 4.1714E-009, -6.62434E-009
0, 2520.00000, -0.29559, -0.0936748, -0.331215, -0.105384, -0.29559, -0.0936752, 4.17212E-009, -6.62769E-009
0, 2580.00000, -0.29559, -0.0936748, -0.331215, -0.105384, -0.29559, -0.0936752, 4.17211E-009, -6.62768E-009
0, 2640.00000, -0.29559, -0.0936748, -0.331215, -0.105384, -0.29559, -0.0936752, 4.17211E-009, -6.62768E-009
0, 2700.00000, -0.29559, -0.0936748, -0.331215, -0.105384, -0.29559, -0.0936752, 4.17211E-009, -6.62768E-009
0, 2760.00000, -0.295587, -0.093677, -0.33122, -0.105385, -0.295591, -0.0936724, 4.1305E-009, -6.68327E-009
0, 2820.00000, -0.29559, -0.0936748, -0.331215, -0.105384, -0.29559, -0.0936752, 4.12824E-009, -6.67877E-009
0, 2880.00000, -0.29559, -0.0936748, -0.331215, -0.105384, -0.29559, -0.0936752, 4.12823E-009, -6.67876E-009
0, 2940.00000, -0.29559, -0.0936748, -0.331215, -0.105384, -0.29559, -0.0936752, 4.12823E-009, -6.67876E-009
0, 3000.00000, -0.29559, -0.0936748, -0.331215, -0.105384, -0.29559, -0.0936752, 4.12823E-009, -6.67876E-009
0, 3060.00000, -0.331217, -0.105387, -0.295595, -0.0936729, -0.331206, -0.105384, 1.20332E-009, -1.30448E-008
0, 3120.00000, -0.331215, -0.105384, -0.29559, -0.0936751, -0.331215, -0.105384, 1.2051E-009, -1.30475E-008
0, 3180.00000, -0.331215, -0.105384, -0.29559, -0.0936751, -0.331215, -0.105384, 1.2051E-009, -1.30474E-008
0, 3240.00000, -0.331215, -0.105384, -0.29559, -0.0936751, -0.331215, -0.105384, 1.2051E-009, -1.30474E-008
0, 3300.00000, -0.331215, -0.105384, -0.29559, -0.0936751, -0.331215, -0.105384, 1.2051E-009, -1.30474E-008
0, 3360.00000, -0.331216, -0.10538, -0.36683, -0.117096, -0.259973, -0.0819678, 1.97113E-008, -6.56752E-008
0, 3420.00000, -0.331215, -0.105384, -0.366841, -0.117094, -0.259965, -0.0819659, 1.97207E-008, -6.5705E-008
0, 3480.00000, -0.331215, -0.105384, -0.366841, -0.117094, -0.259965, -0.0819659, 1.97207E-008, -6.57051E-008
0, 3540.00000, -0.331215, -0.105384, -0.366841, -0.117094, -0.259965, -0.0819659, 1.97207E-008, -6.57051E-008
1, 0.00000, -0.331215, -0.105384, -0.366841, -0.117094, -0.259965, -0.0819659, 1.97207E-008, -6.57051E-008
1, 60.00000, -0.196116, -0.0585468, -0.267374, -0.0819669, -0.267374, -0.0819601, 1.62886E-008, -3.3396E-008
1, 120.00000, -0.19612, -0.058547, -0.26737, -0.0819653, -0.267371, -0.0819658, 1.62838E-008, -3.33845E-008
1, 180.00000, -0.19612, -0.058547, -0.26737, -0.0819653, -0.267371, -0.0819658, 1.62838E-008, -3.33846E-008
1, 240.00000, -0.19612, -0.058547, -0.26737, -0.0819653, -0.267371, -0.0819658, 1.62838E-008, -3.33846E-008
1, 300.00000, -0.19612, -0.058547, -0.26737, -0.0819653, -0.267371, -0.0819658, 1.62838E-008, -3.33846E-008
1, 360.00000, -0.267362, -0.0819673, -0.231749, -0.0702611, -0.196125, -0.0585401, 5.83036E-009, -3.18638E-008
1, 420.00000, -0.26737, -0.0819654, -0.231745, -0.0702564, -0.19612, -0.0585468, 5.83316E-009, -3.18774E-008
1, 480.00000, -0.26737, -0.0819653, -0.231745, -0.0702565, -0.19612, -0.0585469, 5.83316E-009, -3.18774E-008
1, 540.00000, -0.26737, -0.0819653, -0.231745, -0.0702565, -0.19612, -0.0585469, 5.83316E-009, -3.18774E-008
1, 600.00000, -0.26737, -0.0819653, -0.231745, -0.0702565, -0.19612, -0.0585469, 5.83316E-009, -3.18774E-008
1, 660.00000, -0.231752, -0.0702589, -0.19612, -0.0585402, -0.231738, -0.0702596, 1.95167E-009, -1.18253E-008
1, 720.00000, -0.231745, -0.0702563, -0.19612, -0.0585469, -0.231745, -0.0702561, 1.9516E-009, -1.18205E-008
1, 780.00000, -0.231745, -0.0702563, -0.19612, -0.0585469, -0.231745, -0.0702561, 1.95159E-009, -1.18204E-008
1, 840.00000, -0.231745, -0.0702563, -0.19612, -0.0585469, -0.231745, -0.0702561, 1.95159E-009, -1.18204E-008
1, 900.00000, -0.231745, -0.0702563, -0.19612, -0.0585469, -0.231745, -0.0702561, 1.95159E-009, -1.18204E-008
1, 960.00000, -0.231741, -0.070252, -0.267367, -0.0819695, -0.124876, -0.03513, 3.73855E-008, -1.22986E-007
1, 1020.00000, -0.231745, -0.0702557, -0.267371, -0.0819658, -0.12487, -0.0351283, 3.73934E-008, -1.23013E-007
1, 1080.00000, -0.231745, -0.0702557, -0.267371, -0.0819658, -0.12487, -0.0351283, 3.73934E-008, -1.23013E-007
1, 1140.00000, -0.231745, -0.0702557, -0.267371, -0.0819658, -0.12487, -0.0351283, 3.73934E-008, -1.23013E-007
1, 1200.00000, -0.231745, -0.0702557, -0.267371, -0.0819658, -0.12487, -0.0351283, 3.73934E-008, -1.23013E-007
1, 1260.00000, -0.231744, -0.0702574, -0.23175, -0.070257, -0.196118, -0.0585438, 2.01967E-009, -9.9207E-009
1, 1320.00000, -0.231745, -0.0702561, -0.231745, -0.0702563, -0.19612, -0.0585469, 2.01848E-009, -9.91766E-009
1, 1380.00000, -0.231745, -0.0702561, -0.231745, -0.0702563, -0.19612, -0.0585469, 2.01848E-009, -9.91765E-009
1, 1440.00000, -0.231745, -0.0702561, -0.231745, -0.0702563, -0.19612, -0.0585469, 2.01848E-009, -9.91765E-009
1, 1500.00000, -0.231745, -0.0702561, -0.231745, -0.0702563, -0.19612, -0.0585469, 2.01848E-009, -9.91765E-009
1, 1560.00000, -0.267373, -0.0819684, -0.231745, -0.0702529, -0.302992, -0.0936755, 8.61319E-009, -3.13753E-008
1, 1620.00000, -0.26737, -0.0819658, -0.231745, -0.0702562, -0.302995, -0.0936747, 8.615E-009, -3.13788E-008
1, 1680.00000, -0.26737, -0.0819658, -0.231745, -0.0702562, -0.302995, -0.0936747, 8.615E-009, -3.13788E-008
1, 1740.00000, -0.26737, -0.0819658, -0.231745, -0.0702562, -0.302995, -0.0936747, 8.615E-009, -3.13788E-008
1, 1800.00000, -0.26737, -0.0819658, -0.231745, -0.0702562, -0.302995, -0.0936747, 8.615E-009, -3.13788E-008
1, 1860.00000, -0.231744, -0.0702551, -0.267369, -0.0819676, -0.267373, -0.0819646, 4.8864E-009, -6.85906E-009
1, 1920.00000, -0.231745, -0.0702563, -0.26737, -0.0819655, -0.26737, -0.0819657, 4.88502E-009, -6.85615E-009
1, 1980.00000, -0.231745, -0.0702563, -0.26737, -0.0819655, -0.26737, -0.0819657, 4.88502E-009, -6.85614E-009
1, 2040.00000, -0.231745, -0.0702563, -0.26737, -0.0819655, -0.26737, -0.0819657, 4.88502E-009, -6.85614E-009
1, 2100.00000, -0.231745, -0.0702563, -0.26737, -0.0819655, -0.26737, -0.0819657, 4.88502E-009, -6.85614E-009
1, 2160.00000, -0.302994, -0.0936731, -0.231746, -0.0702589, -0.231746, -0.0702557, 8.11364E-009, -4.36475E-008
1, 2220.00000, -0.302996, -0.0936748, -0.231745, -0.0702565, -0.231745, -0.0702561, 8.11533E-009, -4.36542E-008
1, 2280.00000, -0.302996, -0.0936748, -0.231745, -0.0702565, -0.231745, -0.0702561, 8.11533E-009, -4.36542E-008
1, 2340.00000, -0.302996, -0.0936748, -0.231745, -0.0702565, -0.231745, -0.0702561, 8.11533E-009, -4.36542E-008
1, 2400.00000, -0.302996, -0.0936748, -0.231745, -0.0702565, -0.231745, -0.0702561, 8.11533E-009, -4.36542E-008
1, 2460.00000, -0.231743, -0.070218, -0.338538, -0.105403, -0.231829, -0.0702883, 3.13686E-008, -7.70133E-008
1, 2520.00000, -0.231745, -0.070256, -0.338621, -0.105384, -0.231745, -0.0702566, 3.14374E-008, -7.72281E-008
1, 2580.00000, -0.231745, -0.070256, -0.338621, -0.105384, -0.231745, -0.0702566, 3.14373E-008, -7.7228E-008
1, 2640.00000, -0.231745, -0.070256, -0.338621, -0.105384, -0.231745, -0.0702566, 3.14373E-008, -7.7228E-008
1, 2700.00000, -0.231745, -0.070256, -0.338621, -0.105384, -0.231745, -0.0702566, 3.14373E-008, -7.7228E-008
1, 2760.00000, -0.302997, -0.0936776, -0.267372, -0.081964, -0.267365, -0.0819651, 4.20438E-010, -1.2756E-008
1, 2820.00000, -0.302995, -0.0936749, -0.26737, -0.0819658, -0.26737, -0.0819655, 4.19728E-010, -1.27519E-008
1, 2880.00000, -0.302995, -0.0936749, -0.26737, -0.0819658, -0.26737, -0.0819655, 4.19727E-010, -1.27519E-008
1, 2940.00000, -0.302995, -0.0936749, -0.26737, -0.0819658, -0.26737, -0.0819655, 4.19727E-010, -1.27519E-008
1, 3000.00000, -0.302995, -0.0936749, -0.26737, -0.0819658, -0.26737, -0.0819655, 4.19727E-010, -1.27519E-008
1, 3060.00000, -0.267371, -0.0819644, -0.196118, -0.0585467, -0.267372, -0.081967, 1.01844E-008, -4.28766E-008
1, 3120.00000, -0.267371, -0.0819658, -0.19612, -0.058547, -0.26737, -0.0819653, 1.01829E-008, -4.28714E-008
1, 3180.00000, -0.267371, -0.0819658, -0.19612, -0.058547, -0.26737, -0.0819653, 1.01829E-008, -4.28714E-008
1, 3240.00000, -0.267371, -0.0819658, -0.19612, -0.058547, -0.26737, -0.0819653, 1.01829E-008, -4.28714E-008
1, 3300.00000, -0.267371, -0.0819658, -0.19612, -0.058547, -0.26737, -0.0819653, 1.01829E-008, -4.28714E-008
1, 3360.00000, -0.231747, -0.0702533, -0.302991, -0.0936771, -0.231748, -0.0702569, 1.45077E-008, -3.29407E-008
1, 3420.00000, -0.231745, -0.0702561, -0.302996, -0.0936748, -0.231745, -0.0702565, 1.451E-008, -3.29478E-008
1, 3480.00000, -0.231745, -0.0702561, -0.302996, -0.0936748, -0.231745, -0.0702565, 1.451E-008, -3.29478E-008
1, 3540.00000, -0.231745, -0.0702561, -0.302996, -0.0936748, -0.231745, -0.0702565, 1.451E-008, -3.29478E-008
2, 0.00000, -0.231745, -0.0702561, -0.302996, -0.0936748, -0.231745, -0.0702565, 1.451E-008, -3.29478E-008
2, 60.00000, -0.255242, -0.0819714, -0.183995, -0.0585402, -0.219609, -0.0702545, 6.42136E-009, -3.33816E-008
2, 120.00000, -0.25524, -0.0819656, -0.183989, -0.058547, -0.219614, -0.070256, 6.42142E-009, -3.33787E-008
2, 180.00000, -0.25524, -0.0819656, -0.183989, -0.058547, -0.219614, -0.070256, 6.42141E-009, -3.33787E-008
2, 240.00000, -0.25524, -0.0819656, -0.183989, -0.058547, -0.219614, -0.070256, 6.42141E-009, -3.33787E-008
2, 300.00000, -0.25524, -0.0819656, -0.183989, -0.058547, -0.219614, -0.070256, 6.42141E-009, -3.33787E-008
2, 360.00000, -0.255236, -0.0819589, -0.219611, -0.0702637, -0.219623, -0.0702565, 9.60964E-010, -1.17735E-008
2, 420.00000, -0.25524, -0.0819655, -0.219614, -0.0702564, -0.219614, -0.0702561, 9.62957E-010, -1.17834E-008
2, 480.00000, -0.25524, -0.0819655, -0.219614, -0.0702564, -0.219614, -0.0702562, 9.62962E-010, -1.17835E-008
2, 540.00000, -0.25524, -0.0819655, -0.219614, -0.0702564, -0.219614, -0.0702562, 9.62962E-010, -1.17835E-008
2, 600.00000, -0.25524, -0.0819655, -0.219614, -0.0702564, -0.219614, -0.0702562, 9.62962E-010, -1.17835E-008
2, 660.00000, -0.18398, -0.0585383, -0.219633, -0.0702742, -0.183996, -0.0585516, 3.78624E-009, -7.64934E-009
2, 720.00000, -0.183989, -0.0585468, -0.219615, -0.0702562, -0.183989, -0.0585469, 3.78165E-009, -7.64181E-009
2, 780.00000, -0.183989, -0.0585468, -0.219615, -0.0702562, -0.183989, -0.058547, 3.78161E-009, -7.64171E-009
2, 840.00000, -0.183989, -0.0585468, -0.219615, -0.0702562, -0.183989, -0.058547, 3.78161E-009, -7.64171E-009
2, 900.00000, -0.183989, -0.0585468, -0.219615, -0.0702562, -0.183989, -0.058547, 3.78161E-009, -7.64171E-009
2, 960.00000, -0.219615, -0.0702555, -0.219612, -0.0702569, -0.18399, -0.0585475, 1.87211E-009, -9.80981E-009
2, 1020.00000, -0.219614, -0.0702561, -0.219615, -0.0702563, -0.183989, -0.0585469, 1.87264E-009, -9.81119E-009
2, 1080.00000, -0.219614, -0.0702561, -0.219615, -0.0702563, -0.183989, -0.0585469, 1.87264E-009, -9.81121E-009
2, 1140.00000, -0.219614, -0.0702561, -0.219615, -0.0702563, -0.183989, -0.0585469, 1.87264E-009, -9.81121E-009
2, 1200.00000, -0.219614, -0.0702561, -0.219615, -0.0702563, -0.183989, -0.0585469, 1.87264E-009, -9.81121E-009
2, 1260.00000, -0.183971, -0.0585403, -0.184023, -0.0585344, -0.183977, -0.0585539, -1.40763E-010, -6.74017E-012
2, 1320.00000, -0.183989, -0.0585467, -0.183989, -0.0585469, -0.183989, -0.0585469, -1.40774E-010, -7.62686E-012
2, 1380.00000, -0.183989, -0.0585468, -0.183989, -0.0585469, -0.183989, -0.0585469, -1.40777E-010, -7.62679E-012
2, 1440.00000, -0.183989, -0.0585468, -0.183989, -0.0585469, -0.183989, -0.0585469, -1.40777E-010, -7.6268E-012
2, 1500.00000, -0.183989, -0.0585468, -0.183989, -0.0585469, -0.183989, -0.0585469, -1.40777E-010, -7.6268E-012
2, 1560.00000, -0.255244, -0.0819659, -0.183987, -0.058542, -0.183988, -0.0585511, 8.90793E-009, -4.21672E-008
2, 1620.00000, -0.25524, -0.0819654, -0.183989, -0.0585471, -0.183989, -0.0585467, 8.90389E-009, -4.21522E-008
2, 1680.00000, -0.25524, -0.0819654, -0.183989, -0.0585471, -0.183989, -0.0585467, 8.9039E-009, -4.21522E-008
2, 1740.00000, -0.25524, -0.0819654, -0.183989, -0.0585471, -0.183989, -0.0585467, 8.9039E-009, -4.21522E-008
2, 1800.00000, -0.25524, -0.0819654, -0.183989, -0.0585471, -0.183989, -0.0585467, 8.9039E-009, -4.21522E-008
2, 1860.00000, -0.18394, -0.0585561, -0.219635, -0.0702758, -0.219634, -0.0702335, 4.65477E-009, -7.39448E-009
2, 1920.00000, -0.183989, -0.058547, -0.219614, -0.0702561, -0.219614, -0.0702563, 4.63413E-009, -7.35242E-009
2, 1980.00000, -0.183989, -0.0585469, -0.219614, -0.0702561, -0.219615, -0.0702563, 4.63415E-009, -7.35247E-009
2, 2040.00000, -0.183989, -0.0585469, -0.219614, -0.0702561, -0.219615, -0.0702563, 4.63415E-009, -7.35247E-009
2, 2100.00000, -0.183989, -0.0585469, -0.219614, -0.0702561, -0.219615, -0.0702563, 4.63415E-009, -7.35247E-009
2, 2160.00000, -0.2197, -0.0702941, -0.219593, -0.0701706, -0.219535, -0.0702873, -2.27017E-010, -1.90695E-011
2, 2220.00000, -0.219615, -0.0702561, -0.219614, -0.0702561, -0.219614, -0.0702565, -2.14349E-010, -4.11116E-012
2, 2280.00000, -0.219614, -0.0702562, -0.219614, -0.0702562, -0.219614, -0.0702562, -2.14333E-010, -4.07504E-012
2, 2340.00000, -0.219614, -0.0702562, -0.219614, -0.0702562, -0.219614, -0.0702562, -2.14333E-010, -4.07511E-012
2, 2400.00000, -0.219614, -0.0702562, -0.219614, -0.0702562, -0.219614, -0.0702562, -2.14333E-010, -4.07511E-012
2, 2460.00000, -0.219615, -0.070258, -0.219615, -0.0702535, -0.219613, -0.0702571, -2.67427E-010, -2.10554E-011
2, 2520.00000, -0.219614, -0.0702562, -0.219614, -0.0702562, -0.219614, -0.0702562, -2.67159E-010, -2.08191E-011
2, 2580.00000, -0.219614, -0.0702562, -0.219614, -0.0702562, -0.219614, -0.0702562, -2.67159E-010, -2.08191E-011
2, 2640.00000, -0.219614, -0.0702562, -0.219614, -0.0702562, -0.219614, -0.0702562, -2.67159E-010, -2.08192E-011
2, 2700.00000, -0.219614, -0.0702562, -0.219614, -0.0702562, -0.219614, -0.0702562, -2.67159E-010, -2.08192E-011
2, 2760.00000, -0.219612, -0.0702577, -0.219617, -0.0702574, -0.219615, -0.070253, -2.70771E-010, -3.12916E-011
2, 2820.00000, -0.219614, -0.0702562, -0.219614, -0.0702562, -0.219614, -0.0702562, -2.71058E-010, -3.19009E-011
2, 2880.00000, -0.219614, -0.0702562, -0.219614, -0.0702562, -0.219614, -0.0702562, -2.71057E-010, -3.18993E-011
2, 2940.00000, -0.219614, -0.0702562, -0.219614, -0.0702562, -0.219614, -0.0702562, -2.71057E-010, -3.18993E-011
2, 3000.00000, -0.219614, -0.0702562, -0.219614, -0.0702562, -0.219614, -0.0702562, -2.71057E-010, -3.18993E-011
2, 3060.00000, -0.255242, -0.08196, -0.21961, -0.0702581, -0.219615, -0.0702612, 8.5829E-010, -1.18422E-008
2, 3120.00000, -0.25524, -0.0819655, -0.219614, -0.0702564, -0.219614, -0.0702562, 8.58076E-010, -1.18406E-008
2, 3180.00000, -0.25524, -0.0819655, -0.219614, -0.0702564, -0.219614, -0.0702562, 8.58077E-010, -1.18406E-008
2, 3240.00000, -0.25524, -0.0819655, -0.219614, -0.0702564, -0.219614, -0.0702562, 8.58077E-010, -1.18406E-008
2, 3300.00000, -0.25524, -0.0819655, -0.219614, -0.0702564, -0.219614, -0.0702562, 8.58077E-010, -1.18406E-008
2, 3360.00000, -0.219613, -0.0702583, -0.290865, -0.0936756, -0.255241, -0.0819626, 1.25082E-008, -2.31731E-008
2, 3420.00000, -0.219614, -0.0702562, -0.290865, -0.0936747, -0.25524, -0.0819658, 1.25063E-008, -2.31686E-008
2, 3480.00000, -0.219614, -0.0702562, -0.290865, -0.0936747, -0.25524, -0.0819658, 1.25063E-008, -2.31686E-008
2, 3540.00000, -0.219614, -0.0702562, -0.290865, -0.0936747, -0.25524, -0.0819658, 1.25063E-008, -2.31686E-008
3, 0.00000, -0.219614, -0.0702562, -0.290865, -0.0936747, -0.25524, -0.0819658, 1.25063E-008, -2.31686E-008
3, 60.00000, -0.230501, -0.0702635, -0.266136, -0.0819644, -0.194859, -0.0585462, 8.97063E-009, -2.68477E-008
